!Created with skrf (http://scikit-rf.org).
# Hz S RI R 50.0 
!freq ReS11 ImS11 ReS21 ImS21 ReS12 ImS12 ReS22 ImS22
300000.0 -0.236410393 -0.1065816022 0.4673169072 0.0703278072 0.4705011448 0.0714134084 -0.23645324 -0.1117515379
5299970.0 -0.2404518852 0.0069231327 0.4753101953 0.0054766924 0.4750468818 0.0056111905 -0.2447411575 0.0053613466
10299940.0 -0.2371852395 0.0201183207 0.4773044216 0.0061528678 0.4769510278 0.0063583803 -0.2415573522 0.0176593813
15299910.0 -0.2330700353 0.0298544578 0.4807647951 0.007694828 0.4805814126 0.0076850901 -0.2372853115 0.0262900082
20299880.0 -0.2273706205 0.0375044286 0.4851654454 0.0082669013 0.4853028942 0.0081347232 -0.2326661668 0.0341006063
25299850.0 -0.2218362469 0.0443973891 0.4905401229 0.0065967112 0.4905299233 0.0068472437 -0.2277305505 0.0399868327
30299820.0 -0.2157647668 0.0495031639 0.4961632357 0.0051717185 0.4958299749 0.0047072196 -0.2226808766 0.045037203
35299790.0 -0.2098253192 0.0538668363 0.5013208015 0.0015659397 0.5013216065 0.0015302402 -0.2173441864 0.0486211996
40299760.0 -0.2045526854 0.0571721826 0.5064376997 -0.0021999985 0.5065517823 -0.0023826241 -0.2126304545 0.0521987711
45299730.0 -0.1994762759 0.0602014317 0.5111215671 -0.0074408849 0.5110958418 -0.0070775889 -0.2079941607 0.0544803996
50299700.0 -0.194487981 0.0619098441 0.5149386033 -0.0128153305 0.5151843629 -0.0128482841 -0.203573078 0.0566039066
55299670.0 -0.1906655668 0.0638769364 0.5181946906 -0.0186307602 0.5188347924 -0.0184042948 -0.1998564027 0.058277607
60299640.0 -0.1865362155 0.0650038155 0.5214933119 -0.0255527316 0.5219560726 -0.0252586203 -0.1962213178 0.0596194421
65299610.0 -0.1832405355 0.066364122 0.5250170143 -0.0308374594 0.5250638527 -0.0309549668 -0.1927100834 0.0605713596
70299580.0 -0.1795234913 0.0670633966 0.5276137771 -0.03776914 0.5271561616 -0.0376158402 -0.1899491008 0.0615789045
75299550.0 -0.1764227202 0.0681537434 0.5289769052 -0.0445287517 0.5295056061 -0.0446089214 -0.1871483752 0.0624084212
80299520.0 -0.1739388887 0.0688534054 0.531611152 -0.0514319903 0.531262355 -0.0515749687 -0.1848264653 0.0628483083
85299490.0 -0.1713089083 0.0694613515 0.5325677472 -0.0586351814 0.5322167436 -0.0584382193 -0.1826820943 0.0637324953
90299460.0 -0.1692660354 0.0702649734 0.5332754046 -0.0651880653 0.5333521131 -0.0653365407 -0.1798783845 0.0644976803
95299430.0 -0.1671777159 0.0710197354 0.5349693939 -0.0726356798 0.5342761796 -0.0721018553 -0.1784528608 0.0650591216
100299400.0 -0.1653251373 0.0716800173 0.5345628346 -0.0792433645 0.5347185338 -0.0794591917 -0.1769291846 0.0657968202
105299370.0 -0.1632643086 0.0724361098 0.5349497128 -0.0858482235 0.535077993 -0.0860456097 -0.1749059213 0.0663026006
110299340.0 -0.1620089651 0.0730814551 0.534812918 -0.0927583152 0.53496441 -0.093033557 -0.173750627 0.0669589203
115299310.0 -0.1603310456 0.0733993034 0.5349996628 -0.0993546155 0.5351964122 -0.0993019062 -0.1719726819 0.0671726159
120299280.0 -0.1592392679 0.0743719423 0.5350007928 -0.1062759221 0.5347364474 -0.1067508377 -0.1711575295 0.0681842562
125299250.0 -0.157894936 0.0751959542 0.5343531735 -0.1129249338 0.5346991999 -0.1129587535 -0.1698072689 0.0683402933
130299220.0 -0.1563510661 0.0760053754 0.5335828977 -0.1196536816 0.5339318364 -0.1199972223 -0.1686386391 0.0696600191
135299190.0 -0.1551290284 0.0767731157 0.5331329467 -0.1262365474 0.5331004831 -0.1264147158 -0.1679782159 0.0702461674
140299160.0 -0.1543623043 0.0781299543 0.5323717013 -0.13320392 0.5325407559 -0.1334488416 -0.1669630824 0.0711793797
145299130.0 -0.15308803 0.078807951 0.5317701734 -0.1397032973 0.5316411845 -0.139437056 -0.1663162071 0.0718013464
150299100.0 -0.152025499 0.0799578494 0.5301350639 -0.1462414025 0.5306930947 -0.1463036434 -0.1653079219 0.0726694039
155299070.0 -0.1511700468 0.081174547 0.5291264329 -0.1532685386 0.5293977596 -0.1528615885 -0.1645902551 0.073479902
160299040.0 -0.1501508736 0.0822177391 0.5277882597 -0.1590631424 0.5281363691 -0.1591805546 -0.1636978524 0.0749893626
165299010.0 -0.1493143228 0.0830215358 0.5265859158 -0.1655609165 0.5267353461 -0.1658267236 -0.1628023704 0.0754494144
170298980.0 -0.1484054797 0.0842820121 0.523967924 -0.1716212196 0.5247586178 -0.1721075299 -0.1616739857 0.0766256438
175298950.0 -0.1474940907 0.0855567405 0.5235325885 -0.1782940563 0.5231965108 -0.1784114769 -0.1608765765 0.0776565748
180298920.0 -0.146262798 0.0865267294 0.5214750594 -0.1844995717 0.5214322479 -0.1844665864 -0.1600673133 0.0789197619
185298890.0 -0.1452308641 0.087692369 0.5195825077 -0.1908603073 0.5198304649 -0.1905617063 -0.1597107467 0.079487554
190298860.0 -0.1442959918 0.0891181124 0.5172945527 -0.1971589265 0.5180112301 -0.1969071906 -0.1584449596 0.0807462914
195298830.0 -0.1435168486 0.0903173614 0.5155956809 -0.202446911 0.5159159818 -0.2032751719 -0.158015291 0.0817191265
200298800.0 -0.1426221694 0.0915959664 0.5140242032 -0.2086287462 0.5133269348 -0.2088453961 -0.156826993 0.0834083383
205298770.0 -0.1417672148 0.0929780375 0.5116563543 -0.2147162996 0.5116773286 -0.2150995603 -0.1562134836 0.0840265551
210298740.0 -0.1408651178 0.0941775894 0.5092373968 -0.2212424009 0.5092639918 -0.2209161486 -0.1556152129 0.0852992932
215298710.0 -0.1397786107 0.0958781013 0.5071330618 -0.2270255705 0.5067080256 -0.2270604652 -0.155333279 0.0868227724
220298680.0 -0.1387282002 0.0968899606 0.5042520742 -0.2329961852 0.5044879726 -0.2327654579 -0.1538634338 0.0880614861
225298650.0 -0.1375296551 0.0983340407 0.501624301 -0.2383908041 0.5017203558 -0.2384607541 -0.1534962565 0.0894243558
230298620.0 -0.1369415694 0.0999105077 0.4996622079 -0.2446839599 0.4996860874 -0.2446783377 -0.152413968 0.0904859976
235298590.0 -0.1357989938 0.1010561323 0.4966248865 -0.2498783844 0.4971685124 -0.250510163 -0.1517236718 0.0915374433
240298560.0 -0.1350456901 0.1024637952 0.4941600878 -0.2552391785 0.4943316579 -0.2557233082 -0.1509677267 0.0931738861
245298530.0 -0.133702669 0.1038053218 0.4904698613 -0.2614184737 0.4912717351 -0.2612900489 -0.1501756861 0.0943811768
250298500.0 -0.1328908836 0.105184622 0.4884441422 -0.267112083 0.4886943669 -0.2665687691 -0.1490566606 0.0956754605
255298470.0 -0.1318816252 0.1065929792 0.485540903 -0.2732171045 0.4858673593 -0.2726462478 -0.1481568648 0.0966058
260298440.0 -0.1308785897 0.1079154944 0.4830405562 -0.2778364909 0.4826872199 -0.2782720613 -0.1470210979 0.0984573561
265298410.0 -0.1295663071 0.1096732965 0.4795718397 -0.2843329821 0.4796980214 -0.2839204332 -0.1466219252 0.0995487874
270298380.0 -0.1282791557 0.1110214075 0.4760799815 -0.2896245899 0.4766574108 -0.2893910828 -0.145488636 0.1011925252
275298350.0 -0.1275045346 0.1124550506 0.4736860724 -0.2949661826 0.473639789 -0.2947591096 -0.1446801572 0.1023756929
280298320.0 -0.1261112733 0.1138831735 0.4702525586 -0.2996110931 0.4700817722 -0.300237205 -0.1434553826 0.1038431441
285298290.0 -0.125093074 0.1153951494 0.4673453501 -0.3053147655 0.4669176533 -0.3056627893 -0.1426364362 0.1050581142
290298260.0 -0.1236341061 0.1166697611 0.4637092387 -0.3106603688 0.4634191401 -0.3107194264 -0.1412127435 0.106629384
295298230.0 -0.1225316223 0.1181168651 0.4605406336 -0.3156344419 0.460242916 -0.3160310877 -0.1401567441 0.1079282932
300298200.0 -0.1206961295 0.1194869066 0.4566301929 -0.3211807109 0.4569964679 -0.3213851629 -0.1395014029 0.1093957969
305298170.0 -0.1195512207 0.1208321505 0.4533451096 -0.327088388 0.4537346542 -0.3266753358 -0.1381522412 0.110774878
310298140.0 -0.1181924608 0.1218940326 0.4502338969 -0.3321412406 0.4502722323 -0.3323953656 -0.1369992864 0.1125273926
315298110.0 -0.1172119194 0.1232823174 0.4463892758 -0.3369470344 0.4464670553 -0.3372998726 -0.1356030483 0.1132212434
320298080.0 -0.1158573642 0.1245925913 0.4424913069 -0.3422477604 0.4428047587 -0.3421161032 -0.1349693678 0.1144029489
325298050.0 -0.1147633171 0.1255201438 0.4390559602 -0.3473601994 0.4388230434 -0.3473959593 -0.1339764078 0.11579807
330298020.0 -0.1135379675 0.1268130257 0.4344625563 -0.3521083557 0.4345561056 -0.3522265789 -0.1329372671 0.1169105592
335297990.0 -0.1122156594 0.1282310241 0.4305836293 -0.3572005599 0.4305569105 -0.3569283683 -0.1321241946 0.1183858711
340297960.0 -0.1112784074 0.1296838735 0.4265682676 -0.3621873696 0.4266155665 -0.3615385377 -0.1313116233 0.1196337962
345297930.0 -0.1101321179 0.1311706882 0.4224505901 -0.3659622918 0.4218914987 -0.3663526768 -0.129738869 0.120992162
350297900.0 -0.1081133908 0.1325123805 0.4178499753 -0.370892278 0.4184286501 -0.3710511946 -0.129205055 0.1229074679
355297870.0 -0.1072031268 0.133790892 0.4140410126 -0.3754110339 0.413877417 -0.3755374461 -0.128145029 0.124391005
360297840.0 -0.1058028038 0.1350178352 0.4099532969 -0.3803757541 0.4098769758 -0.3803426363 -0.1264976565 0.1258551662
365297810.0 -0.1041978293 0.1364582296 0.4056627585 -0.3846787342 0.4058669972 -0.3851803443 -0.1255829142 0.1275659756
370297780.0 -0.1027023302 0.1375080162 0.4014415779 -0.3893298275 0.4014473391 -0.3895315152 -0.1242698298 0.1288264624
375297750.0 -0.1013327886 0.1393719122 0.3977821242 -0.393680107 0.3975417852 -0.3937265458 -0.1230898955 0.1301833155
380297720.0 -0.0994843941 0.1399730986 0.3929876273 -0.397343144 0.392688014 -0.3979789605 -0.1216346841 0.1316393974
385297690.0 -0.0980068384 0.1416050696 0.3881407788 -0.4019982461 0.3885813348 -0.4022041037 -0.1206763144 0.1331282365
390297660.0 -0.0967055643 0.1428277628 0.3838802729 -0.4064240535 0.3839378618 -0.406711175 -0.1191864595 0.1339757329
395297630.0 -0.0949204451 0.1439274548 0.3796546125 -0.4100494177 0.3794593373 -0.4108090854 -0.1178930642 0.1362591625
400297600.0 -0.0934739723 0.1453661054 0.3750973233 -0.415296503 0.3752682113 -0.4149467789 -0.1173331377 0.1370287677
405297570.0 -0.0917826705 0.1463578067 0.3705864472 -0.418903198 0.3704797446 -0.4190626733 -0.1157965677 0.1383728736
410297540.0 -0.0901068859 0.1477637996 0.3652708557 -0.4229563531 0.3655492519 -0.4228601902 -0.1142895082 0.1396355364
415297510.0 -0.0885694494 0.1491653069 0.3608680025 -0.4268840406 0.3614271155 -0.4268474574 -0.1134774451 0.1413885129
420297480.0 -0.0869151565 0.1494938361 0.3563430902 -0.4308493458 0.3562566325 -0.430707327 -0.1116037561 0.1420272816
425297450.0 -0.0849482382 0.1508036226 0.3513382806 -0.4347009263 0.3518404479 -0.4344473186 -0.1100467593 0.1437529775
430297420.0 -0.0837358207 0.1521092929 0.3472372835 -0.4385483255 0.3471506692 -0.4385157318 -0.109131435 0.1447042815
435297390.0 -0.08169052 0.1530308569 0.3420507824 -0.4422876952 0.3421913475 -0.4418642487 -0.1075854451 0.1462540341
440297360.0 -0.0800378893 0.1540896768 0.3372149391 -0.4459380264 0.3368540954 -0.4457951318 -0.1063294779 0.1471483596
445297330.0 -0.078036003 0.154998893 0.3321391468 -0.4502124031 0.3321329863 -0.4496945325 -0.1051064124 0.1483655295
450297300.0 -0.0764016451 0.1560800457 0.3270118744 -0.4534676386 0.3274738851 -0.4532522687 -0.1036451104 0.1499488835
455297270.0 -0.0749085051 0.1572410712 0.3223675761 -0.456869573 0.3228066929 -0.4568372974 -0.1018243125 0.151247157
460297240.0 -0.0732980328 0.1580155856 0.3172534781 -0.4598298593 0.3170270868 -0.4602392949 -0.1005356245 0.1526984993
465297210.0 -0.0710776759 0.1588725156 0.3123583557 -0.4637052293 0.3127091759 -0.4634993091 -0.0994208566 0.1532732736
470297180.0 -0.0695111273 0.1598782734 0.3074503997 -0.4667486814 0.3076012268 -0.4668347761 -0.0983092454 0.154358596
475297150.0 -0.0680485353 0.160310732 0.3017501688 -0.4697815761 0.3023739074 -0.4698438045 -0.0963051928 0.1558161379
480297120.0 -0.0659244609 0.1612849249 0.2966122475 -0.4735397454 0.2972293838 -0.4732449714 -0.0950927644 0.1574010949
485297090.0 -0.0638056381 0.1621242958 0.2919027956 -0.4765293881 0.2916477986 -0.4768207374 -0.0936971557 0.1579121489
490297060.0 -0.0620850562 0.1629468398 0.2862709267 -0.4799944679 0.2865614535 -0.479747091 -0.0920903304 0.1591293675
495297030.0 -0.0605662629 0.1643583332 0.2814394564 -0.4830118989 0.2808579591 -0.482595459 -0.0905068455 0.1599997549
500297000.0 -0.0586087738 0.1648109214 0.2760641308 -0.4861576429 0.2762056305 -0.4858356321 -0.0893115307 0.1611331603
505296970.0 -0.0571178592 0.1653815075 0.2706205896 -0.4887607612 0.2706810244 -0.4883819463 -0.0882973091 0.1623712574
510296940.0 -0.0551269085 0.1663959263 0.2652569647 -0.4920937303 0.2655751407 -0.4916763381 -0.0857453678 0.163461447
515296910.0 -0.0531855287 0.1671209371 0.2597538741 -0.49389309 0.2598115455 -0.4943267977 -0.0847253269 0.1643973917
520296880.0 -0.0512471423 0.1676665212 0.2546545231 -0.4972705473 0.2547928874 -0.4972443247 -0.082786822 0.1654521777
525296850.0 -0.0494569003 0.1681100182 0.2493267496 -0.500062791 0.2491644753 -0.499816138 -0.0811698013 0.1665964611
530296820.0 -0.0474917454 0.1690004094 0.2440138276 -0.5023097305 0.2436693102 -0.5022478112 -0.0801085424 0.1672644907
535296790.0 -0.0456724135 0.1697853259 0.2381282166 -0.5049061882 0.238515286 -0.5047817083 -0.0784074332 0.1680308956
540296760.0 -0.0438821217 0.1700511448 0.2329114918 -0.5078977729 0.2323483365 -0.5078006774 -0.0771053911 0.169306251
545296730.0 -0.0419610418 0.1711568772 0.227255408 -0.510029962 0.2270006919 -0.5103176656 -0.0754170165 0.1697734353
550296700.0 -0.0400960188 0.1715480715 0.2217837784 -0.5125483413 0.2223575963 -0.5127845232 -0.0739029132 0.1710748099
555296670.0 -0.0376607595 0.1719371391 0.2159249937 -0.5149104676 0.216022632 -0.5146673099 -0.0722433867 0.1721248874
560296640.0 -0.0359265434 0.1724753268 0.2106801248 -0.5168924593 0.2109396447 -0.5170395591 -0.0705515918 0.1729641711
565296610.0 -0.0344514174 0.1729823488 0.2050596693 -0.5193735096 0.2044795509 -0.5192549766 -0.0692035047 0.1736369669
570296580.0 -0.0320944486 0.1734443584 0.1994185673 -0.521197559 0.1995673785 -0.5214638354 -0.0673174293 0.1751323037
575296550.0 -0.0303215168 0.174463931 0.1934324173 -0.5235350631 0.1938467232 -0.5233157419 -0.0654750589 0.1752488847
580296520.0 -0.0284124543 0.1744885557 0.1883301439 -0.5253443075 0.1879533601 -0.5257870154 -0.064171953 0.1758694898
585296490.0 -0.0264608204 0.174769359 0.1822887112 -0.5274317667 0.1821822804 -0.5272511143 -0.0625040805 0.1767082087
590296460.0 -0.0250306388 0.1750322219 0.1767577552 -0.5292165485 0.1767345102 -0.5295625093 -0.0607149854 0.1776264628
595296430.0 -0.0226338661 0.1759919504 0.1708217712 -0.5315368258 0.1705485394 -0.531472489 -0.0591054217 0.1782639991
600296400.0 -0.0207594171 0.1763441394 0.16498807 -0.5334205664 0.1653528075 -0.5330874036 -0.0570823506 0.1789390682
605296370.0 -0.0186597265 0.1767989701 0.1590883698 -0.5349260527 0.1593087439 -0.5349279856 -0.0556952048 0.1797744587
610296340.0 -0.016996702 0.176875615 0.1539558496 -0.5364260277 0.1536914524 -0.5364776151 -0.0539702886 0.1806515839
615296310.0 -0.0151407655 0.1775716795 0.1477773117 -0.5376841548 0.1478228483 -0.53825842 -0.0522016883 0.1810130104
620296280.0 -0.0128258289 0.177619209 0.1417296626 -0.5393680072 0.1420016194 -0.5397652123 -0.0505737384 0.181585281
625296250.0 -0.0107629126 0.1778183506 0.1357503007 -0.5408756265 0.1358675269 -0.5414215899 -0.048678403 0.1824837444
630296220.0 -0.0088763399 0.1781576835 0.1299061821 -0.5427111422 0.1303853937 -0.542777881 -0.0473856241 0.1834311453
635296190.0 -0.0068569716 0.1784522481 0.1241896973 -0.5432544916 0.1241429329 -0.5432836867 -0.0454515999 0.1833683357
640296160.0 -0.0050230892 0.1785426629 0.1184621014 -0.5450864527 0.1183351737 -0.5452385515 -0.0431219034 0.1841463117
645296130.0 -0.0031063609 0.1791077737 0.1125757749 -0.5461661188 0.1126166974 -0.5464173932 -0.0421944884 0.1846976718
650296100.0 -0.0012120169 0.1795754379 0.107176928 -0.5473273802 0.1066723963 -0.5471783999 -0.0403370778 0.1854526095
655296070.0 0.0008471308 0.1791958725 0.1003361077 -0.5484651561 0.1007378163 -0.5484743138 -0.0379701933 0.1861178986
660296040.0 0.0027185064 0.1796000229 0.0950048686 -0.5489038247 0.0951519778 -0.549532156 -0.0365279707 0.1863174352
665296010.0 0.0049818684 0.1794976572 0.0889282957 -0.5504021177 0.0894284731 -0.5505485883 -0.0351130711 0.1869921344
670295980.0 0.0075287315 0.179733072 0.0831019718 -0.5516780542 0.0829622432 -0.551260716 -0.0334909994 0.1871627741
675295950.0 0.0093647437 0.1796460384 0.0768169402 -0.552435659 0.0774196678 -0.5526741616 -0.0309921249 0.1877291321
680295920.0 0.0111168049 0.180183333 0.0707556154 -0.5532848561 0.0710177893 -0.5531154829 -0.029298181 0.188168537
685295890.0 0.0130598026 0.1799329732 0.065470789 -0.55384355 0.0650063936 -0.5540161086 -0.0278156804 0.1888570191
690295860.0 0.0153436025 0.1800127289 0.0592745538 -0.5539286075 0.0587746306 -0.5539447632 -0.0255301764 0.1891459272
695295830.0 0.0175269068 0.1797315605 0.0523494752 -0.5547514659 0.0526889067 -0.5549939716 -0.0243834893 0.1897340024
700295800.0 0.0194005854 0.1798678962 0.0469106051 -0.5553684574 0.0468447934 -0.5557031433 -0.0222522293 0.1894243247
705295770.0 0.0214679982 0.1799679466 0.0408884439 -0.5559186131 0.0410929313 -0.555797198 -0.0207794532 0.1901242321
710295740.0 0.0235237256 0.1798563979 0.0350421261 -0.5564320632 0.0348327683 -0.5560212775 -0.0192887867 0.1908578766
715295710.0 0.0252442997 0.1796555455 0.0292090977 -0.5568255145 0.0295181869 -0.5563860116 -0.0171078149 0.1903600065
720295680.0 0.0270933232 0.1793277858 0.0232689181 -0.5564972453 0.0229912704 -0.5572484083 -0.0149084794 0.1914596597
725295650.0 0.0296188901 0.1792867323 0.0166459498 -0.5567857328 0.0169937543 -0.5565960485 -0.0130987177 0.1916605892
730295620.0 0.0312687694 0.1789185366 0.0107092199 -0.5570703495 0.0109525835 -0.5571063966 -0.0110033102 0.19118974
735295590.0 0.0338746545 0.1787512563 0.0054678094 -0.5569288148 0.0051834585 -0.557203641 -0.0091126682 0.1919516081
740295560.0 0.0354306248 0.1788664656 -0.0009388159 -0.5570714572 -0.0009698814 -0.5570687442 -0.0074438859 0.1918312551
745295530.0 0.0376452707 0.178182528 -0.0074510514 -0.5566803281 -0.0069682097 -0.5571403916 -0.0059186845 0.1925501126
750295500.0 0.0395445653 0.1780957079 -0.0125505379 -0.5567141605 -0.0128714971 -0.5565314348 -0.0037395078 0.191945901
755295470.0 0.0418044343 0.1781152678 -0.0191278279 -0.5567181516 -0.0187091345 -0.5568462105 -0.0023549018 0.1925924757
760295440.0 0.0433322976 0.1778773374 -0.0252800437 -0.5561565733 -0.0250023332 -0.5564873169 -0.0008077582 0.1928076787
765295410.0 0.0453957319 0.1770242063 -0.0305932891 -0.5556381423 -0.0306668844 -0.5562225386 0.0019562912 0.193125093
770295380.0 0.0476105172 0.1769861143 -0.0370204377 -0.5551210113 -0.0367907763 -0.5558028493 0.0037398407 0.1934855362
775295350.0 0.0494321719 0.1767308122 -0.0428051893 -0.5549591774 -0.042460081 -0.5552944725 0.0050549186 0.1927931129
780295320.0 0.0516035877 0.1760668626 -0.0487927974 -0.5547196496 -0.0484193472 -0.5547268765 0.0071453778 0.1934634199
785295290.0 0.0532953442 0.1761807289 -0.0547062339 -0.5537110297 -0.0544156196 -0.5543060191 0.0085353204 0.193413111
790295260.0 0.0551997502 0.1753994805 -0.0604232741 -0.553653021 -0.0605003028 -0.5539183056 0.0108986731 0.1936403214
795295230.0 0.0572013228 0.1751918701 -0.0663610617 -0.5524121157 -0.0665207095 -0.5528222717 0.0127866987 0.1942356939
800295200.0 0.0595518275 0.1743673872 -0.0727732864 -0.5522667757 -0.0726721462 -0.5519998466 0.014809026 0.1936546376
805295170.0 0.0610550706 0.1739521654 -0.0784063687 -0.5506737956 -0.07850978 -0.55118847 0.0163727349 0.1935139624
810295140.0 0.0632026215 0.1733326841 -0.0839801036 -0.5501931662 -0.0842169206 -0.5508146941 0.0183722168 0.1940268956
815295110.0 0.0650739145 0.1727752281 -0.090813023 -0.5487676975 -0.090689104 -0.5493461371 0.0200711041 0.1935243804
820295080.0 0.0669150522 0.1718721814 -0.0958422385 -0.5479297323 -0.0960818802 -0.5485999293 0.0216419186 0.1934188465
825295050.0 0.0691912953 0.1713993272 -0.1019862111 -0.5465055209 -0.102095068 -0.5472585887 0.0242673338 0.1934964943
830295020.0 0.0709717714 0.1713084095 -0.1081461871 -0.5456577297 -0.1084940802 -0.5462113946 0.0259262923 0.1933661063
