!Created with skrf (http://scikit-rf.org).
# Hz S RI R 50.0 
!freq ReS11 ImS11 ReS21 ImS21 ReS12 ImS12 ReS22 ImS22
300000.0 -0.2348066835 -0.1244253881 0.4653216819 0.0815372411 0.4651004521 0.0809324494 -0.2339835206 -0.1277627346
5299970.0 -0.2449019883 0.0050224596 0.4735650961 0.0061331872 0.4742524982 0.0059594122 -0.2435366095 0.0047610244
10299940.0 -0.2417612248 0.0182375224 0.4759826524 0.0067973204 0.4758726982 0.0075564918 -0.240118324 0.0178146194
15299910.0 -0.2368565317 0.0281073216 0.4792759078 0.0085569601 0.4794739166 0.0083335629 -0.2358789484 0.0275054939
20299880.0 -0.2316742626 0.0362264375 0.4840943864 0.0085411445 0.4844199174 0.0088474427 -0.2310607904 0.0350692005
25299850.0 -0.2257821184 0.0428449526 0.4895301405 0.008052878 0.4899333116 0.0077660431 -0.2259024628 0.0417369701
30299820.0 -0.2203040862 0.0477138625 0.4950436472 0.0056598105 0.4955389153 0.0053976552 -0.2206845725 0.0468835993
35299790.0 -0.2144105547 0.0517641733 0.5001817885 0.0023481183 0.5005129498 0.0023171917 -0.2156846664 0.0515969804
40299760.0 -0.2093665951 0.054590409 0.5056521663 -0.0012863479 0.5058408268 -0.0018516411 -0.2105515869 0.0547712681
45299730.0 -0.2040042433 0.0571310855 0.5104243722 -0.0062155811 0.5103499014 -0.0064355007 -0.2055481081 0.0576895868
50299700.0 -0.198958537 0.0590962008 0.5145200765 -0.0119463936 0.5145383723 -0.0121282737 -0.2012066258 0.0601273528
55299670.0 -0.1948285806 0.0604963725 0.5184479063 -0.017502589 0.5183191064 -0.0177318313 -0.1974755385 0.061844143
60299640.0 -0.1908732812 0.0618143356 0.521232425 -0.023935573 0.5217991295 -0.0240234037 -0.1932494445 0.0633046219
65299610.0 -0.1872382505 0.0629022329 0.5250215909 -0.0304392835 0.5251826077 -0.0303319298 -0.1901460222 0.0647886943
70299580.0 -0.1840501576 0.0630677927 0.5273479897 -0.0366494256 0.5273316623 -0.0370471556 -0.1871850321 0.0658615418
75299550.0 -0.1810119401 0.0640051629 0.5289219049 -0.0443291805 0.5293807769 -0.0438911449 -0.1838887406 0.067124237
80299520.0 -0.1785078567 0.0646145385 0.5311938353 -0.0506418002 0.5309822835 -0.0507799465 -0.1812179097 0.067972733
85299490.0 -0.1756428239 0.0650429527 0.532196643 -0.057728333 0.5327411781 -0.0578332682 -0.1792000284 0.0688295662
90299460.0 -0.1737245609 0.0653066041 0.5332360829 -0.0645049241 0.5334539965 -0.0646316501 -0.1769468806 0.0700945175
95299430.0 -0.1713900225 0.0656699639 0.5341611585 -0.0715586302 0.5344019662 -0.0718361834 -0.1750556039 0.0705416984
100299400.0 -0.1694342442 0.0663787559 0.5343419987 -0.0782891209 0.5348185897 -0.0786202137 -0.1728342341 0.0718675916
105299370.0 -0.167646631 0.0664629833 0.5344945328 -0.0849342077 0.5356677041 -0.0850949549 -0.1707460618 0.0722276401
110299340.0 -0.1658765063 0.0670693664 0.5351719553 -0.0917612303 0.535644358 -0.0920104817 -0.1698653712 0.0731078044
115299310.0 -0.1644571203 0.0676952978 0.5349917589 -0.0986924711 0.534949656 -0.0986606891 -0.1681716837 0.0743478851
120299280.0 -0.1632056404 0.0683306617 0.5351068588 -0.106216305 0.5349793677 -0.1061799648 -0.1667232514 0.0747202781
125299250.0 -0.1618399688 0.0688911606 0.5346792745 -0.112864004 0.5345878225 -0.1125419055 -0.1651300051 0.0762111706
130299220.0 -0.1607959599 0.0691702241 0.534230831 -0.1192273224 0.5342933902 -0.1198244224 -0.1638134865 0.0772598221
135299190.0 -0.1595928492 0.0701094857 0.5334463188 -0.1254308808 0.5335220673 -0.1259828531 -0.1626142746 0.0777108501
140299160.0 -0.1585054404 0.0710131256 0.5326006501 -0.1329580123 0.5323813959 -0.1326490623 -0.1621204322 0.0785384675
145299130.0 -0.1575602003 0.0719319054 0.5313398909 -0.1394670076 0.5315888778 -0.1392501091 -0.1606462078 0.0800351157
150299100.0 -0.1565386583 0.0726283596 0.5303717483 -0.1460599348 0.5304910977 -0.1458297465 -0.1600213449 0.0812590218
155299070.0 -0.1557448726 0.0734092265 0.5291564784 -0.1523215397 0.5295123962 -0.1524599 -0.1587901425 0.0820074753
160299040.0 -0.1547281392 0.0743702299 0.5280732071 -0.1586585973 0.5281336378 -0.1589020477 -0.1575950794 0.0834500278
165299010.0 -0.154014299 0.0753962109 0.5266655665 -0.1651661399 0.5263746883 -0.1652842432 -0.1565515125 0.0845820578
170298980.0 -0.1530284931 0.0764408469 0.5252414629 -0.1715338334 0.5252665605 -0.1715003149 -0.1561514755 0.08555407
175298950.0 -0.1520299568 0.0773525523 0.523582649 -0.1777687725 0.5238900203 -0.1782097611 -0.1547872723 0.0875326489
180298920.0 -0.1517604311 0.0784914367 0.5217738303 -0.1842265468 0.5217914593 -0.1843689451 -0.1538794105 0.0883571276
185298890.0 -0.1507404023 0.079459913 0.519857395 -0.1906026805 0.5196961505 -0.1904763649 -0.1527190079 0.0897435645
190298860.0 -0.1495469398 0.0805448531 0.5172712223 -0.1961252287 0.5178579452 -0.1962808713 -0.1520256418 0.0908654722
195298830.0 -0.1490255921 0.0816702715 0.516472956 -0.2027785009 0.5162006716 -0.2024412403 -0.1514243728 0.0924488903
200298800.0 -0.1480677968 0.0827749522 0.5141818468 -0.20928891 0.5140925963 -0.208971053 -0.1500162634 0.0936578842
205298770.0 -0.1479580273 0.0840149225 0.5116186634 -0.2148042199 0.5121808577 -0.2145594692 -0.1490603117 0.0953639753
210298740.0 -0.1471109372 0.0855308952 0.509684302 -0.2208770557 0.5091526896 -0.2212362882 -0.148236933 0.096517628
215298710.0 -0.1461308402 0.0865487156 0.506914758 -0.2264554192 0.5071870545 -0.2268370572 -0.1472726569 0.0977849016
220298680.0 -0.144984555 0.0879428484 0.504308399 -0.2326262128 0.504598169 -0.232708972 -0.1463743124 0.0990962084
225298650.0 -0.1446782023 0.0891101884 0.5018025476 -0.2384236252 0.5022974102 -0.2383190045 -0.1452538221 0.1006662548
230298620.0 -0.143853317 0.0905615428 0.4995512307 -0.2444072126 0.4997948769 -0.2443871116 -0.1443701255 0.1016853953
235298590.0 -0.1432974208 0.0917930677 0.4972333469 -0.2504260051 0.4971803831 -0.2499693667 -0.1435324942 0.1035430179
240298560.0 -0.1422213429 0.0931495297 0.49434901 -0.2556372961 0.4941681282 -0.2554439593 -0.1424387567 0.104266509
245298530.0 -0.1415150338 0.0943247146 0.4913476569 -0.2617162676 0.4915219857 -0.2618867353 -0.1411862421 0.1062222391
250298500.0 -0.1407607384 0.0954932683 0.488617282 -0.2670542679 0.4886515088 -0.2670584706 -0.1405515535 0.1079464305
255298470.0 -0.1399769251 0.0971832089 0.4862773095 -0.272096851 0.486595722 -0.2728418666 -0.1394052959 0.1094874984
260298440.0 -0.1390419841 0.0982153222 0.483118857 -0.2776778908 0.4829788006 -0.2778508745 -0.1382351811 0.1104249405
265298410.0 -0.1381818011 0.0994575456 0.4799117266 -0.2835329378 0.4797123958 -0.2840362925 -0.1367328722 0.1117065294
270298380.0 -0.1377517543 0.1008926939 0.4764912232 -0.2891984044 0.4770854741 -0.2890265006 -0.1356662807 0.1137864904
275298350.0 -0.1367984228 0.1024582889 0.4733625819 -0.2942686212 0.473545968 -0.2943059463 -0.1347518295 0.1149588021
280298320.0 -0.1360405804 0.1036084987 0.4703555949 -0.2994978442 0.4709961241 -0.2998919289 -0.1335567578 0.1166254906
285298290.0 -0.1349683909 0.1051188653 0.4669753002 -0.3051262688 0.4676736574 -0.3049518352 -0.1323616189 0.1179659802
290298260.0 -0.1343191323 0.1064945631 0.4645806167 -0.3102777924 0.4640711482 -0.3104822387 -0.1308546101 0.1195805238
295298230.0 -0.1334580194 0.1075787262 0.4605549483 -0.31601494 0.4609071198 -0.3160304709 -0.1301819991 0.1207163967
300298200.0 -0.1324939342 0.1089392172 0.457584858 -0.3209729569 0.4570315868 -0.3211271368 -0.1283933015 0.1221198538
305298170.0 -0.1314731785 0.1100104916 0.4537796467 -0.3264049237 0.4542621807 -0.3263551114 -0.1271581088 0.1232162296
310298140.0 -0.1303361944 0.1111527445 0.4501133674 -0.3310222081 0.4506359973 -0.3312071665 -0.1256870222 0.1248372131
315298110.0 -0.1296957279 0.1121739376 0.446887309 -0.336841006 0.4466072143 -0.3369275215 -0.1249598702 0.1258675246
320298080.0 -0.1285630546 0.1135225113 0.4426480584 -0.3419464838 0.4433992142 -0.3422299684 -0.1236114025 0.127265094
325298050.0 -0.1282423631 0.1143515384 0.438900848 -0.3466546039 0.4394829944 -0.3470914345 -0.1220870851 0.1285972636
330298020.0 -0.1275778425 0.1161929528 0.4352900947 -0.3520957572 0.4358997983 -0.3520902627 -0.1211469437 0.1302135715
335297990.0 -0.1265105194 0.117192357 0.4311633419 -0.3562240472 0.4312946698 -0.3567772468 -0.1201356272 0.1311508725
340297960.0 -0.1257648146 0.1186452711 0.4265737354 -0.3614648289 0.4270441899 -0.3615989271 -0.1187687733 0.1326656045
345297930.0 -0.1248784315 0.119738402 0.4228783158 -0.3661823454 0.4230071317 -0.3664103512 -0.1170718843 0.1338564775
350297900.0 -0.1240289739 0.1211236239 0.4189486602 -0.3703922099 0.4192044015 -0.3707590246 -0.1161491675 0.1352830741
355297870.0 -0.123168829 0.1225137797 0.4151743461 -0.3750062698 0.4149219306 -0.3751013992 -0.1142875956 0.1368961457
360297840.0 -0.1221409086 0.1239500484 0.4103815731 -0.3802044235 0.4105497545 -0.3804727313 -0.1133117919 0.1384613024
365297810.0 -0.1212471775 0.1254523819 0.4065805709 -0.3846278926 0.4060701938 -0.3844950364 -0.1121853845 0.1394596678
370297780.0 -0.1199014157 0.1265341242 0.4016913717 -0.389160156 0.4021047412 -0.3889461628 -0.110454205 0.1407620667
375297750.0 -0.1188791513 0.1278907744 0.3979005984 -0.3932493465 0.3978987068 -0.393233377 -0.108863712 0.1423496638
380297720.0 -0.1182359038 0.1290678711 0.3938481962 -0.3978278675 0.3937012493 -0.3978279545 -0.1077136986 0.1438783215
385297690.0 -0.1169707657 0.1302276012 0.3891579912 -0.4020965233 0.3891817801 -0.402489132 -0.1056933476 0.1450842469
390297660.0 -0.1153713313 0.1313138662 0.3847665656 -0.4061754446 0.3848969251 -0.4061089065 -0.1040483379 0.1463398326
395297630.0 -0.1143842351 0.1325212652 0.3804922778 -0.4099035942 0.3802038259 -0.4103697769 -0.1027180094 0.1474691123
400297600.0 -0.1136688884 0.1341062611 0.3762511498 -0.4147703091 0.3763753614 -0.4148848894 -0.1012579646 0.1491250438
405297570.0 -0.1124109872 0.134719415 0.3711736758 -0.4182845962 0.3714613383 -0.4187029462 -0.0993371916 0.150220918
410297540.0 -0.1109659221 0.1364499598 0.3668083916 -0.4228448433 0.3670026143 -0.422673318 -0.0980888307 0.1516119408
415297510.0 -0.110228978 0.1375357179 0.3622245937 -0.4267436468 0.3624718607 -0.4270012117 -0.0961806131 0.1528481039
420297480.0 -0.1086959386 0.1384407462 0.3573731395 -0.4308143304 0.3576476832 -0.4308581205 -0.0940933183 0.1543805644
425297450.0 -0.1072342707 0.1396466462 0.3531387755 -0.4342734408 0.3527516244 -0.4345225659 -0.0928518291 0.1548611045
430297420.0 -0.1062110931 0.1406940437 0.3480610012 -0.438461376 0.3481483062 -0.4382920651 -0.0907541727 0.1564137235
435297390.0 -0.1046552209 0.1417773477 0.343048743 -0.4429480364 0.3431420996 -0.4422393039 -0.0898098775 0.1578857334
440297360.0 -0.1034816902 0.1428953644 0.3381449748 -0.4459674391 0.3383199755 -0.4459286798 -0.0876496723 0.1585787059
445297330.0 -0.1019119191 0.143502325 0.3334201131 -0.4490197151 0.3332730083 -0.4497009174 -0.0857708581 0.1600604552
450297300.0 -0.1006485972 0.1446544605 0.3284384165 -0.4528933894 0.328606198 -0.4530910015 -0.0839070135 0.1610438316
455297270.0 -0.0996056743 0.1458567046 0.3235101951 -0.4565946738 0.3238387105 -0.4568177733 -0.0822624287 0.1619056566
460297240.0 -0.0977678565 0.1469446162 0.3186384546 -0.4607614441 0.3184231813 -0.4602987664 -0.0805940479 0.1629726176
465297210.0 -0.0964554734 0.1479843486 0.3132043417 -0.4637942125 0.3132064938 -0.4640223898 -0.0787143248 0.1647646537
470297180.0 -0.094963051 0.1486776557 0.3080592026 -0.4667264286 0.3086669979 -0.4671419186 -0.0766582353 0.165288792
475297150.0 -0.0937519783 0.1502192597 0.3030221243 -0.4705058127 0.3035012441 -0.4703891104 -0.0750967479 0.1662225408
480297120.0 -0.091870698 0.1512451007 0.2978971153 -0.4739606673 0.2980557383 -0.4736131536 -0.0733804149 0.1671953807
485297090.0 -0.0905946469 0.1518843609 0.2926411336 -0.4769090091 0.2927974312 -0.4770596031 -0.0714824902 0.1683088407
490297060.0 -0.0885555505 0.1527821106 0.2870667282 -0.4799090003 0.2874486281 -0.4803110556 -0.0692814442 0.1690399553
495297030.0 -0.0876615226 0.1536222165 0.2826929168 -0.4829766523 0.2823371918 -0.4833418806 -0.0671672639 0.169665229
500297000.0 -0.0862056168 0.1548255641 0.2767484621 -0.4860071268 0.2770407083 -0.4863900974 -0.0654930362 0.1710702783
505296970.0 -0.0840174098 0.155727436 0.2714365129 -0.4890982125 0.2721421354 -0.4889162827 -0.0636126861 0.1714676875
510296940.0 -0.0828793152 0.1568255702 0.2667099642 -0.4929757545 0.2667502966 -0.4926653095 -0.0615444484 0.1728400895
515296910.0 -0.0809283428 0.1579737844 0.2605522928 -0.4950647127 0.2604971759 -0.4948895863 -0.0595515584 0.1730533016
520296880.0 -0.0796875246 0.158805627 0.2557136943 -0.4976428497 0.2551569561 -0.4975337321 -0.0574165093 0.1743821045
525296850.0 -0.0779688667 0.1596113935 0.2497418598 -0.5004539078 0.2496273329 -0.5005897834 -0.0555822617 0.1748604021
530296820.0 -0.076562542 0.1602889823 0.244436814 -0.5029372079 0.2440694551 -0.5031154726 -0.053408526 0.1751992083
535296790.0 -0.074291431 0.1613671372 0.2388196219 -0.5056258891 0.2395265862 -0.5058800469 -0.0517152149 0.1764037711
540296760.0 -0.0728437146 0.1626037005 0.2331631617 -0.5083981313 0.2335097459 -0.5081133067 -0.0496858517 0.176716846
545296730.0 -0.0719078062 0.1631344818 0.2281682905 -0.510674055 0.2276312686 -0.5105655895 -0.0472899097 0.1775677928
550296700.0 -0.0694498468 0.1637224466 0.2221578115 -0.5132074097 0.2217898572 -0.5136744592 -0.0454491894 0.1784108421
555296670.0 -0.0680056841 0.1647863544 0.2166308636 -0.5156797747 0.2167240015 -0.5155030249 -0.0435574544 0.1785493141
560296640.0 -0.0660199643 0.1654438482 0.2109396058 -0.5181493197 0.2112661434 -0.51804442 -0.0417472952 0.1797276484
565296610.0 -0.0649837365 0.1665674399 0.2060276037 -0.5203609478 0.2056634838 -0.519632074 -0.0396185333 0.1801280479
570296580.0 -0.0628792736 0.1675965474 0.1999323793 -0.5220568032 0.2002271614 -0.5221833951 -0.0380068757 0.1804657959
575296550.0 -0.0609489193 0.1679254791 0.1941505731 -0.5240560757 0.1940278082 -0.5243557513 -0.0355789208 0.1809121947
580296520.0 -0.059335182 0.1690210812 0.1885765606 -0.5264966389 0.1883699884 -0.5265554342 -0.0336696078 0.181312094
585296490.0 -0.0576166834 0.1696913431 0.1832876427 -0.5286416397 0.1823214792 -0.5283533585 -0.031325438 0.1823491637
590296460.0 -0.055338179 0.1705815811 0.1768658301 -0.5303452552 0.1771055146 -0.5307800776 -0.0299124363 0.1827508067
595296430.0 -0.0541251525 0.171085006 0.1708531426 -0.5320699226 0.1707859829 -0.532265715 -0.0274107821 0.1830737311
600296400.0 -0.0520269143 0.1721758452 0.1648220226 -0.5339859215 0.1650081178 -0.5336469022 -0.0253541875 0.1831091457
605296370.0 -0.0507876113 0.1728220067 0.1599891838 -0.535583444 0.1593088291 -0.5356910201 -0.0232963365 0.1840648779
610296340.0 -0.0486729163 0.1735685788 0.153813511 -0.5368250365 0.1538437605 -0.5371124093 -0.0214596595 0.1846549212
615296310.0 -0.046694782 0.1740440953 0.147739869 -0.5391301677 0.1474072081 -0.5389811489 -0.0192268135 0.1847367031
620296280.0 -0.045394038 0.1753217004 0.1418395749 -0.5404106837 0.1413922582 -0.5404426562 -0.017193614 0.1854257606
625296250.0 -0.0437946235 0.1754594935 0.1361692728 -0.5420858942 0.1359878547 -0.5420348201 -0.0154396409 0.1852376851
630296220.0 -0.0418397701 0.1763227161 0.1298898876 -0.5436314458 0.1297858625 -0.5432991802 -0.0128837624 0.185740221
635296190.0 -0.0399719859 0.1773104533 0.1242886653 -0.5446196494 0.1242272524 -0.5444996481 -0.0109865545 0.1858652367
640296160.0 -0.0384605996 0.1779151369 0.1185040316 -0.5462330942 0.1179718671 -0.5463696833 -0.0092070628 0.1861421612
645296130.0 -0.0362288623 0.1787661087 0.1124974608 -0.5474182366 0.1122324533 -0.5467062149 -0.0072662925 0.185955511
650296100.0 -0.0346924619 0.1790945684 0.1065943681 -0.5487553764 0.1062208906 -0.5484309951 -0.0043336445 0.1866079369
655296070.0 -0.0329874595 0.179625765 0.1003140077 -0.5495049368 0.1003131701 -0.5493361305 -0.0028839276 0.1870673703
660296040.0 -0.0313726525 0.1803260889 0.0950529384 -0.5506647887 0.0944549973 -0.5505809298 -0.0007369013 0.1868874511
665296010.0 -0.0294586439 0.1809646252 0.0882561055 -0.551303772 0.0885477167 -0.5511137218 0.0013906684 0.1870998643
670295980.0 -0.0275349532 0.1816554541 0.0824247043 -0.5527403785 0.0824344834 -0.5518545766 0.002835297 0.1870806594
675295950.0 -0.0258375759 0.1818799246 0.0764869803 -0.5529459612 0.07659119 -0.5530802238 0.0050463071 0.1873256833
680295920.0 -0.0243737542 0.1826183944 0.0710824146 -0.5536254368 0.0706137435 -0.5533301876 0.0077235603 0.1870960191
685295890.0 -0.0223119718 0.18310921 0.0643369689 -0.5543096548 0.0646733412 -0.554704966 0.0097329801 0.1877032009
690295860.0 -0.0206018894 0.1836179486 0.0584071293 -0.5551991367 0.0581151159 -0.5551327941 0.0119594747 0.1876925358
695295830.0 -0.0187422968 0.1837284738 0.0529926491 -0.5555643519 0.0529080759 -0.5555440842 0.0133962933 0.1878694057
700295800.0 -0.01693985 0.1846770561 0.0471988061 -0.5561677214 0.0466995008 -0.5562319779 0.0157293487 0.1875909565
705295770.0 -0.0155209726 0.1846821772 0.0407509855 -0.5568482395 0.0409255516 -0.556743121 0.0178065211 0.1879495252
710295740.0 -0.0136402184 0.1851487895 0.0352352209 -0.5573180542 0.0345720952 -0.557375319 0.0201062838 0.1877243775
715295710.0 -0.0117269957 0.1858691204 0.0291777069 -0.5575753613 0.0287083509 -0.5573097931 0.0218719486 0.1874931209
720295680.0 -0.0097182189 0.1858718847 0.0225547721 -0.5573539495 0.0226349795 -0.557808426 0.0239550175 0.187284319
725295650.0 -0.0085825537 0.1865630916 0.0173504635 -0.557652764 0.0166713708 -0.5580978751 0.0258229639 0.1875092981
730295620.0 -0.0072154493 0.1868420808 0.0107603141 -0.5577571459 0.0109615095 -0.5576117858 0.027909947 0.1875094595
735295590.0 -0.0048100256 0.1870680111 0.0046905327 -0.5578775436 0.0046042576 -0.5579738144 0.0300134849 0.1869544531
740295560.0 -0.0033556286 0.1871824766 -0.0012621654 -0.5579744183 -0.0010717217 -0.5581408299 0.0321741759 0.1870852278
745295530.0 -0.0017778437 0.1874438974 -0.006574495 -0.5575279288 -0.0065124898 -0.5577458121 0.0336161362 0.1865678781
750295500.0 -0.0003973758 0.1880447915 -0.0127273985 -0.5577113697 -0.0131468984 -0.5576296367 0.0358821103 0.1865521488
755295470.0 0.0016493933 0.1883446386 -0.0186420046 -0.5575990989 -0.0190196979 -0.5579949401 0.0381853483 0.1867315786
760295440.0 0.0033698339 0.1888135032 -0.0253360463 -0.557142582 -0.0254032088 -0.5569008738 0.0403353415 0.1854488468
765295410.0 0.0054231166 0.1887310156 -0.031145251 -0.5568743872 -0.0309874426 -0.5568312711 0.0423484244 0.1856349223
770295380.0 0.0068228799 0.1889921059 -0.0366137877 -0.5560637086 -0.0370314135 -0.5567674646 0.0441126241 0.1855654098
775295350.0 0.008672398 0.1892207372 -0.0430150256 -0.5563616772 -0.0430625438 -0.5559802715 0.0463916387 0.1851444419
780295320.0 0.0103945947 0.1893703455 -0.0482884473 -0.5551264747 -0.0488553038 -0.5552123845 0.0486528282 0.184839042
785295290.0 0.0122707965 0.1892126145 -0.0546533823 -0.5548907418 -0.0547280962 -0.55537967 0.050091837 0.1847768295
790295260.0 0.0140141954 0.1892873312 -0.0605040547 -0.554433124 -0.0605551559 -0.5548371351 0.052035428 0.1846038209
795295230.0 0.0155439628 0.189013112 -0.0666610692 -0.5538471246 -0.0669655843 -0.5541646637 0.0541634708 0.1832310419
800295200.0 0.0170288272 0.1895179484 -0.0720296703 -0.5524055971 -0.0728409486 -0.5534141815 0.0560845436 0.183270275
805295170.0 0.018544747 0.1896891042 -0.0781762576 -0.5521413323 -0.0784867953 -0.552181478 0.0587315415 0.1827568414
810295140.0 0.0207623714 0.1894423865 -0.084383596 -0.5512238 -0.0844689399 -0.5512079116 0.060615975 0.1820565277
815295110.0 0.0224604206 0.1897192453 -0.0899475847 -0.5500753935 -0.0900520443 -0.5503402764 0.062169479 0.1818899128
820295080.0 0.0242263905 0.1896159302 -0.0954371201 -0.5488244221 -0.0962161064 -0.5494096269 0.0636728973 0.1820347103
825295050.0 0.0255900285 0.1894060644 -0.1018578492 -0.5480417648 -0.1021667233 -0.5486290249 0.0667422929 0.1812700565
830295020.0 0.0272828037 0.1893423371 -0.1077119749 -0.5466199378 -0.1078458218 -0.5472610347 0.0681971499 0.180165363
