!Created with skrf (http://scikit-rf.org).
# Hz S RI R 50.0 
!freq ReS11 ImS11 ReS21 ImS21 ReS12 ImS12 ReS22 ImS22
300000.0 0.8593171145 -0.0026461923 -0.0005190514 -0.0006822722 0.0003609239 0.000486618 -0.777937004 -0.1335124988
5299970.0 0.8590801195 -0.0088543826 -0.000197633 7.4294e-05 0.0001126333 1.36158e-05 -0.7850662792 -0.0072431248
10299940.0 0.857920444 -0.0185724072 -4.46932e-05 7.60076e-05 0.0001287555 -0.0001403197 -0.787900046 -0.003460353
15299910.0 0.8569295964 -0.0269615397 5.57413e-05 -2.55427e-05 -0.0002004733 -3.57144e-05 -0.7931555062 -0.0015151156
20299880.0 0.8568404595 -0.035324105 0.0001303969 9.45603e-05 -0.0001028405 -0.0002281791 -0.7999114268 0.0022119457
25299850.0 0.8558218397 -0.0433699699 -1.42878e-05 -0.0001350869 0.0001699818 -1.63522e-05 -0.8058990668 0.0084146582
30299820.0 0.8550320189 -0.0522748938 0.0002235988 -0.0001110233 -8.52036e-05 0.0001157851 -0.8120707458 0.016320738
35299790.0 0.8542563039 -0.060386845 -0.0001541414 9.50162e-05 0.00020628 1.05188e-05 -0.8173945317 0.0251597278
40299760.0 0.8528726336 -0.0689691031 -9.09097e-05 4.22936e-05 0.0001340686 -1.3595e-05 -0.8216865091 0.0347398505
45299730.0 0.8531924263 -0.0772797628 -1.8235e-05 9.30479e-05 -0.0001686249 -3.42861e-05 -0.8250569535 0.0442876825
50299700.0 0.8519093765 -0.0848217522 -9.6211e-05 5.61017e-05 -0.0001514656 5.46059e-05 -0.8274739162 0.0539109402
55299670.0 0.8514226775 -0.093301758 -0.0001285227 -3.83483e-05 -0.0001941153 2.07491e-05 -0.8294607738 0.0644134599
60299640.0 0.8493342524 -0.1012756949 0.0001054775 -1.29019e-05 -1.9302e-06 -3.86792e-05 -0.830327319 0.0739442411
65299610.0 0.8481966555 -0.1102373595 -0.0001557569 -8.93845e-05 -6.31278e-05 -6.23723e-05 -0.8322657314 0.0836625881
70299580.0 0.8478264464 -0.1182725078 0.0001156446 7.17941e-05 -0.0001523359 -0.0001192032 -0.8318648908 0.0943344266
75299550.0 0.8464416201 -0.1266119527 -8.8024e-05 -4.59209e-05 7.45216e-05 3.83636e-05 -0.8321433372 0.1039996288
80299520.0 0.8446454637 -0.1350726979 0.0001769898 3.72027e-05 -4.5523e-05 -9.28922e-05 -0.8321963171 0.1139515196
85299490.0 0.8431720463 -0.1429506884 7.4627e-05 9.08515e-05 2.53358e-05 -7.61463e-05 -0.8319120226 0.1238774067
90299460.0 0.8418858909 -0.1510143838 0.0001023527 -3.70687e-05 -6.03069e-05 6.1077e-05 -0.8310627285 0.1327903785
95299430.0 0.8402328997 -0.1596583749 1.72385e-05 8.94645e-05 -1.94808e-05 7.96048e-05 -0.8290591056 0.1430509766
100299400.0 0.8384240376 -0.1670602495 5.07124e-05 -3.88671e-05 -6.7849e-05 -6.93907e-05 -0.8286726079 0.1526868861
105299370.0 0.8374262163 -0.1755874181 0.0001135593 -0.0001042701 3.90337e-05 -9.68316e-05 -0.8269110884 0.1614353128
110299340.0 0.8350632964 -0.1839097876 -1.6197e-06 5.7136e-05 -2.17657e-05 0.0002285171 -0.8259013522 0.1708707681
115299310.0 0.8331057966 -0.192240706 0.0002918531 -6.68383e-05 -8.68153e-05 0.0002034979 -0.8238803659 0.1800537207
120299280.0 0.8315556818 -0.1998519631 9.18867e-05 -6.07619e-05 0.0001841522 -0.0001234628 -0.8223863334 0.1889969139
125299250.0 0.8291449151 -0.2085603568 1.12576e-05 1.95628e-05 -4.51535e-05 -2.47565e-05 -0.8210766382 0.1980669303
130299220.0 0.8275452618 -0.2162968219 7.30428e-05 -2.13089e-05 0.0001149323 -6.91664e-05 -0.8190690186 0.2068300228
135299190.0 0.8251109862 -0.2238480809 -0.0001049159 1.7755e-05 1.61555e-05 -5.6209e-06 -0.8166936072 0.2158022408
140299160.0 0.8225872364 -0.2321457336 -0.000153574 0.0003908906 -4.3798e-06 4.0083e-05 -0.8142082375 0.2247713691
145299130.0 0.8206808681 -0.2407508294 -0.0004200597 -0.000100019 -4.3335e-05 3.788e-05 -0.8121850626 0.2340510588
150299100.0 0.81796338 -0.2486122158 -0.0001234357 -1.29564e-05 -0.0001545205 -0.0002363396 -0.8103255714 0.2428907821
155299070.0 0.8159794847 -0.2560192879 -9.79296e-05 -0.0001665297 -8.04247e-05 -2.69511e-05 -0.807334178 0.2517506773
160299040.0 0.8128154203 -0.2641577183 3.22995e-05 -3.94045e-05 -2.21548e-05 -0.0002806824 -0.8051878892 0.2608236903
165299010.0 0.8104713089 -0.272632597 -0.0001173702 -5.72982e-05 5.27471e-05 2.30188e-05 -0.8025564725 0.269371258
170298980.0 0.8073732587 -0.2799272878 -0.0002917157 0.0001762312 -4.277e-06 -6.28952e-05 -0.7989216119 0.2780722623
175298950.0 0.8044952259 -0.2882935931 -0.0002154559 0.0001646179 0.0001045558 -5.00832e-05 -0.796703407 0.2865821605
180298920.0 0.8021555504 -0.2962479141 0.0001002904 -2.75246e-05 4.68416e-05 1.47158e-05 -0.7937780451 0.2948453495
185298890.0 0.7988149896 -0.3037886334 -9.74332e-05 -0.0001145742 9.5961e-06 4.05526e-05 -0.790517996 0.3037546695
190298860.0 0.7958890315 -0.3115852101 0.0001033158 -3.53178e-05 3.18795e-05 -0.0001545749 -0.7878560158 0.3120322328
195298830.0 0.7931896992 -0.3192788859 0.0001408583 4.17487e-05 -0.0001223968 -8.92332e-05 -0.7850051375 0.3208207307
200298800.0 0.7892808792 -0.3266756101 3.60266e-05 4.4225e-05 4.97391e-05 0.0002251555 -0.7813541698 0.3291591845
205298770.0 0.7859846924 -0.3342167629 0.0001131644 -0.0001109485 -5.5655e-06 -0.000114934 -0.7776408096 0.3374690944
210298740.0 0.7825474451 -0.3421984138 5.08883e-05 -3.525e-05 -0.0001197302 0.0001964792 -0.7744004887 0.3459804091
215298710.0 0.7794176544 -0.350345121 -4.44583e-05 -2.0929e-06 -0.0001260767 -3.4919e-06 -0.7707670135 0.3540991386
220298680.0 0.776521409 -0.357657029 9.71226e-05 -0.0001004603 0.0001204143 -0.0001088111 -0.767643123 0.3621435496
225298650.0 0.7723675495 -0.3654357129 0.0001006602 3.28821e-05 -1.99144e-05 6.24805e-05 -0.7637404958 0.3698548346
230298620.0 0.7686478015 -0.3727700133 4.80608e-05 1.84158e-05 7.00026e-05 -7.05706e-05 -0.7602664558 0.3782291963
235298590.0 0.7649462542 -0.3798345252 1.69956e-05 9.65493e-05 0.0001737477 5.3666e-06 -0.7554999304 0.3870234654
240298560.0 0.7611861096 -0.3875941993 2.6812e-06 0.0001620267 -9.8984e-05 7.12611e-05 -0.7519728094 0.3946214424
245298530.0 0.7572020847 -0.3949668406 7.64371e-05 -9.401e-07 -8.24739e-05 -0.0001696906 -0.7478846888 0.4025764057
250298500.0 0.7533645317 -0.4023595176 -7.45576e-05 -7.00415e-05 4.68311e-05 9.94642e-05 -0.7433899911 0.4098952311
255298470.0 0.7487718409 -0.4095355539 -6.80776e-05 -0.000146085 -4.70774e-05 0.0002838004 -0.7383501928 0.4180846496
260298440.0 0.7451640641 -0.4166947751 7.95205e-05 6.95719e-05 2.96735e-05 -4.76052e-05 -0.7347048814 0.4260728369
265298410.0 0.7414189297 -0.4243566277 6.51734e-05 0.0001476752 0.0002044615 3.48557e-05 -0.7305420209 0.4331698237
270298380.0 0.7374956744 -0.4313155039 0.0001620554 6.1783e-05 1.07771e-05 7.3356e-06 -0.7255744097 0.4406062526
275298350.0 0.7329078363 -0.4386279317 3.174e-06 1.81853e-05 0.0001184764 2.38748e-05 -0.720692383 0.4483255006
280298320.0 0.7281988878 -0.4454310888 -0.0001682731 -3.48793e-05 5.489e-06 9.32199e-05 -0.7162160124 0.4559779019
285298290.0 0.7243742066 -0.4527890255 3.85435e-05 -0.0001921818 0.0001060029 7.93339e-05 -0.7105403012 0.4631915163
290298260.0 0.7203422405 -0.4597149417 -0.0001171419 -0.0001431616 1.07257e-05 -2.57615e-05 -0.706365809 0.4704710054
295298230.0 0.7157753267 -0.4667063247 0.0001062556 -0.0002604423 -0.0001190957 8.08264e-05 -0.7011389291 0.4779071735
300298200.0 0.7112336509 -0.4742679907 -6.53446e-05 -1.96579e-05 8.36672e-05 8.09125e-05 -0.6965067446 0.4850536399
305298170.0 0.7065136854 -0.4811330462 0.0001601263 -0.0001769306 -0.0001447772 -3.43662e-05 -0.6902825297 0.4927457718
310298140.0 0.7026634013 -0.4888497322 0.0001090009 -7.15228e-05 -2.41088e-05 8.938e-07 -0.6855340921 0.499868361
315298110.0 0.6977710694 -0.4964152754 -4.4202e-06 -3.21062e-05 -8.9287e-06 0.0001675493 -0.6798998675 0.5065776256
320298080.0 0.6932593641 -0.5035738957 0.0001122649 3.03583e-05 -0.0001426968 -5.99919e-05 -0.6746390179 0.514432434
325298050.0 0.6877499828 -0.5105562239 3.63129e-05 5.3999e-05 -2.4217e-06 -4.2898e-06 -0.6690858056 0.520934893
330298020.0 0.6816171245 -0.5182366283 3.1176e-06 -2.34563e-05 -6.43846e-05 -8.93514e-05 -0.6633515228 0.5281784283
335297990.0 0.6760125836 -0.5249316913 0.0002964848 4.57868e-05 8.96346e-05 -3.40479e-05 -0.6583959007 0.535109641
340297960.0 0.6696199013 -0.5316885597 -8.31008e-05 0.0001670538 0.0001723058 5.26948e-05 -0.6528014147 0.5422734416
345297930.0 0.6642614255 -0.5371331229 5.65e-06 -0.000129444 -0.0001868226 4.13384e-05 -0.6470744628 0.5484433615
350297900.0 0.6584586162 -0.5436679259 -9.07177e-05 0.000105321 6.96451e-05 -0.0001178457 -0.6414043391 0.5557214702
355297870.0 0.6529596171 -0.5499230063 -6.432e-05 -7.12364e-05 0.0001039046 -0.000106701 -0.6358903038 0.5618441169
360297840.0 0.6477909706 -0.5562668685 7.05983e-05 -0.0001268112 -8.21781e-05 -6.80779e-05 -0.6296754612 0.5688880314
365297810.0 0.6409747815 -0.5625006015 -8.4859e-05 8.81756e-05 -4.03668e-05 0.0001049038 -0.6230455729 0.5749442028
370297780.0 0.636309986 -0.568314038 8.23396e-05 -0.0001878978 -0.0001022597 -1.89083e-05 -0.6175553077 0.5818730667
375297750.0 0.6295251327 -0.5742329199 4.56738e-05 -6.05539e-05 5.15281e-05 -9.11994e-05 -0.611629028 0.5877318103
380297720.0 0.6246631899 -0.580553883 -7.44108e-05 -0.0001978022 9.98413e-05 4.50916e-05 -0.6054490291 0.5942486322
385297690.0 0.618494762 -0.5865714661 4.7539e-06 -0.0001638227 0.000196825 -9.6934e-05 -0.5990186988 0.6013770256
390297660.0 0.6123718391 -0.5920555181 0.0001120327 -5.48053e-05 4.53221e-05 -0.0002212597 -0.5935720961 0.606550568
395297630.0 0.6067478723 -0.5982631398 -3.0679e-06 -8.42e-07 1.79111e-05 1.26129e-05 -0.5863868773 0.6130413648
400297600.0 0.6004888309 -0.6036574484 -6.47903e-05 -3.51365e-05 9.2996e-06 0.0001276325 -0.5806455782 0.6187643653
405297570.0 0.5946672476 -0.6094590391 0.0001621826 -8.17077e-05 -8.0158e-05 -6.92081e-05 -0.5736789553 0.6245073785
410297540.0 0.5883273703 -0.6156328402 -0.0001010178 -8.83515e-05 0.0001929639 -0.0001071451 -0.5675132543 0.6304209035
415297510.0 0.5824268919 -0.6210521424 8.03814e-05 -0.0001690859 -8.8797e-06 1.86505e-05 -0.5608752607 0.6364574177
420297480.0 0.5763012469 -0.6264505956 -0.0002020572 -8.32376e-05 6.46967e-05 5.08174e-05 -0.5540757 0.6426404142
425297450.0 0.5701085313 -0.632394179 5.81465e-05 -3.55878e-05 4.91546e-05 -6.88934e-05 -0.5478205661 0.6482058462
430297420.0 0.5636633627 -0.6381027754 0.0002758645 -0.0001408151 -9.37231e-05 4.1365e-06 -0.5411373386 0.652712754
435297390.0 0.5574514198 -0.6429615027 -7.68626e-05 -4.53856e-05 0.0001567535 0.0001257153 -0.5338188817 0.6589261592
440297360.0 0.5508925433 -0.6486992952 3.37977e-05 2.52112e-05 3.53412e-05 -5.45923e-05 -0.5275997297 0.6636560047
445297330.0 0.5442048856 -0.6544293535 -0.0001554166 -0.0001390403 0.0001424093 -0.0001485319 -0.5200609469 0.6686573863
450297300.0 0.5381036521 -0.6592444385 -0.0001885751 -0.0001169401 3.58355e-05 -7.7659e-06 -0.5131866339 0.6739235077
455297270.0 0.5315146478 -0.6641792837 -6.5632e-06 -0.0001902171 2.16237e-05 2.08985e-05 -0.5065186318 0.6784276311
460297240.0 0.5251587154 -0.6688934386 -1.3234e-06 0.0001575232 -9.72656e-05 -1.91403e-05 -0.4999650559 0.6840743483
465297210.0 0.5181220967 -0.6746852449 -3.50382e-05 0.0003780969 8.55877e-05 0.0002474266 -0.4920156863 0.6888805589
470297180.0 0.5109888828 -0.6794318312 7.905e-06 -8.36863e-05 1.75977e-05 0.0001835037 -0.4852101219 0.6943652442
475297150.0 0.50394941 -0.6846486761 -6.97354e-05 6.5148e-06 7.77197e-05 -0.0001605391 -0.4777486196 0.6986308298
480297120.0 0.497575125 -0.6894040661 8.28233e-05 -7.68745e-05 -0.0001514821 -6.72637e-05 -0.4703931057 0.7036224759
485297090.0 0.4904534184 -0.6935488999 9.27853e-05 0.0001184479 0.0001829784 -5.73427e-05 -0.4631745468 0.7080263471
490297060.0 0.4838013479 -0.6988623424 -0.0003791588 7.47975e-05 -0.0001989084 0.0002751726 -0.4560323358 0.7126554861
495297030.0 0.4770102305 -0.7030340662 -8.90329e-05 -3.18952e-05 8.39423e-05 -0.0001032043 -0.4486516639 0.7181692635
500297000.0 0.4696915879 -0.7080000188 0.0002146516 0.000160061 -0.0001720588 -0.0001203131 -0.4408257138 0.722482916
505296970.0 0.463109323 -0.7121497769 0.0001037406 -0.0002123327 -0.000108781 0.0001148006 -0.4341638352 0.7266474184
510296940.0 0.4555373587 -0.7176001761 -7.03038e-05 0.0001636076 -6.67026e-05 0.0001803506 -0.426056584 0.7306649982
515296910.0 0.4489205515 -0.7210303654 -0.0001388992 -5.30666e-05 6.69656e-05 -9.06648e-05 -0.4184737893 0.7347757029
520296880.0 0.4411306977 -0.7258285952 0.0001731761 0.0001148285 -0.0001260279 0.0001739084 -0.4111602438 0.7393327387
525296850.0 0.4346967054 -0.7297578701 -6.85606e-05 8.48767e-05 3.32075e-05 0.0001333287 -0.4041418591 0.7439950033
530296820.0 0.4267978666 -0.7337459822 -7.1176e-06 7.88784e-05 -9.10962e-05 -4.65008e-05 -0.39657681 0.7470782342
535296790.0 0.4201231736 -0.7381291581 1.24638e-05 -1.16318e-05 6.99424e-05 8.55e-08 -0.3890086694 0.751424533
540296760.0 0.4120073922 -0.742020266 -0.0001804905 9.65757e-05 -0.0002595771 -0.0001129547 -0.381248637 0.7554928549
545296730.0 0.4049826687 -0.7457627492 -0.0001059865 4.76202e-05 9.18874e-05 -3.37213e-05 -0.3740446421 0.7596440085
550296700.0 0.3971737826 -0.7490901104 2.80349e-05 -3.20132e-05 -0.0001437668 3.431e-07 -0.3658586837 0.7627992035
555296670.0 0.3897274506 -0.7539003906 -6.29093e-05 6.84595e-05 -0.0001920471 9.64661e-05 -0.3581627719 0.7672541879
560296640.0 0.3822831284 -0.7565132388 7.00555e-05 6.01856e-05 4.48421e-05 -3.8772e-06 -0.3501006656 0.7704885453
565296610.0 0.3745180221 -0.7606314155 -1.29658e-05 0.0001102509 0.0002399497 6.62905e-05 -0.3421446496 0.7738924868
570296580.0 0.3668949265 -0.7642060884 -0.0001372927 0.0001173948 9.07663e-05 0.0003126571 -0.3350919843 0.7778246424
575296550.0 0.3593203876 -0.7673523868 -4.83548e-05 0.000101663 4.93423e-05 4.10026e-05 -0.3266186894 0.7808537663
580296520.0 0.352084119 -0.7710489362 0.000148372 -8.28766e-05 -0.0002743512 0.000138216 -0.3183427021 0.7837223768
585296490.0 0.3436512503 -0.7751912941 0.0001011583 0.0001134164 9.72641e-05 -3.73342e-05 -0.3104793892 0.7872175082
590296460.0 0.3367614011 -0.777739541 6.97809e-05 -0.0002017003 -1.61472e-05 7.60381e-05 -0.3032027543 0.7904354967
595296430.0 0.3284002761 -0.7811250815 0.0001272676 -6.0374e-05 1.55968e-05 1.64777e-05 -0.2947934777 0.7926833537
600296400.0 0.3203774725 -0.7840767091 0.0001436474 -0.0002172348 0.0002263868 5.73929e-05 -0.2868133166 0.7953928457
605296370.0 0.3126957298 -0.7866653813 7.8314e-06 -0.0001207095 0.0001057925 0.0001016379 -0.2785068477 0.7985322703
610296340.0 0.3048776335 -0.7902223243 -0.0001160871 -2.52956e-05 0.0001055824 -4.60069e-05 -0.2702649892 0.800692553
615296310.0 0.2975286416 -0.7933382597 -0.0001423834 -3.82909e-05 -9.79299e-05 -4.44069e-05 -0.2618293909 0.8034944938
620296280.0 0.288942002 -0.7960306709 -0.000120697 -9.75224e-05 -0.0002056055 0.0001141942 -0.2544405222 0.8061608007
625296250.0 0.2812848612 -0.7988855177 -0.0002201217 -0.0001648626 2.32723e-05 -7.57355e-05 -0.2453616567 0.8078761067
630296220.0 0.2736390368 -0.8008638002 -0.0001274156 -6.98524e-05 -4.88158e-05 1.80898e-05 -0.2376132761 0.810594922
635296190.0 0.2655712603 -0.8032951755 -7.87997e-05 -0.000147893 -7.00589e-05 1.63537e-05 -0.2292044605 0.8127915459
640296160.0 0.2574873633 -0.8061992085 -0.0001220545 0.0001225767 1.88243e-05 -3.24542e-05 -0.2212084726 0.8154635614
645296130.0 0.2496474595 -0.8081929586 7.40444e-05 -5.00806e-05 -5.42638e-05 0.0001539716 -0.2133622676 0.8176652508
650296100.0 0.2413170433 -0.8107950866 0.0001722956 0.0001428559 0.0001533274 -1.01369e-05 -0.2047276257 0.8186535982
655296070.0 0.2328906044 -0.8130103094 -0.0001856173 0.0003452376 -1.10253e-05 7.11329e-05 -0.1966450214 0.8207432524
660296040.0 0.2249961976 -0.8155794414 -2.91274e-05 9.3239e-06 -9.68741e-05 -0.0001162127 -0.1878802853 0.823106421
665296010.0 0.217339097 -0.8171952156 5.32125e-05 0.0001227411 -4.3342e-06 7.3041e-06 -0.1795746952 0.8251986609
670295980.0 0.2084122726 -0.8195459131 9.95947e-05 0.0002279816 0.0001097088 3.63889e-05 -0.1715411506 0.8270460315
675295950.0 0.2009247292 -0.8210244624 4.7578e-05 1.13558e-05 -0.0001467525 0.0002572213 -0.1640269323 0.8284489861
680295920.0 0.1921973518 -0.8225199432 0.0002768657 0.0002893463 -4.29189e-05 -2.39399e-05 -0.1550052699 0.8310352567
685295890.0 0.1840537848 -0.8243659064 0.0001692177 0.0001234059 -4.2904e-05 -0.0001281143 -0.1459804377 0.8316923462
690295860.0 0.1760253415 -0.8263900612 9.86343e-05 3.41998e-05 -9.0309e-05 2.09228e-05 -0.1383257402 0.8337488967
695295830.0 0.1673641145 -0.8276547775 -4.89976e-05 -0.0001166487 0.0001730256 -0.0001038767 -0.1293694187 0.8344493682
700295800.0 0.1600861548 -0.8292299751 -9.61519e-05 0.0001013405 0.000115009 0.0001083594 -0.1223607306 0.8361031272
705295770.0 0.1504873468 -0.8305036143 7.85526e-05 0.0002196619 1.08235e-05 -0.0002454952 -0.1135460552 0.8383908524
710295740.0 0.1421684676 -0.8318346053 6.61804e-05 -0.0001284372 8.54779e-05 2.458e-07 -0.1050643509 0.8385368486
715295710.0 0.1343027816 -0.8336469538 -0.0001031477 2.86617e-05 -0.0002997291 0.0001456729 -0.0958044965 0.8398318265
720295680.0 0.1260123466 -0.8347351237 -5.58588e-05 -0.0001015462 -0.0001184013 -7.90194e-05 -0.0880298066 0.8408565205
725295650.0 0.1174135916 -0.8351560526 5.76095e-05 5.08905e-05 4.59463e-05 -0.0001516864 -0.080311243 0.8418053494
730295620.0 0.1090925215 -0.8362021069 -2.0431e-05 0.0001772311 -2.02041e-05 -0.0001275521 -0.0716111039 0.8421097594
735295590.0 0.1008526094 -0.83662787 -0.0001189134 -0.000163601 5.3202e-06 5.53299e-05 -0.0632573806 0.8426622282
740295560.0 0.0923811708 -0.8379337419 0.0002482193 0.000171405 -9.6651e-05 -6.92229e-05 -0.054229127 0.8437028215
745295530.0 0.0842617446 -0.8388229826 2.66833e-05 -9.2357e-06 -2.47647e-05 4.04367e-05 -0.0460585958 0.8439415205
750295500.0 0.0752856032 -0.8391245225 4.81505e-05 0.0002642461 0.0001138479 3.214e-05 -0.0383048586 0.8445062776
755295470.0 0.0669298508 -0.8394198312 -0.0002866349 -8.71604e-05 4.90574e-05 4.76563e-05 -0.029523182 0.844129245
760295440.0 0.0589610641 -0.8405563163 -0.0003860848 -6.42357e-05 -0.000124967 8.00011e-05 -0.0207655045 0.8440462227
765295410.0 0.0503758775 -0.8411939208 -3.3535e-06 -3.8005e-06 -0.0001546039 -0.0001774562 -0.0124758458 0.8448289641
770295380.0 0.0421098173 -0.8409492727 -6.11349e-05 -0.0001634494 0.0002110658 1.74583e-05 -0.0042299794 0.8443248092
775295350.0 0.0334309499 -0.8418004461 7.79306e-05 -9.18868e-05 5.86244e-05 0.0002482738 0.0036045826 0.8439700251
780295320.0 0.0256224596 -0.8418200629 0.0001735173 0.000221291 0.0001808948 0.0001002522 0.0124623933 0.8444184295
785295290.0 0.0164651418 -0.8419021431 -2.36206e-05 0.0001396022 0.0001330957 3.98651e-05 0.0210729011 0.8438308137
790295260.0 0.008324422 -0.8418708396 -3.8976e-06 -6.25485e-05 0.0001138178 3.87533e-05 0.0297653773 0.8439389866
795295230.0 -0.0001077801 -0.8412886124 7.4224e-06 0.0001683351 8.98514e-05 -0.0001570102 0.0387080644 0.8429534743
800295200.0 -0.0086088686 -0.8414030883 0.000233218 -3.5489e-06 4.37733e-05 -7.26545e-05 0.046792625 0.8428754425
805295170.0 -0.0166547784 -0.8412309078 0.0002615416 -0.0001991924 0.0001291791 -4.33437e-05 0.0547063538 0.8424925469
810295140.0 -0.0247408922 -0.8403362372 -0.0001992022 5.3418e-06 7.12468e-05 -3.22142e-05 0.0633119829 0.8415326111
815295110.0 -0.03390864 -0.8405482675 6.92698e-05 -6.8857e-05 3.74124e-05 -3.98213e-05 0.0721521796 0.8413533435
820295080.0 -0.0419381645 -0.8396603191 -3.52268e-05 -6.52493e-05 5.51898e-05 7.4834e-06 0.080106549 0.8406805496
825295050.0 -0.0503333103 -0.8388969703 -9.25898e-05 -0.0001205608 5.30804e-05 0.0004284976 0.0887194257 0.8395793244
830295020.0 -0.0587491108 -0.8384696252 0.000101055 -1.04225e-05 6.78853e-05 0.0002017387 0.097872574 0.8383805079
835294990.0 -0.0668141998 -0.8372070562 -0.0002560226 -0.0001168672 -5.8007e-05 0.0001251034 0.1052619392 0.8377880344
840294960.0 -0.0752145381 -0.8368209235 6.8349e-05 0.0001971127 6.6602e-06 0.0001878435 0.1138031783 0.836228381
845294930.0 -0.0835495809 -0.835636479 3.8355e-05 5.26259e-05 -0.0001128154 -6.5738e-06 0.1215157201 0.8346743491
850294900.0 -0.0913405083 -0.8345254902 -2.2586e-06 -0.000247408 0.000133331 0.000125882 0.1298550471 0.8342479851
