!Created with skrf (http://scikit-rf.org).
# Hz S RI R 50.0 
!freq ReS11 ImS11 ReS21 ImS21 ReS12 ImS12 ReS22 ImS22
300000.0 -0.0426406004 -0.072781804 -0.0020142829 0.0012263495 -0.0008226016 0.0003956873 -0.7639075893 -0.1953901718
5299970.0 -0.0463308216 0.0144483374 -0.0001182634 -0.0001819337 6.91768e-05 0.0001744294 -0.7852921588 -0.0096450107
10299940.0 -0.0403202183 0.0327505674 4.99741e-05 8.52497e-05 -0.0002533798 -0.0001056853 -0.7877985803 -0.0054892815
15299910.0 -0.0317059088 0.0474522758 -0.0001587129 -0.0001012003 -4.93586e-05 6.17798e-05 -0.7928608361 -0.0026113026
20299880.0 -0.0217818087 0.059337048 0.0001001689 -0.0002504993 3.55666e-05 -2.92761e-05 -0.799706346 0.0017611657
25299850.0 -0.0101778243 0.0688184602 2.75258e-05 -4.53216e-05 3.75347e-05 0.000148252 -0.8061936364 0.0077853034
30299820.0 0.001313929 0.075555613 8.47294e-05 0.0001167235 -6.12586e-05 -0.0001481508 -0.8124084173 0.0157225207
35299790.0 0.012923284 0.0800702362 -0.0001631741 -6.209e-05 3.54243e-05 -0.0001389474 -0.8172705325 0.0249888715
40299760.0 0.0244638051 0.0829941305 -0.0002217733 0.0001310347 -0.0001060992 -8.26015e-05 -0.8212627669 0.0340601924
45299730.0 0.0351147474 0.0841052008 0.0001187542 -5.29178e-05 3.09755e-05 -9.03663e-05 -0.8242390021 0.0436731936
50299700.0 0.0454923411 0.0840288668 4.6091e-05 1.38495e-05 -4.37458e-05 0.0001374252 -0.8267671456 0.0538186715
55299670.0 0.0546092954 0.0836433479 -0.0001396972 -0.0001374678 -9.61205e-05 -9.17346e-05 -0.8291455353 0.063709473
60299640.0 0.0635219801 0.0814861655 0.0001627125 -0.0001624504 -2.0409e-05 0.000148192 -0.8297206712 0.07380509
65299610.0 0.0715672141 0.0792204552 2.0375e-05 0.0002423036 7.42296e-05 0.0001012886 -0.8305087264 0.0841327913
70299580.0 0.0780646581 0.0759883309 8.6705e-06 -2.57672e-05 0.0002549827 9.64539e-05 -0.8311455975 0.0935893815
75299550.0 0.0844633624 0.0731439804 -1.95164e-05 -2.5827e-05 0.0001822048 0.0001061023 -0.8307251411 0.1043163428
80299520.0 0.0904140628 0.0693933301 0.0001041507 -4.96506e-05 0.0001239451 4.6359e-06 -0.8309773718 0.1144009291
85299490.0 0.0956529548 0.0655247553 0.0002074372 9.42852e-05 0.0001449907 0.0001190908 -0.8301892767 0.1232640785
90299460.0 0.100567602 0.0618682795 -3.06593e-05 -9.32998e-05 2.2359e-05 0.0001013835 -0.8288966742 0.1325538755
95299430.0 0.1046565958 0.0579878379 -4.97936e-05 0.0001984368 -6.00716e-05 7.36851e-05 -0.8283602626 0.1425999242
100299400.0 0.108220935 0.0538232029 -5.08592e-05 5.389e-05 -6.55948e-05 0.0002242444 -0.8271738988 0.1519364149
105299370.0 0.1116661814 0.0501566691 0.000153571 0.000131522 -7.62454e-05 0.000118087 -0.8258283812 0.1607376206
110299340.0 0.1146538416 0.0461780977 0.0001456326 7.6635e-06 -2.19967e-05 3.39594e-05 -0.8241965351 0.169642376
115299310.0 0.1170951273 0.0424495954 -0.0001608594 0.0001808321 -0.0001126995 0.0001431229 -0.8239316762 0.1788619309
120299280.0 0.1193702006 0.0387905185 -0.0002461243 0.0002867817 0.0003685264 0.0002053818 -0.8209362697 0.1880846599
125299250.0 0.1214523372 0.0349618444 9.02715e-05 -7.40914e-05 -0.0001088011 0.0002105601 -0.8199247066 0.1973270246
130299220.0 0.1232244299 0.0312852355 -1.6889e-05 0.0001614042 -0.0001093907 -4.79257e-05 -0.8178514436 0.2061202467
135299190.0 0.125036312 0.0278459751 2.706e-05 -3.9883e-06 -5.4947e-06 5.79858e-05 -0.8157561303 0.2150420731
140299160.0 0.126057743 0.0243614557 -1.38858e-05 0.0001662678 -3.23362e-05 2.04605e-05 -0.813865323 0.2231933379
145299130.0 0.1273834886 0.0212115853 -2.1241e-05 0.0002201605 2.92023e-05 -5.96396e-05 -0.8118695099 0.232291557
150299100.0 0.1285137909 0.01775824 -0.0001351144 5.36035e-05 9.63865e-05 1.82055e-05 -0.8099132223 0.241898606
155299070.0 0.1293922335 0.0146910792 0.0001172166 -3.01581e-05 -2.39401e-05 0.0001029125 -0.807046511 0.2503226688
160299040.0 0.1298757808 0.0114848578 -6.577e-06 0.0001002373 1.4677e-05 0.000153472 -0.8046724302 0.2592509089
165299010.0 0.1305720702 0.0085090932 -0.0002533527 0.0002140721 6.82965e-05 -8.79745e-05 -0.8018699295 0.2672781078
170298980.0 0.1309397738 0.0052981725 7.31606e-05 -5.0908e-06 5.71444e-05 -2.78513e-05 -0.7997078661 0.2756107709
175298950.0 0.1314139923 0.0023879754 0.0001058706 0.0001111238 0.0001644388 7.7505e-05 -0.7963453176 0.285153949
180298920.0 0.1315407763 -0.0003493662 -6.0023e-06 5.45138e-05 7.842e-07 0.0002291137 -0.7936383012 0.2933024142
185298890.0 0.1317483609 -0.0033063102 -5.88051e-05 6.34112e-05 8.62841e-05 0.0001486999 -0.7903678708 0.301912463
190298860.0 0.1319320522 -0.005837131 -0.0002468912 -7.4724e-06 -8.6347e-06 0.0001996545 -0.7871653373 0.3098364147
195298830.0 0.1321394546 -0.0080869719 8.54205e-05 0.0001132927 5.7173e-06 -8.30327e-05 -0.7840090953 0.3179641226
200298800.0 0.1321839173 -0.011259471 0.0006354838 0.0001551934 0.0002341094 0.0002311124 -0.7809175434 0.3265662631
205298770.0 0.1315727553 -0.013590099 8.25027e-05 9.2587e-05 -4.98242e-05 0.0001511472 -0.7775890645 0.3352717095
210298740.0 0.1315971385 -0.0161347121 -8.71746e-05 0.0001670204 1.53837e-05 -0.0001289692 -0.7740900496 0.3434978183
215298710.0 0.1311960044 -0.0185342955 7.60855e-05 0.0001632034 0.0001417784 -1.81207e-05 -0.7703920829 0.3509421032
220298680.0 0.1309907751 -0.0208198307 2.11091e-05 4.29435e-05 3.7964e-05 -1.44923e-05 -0.7662624651 0.3596388609
225298650.0 0.1305789207 -0.0231521672 0.0001562946 -0.0001891089 0.0002283503 0.0001716786 -0.7630101767 0.3678355917
230298620.0 0.1300484628 -0.0251655422 -0.0001336735 -2.90746e-05 8.3165e-06 3.70277e-05 -0.7589975975 0.3758305045
235298590.0 0.1294974796 -0.0274581854 5.39491e-05 -4.88563e-05 0.000210164 6.19267e-05 -0.7552806962 0.3831766612
240298560.0 0.128961802 -0.0296260532 0.0001194644 0.0001975686 0.0001448727 0.0001668106 -0.7512468449 0.3907367359
245298530.0 0.1285118357 -0.0317804486 0.0002439849 7.7971e-06 0.0001367252 0.0001635494 -0.7473724271 0.3991062043
250298500.0 0.1279226925 -0.0339818588 0.000206393 7.78919e-05 0.0001176676 0.0001693894 -0.7427739274 0.4068721655
255298470.0 0.1275244013 -0.035633321 0.0002380895 2.21885e-05 0.0001758866 0.0002268264 -0.7392458082 0.4145522353
260298440.0 0.1267802781 -0.0379523399 -0.00010135 0.0001932925 8.25294e-05 4.32008e-05 -0.7343069803 0.4221669426
265298410.0 0.1260134982 -0.039634427 7.66583e-05 8.7718e-05 0.0001616833 0.0001005319 -0.7302374846 0.4300890215
270298380.0 0.1250959329 -0.0418083057 -4.90806e-05 0.0002521474 0.0002330521 0.0002654967 -0.7253833678 0.4376440693
275298350.0 0.1244517197 -0.043486398 0.0001846203 1.91653e-05 0.0002928699 0.0001677008 -0.7202165603 0.4454080456
280298320.0 0.1237232718 -0.0451955068 5.58255e-05 0.0001160519 0.0001670299 2.48616e-05 -0.7163686011 0.4533924518
285298290.0 0.1228776912 -0.0471435345 3.35186e-05 0.0001146859 0.0001573244 9.35911e-05 -0.7122834279 0.4603698286
290298260.0 0.122033952 -0.0488959692 8.09875e-05 3.47668e-05 0.0001904494 0.0001062396 -0.7065563419 0.4678658421
295298230.0 0.121012969 -0.0506785168 4.29829e-05 0.0001252322 0.0001281226 9.88736e-05 -0.7015415796 0.4749491302
300298200.0 0.1202242966 -0.0525707769 2.92445e-05 2.92591e-05 0.0001394707 3.58441e-05 -0.6968213263 0.4821008051
305298170.0 0.1194991298 -0.0543342184 0.0001271276 0.0001668974 0.0001388889 7.5334e-05 -0.6917784059 0.4892298354
310298140.0 0.1185144817 -0.0565953461 0.000228366 6.2522e-05 -0.0001362123 0.0001122777 -0.6867366154 0.4972240988
315298110.0 0.1172224403 -0.0581537587 0.0001298117 7.09008e-05 8.614e-05 0.0002281358 -0.6814443165 0.5037259368
320298080.0 0.1161516962 -0.0599639683 2.41978e-05 9.07441e-05 0.00027305 5.00772e-05 -0.6765329815 0.5105054048
325298050.0 0.1144446487 -0.0620892405 7.78098e-05 0.0001657719 0.0002016966 0.0001515014 -0.6701516206 0.5177716912
330298020.0 0.113268671 -0.0633166974 0.0001395636 0.0001598411 0.0001631786 0.0001639432 -0.6652316095 0.524592419
335297990.0 0.1121911415 -0.0648158381 0.0001782277 0.0002589137 0.0003404782 5.5645e-06 -0.6596194573 0.5314645266
340297960.0 0.1107796174 -0.0659419838 0.0001606287 0.0001107567 0.0002461137 7.36968e-05 -0.6542022325 0.53843997
345297930.0 0.1098291209 -0.0676834456 0.0001264879 0.0001021214 0.0002698171 8.28936e-05 -0.6489477532 0.5448852362
350297900.0 0.1084778479 -0.0690516697 0.0002686942 -5.706e-05 -1.6083e-06 0.0003104909 -0.6432802307 0.5507479224
355297870.0 0.1074505085 -0.0704098841 2.5112e-05 0.0001657226 0.0003510568 -2.66886e-05 -0.6368181509 0.5582231259
360297840.0 0.1060473742 -0.0715721254 0.0001670617 0.000111648 0.0002209612 -5.2185e-06 -0.6307471231 0.5645582616
365297810.0 0.1049953886 -0.0732814682 0.0003019393 0.000272322 0.0002517252 0.0002420566 -0.6256871523 0.5710924175
370297780.0 0.1038575448 -0.0745278793 8.45367e-05 0.0002136659 8.38528e-05 0.0002432959 -0.6196993684 0.5774381659
375297750.0 0.1029776597 -0.0755166793 0.0002123865 7.46408e-05 4.10673e-05 -5.37722e-05 -0.6136489529 0.5842105126
380297720.0 0.1015060023 -0.0766768564 0.0002312213 0.0001223315 1.88076e-05 0.0003473636 -0.6066637337 0.5900271441
385297690.0 0.0999998184 -0.0780754268 0.0001512577 3.10534e-05 0.0004917102 1.46587e-05 -0.6013832471 0.5962545072
390297660.0 0.0991000087 -0.0796464033 -0.000125597 0.0001491248 0.0001656579 0.0001264658 -0.5949916483 0.6020968037
395297630.0 0.0977326579 -0.0808556698 0.0002459036 0.0001054043 4.79249e-05 0.0001347097 -0.5880256061 0.6080070158
400297600.0 0.0963757712 -0.0819521464 -2.54728e-05 0.0001195928 0.0001776268 0.0001668613 -0.5827437984 0.6139897082
405297570.0 0.09512734 -0.0830126341 0.0001146927 0.0001027113 0.0002536019 0.0002148395 -0.5759837624 0.6200169994
410297540.0 0.0943233691 -0.0840563378 0.0003326507 0.0001402676 0.0001909845 0.0001317816 -0.5692078623 0.6257127294
415297510.0 0.0927749867 -0.0852952268 0.0001209329 0.0001260301 0.0003334961 0.000175733 -0.5632952911 0.6313700263
420297480.0 0.0915185767 -0.0868317649 0.0002455528 0.0001996581 0.0002944266 0.0003138289 -0.5563297448 0.6376859568
425297450.0 0.0903643886 -0.0877298898 0.0002377752 0.0001923383 9.65631e-05 0.000137389 -0.5497463911 0.6431578498
430297420.0 0.0889084476 -0.0890742923 1.34549e-05 5.67777e-05 0.0001690429 0.0002275925 -0.5434400665 0.6484439613
435297390.0 0.0875154052 -0.089913306 5.08286e-05 2.71207e-05 0.0002181738 2.55783e-05 -0.5370347537 0.6542178147
440297360.0 0.086579067 -0.0910152882 -2.45438e-05 0.0001506035 0.0001866997 0.0001571141 -0.5305612064 0.6595141124
445297330.0 0.08522891 -0.0919370483 0.0001224674 7.01806e-05 0.0001072939 0.0001328962 -0.5226077553 0.6645742355
450297300.0 0.0838398697 -0.0932727412 6.404e-07 0.0002058035 0.0002069197 2.85599e-05 -0.5161061507 0.6692500239
455297270.0 0.082536442 -0.0939672172 0.0003263193 8.06125e-05 0.0003278849 3.70149e-05 -0.50906927 0.6749959291
460297240.0 0.0813623704 -0.0951574322 0.0002299687 0.0001781785 0.0001494384 7.76389e-05 -0.5027185807 0.680076819
465297210.0 0.0801586229 -0.0960755753 0.0002450377 -0.0001313002 5.4602e-06 5.80074e-05 -0.4951549391 0.6859634088
470297180.0 0.0787679366 -0.0969196981 0.0001471378 -7.70328e-05 0.0001249474 0.0001663145 -0.4880952039 0.6903867577
475297150.0 0.0772184697 -0.0975915531 0.0003037214 2.66448e-05 0.0001756582 2.26479e-05 -0.4812916329 0.6952430869
480297120.0 0.0761673624 -0.0985100249 -8.39744e-05 8.8223e-05 0.0002851096 0.0001478601 -0.4744991618 0.7002205369
485297090.0 0.0747572102 -0.0994892729 0.0001962713 0.000182214 0.0001986898 5.698e-05 -0.4670247091 0.7047903452
490297060.0 0.0740033351 -0.1003356302 0.0002050925 0.0001965933 0.0002298753 9.00702e-05 -0.4593155875 0.7087680269
495297030.0 0.0724315852 -0.1014338858 0.0003040915 -5.20445e-05 0.0001441963 0.0001688124 -0.4521824498 0.7135028272
500297000.0 0.0710836506 -0.1018371834 0.0001997824 -3.58466e-05 0.0001846622 0.0001441897 -0.4449712012 0.7183949818
505296970.0 0.0698280884 -0.1028882278 0.0001680674 5.1694e-05 0.0001869984 -6.83907e-05 -0.437684267 0.7229351345
510296940.0 0.0683544614 -0.1034494631 0.0001741862 0.0001379472 0.0001327834 -4.18786e-05 -0.4301043671 0.7278084962
515296910.0 0.0670532717 -0.1041056751 0.0002009085 -8.024e-07 0.0003785709 -3.5226e-06 -0.4235363652 0.7310169984
520296880.0 0.0658795653 -0.1049038352 0.0001613999 0.0001837631 0.0002670837 0.0002230686 -0.4156532001 0.7360427434
525296850.0 0.0644569777 -0.10600366 0.0003644602 0.0001840888 0.0003440892 4.34893e-05 -0.4083090417 0.7398276129
530296820.0 0.0633174354 -0.1060851086 0.0004486308 -3.99202e-05 0.0002101018 0.0001584896 -0.4005510483 0.7435562765
535296790.0 0.0622407472 -0.1068712929 0.0003560269 9.65298e-05 9.29909e-05 5.1061e-06 -0.3930958633 0.7479963687
540296760.0 0.0610307459 -0.1072778304 0.000457092 0.0002570594 0.0002163086 7.06663e-05 -0.3849953135 0.7512430003
545296730.0 0.0591242908 -0.1076340419 0.0002245227 0.0001037656 0.0002908201 0.0001550263 -0.3776726177 0.7556147036
550296700.0 0.0579216562 -0.1082335366 0.0002776414 0.0001584278 0.0002027604 2.3865e-05 -0.370177499 0.7589980165
555296670.0 0.0566105247 -0.1087690095 0.0003729248 -3.18232e-05 0.0003589642 0.0001529312 -0.3625475911 0.762191953
560296640.0 0.0553326202 -0.1094010713 0.0002072911 7.22217e-05 0.0003306344 0.0001477597 -0.3548638503 0.7665306646
565296610.0 0.0538353887 -0.1099982024 0.0001773778 0.000189567 0.000193366 5.8679e-06 -0.3469823158 0.7699932086
570296580.0 0.0525408763 -0.1101037115 0.0002851611 3.31338e-05 0.0002945502 9.18691e-05 -0.3394552602 0.7730363211
575296550.0 0.0512225705 -0.1106515829 0.0003386837 5.45631e-05 0.0001198889 5.31725e-05 -0.3308591676 0.7761728791
580296520.0 0.0499693824 -0.1107258301 0.0004405768 -4.23504e-05 0.0002697574 5.66011e-05 -0.3238446086 0.7796824487
585296490.0 0.0486176166 -0.1110886512 0.0003303726 5.32586e-05 0.0001552216 1.27364e-05 -0.3154624188 0.7830790144
590296460.0 0.0473222341 -0.1114800205 0.0002774603 0.0001035334 0.0004128767 -0.0001365468 -0.3078359674 0.7857847229
595296430.0 0.0458166836 -0.1117448683 0.0001350961 8.52209e-05 8.69309e-05 -1.38649e-05 -0.300131727 0.7894436982
600296400.0 0.0442306533 -0.1119724502 0.0004233056 -0.0001334828 0.0002415922 -2.90429e-05 -0.2920668239 0.7915617834
605296370.0 0.0429148289 -0.1122218988 0.0004778566 -4.07206e-05 0.0002019793 7.23524e-05 -0.2839421565 0.7956582119
610296340.0 0.0416947087 -0.1124742087 0.0002511396 0.0003184926 0.0002137447 0.000120382 -0.2762590319 0.7976339061
615296310.0 0.0404391435 -0.1127940575 0.0002257184 7.03758e-05 0.0005598456 -0.0001326862 -0.2676128048 0.800791371
620296280.0 0.0390073608 -0.1127522612 0.000244237 9.6951e-05 0.0003213701 -4.75022e-05 -0.2600524185 0.8025876141
625296250.0 0.0374267608 -0.1129033679 4.579e-05 8.7299e-05 0.0002131443 7.5513e-05 -0.2516512818 0.8050122999
630296220.0 0.0359359889 -0.1128858493 0.0002392981 0.0001217607 0.0003887921 -7.97061e-05 -0.2438307535 0.8082153552
635296190.0 0.0344551946 -0.1129571933 0.0002653037 2.37696e-05 0.000380153 -6.26874e-05 -0.2354828517 0.8102804403
640296160.0 0.0329922796 -0.1133357444 0.0003518555 -6.98805e-05 0.0001625075 0.0002474086 -0.2272983199 0.8126332621
645296130.0 0.0321353872 -0.1133286933 0.0001972763 0.0002139155 0.0005141456 -0.0001935685 -0.2199181503 0.8146280544
650296100.0 0.0303668724 -0.1133452379 0.0003410483 0.0001387978 0.0002013252 -5.45839e-05 -0.2108755365 0.8170103966
655296070.0 0.028767326 -0.1132587198 0.0004486319 9.70051e-05 0.0003099667 -0.0001226196 -0.2034535643 0.8189443802
660296040.0 0.0272938404 -0.1133855136 0.0003814311 0.0001245785 0.0003541052 -0.0001228355 -0.1943877744 0.8207434514
665296010.0 0.0260775254 -0.1130875215 0.0002233229 8.51896e-05 0.0005435308 0.0002218448 -0.1862672981 0.8222783419
670295980.0 0.0245017512 -0.1133375452 0.0003517448 0.0001378694 0.0004015155 0.0001045653 -0.1787744552 0.8247698629
675295950.0 0.0229753948 -0.1133084206 0.0002859456 0.0002141597 0.0003036396 3.72954e-05 -0.1700531464 0.8269236184
680295920.0 0.021520593 -0.1131061273 8.57789e-05 -9.94444e-05 0.000400635 -4.30268e-05 -0.1612160357 0.8275661242
685295890.0 0.0201315755 -0.1128469135 0.0002878838 9.27353e-05 0.0002704629 0.0001701742 -0.1536692778 0.8297111406
690295860.0 0.018484251 -0.1130536001 0.0002217525 9.11884e-05 0.0004679821 0.0003096477 -0.1452604547 0.8310373987
695295830.0 0.0170733917 -0.1125618219 0.0002018779 -4.25153e-05 0.0004960159 2.38048e-05 -0.1368571677 0.8329017317
700295800.0 0.0156539428 -0.1123819165 0.0001491687 -0.000104591 0.0002277574 -6.51756e-05 -0.1285215218 0.8339357046
705295770.0 0.0141602844 -0.1122620203 0.0003585005 -0.0002748937 0.0002799152 -7.97666e-05 -0.12063113 0.8352069774
710295740.0 0.0127161481 -0.1123502378 0.0002465168 -1.17986e-05 0.0004076692 0.0001366733 -0.1118560188 0.836384621
715295710.0 0.0112973544 -0.1118770013 0.0004511014 -5.76398e-05 0.0001938217 -0.0001332604 -0.1036116827 0.8368204461
720295680.0 0.0100856048 -0.1118115718 0.000342379 -8.30805e-05 0.0002008231 6.89397e-05 -0.0951625875 0.837981317
725295650.0 0.0081398293 -0.1114379146 0.0005384237 3.53541e-05 0.0003773932 0.000140774 -0.0875330142 0.8394820446
730295620.0 0.0066819068 -0.1112009027 0.0003382813 -0.0001323677 0.0002679343 3.67235e-05 -0.0788731845 0.8404190407
735295590.0 0.0052001975 -0.1109576229 0.0003671287 -0.0001219126 0.0003118939 -0.0002099506 -0.0700181624 0.8405938629
740295560.0 0.0035963039 -0.1107277147 0.0004527157 -0.0002002128 0.0004902841 -0.0001698728 -0.0614313852 0.8415945736
745295530.0 0.0021537048 -0.1104494424 0.0002861508 -0.0002692203 0.0003681909 -2.97747e-05 -0.0537454144 0.8417588127
750295500.0 0.0006422376 -0.1101427747 0.0003560511 -5.6762e-06 0.0001965535 -0.0002326988 -0.0453363041 0.8425321318
755295470.0 -0.0007022153 -0.1097287289 0.0002160255 -0.000131406 0.0005294075 -6.68455e-05 -0.0371442234 0.8432128391
760295440.0 -0.002084693 -0.1093661367 0.0002923407 -0.0001130026 0.0004400563 -0.0001252314 -0.0278709371 0.8429078109
765295410.0 -0.0038453132 -0.1093315316 0.0002715606 -0.000101233 0.0002225583 -0.0002883986 -0.0198126121 0.8434231151
770295380.0 -0.005133604 -0.1085690594 0.0003758483 8.43042e-05 0.0003625167 1.98435e-05 -0.0118791439 0.8432863386
775295350.0 -0.0065989146 -0.1080714818 0.0003007849 -0.0001981302 0.0003528408 -0.0001125776 -0.003253709 0.8434960766
780295320.0 -0.0078668079 -0.1077354985 0.000245476 -0.0002682369 0.000392471 8.8397e-05 0.0052887425 0.8435968045
785295290.0 -0.0096703035 -0.1076868084 0.0004870627 -8.79053e-05 0.0003288037 -0.0001944692 0.0128350101 0.8439427709
790295260.0 -0.0112384032 -0.1075797779 0.0004538428 -0.000142923 0.0004446524 -2.91715e-05 0.0218812429 0.8433335233
795295230.0 -0.0127297431 -0.1069197224 0.0005821392 -4.76452e-05 0.0003049075 -6.15978e-05 0.0301450451 0.8426080569
800295200.0 -0.0137375359 -0.1065391574 0.0005420807 -1.17959e-05 0.0004035561 -0.0001439258 0.0382817964 0.8420754113
805295170.0 -0.0155082829 -0.1059830407 0.0004597562 3.91713e-05 0.0004835382 -9.40911e-05 0.0471995877 0.8418935276
810295140.0 -0.0167608778 -0.105069645 9.04507e-05 -0.0001353485 0.0005249732 -0.0001009519 0.0554875232 0.8412614787
815295110.0 -0.0183455696 -0.1052548433 0.0002789079 -0.0002588644 0.0004511596 -0.0002395391 0.0629197976 0.8407393112
820295080.0 -0.019773537 -0.1047619262 0.0004117302 -1.78397e-05 0.000463425 -0.000175027 0.0708384925 0.8408413928
825295050.0 -0.0214028162 -0.1042583085 0.0005157287 -1.9639e-05 0.0003175946 -0.0001486383 0.0802568012 0.8392669926
830295020.0 -0.0225336445 -0.1037600701 0.0004433984 -0.0004283151 0.0004033337 -0.0001516214 0.0875079738 0.8380845764
835294990.0 -0.0237011898 -0.1031770137 0.0004476252 -0.000193576 0.0004851284 -9.34368e-05 0.0966713535 0.8381239247
840294960.0 -0.0253375136 -0.1028051516 0.0003155413 -0.0002148422 0.0003356348 -0.0001105877 0.1051820728 0.8370439947
845294930.0 -0.0266273407 -0.102025483 0.0004788485 -1.03994e-05 0.0003272253 -0.000398653 0.1133428827 0.8358554879
