!Created with skrf (http://scikit-rf.org).
# Hz S RI R 50.0 
!freq ReS11 ImS11 ReS21 ImS21 ReS12 ImS12 ReS22 ImS22
300000.0 -0.0487267417 -0.042352966 -0.0007608895 0.0013495695 0.0004847906 0.0003606381 -0.7744897334 -0.127753822
5299970.0 -0.0499777704 0.0160284872 0.0001397235 3.6932e-06 -0.0002376536 4.3401e-05 -0.7845454171 -0.0071201562
10299940.0 -0.0442944644 0.032753173 -3.08651e-05 6.14277e-05 -6.11462e-05 -1.2082e-05 -0.7874275594 -0.003715386
15299910.0 -0.036187176 0.0471105698 -0.000109692 -3.62424e-05 5.54154e-05 -3.16162e-05 -0.7930332346 -0.0012130588
20299880.0 -0.026039995 0.0588517363 8.47348e-05 4.00133e-05 -4.14941e-05 -9.58493e-05 -0.7995307401 0.0021918378
25299850.0 -0.0152581049 0.0682450268 4.82896e-05 0.0002097641 -9.60785e-05 -0.0001155176 -0.8060277217 0.0083115244
30299820.0 -0.0041854468 0.0751021443 -6.53082e-05 0.0002177412 3.52791e-05 0.0001225575 -0.8118395451 0.0166902358
35299790.0 0.0069329759 0.0800001894 -0.000193113 0.0001836329 -8.56419e-05 1.47577e-05 -0.8169918932 0.0244664608
40299760.0 0.0186585672 0.0828754136 5.76829e-05 0.0001336359 7.15704e-05 4.84589e-05 -0.8213911106 0.0344381481
45299730.0 0.0294958998 0.0842758199 5.17029e-05 0.0001585229 9.70427e-05 9.04469e-05 -0.825106883 0.0436587176
50299700.0 0.0392110879 0.0844056733 -0.0002064552 -0.0002366408 0.0001261564 0.0001635398 -0.8275996323 0.0536471801
55299670.0 0.0482553308 0.0835812079 4.43006e-05 0.0002820096 0.0001225664 0.0003642356 -0.8297729006 0.0646149697
60299640.0 0.0571569346 0.0819110456 -1.86668e-05 0.0002297891 0.0001591597 0.000144927 -0.8299986189 0.0741786745
65299610.0 0.0646163325 0.079564502 -6.31614e-05 0.0001799138 -0.000162197 1.35418e-05 -0.8322287436 0.0842783553
70299580.0 0.0715026685 0.0770156323 0.0001143022 -7.63249e-05 -0.0001115836 -0.0003381385 -0.8317081643 0.0948280227
75299550.0 0.0780379746 0.0740854191 -8.76813e-05 0.0001314538 3.33768e-05 0.0002543662 -0.8323104896 0.1046947337
80299520.0 0.0839592313 0.0705025571 -5.94035e-05 0.000110659 0.0001783959 -2.20739e-05 -0.8320660049 0.1140333871
85299490.0 0.0886583635 0.0667583996 2.53029e-05 0.00026389 -3.81072e-05 -7.44513e-05 -0.8317747734 0.1240428247
90299460.0 0.0933076835 0.0629744134 7.86161e-05 -4.09129e-05 1.74029e-05 4.5333e-05 -0.8312694048 0.1332193236
95299430.0 0.097572269 0.0591232129 6.66121e-05 -4.65023e-05 -9.24371e-05 5.67156e-05 -0.8293298575 0.1432014713
100299400.0 0.1009926877 0.0555230253 9.12657e-05 0.0002091607 1.5984e-05 0.0001236967 -0.8291595107 0.1520816252
105299370.0 0.1044983829 0.0518903346 0.0001735012 8.1357e-05 0.0001438915 7.1078e-05 -0.8272099059 0.1611201538
110299340.0 0.1075918073 0.047909746 -0.0001988287 0.0001993806 2.69779e-05 0.0002277685 -0.8259093798 0.171161678
115299310.0 0.1102644622 0.0440648882 -0.0001217221 -0.0001597065 -0.0001302915 7.91799e-05 -0.824461362 0.1798171107
120299280.0 0.1120954832 0.0403174288 -1.3995e-05 0.0001008713 -1.28984e-05 3.951e-05 -0.822056542 0.1889268742
125299250.0 0.1141572143 0.0365382955 6.37742e-05 0.0001905139 8.43502e-05 0.000265816 -0.8210295041 0.1979813059
130299220.0 0.1157014475 0.0330815319 -6.00217e-05 0.0001763742 1.71436e-05 5.94362e-05 -0.818769064 0.2068742361
135299190.0 0.1173695936 0.0295611776 0.0005061772 0.0003416408 -0.0001606601 0.000157808 -0.8167079723 0.2161576334
140299160.0 0.1187951174 0.0258705772 -0.0001463903 -3.99228e-05 5.34465e-05 1.17647e-05 -0.814329678 0.2249573282
145299130.0 0.1200216144 0.0225664023 -0.0001646585 0.000105663 4.7084e-06 -2.5356e-05 -0.8122093413 0.2341619777
150299100.0 0.1212247636 0.0191075904 8.05205e-05 0.0001335416 0.0001459606 1.72635e-05 -0.8106214368 0.2432294347
155299070.0 0.121468823 0.0157574513 8.19605e-05 0.0002301382 -0.000135104 0.0002320697 -0.8075557534 0.2518653038
160299040.0 0.1222964649 0.0131005248 -3.8703e-06 0.0001453074 0.0001060981 -9.4751e-06 -0.8050565579 0.2605342787
165299010.0 0.1230766709 0.0096809785 1.7722e-05 0.0002179339 2.95073e-05 0.0001064216 -0.80250677 0.2697674306
170298980.0 0.123256488 0.0069761141 -8.7927e-05 -2.2919e-06 0.0001319935 -0.0001549148 -0.799618088 0.2783466663
175298950.0 0.1234114616 0.0036880757 -0.000109072 0.0001512635 7.36465e-05 0.00016096 -0.7971328788 0.2867303569
180298920.0 0.123778912 0.0011733811 2.15455e-05 -8.31849e-05 0.0001035729 9.68259e-05 -0.7939051385 0.2949874512
185298890.0 0.1242788138 -0.0018342928 -6.7939e-06 0.000172467 -4.30882e-05 7.76722e-05 -0.7902132453 0.3039289078
190298860.0 0.124239889 -0.0045269312 8.41575e-05 4.05387e-05 -4.8607e-05 -4.57413e-05 -0.7881634026 0.3124462096
195298830.0 0.1239643423 -0.0073137985 0.0001979746 6.00706e-05 -8.32737e-05 0.0001362638 -0.784355237 0.3208891338
200298800.0 0.1238651617 -0.0097750305 -0.0001629655 5.03406e-05 -0.0001569787 -1.19498e-05 -0.7815047185 0.3291262696
205298770.0 0.1237420152 -0.0124022987 0.0001559353 -2.32878e-05 0.000322292 0.0001464211 -0.7775759633 0.3376949859
210298740.0 0.1235401448 -0.015026095 5.61108e-05 0.0001676568 3.16488e-05 3.5478e-05 -0.7744148453 0.3458038033
215298710.0 0.1228618238 -0.0173817192 7.56828e-05 0.0002110454 -2.47231e-05 6.59134e-05 -0.7709568476 0.3539399621
220298680.0 0.1226460114 -0.0200761898 -1.13828e-05 5.9604e-05 0.0001838687 -3.84538e-05 -0.7675571707 0.3623537938
225298650.0 0.1219999895 -0.0222734936 0.0001319208 0.0001518984 5.90045e-05 0.0001343342 -0.7639424083 0.3709475416
230298620.0 0.1217371675 -0.0245110097 0.0002481606 1.33731e-05 4.32594e-05 -3.88315e-05 -0.7596029237 0.3786832657
235298590.0 0.12152213 -0.0265343615 3.87568e-05 0.0002045234 0.0001181986 0.0002561579 -0.7558231096 0.3872650646
240298560.0 0.1208470877 -0.0290937576 5.03317e-05 1.90493e-05 0.0001710706 0.0001588483 -0.7515163909 0.3950457278
245298530.0 0.1201994363 -0.03102452 0.0002079842 0.0001720218 0.000137467 0.0001194487 -0.747611138 0.4023998733
250298500.0 0.1195060876 -0.033244968 5.68294e-05 0.0002301056 5.57656e-05 0.0001260952 -0.7439002536 0.4101793568
255298470.0 0.1186841858 -0.0356148553 0.0001324369 -1.36583e-05 -5.86899e-05 -9.4341e-05 -0.7390622268 0.4181625696
260298440.0 0.1181811263 -0.0375727336 0.0002146063 0.000134187 4.91649e-05 7.95994e-05 -0.7348589059 0.4266850932
265298410.0 0.117383052 -0.0390831175 0.0002063814 0.0002494853 0.0001319728 0.0003120444 -0.7301303127 0.4338710927
270298380.0 0.1167674891 -0.0413294767 -5.70045e-05 -5.35893e-05 1.06065e-05 0.0001201884 -0.7254727755 0.4410901147
275298350.0 0.1158355533 -0.0432837807 0.0001073057 0.0001975843 6.69093e-05 -2.99081e-05 -0.7210893306 0.4488351822
280298320.0 0.1154577158 -0.0450692308 0.0003367804 0.0002913588 -2.63462e-05 -7.65439e-05 -0.7157095052 0.4563552984
285298290.0 0.1146143812 -0.0467659705 -8.03237e-05 0.0002094449 0.0002218375 9.63184e-05 -0.7110457195 0.4636015761
290298260.0 0.113875035 -0.0487713394 9.22408e-05 0.0002720523 -0.0001762232 8.09924e-05 -0.7055725891 0.4713871953
295298230.0 0.1129342141 -0.0506736873 6.0601e-06 -5.9152e-06 5.5453e-06 6.70308e-05 -0.7011999643 0.4777675374
300298200.0 0.1123404305 -0.0521615625 0.0002915806 7.90657e-05 0.0003167272 0.0002414742 -0.695977958 0.4854720375
305298170.0 0.1115635224 -0.0541675335 0.0001323045 -4.28608e-05 0.0001839852 0.0001147647 -0.6901411913 0.4934051464
310298140.0 0.1103353286 -0.0559877312 0.0001316717 0.0001721187 6.87114e-05 8.08019e-05 -0.6854443246 0.4999696864
315298110.0 0.109732241 -0.0575401566 7.329e-07 0.000177337 0.0003111789 0.0003495734 -0.6802901698 0.5066052943
320298080.0 0.1087718151 -0.0599906214 0.0003283521 0.0001451035 0.0002183223 7.25851e-05 -0.6749170041 0.5146285978
325298050.0 0.1076784211 -0.0611572443 6.44547e-05 0.0002042351 0.0001068705 -1.17632e-05 -0.6689174302 0.5212052131
330298020.0 0.1064541059 -0.0632122844 7.10721e-05 0.0001481342 0.0001594119 0.0002769631 -0.6632635115 0.5285834421
335297990.0 0.1050930474 -0.0646858041 0.0001384811 -1.943e-05 6.06595e-05 -7.93472e-05 -0.6583902652 0.535755724
340297960.0 0.103533299 -0.0660564132 0.0001914648 2.59751e-05 3.64161e-05 0.0001590436 -0.6523823487 0.5424261904
345297930.0 0.1024148516 -0.0675663231 7.03782e-05 0.0003190247 3.36597e-05 4.0737e-06 -0.646821763 0.5486423825
350297900.0 0.1012668578 -0.0688892005 0.0004262671 -0.0001166507 0.0001229392 5.36656e-05 -0.6414439872 0.5555453613
355297870.0 0.1001030949 -0.070060122 0.0002225391 9.00274e-05 0.000445629 0.0001176958 -0.6356775341 0.5618351976
360297840.0 0.0988298834 -0.0713144114 0.0003203083 4.958e-06 -7.94572e-05 0.0002459283 -0.6296719781 0.5689881456
365297810.0 0.0974410789 -0.0723452876 0.0004070847 -8.84738e-05 -3.68296e-05 8.65633e-05 -0.6233949613 0.5751130944
370297780.0 0.0963970038 -0.0737972514 0.0001810513 0.0002473438 0.0004441471 0.0001463922 -0.6173125162 0.5820170771
375297750.0 0.0952256585 -0.0748909757 3.11998e-05 0.0001941852 0.0002347555 0.0002745633 -0.6115302145 0.5878523453
380297720.0 0.0938435489 -0.076291742 0.0001201302 0.0002238826 0.0002431842 -8.4699e-05 -0.6053861746 0.5948635922
385297690.0 0.0925059844 -0.0772631162 0.000173154 0.0001530206 0.000147747 6.17256e-05 -0.5994195027 0.6014848679
390297660.0 0.0915394161 -0.0784391134 0.0002373093 8.69106e-05 0.0003038644 4.82011e-05 -0.593004105 0.6071859805
395297630.0 0.0907220155 -0.0795757665 0.0002130764 4.1762e-05 1.0444e-05 -8.4216e-06 -0.586589254 0.613494637
400297600.0 0.089150735 -0.080573949 0.0001226055 0.0001533266 0.0002588455 0.0001105059 -0.5807067902 0.6193300628
405297570.0 0.0874320075 -0.0817344258 0.0001843614 0.0001184926 5.77662e-05 0.0001447647 -0.5738046109 0.6248034483
410297540.0 0.0866502329 -0.0828278834 0.0003359811 9.10692e-05 0.0001374843 0.0001512892 -0.5677575183 0.6305812702
415297510.0 0.0852533759 -0.0839622203 0.0004071853 -2.05758e-05 0.0001321202 -5.74866e-05 -0.5610258632 0.6364217532
420297480.0 0.0840331506 -0.0849688148 0.0003035115 -2.08226e-05 0.0002461416 0.0003689699 -0.5542172485 0.6425054777
425297450.0 0.082803464 -0.085604453 0.0003452587 9.96727e-05 0.0001027856 0.0002760122 -0.5477988736 0.6478058908
430297420.0 0.081579837 -0.0870041957 0.0003336427 0.000224835 0.0002187588 -5.18178e-05 -0.5411403283 0.6533654949
435297390.0 0.0801079705 -0.0876307335 0.0003163268 0.0001744999 0.0003559902 0.0001100837 -0.534399991 0.6585031962
440297360.0 0.0786974423 -0.0889298021 0.0001526296 0.000214212 0.0003496416 0.0001357753 -0.5270257148 0.6639884309
445297330.0 0.0775636749 -0.0897322416 0.0003604426 0.0001895726 0.0003176026 0.0001814772 -0.5201952493 0.6688940299
450297300.0 0.0762930237 -0.0907222806 0.0003444514 5.20915e-05 5.80598e-05 -2.24365e-05 -0.5129850091 0.6740876373
455297270.0 0.074545095 -0.0915733773 0.0004386392 7.35106e-05 0.0003117227 1.1085e-06 -0.5064081568 0.6785529171
460297240.0 0.073471678 -0.0924101782 0.0003620536 -5.74472e-05 0.0004385718 -3.09624e-05 -0.4999920326 0.6844424152
465297210.0 0.0721171524 -0.0932955099 0.0004530107 -7.06057e-05 0.0003010697 0.000363342 -0.4920939464 0.6892820316
470297180.0 0.070929817 -0.0937616745 0.0001358014 -1.87501e-05 8.92752e-05 -1.51405e-05 -0.485056334 0.6947421566
475297150.0 0.069381633 -0.0947461412 0.0003982148 -7.32229e-05 0.00050862 2.65207e-05 -0.4776233196 0.6990224751
480297120.0 0.0680829808 -0.0953261754 0.0002735001 5.3296e-06 0.0004467228 -8.4223e-06 -0.4701659215 0.7040238891
485297090.0 0.0666775714 -0.0966037293 0.0001748561 6.32141e-05 0.0002892482 0.0003111856 -0.4630690835 0.7087280853
490297060.0 0.065130762 -0.096916827 0.0001743938 0.0001974536 0.0002901791 1.28726e-05 -0.4555266317 0.7127952063
495297030.0 0.0637223484 -0.097465577 0.0004370601 0.0002652314 0.0002747196 -2.0321e-05 -0.4483278319 0.717671784
500297000.0 0.0624987326 -0.0982290421 0.0002130164 -8.76545e-05 -1.47689e-05 7.39603e-05 -0.4405317288 0.7228671624
505296970.0 0.0610732498 -0.0991441882 0.0004140882 0.0001399005 0.0003685204 9.71268e-05 -0.4336352214 0.7269682819
510296940.0 0.0597016625 -0.0996305317 0.0001859001 8.76857e-05 8.54645e-05 0.0002535488 -0.4261406303 0.7309284279
515296910.0 0.0584779007 -0.1003468552 0.0002943771 4.34641e-05 0.0002069785 8.39311e-05 -0.418360534 0.7356205056
520296880.0 0.0567237088 -0.1005632764 0.0002083564 0.0003882789 0.0002238045 -7.82e-07 -0.410866156 0.7389414184
525296850.0 0.0554898018 -0.1015364282 0.0002501507 0.0002222629 0.0002116909 0.0002200032 -0.4041078888 0.7438169126
530296820.0 0.0541864887 -0.1018392551 0.0003295735 -0.0002035048 0.0005159005 0.0003137663 -0.3960150277 0.7477353633
535296790.0 0.0526902176 -0.1021962056 0.0001341472 0.0003779281 0.0003050766 0.0001354915 -0.3884855535 0.7513309324
540296760.0 0.0510124291 -0.1028554478 0.0002775556 0.0001659351 0.0002111128 0.0002141897 -0.3808402787 0.7560817876
545296730.0 0.0498220005 -0.1033520934 0.000266207 0.0001131492 0.0002287353 6.93039e-05 -0.3734566051 0.7595015402
550296700.0 0.0486058481 -0.1038304941 0.0003585023 5.63538e-05 0.0003255663 6.4522e-05 -0.3649626347 0.76356761
555296670.0 0.0468465559 -0.1042985003 0.0004260073 7.973e-06 0.0002134037 7.57705e-05 -0.3577493086 0.7673282853
560296640.0 0.0458792782 -0.1045952215 0.0002316795 0.0002282178 0.0004371078 5.44592e-05 -0.3499601255 0.7712100481
565296610.0 0.0440719838 -0.104989765 0.0003823501 -2.99511e-05 0.0004531206 -3.34554e-05 -0.3418192549 0.7740775698
570296580.0 0.0425872303 -0.1051914091 0.0003818839 0.0001442903 0.0005200776 -2.70045e-05 -0.3349054177 0.7780955848
575296550.0 0.0409614297 -0.1057463142 0.0004307021 -0.0001274409 0.0004078141 3.7993e-06 -0.3265275104 0.7807044666
580296520.0 0.0396197216 -0.1060512518 0.0005015187 0.0001762214 0.0001769654 0.0001332944 -0.3185610437 0.7840681203
585296490.0 0.0381320063 -0.10669829 0.0002627837 4.71368e-05 0.0001506663 0.0001447006 -0.3103002016 0.787778873
590296460.0 0.0369832832 -0.1064645462 1.76323e-05 -2.78095e-05 0.0004333895 -8.67891e-05 -0.3025251916 0.7905480197
595296430.0 0.0354391885 -0.1072106304 0.0002416398 -5.5866e-06 0.0003064619 -0.0001850825 -0.2947281305 0.7926776627
600296400.0 0.0336494047 -0.1071821089 0.0001775918 0.0001316696 0.0003024575 0.0002579792 -0.2860122275 0.7960050288
605296370.0 0.0324927908 -0.1074843302 0.0002639479 2.97705e-05 0.0002414758 0.0001912589 -0.2780804552 0.7987990896
610296340.0 0.0306492173 -0.10791145 0.0004053559 0.0002003169 0.0003179543 0.0001058702 -0.2701148258 0.8014407671
615296310.0 0.029778218 -0.1080111302 0.0002850612 0.0001168597 0.0002918829 0.0001544182 -0.2614905139 0.803678763
620296280.0 0.027939865 -0.1083354603 0.00032612 -0.0001675738 0.0002431568 0.000112733 -0.2540154048 0.8062641827
625296250.0 0.0264620223 -0.1086315271 0.0001311658 -4.45301e-05 0.0005002991 5.83652e-05 -0.2453464505 0.8083663896
630296220.0 0.0253192222 -0.1086895896 0.0003783007 3.47953e-05 0.000325318 3.18561e-05 -0.2374687199 0.8109466482
635296190.0 0.0236229394 -0.1086848348 0.0003418132 0.0002963132 0.0004618621 -6.06698e-05 -0.2295644134 0.8131314966
640296160.0 0.022202703 -0.1089040352 0.000303202 4.92459e-05 9.52144e-05 -0.0001073119 -0.2207648486 0.815613398
645296130.0 0.0209085227 -0.108665968 0.0005854884 -8.58178e-05 0.0001545114 -4.2489e-05 -0.2131606608 0.8176491403
650296100.0 0.0193558805 -0.1088036725 0.0003638075 -3.23483e-05 0.0004265038 -0.0003322407 -0.2045528422 0.8189967615
655296070.0 0.0178517955 -0.1089571289 0.0001926072 -8.63515e-05 0.0004472154 -0.0001174952 -0.1958507241 0.8204391428
660296040.0 0.0161078702 -0.1088506288 0.00041915 0.0001145526 0.0004355517 0.0002357719 -0.1869319135 0.8235453634
665296010.0 0.0152286115 -0.1092725957 0.0002633087 -9.67811e-05 0.0003751994 -7.5759e-06 -0.1791134686 0.825293408
670295980.0 0.0132049769 -0.1090515383 0.0005680384 0.0001385978 0.0003066055 0.0001849804 -0.1711957805 0.8263582398
675295950.0 0.0117481201 -0.1088197753 0.0001947566 2.4805e-05 0.0003973047 -2.94353e-05 -0.1633565106 0.8288008149
680295920.0 0.0106243527 -0.108833435 0.000277146 -4.89766e-05 0.0006166412 0.00016214 -0.1550166251 0.8306545373
685295890.0 0.0094437068 -0.1086179143 0.0005094218 -8.53495e-05 0.0003218945 6.631e-07 -0.1459174109 0.8317185965
690295860.0 0.0077668411 -0.1086982716 0.0003949994 -0.0001980146 0.0002860591 0.000112765 -0.1383594257 0.83369945
695295830.0 0.0063656357 -0.1084345893 0.0003123868 -6.25008e-05 0.0002870786 0.0001056425 -0.1287634566 0.8351546782
700295800.0 0.0046432626 -0.1084439557 0.000480836 2.76752e-05 0.000524993 4.68047e-05 -0.1216404838 0.8365984816
705295770.0 0.0032496471 -0.1080415649 0.000364734 0.0001257693 0.00034495 3.59764e-05 -0.113551155 0.8378603636
710295740.0 0.00207182 -0.1077345656 0.0003472479 -0.0001277196 0.000388354 3.05226e-05 -0.1044850721 0.838992526
715295710.0 0.0003786331 -0.1078334338 0.0004034317 -2.35743e-05 0.0004753268 -2.32646e-05 -0.0959070291 0.8396214555
720295680.0 -0.0010194942 -0.1077335678 0.0003870348 9.5942e-05 0.0003623127 6.5794e-06 -0.08770653 0.8407919292
725295650.0 -0.0022857269 -0.1072973259 0.0004463881 -0.0001456058 0.0003297389 -1.02521e-05 -0.0793424772 0.8420383834
730295620.0 -0.0037827242 -0.1070352345 0.0004407501 -0.0002709932 0.0003302711 -5.39958e-05 -0.0716769386 0.8423042616
735295590.0 -0.0050609182 -0.1067826528 0.0004001266 -0.0001969651 0.0004138035 -3.44634e-05 -0.0629360346 0.842929561
740295560.0 -0.0064269821 -0.1065926569 8.39955e-05 9.77264e-05 0.0005420702 9.89617e-05 -0.0535810319 0.8441422741
745295530.0 -0.0080212604 -0.1060540733 0.0004050891 -0.0001391898 0.0002406904 -2.9875e-05 -0.0453690278 0.8438310906
750295500.0 -0.0093577256 -0.1058781576 0.0003838516 -7.6502e-05 0.0002711952 -0.0001337925 -0.037207737 0.8446007199
755295470.0 -0.0107544741 -0.1055744395 0.0003250022 -0.0001558202 0.0004439467 -5.39257e-05 -0.0286124968 0.8446123664
760295440.0 -0.0122458415 -0.1052909574 0.0004860066 -0.0002339962 0.000340995 -2.68977e-05 -0.0204368619 0.8443090457
765295410.0 -0.013579369 -0.1047017708 0.0005891338 -0.000223318 0.0003555009 7.91392e-05 -0.0121532232 0.8450399927
770295380.0 -0.014971058 -0.1045065584 0.0006643103 6.69808e-05 0.0003776384 -0.0001407924 -0.0036331424 0.8447742954
775295350.0 -0.016526427 -0.1042868926 0.0005194597 9.66007e-05 0.0003937955 -0.0002088921 0.0039942881 0.8446100753
780295320.0 -0.0176602259 -0.1038874516 0.0003276456 -8.86141e-05 0.0003249429 -0.0001657988 0.0127738978 0.8442449894
785295290.0 -0.0194552611 -0.1034921517 0.0002873423 -8.5399e-05 0.0003358084 0.000239871 0.0210101774 0.8438751866
790295260.0 -0.0203541276 -0.1026514964 0.0002771486 -5.0652e-05 0.0004891196 -0.0002156201 0.0305086234 0.8439197792
795295230.0 -0.0217404162 -0.1024018799 0.0002939268 -3.94783e-05 0.0002346978 -0.0002428259 0.0387939005 0.8429529637
800295200.0 -0.0229442833 -0.1015821557 0.0005688614 -8.58519e-05 0.0004590117 -0.000105427 0.0473941041 0.8431220418
805295170.0 -0.0244358844 -0.1014393162 0.0004981538 -4.34765e-05 0.000517345 -0.0001952741 0.0554958825 0.8423639373
810295140.0 -0.0254946969 -0.1010549908 0.0005807108 -0.0001658982 0.000484085 5.13888e-05 0.0640227692 0.8416290842
815295110.0 -0.0273157553 -0.100700517 0.0006668206 -0.0001021989 0.0006580695 0.0001982713 0.072681533 0.8408609785
820295080.0 -0.0285561785 -0.0997050578 0.0004114218 -9.52548e-05 0.0002853267 -6.0614e-05 0.0804990262 0.8400987769
825295050.0 -0.0295094078 -0.0996148981 0.0002832943 -0.0003646669 0.000304964 -0.0001288488 0.0888130591 0.8401944355
830295020.0 -0.0308773664 -0.0985784692 0.0002882775 7.82228e-05 6.82331e-05 -5.0215e-06 0.0981085313 0.8387346894
835294990.0 -0.0322104769 -0.0975484161 0.0005855303 -0.0002466628 0.0004158593 -0.0001174316 0.105583523 0.8376594545
840294960.0 -0.0334769471 -0.0973404046 0.0003680956 -0.0002764192 0.0002756874 -3.72823e-05 0.1143630458 0.8365843453
845294930.0 -0.034661833 -0.0968745354 0.0003898295 -0.0002873848 0.0003074501 -3.30418e-05 0.1220138096 0.8351044293
850294900.0 -0.0355783052 -0.0959955392 0.000466986 -7.68756e-05 0.0002098367 -0.0001793541 0.1304022064 0.8335623907
