!Created with skrf (http://scikit-rf.org).
# Hz S RI R 50.0 
!freq ReS11 ImS11 ReS21 ImS21 ReS12 ImS12 ReS22 ImS22
300000.0 -0.233273027 -0.1346418855 0.4669713919 0.0861433291 0.4686355952 0.085415806 -0.2360351918 -0.1266696116
5299970.0 -0.2416665128 0.0054653309 0.4745742439 0.0058726085 0.4753169165 0.0058466566 -0.2443747345 0.0049105353
10299940.0 -0.2387424493 0.018689194 0.4773193081 0.0067071674 0.477194397 0.0069676302 -0.2411034311 0.0172973077
15299910.0 -0.2338375651 0.0287988773 0.4806967047 0.0080405806 0.4809712604 0.0084249663 -0.2370931059 0.0264127349
20299880.0 -0.2286001839 0.0367464795 0.4852026817 0.0082673974 0.485482096 0.0080992687 -0.2322105317 0.0338021127
25299850.0 -0.2226026794 0.0438003305 0.4906599128 0.0073394494 0.4910797352 0.0072653537 -0.2272951018 0.0400510647
30299820.0 -0.217138678 0.0488926733 0.4960757132 0.0050975688 0.4961412341 0.0049471242 -0.2219377366 0.0449069245
35299790.0 -0.2114348617 0.0530707012 0.5009871623 0.0016880596 0.5014770492 0.0017788277 -0.2169079731 0.0493637837
40299760.0 -0.2060674804 0.0561696486 0.5063436472 -0.0024159455 0.506865751 -0.0021617669 -0.2119091097 0.0522919809
45299730.0 -0.201003415 0.0588487067 0.5110146269 -0.0068031826 0.5116290868 -0.0067636904 -0.2070410371 0.054802308
50299700.0 -0.1961074807 0.0607867725 0.5151637363 -0.0125642653 0.5156245003 -0.0125350041 -0.2027532388 0.0570051417
55299670.0 -0.1919401536 0.0625650995 0.5189397497 -0.0178506702 0.5188493769 -0.0184706001 -0.1992249837 0.0586340265
60299640.0 -0.1880887958 0.0639492059 0.522576286 -0.0247617058 0.5226897183 -0.0245633627 -0.1953327743 0.0597778091
65299610.0 -0.1844503301 0.0653236681 0.525696875 -0.0308127126 0.5254864043 -0.0310906303 -0.1919785575 0.0608742699
70299580.0 -0.1808958914 0.0656552333 0.5274758081 -0.0373255307 0.5277686836 -0.0375124184 -0.1893556196 0.0616940971
75299550.0 -0.1780352528 0.0667772014 0.5292875462 -0.0443264634 0.5297044282 -0.0443224475 -0.1862205384 0.062488095
80299520.0 -0.1751477942 0.0677224161 0.5312346119 -0.0514838872 0.5316493388 -0.0515953506 -0.1835402884 0.0637212144
85299490.0 -0.1724420609 0.0683377817 0.532431489 -0.0584302226 0.5330135714 -0.0579985741 -0.1816016487 0.0640522439
90299460.0 -0.1701097917 0.068925734 0.533533602 -0.0651833186 0.5335097796 -0.0647902299 -0.1794005091 0.0649726317
95299430.0 -0.1681195844 0.0698175491 0.5346743791 -0.0719978434 0.5349136904 -0.0721419194 -0.1776563449 0.065506003
100299400.0 -0.1661443345 0.0703282417 0.5353793189 -0.0785029994 0.5350305108 -0.0790125993 -0.176074523 0.066476036
105299370.0 -0.1641327498 0.070953859 0.5351464459 -0.0860000147 0.5357910556 -0.0854363606 -0.174012964 0.0667863424
110299340.0 -0.1621403496 0.0716583356 0.5356523084 -0.0922036381 0.5357725754 -0.0924054496 -0.1727866104 0.0672729914
115299310.0 -0.1608722136 0.0725593823 0.535406999 -0.0992465872 0.5355285663 -0.099218607 -0.1715641213 0.0684347819
120299280.0 -0.1594280967 0.0732790138 0.5354389139 -0.1063185525 0.5349505771 -0.1065874284 -0.1703012303 0.0684500668
125299250.0 -0.1580768249 0.0738929622 0.5347848473 -0.1127646077 0.5347041176 -0.1127118535 -0.1687376221 0.0697571409
130299220.0 -0.156507593 0.0746433939 0.5343125462 -0.1199194772 0.5343724086 -0.119960912 -0.1676363414 0.0703887614
135299190.0 -0.1555534263 0.0759124115 0.5337306758 -0.1260421292 0.5337952066 -0.1263914282 -0.1668309756 0.0708643377
140299160.0 -0.1542483574 0.0768314914 0.5331520215 -0.1330055681 0.5329105274 -0.1325743876 -0.166094937 0.0719013453
145299130.0 -0.1532642378 0.0780379618 0.5318818675 -0.1395258499 0.5319064209 -0.1398278565 -0.1649059246 0.0727942751
150299100.0 -0.1520833087 0.0786535601 0.5309056965 -0.14604367 0.5305822382 -0.1459856066 -0.1641804058 0.0740136745
155299070.0 -0.1506328156 0.0799744862 0.5288567522 -0.1525008762 0.529970728 -0.1527689952 -0.1632045996 0.0748911335
160299040.0 -0.1501317699 0.0814143849 0.5284903581 -0.1588738715 0.5281657599 -0.1589579387 -0.1628209357 0.0758659761
165299010.0 -0.1489309076 0.0825958816 0.52650097 -0.1654198153 0.5267792711 -0.1655581907 -0.1615750261 0.0764886904
170298980.0 -0.1479892079 0.0835549452 0.5247125016 -0.1717300885 0.5255388547 -0.1717843716 -0.1610917777 0.0780607965
175298950.0 -0.1468412412 0.0845622141 0.523846817 -0.1779248453 0.5238252866 -0.1783933904 -0.160249647 0.0792059615
180298920.0 -0.1458644401 0.0861323715 0.5215268942 -0.1844038171 0.5219503189 -0.1848935124 -0.1597202091 0.0801042471
185298890.0 -0.1452150967 0.0872954866 0.5202298933 -0.1904589072 0.51999831 -0.1905345945 -0.1583911626 0.081137933
190298860.0 -0.1439040629 0.0889972991 0.5176860655 -0.1966446433 0.5183238097 -0.1967323853 -0.1580063821 0.0823691118
195298830.0 -0.1429898195 0.090117751 0.5165251471 -0.2028024394 0.5163991051 -0.2026768831 -0.1575160973 0.0833912009
200298800.0 -0.1418192885 0.0910525579 0.5139443069 -0.2094135939 0.5141980204 -0.2090641768 -0.1564521418 0.0847640223
205298770.0 -0.1413962703 0.0925137601 0.5113777288 -0.2147707788 0.5121344908 -0.2148790978 -0.1553937737 0.0861765528
210298740.0 -0.1402674895 0.0939867547 0.5096980274 -0.2208237547 0.5092740356 -0.2209226029 -0.1551879564 0.0870487513
215298710.0 -0.1392636178 0.0956778226 0.5071989026 -0.2264282155 0.5073020697 -0.2271705294 -0.1541375481 0.088290903
220298680.0 -0.1380957899 0.0968031722 0.5045760226 -0.2327950275 0.5042774242 -0.2326787556 -0.1534843366 0.0893416459
225298650.0 -0.1371011924 0.09829497 0.5020688888 -0.2383546563 0.5022092481 -0.2380827941 -0.1528761548 0.0906485119
230298620.0 -0.1359039056 0.099970088 0.4996687586 -0.2444307653 0.499759545 -0.2446831938 -0.1521606368 0.0918296695
235298590.0 -0.1354940933 0.1013824299 0.4972497953 -0.25052276 0.4976587559 -0.2502418891 -0.1511293227 0.0935110211
240298560.0 -0.1342098422 0.1029183269 0.4946764924 -0.2556815448 0.4946782474 -0.2556478125 -0.1505698127 0.0945069209
245298530.0 -0.1334717647 0.1041950146 0.4918058374 -0.2616240022 0.4915772544 -0.2616930901 -0.1495188499 0.0959470454
250298500.0 -0.1325302721 0.1055613856 0.4892037536 -0.2669348712 0.4892330802 -0.2668499096 -0.1490052333 0.097477201
255298470.0 -0.1311964663 0.1072796127 0.4864016549 -0.2721397092 0.486539372 -0.2730696425 -0.1482525341 0.0988642659
260298440.0 -0.1300776802 0.108393873 0.4833352748 -0.2773944063 0.4831422497 -0.2779544529 -0.1474278292 0.0997779993
265298410.0 -0.1292804356 0.1100425155 0.4800902967 -0.2839390433 0.4797134076 -0.283779073 -0.1459949935 0.101124044
270298380.0 -0.1282496298 0.1111390676 0.4768933117 -0.2892457345 0.4770008799 -0.2891325864 -0.1455137749 0.1026768897
275298350.0 -0.1266486488 0.1129902965 0.4731322934 -0.2939641263 0.4736206564 -0.2943186788 -0.1445659702 0.1040852064
280298320.0 -0.1261525662 0.11433111 0.4706869276 -0.2996187756 0.4708407369 -0.2996929654 -0.1434642986 0.1055249317
285298290.0 -0.1249403641 0.1158968915 0.4673755352 -0.3049282362 0.4678574312 -0.3047039892 -0.1428744379 0.106775735
290298260.0 -0.1238705184 0.1174957856 0.4644543957 -0.310428691 0.4643911365 -0.3103952445 -0.1417366317 0.1081061166
295298230.0 -0.1226013124 0.1186545561 0.4608220491 -0.3155558843 0.461369157 -0.3158842638 -0.1407394157 0.1094218397
300298200.0 -0.121359773 0.1203989497 0.4575925369 -0.3211680239 0.4578249152 -0.3211032294 -0.1398364551 0.1107649509
305298170.0 -0.1201836571 0.1214960262 0.4542219611 -0.3263460763 0.454268025 -0.3262138613 -0.1387092807 0.1113564153
310298140.0 -0.1186567109 0.1223247008 0.4505430251 -0.3310515162 0.4510021179 -0.3311805652 -0.1374502237 0.1129737764
315298110.0 -0.1177613134 0.1235922483 0.4468373321 -0.3368670856 0.4470640408 -0.3369614625 -0.136537883 0.1144191688
320298080.0 -0.1164150567 0.1251225731 0.4427908002 -0.3419297193 0.4436968115 -0.3416270463 -0.1357833726 0.1152372309
325298050.0 -0.1155469802 0.1260195625 0.4390043206 -0.346457064 0.4398827592 -0.346879014 -0.1346338966 0.1167183073
330298020.0 -0.1149984645 0.1276505629 0.4351487075 -0.3519185555 0.4356458943 -0.3515019877 -0.1340749567 0.1178109812
335297990.0 -0.1133810235 0.1289661027 0.4317156735 -0.3565677115 0.4317093876 -0.3567464464 -0.1329046893 0.1193304956
340297960.0 -0.1127358961 0.1303461107 0.4271763964 -0.3614364592 0.4272860635 -0.3613409458 -0.132104513 0.1207004418
345297930.0 -0.1113072898 0.1318910827 0.4234897803 -0.3664506952 0.4230221837 -0.3662340257 -0.130921914 0.1220794682
350297900.0 -0.1102434524 0.1330297502 0.4195092308 -0.3701312937 0.4195340695 -0.3705170534 -0.1298764174 0.1231231155
355297870.0 -0.1087282054 0.1342053901 0.4151411012 -0.3748233238 0.4151543834 -0.374826012 -0.1288652712 0.1243643566
360297840.0 -0.107590067 0.1358211726 0.4106963815 -0.3796022474 0.4109842924 -0.3801182404 -0.1278315889 0.1262633917
365297810.0 -0.1062515502 0.1372580822 0.407005255 -0.3841335048 0.4068744574 -0.3845465466 -0.1269508777 0.1275824921
370297780.0 -0.104881714 0.1383715985 0.4020279834 -0.3888483097 0.4028153651 -0.3884906749 -0.1258510526 0.1288656301
375297750.0 -0.1033080672 0.1397284198 0.3985574379 -0.3931848755 0.3982056149 -0.3934789251 -0.1243278361 0.1300948444
380297720.0 -0.1022846469 0.141299357 0.3944014626 -0.3976516574 0.3940353915 -0.3979906627 -0.1230706132 0.1317359274
385297690.0 -0.1007669511 0.1425088339 0.3894785845 -0.4017304729 0.3896814937 -0.4021657182 -0.1218234416 0.1330636661
390297660.0 -0.0991533037 0.1432394198 0.3852070736 -0.4056863784 0.3852240955 -0.4060095925 -0.1203823555 0.1339250467
395297630.0 -0.0973334471 0.1447824824 0.3808688485 -0.4096011606 0.3808104131 -0.4101502054 -0.1196511456 0.135170422
400297600.0 -0.0962079415 0.1455406757 0.3761015158 -0.4144550819 0.3763653465 -0.4141888631 -0.1181389318 0.1368872038
405297570.0 -0.094819965 0.1466615865 0.3716046878 -0.4180245646 0.3719052747 -0.4183047244 -0.1169650525 0.1380534385
410297540.0 -0.0933822367 0.1485080303 0.3671974597 -0.4225652778 0.3675028714 -0.4221342639 -0.1154851048 0.1394966587
415297510.0 -0.0920104281 0.1494477963 0.3626253698 -0.4265723885 0.3629248647 -0.4266434517 -0.1140706373 0.1408542853
420297480.0 -0.0902325542 0.1499653379 0.3578265286 -0.4304174119 0.3582412627 -0.4307636856 -0.1123650312 0.1423975869
425297450.0 -0.0882088514 0.1511360697 0.3527211746 -0.4343617037 0.3530690122 -0.4343660774 -0.1111750105 0.1428460287
430297420.0 -0.0869734082 0.1524532048 0.3490527042 -0.4382010694 0.3486702936 -0.4378030982 -0.1096623558 0.1445452081
435297390.0 -0.0850092098 0.1535452934 0.3433789243 -0.4427942418 0.3436506172 -0.442194476 -0.1089994024 0.1458907419
440297360.0 -0.0832877094 0.1543074725 0.3382504253 -0.4456780217 0.3384375428 -0.4457395346 -0.1075344441 0.1470650463
445297330.0 -0.0816831722 0.1550101909 0.333566949 -0.4489875367 0.3336051079 -0.4493389013 -0.1059586599 0.1480604827
450297300.0 -0.0800840522 0.1563401663 0.3290930072 -0.4530008606 0.3294300546 -0.4528844385 -0.104250349 0.1494892521
455297270.0 -0.078621078 0.1571655181 0.3239360391 -0.45660939 0.3242104713 -0.4565747367 -0.102628817 0.1507246049
460297240.0 -0.0762633001 0.1582422488 0.3190122301 -0.4607480407 0.318956334 -0.4602817417 -0.1016533947 0.1515782082
465297210.0 -0.0748441055 0.1590771732 0.3135276781 -0.4636053162 0.3137272239 -0.4641266105 -0.0996856155 0.1533980473
470297180.0 -0.0731561124 0.159934118 0.3087390627 -0.466163147 0.3091750565 -0.466986055 -0.0985888591 0.1540346588
475297150.0 -0.0715308403 0.1611222934 0.303534032 -0.4698577831 0.3037224323 -0.4705044469 -0.0967729434 0.1550172935
480297120.0 -0.0693057854 0.1622200055 0.2983590473 -0.4735379345 0.2987406274 -0.4735072227 -0.095720537 0.1559845382
485297090.0 -0.067650767 0.1627161039 0.2932103528 -0.4767297197 0.2933619017 -0.476606238 -0.0938894001 0.1572042766
490297060.0 -0.0654284428 0.1641220125 0.2877356839 -0.4799774373 0.2883240454 -0.4800383527 -0.0922983909 0.1580431068
495297030.0 -0.0641325022 0.1645046678 0.2831598331 -0.4830829009 0.2830514066 -0.4833389049 -0.0906429341 0.1590749763
500297000.0 -0.0624023955 0.1655138492 0.2777249202 -0.4858936501 0.2775075384 -0.4863076517 -0.089002028 0.1604323681
505296970.0 -0.0598277335 0.1663927794 0.2721267796 -0.4892274804 0.2725259921 -0.4887078151 -0.087852315 0.1607078473
510296940.0 -0.0582586005 0.1669321292 0.2672758096 -0.492286856 0.2671098257 -0.4922426668 -0.0856827505 0.1622057374
515296910.0 -0.0562992958 0.168077242 0.2614201648 -0.4948485478 0.2610245594 -0.4949620048 -0.0842935493 0.1627249112
520296880.0 -0.0544148176 0.1685802712 0.2562038778 -0.4972107565 0.2557827559 -0.4974627478 -0.0821492224 0.1642244875
525296850.0 -0.0522498966 0.1691687455 0.2502669491 -0.5002420724 0.2502177812 -0.5003316946 -0.0808264656 0.1649096461
530296820.0 -0.050645348 0.169800175 0.245069936 -0.5027104518 0.2451266912 -0.5030247222 -0.079030868 0.1658636853
535296790.0 -0.0480399788 0.1706605193 0.239654418 -0.5057740388 0.2396583098 -0.505640882 -0.0772561507 0.167170429
540296760.0 -0.0463623342 0.1715856397 0.2340065174 -0.5081760365 0.2339778467 -0.5080717251 -0.0758071676 0.167378942
545296730.0 -0.0445721452 0.1724080446 0.2284658373 -0.5106330476 0.2281680892 -0.5103238032 -0.0740140752 0.1684241569
550296700.0 -0.0420122417 0.1726405691 0.2229957282 -0.5128800003 0.222951029 -0.513316438 -0.0721659671 0.1693158231
555296670.0 -0.0404588732 0.1732975253 0.2175535229 -0.5156906399 0.2175410702 -0.5154639409 -0.0711641557 0.1698521218
560296640.0 -0.0376926476 0.1738115849 0.2115354511 -0.5173579257 0.2122276951 -0.5176807805 -0.0691661526 0.1711898072
565296610.0 -0.0365179247 0.1748532261 0.2065626633 -0.5199448716 0.2063409525 -0.5196000086 -0.067263534 0.1718284033
570296580.0 -0.0345015167 0.175406725 0.2002781183 -0.522147277 0.2003342945 -0.522209705 -0.065522144 0.1725753916
575296550.0 -0.0320468162 0.1758091674 0.1949848938 -0.5244249269 0.1947152691 -0.5242283193 -0.0639462005 0.1732237023
580296520.0 -0.0302239146 0.1765113737 0.189166304 -0.5262309367 0.1892631286 -0.5265098388 -0.0625848448 0.1737507497
585296490.0 -0.0279113668 0.1769659009 0.1839813151 -0.528177278 0.1833285417 -0.5281788826 -0.0605313506 0.1747608676
590296460.0 -0.0254583936 0.1775415734 0.1775675529 -0.5303566261 0.1780535114 -0.5303454786 -0.0589795112 0.1755787575
595296430.0 -0.0236949975 0.1782123622 0.1713852892 -0.5324207365 0.1715413778 -0.5321087953 -0.0570411461 0.1763182869
600296400.0 -0.0215138053 0.1784306032 0.1657049976 -0.5334528533 0.1657979254 -0.533794114 -0.0554539361 0.1768286362
605296370.0 -0.0197595216 0.1790693677 0.1604980124 -0.5354997207 0.1600563385 -0.535856409 -0.053736025 0.1774614783
610296340.0 -0.0173774565 0.1797333815 0.154770304 -0.5368074754 0.1548013861 -0.5368077346 -0.052010433 0.1779295119
615296310.0 -0.0151613141 0.1801141226 0.1485483813 -0.5388355446 0.1482321728 -0.5390672596 -0.0497652485 0.1789622998
620296280.0 -0.0135907858 0.1805638432 0.1427466872 -0.540514417 0.1427177911 -0.540477146 -0.048673755 0.1796581242
625296250.0 -0.0116117579 0.180601993 0.1367096097 -0.5419678579 0.1368777123 -0.5420300788 -0.0469633485 0.1801785707
630296220.0 -0.0091476735 0.1814149393 0.1306710029 -0.5432925353 0.1307459873 -0.543338604 -0.0446720477 0.1809011813
635296190.0 -0.0074789491 0.1816275054 0.1254496533 -0.5444506412 0.1247664123 -0.5446139005 -0.0431090203 0.1812293266
640296160.0 -0.0052647317 0.1821153672 0.1190082222 -0.5465310659 0.1189962748 -0.5460003652 -0.0414001277 0.181531313
645296130.0 -0.0029764438 0.1827459706 0.1133598043 -0.5474575589 0.1134933464 -0.5468402676 -0.0396936744 0.1815757408
650296100.0 -0.0010050122 0.1824240279 0.1073545721 -0.5484966917 0.1071742887 -0.5485494719 -0.0374399321 0.1824192955
655296070.0 0.0010565162 0.1829213839 0.1010417662 -0.5493274535 0.1012010668 -0.5493492949 -0.0363052114 0.183825912
660296040.0 0.0028630838 0.1832879089 0.0956506905 -0.5503779045 0.095447224 -0.5507441894 -0.0343860657 0.1835884559
665296010.0 0.0050519092 0.1836170346 0.0889845922 -0.5513001041 0.0892742014 -0.5512843041 -0.0325288983 0.1841762713
670295980.0 0.007044014 0.1837615195 0.0832371531 -0.5521839003 0.0834320841 -0.5520262808 -0.0310283757 0.1844903597
675295950.0 0.0090510192 0.1837143776 0.0774863654 -0.5531842983 0.0775818029 -0.5530459916 -0.0289417946 0.1851329622
680295920.0 0.0107985228 0.1840709121 0.0716578595 -0.5534341757 0.0716568115 -0.5536756324 -0.0268468518 0.1852752229
685295890.0 0.0131832841 0.1842884488 0.0652940111 -0.5548342371 0.0655246157 -0.5547967374 -0.0249928706 0.186193393
690295860.0 0.0149676434 0.1844096262 0.0596293366 -0.5553797429 0.0593488554 -0.555364275 -0.0235860859 0.1861445924
695295830.0 0.0173270554 0.1843573088 0.0540988739 -0.5557565479 0.0537029172 -0.5555487861 -0.021754274 0.1868176606
700295800.0 0.0193362394 0.1847464625 0.0480985773 -0.5565126691 0.0475370994 -0.5564231637 -0.0198202732 0.1871842762
705295770.0 0.0210396973 0.1844832501 0.0419708324 -0.5566782418 0.0416239963 -0.556888073 -0.018117088 0.1877171389
710295740.0 0.0231585189 0.184697765 0.0358243506 -0.5573509251 0.0356344214 -0.557397353 -0.0161634696 0.1878947454
715295710.0 0.0252451718 0.1847623843 0.0302095149 -0.5575150183 0.0297829516 -0.55778749 -0.0143946245 0.1880990748
720295680.0 0.0276258236 0.1848593766 0.0235715681 -0.5577297799 0.0234003718 -0.5579346569 -0.0124983613 0.1882085428
725295650.0 0.0290914439 0.1850050453 0.0179324214 -0.5581684374 0.0174635526 -0.5581591863 -0.0110760505 0.189088629
730295620.0 0.0305408975 0.1846743259 0.0117196116 -0.5577027722 0.0116863703 -0.5578545605 -0.0091662766 0.1896049584
735295590.0 0.0330200314 0.184498093 0.0055636416 -0.5581999048 0.0057155523 -0.5583339933 -0.0072751163 0.1891454132
740295560.0 0.0349327204 0.1841567473 4.07599e-05 -0.5583180826 -0.0001319498 -0.5583672497 -0.0056080359 0.1897724015
745295530.0 0.0367883979 0.1843897386 -0.0056839625 -0.5573108484 -0.0053846003 -0.5576277532 -0.0041774024 0.1896154617
750295500.0 0.038522825 0.1845072001 -0.0118063292 -0.5577931214 -0.0124119714 -0.558049806 -0.002124583 0.1897911161
755295470.0 0.0405859633 0.1840194575 -0.0175626691 -0.5584489111 -0.018090663 -0.5579782107 4.23063e-05 0.1908519922
760295440.0 0.0425715945 0.1842714605 -0.0242094552 -0.5575091412 -0.0241441427 -0.5571571407 0.0019984328 0.189909476
765295410.0 0.0447850431 0.1836904168 -0.0301229849 -0.5572583571 -0.029800601 -0.5572008698 0.0038723235 0.1903744032
770295380.0 0.0466398107 0.1835279059 -0.0356595133 -0.5564571795 -0.0361608741 -0.55723341 0.0052224713 0.1906962798
775295350.0 0.0483829566 0.1832259325 -0.0422404639 -0.5565288308 -0.0417957526 -0.5559224047 0.0074493078 0.1906861308
780295320.0 0.0501858856 0.1829382992 -0.0477786885 -0.5554811618 -0.0477894681 -0.5557176919 0.0096003768 0.1906289109
785295290.0 0.0522155424 0.1824248911 -0.0539511034 -0.555210627 -0.0536247839 -0.5550699873 0.010735364 0.1912871122
790295260.0 0.054259176 0.1818989637 -0.0596144588 -0.5547771452 -0.0594714669 -0.5552278419 0.0124138957 0.1913796156
795295230.0 0.0560843523 0.1814802491 -0.0656908382 -0.5536595531 -0.0655738194 -0.5543380343 0.0147059549 0.1905098025
800295200.0 0.0576860106 0.1813528316 -0.0712495854 -0.5528693711 -0.0716333238 -0.5535148612 0.0164384594 0.191154161
805295170.0 0.0596223434 0.1810386827 -0.0773690718 -0.5523225132 -0.0776855507 -0.5528627852 0.0187879797 0.1910500927
810295140.0 0.0618455026 0.1806289404 -0.0835429345 -0.5513624882 -0.0837536583 -0.5516780816 0.0206436574 0.1911284455
815295110.0 0.0635415338 0.1801269499 -0.0891842051 -0.5504894459 -0.0889179278 -0.5513064608 0.0219390325 0.1910152415
820295080.0 0.0656307939 0.1795046583 -0.0947775529 -0.5495162399 -0.0951818102 -0.5497933271 0.0232595054 0.1913814393
825295050.0 0.0671322548 0.1787772911 -0.1011722763 -0.5486391132 -0.101074807 -0.5483340975 0.0260083237 0.1915309852
830295020.0 0.0690836743 0.1783372317 -0.1069182028 -0.5475452919 -0.1068681161 -0.5476704622 0.0273862721 0.1907838463
