!Created with skrf (http://scikit-rf.org).
# Hz S RI R 50.0 
!freq ReS11 ImS11 ReS21 ImS21 ReS12 ImS12 ReS22 ImS22
300000.0 -0.0471857481 -0.0479492843 -0.0016057893 0.0019229613 0.0003607046 0.0008665644 -0.7770866968 -0.1386825831
5299970.0 -0.0486259017 0.0156227374 -2.06411e-05 -6.08757e-05 3.752e-05 -9.10553e-05 -0.78414064 -0.0073572359
10299940.0 -0.0432246042 0.0319121029 -0.0002621682 9.164e-06 -4.3062e-06 6.71534e-05 -0.7875554466 -0.0035896499
15299910.0 -0.0348868291 0.0460628154 -0.0001484793 0.000174423 6.39518e-05 -2.55363e-05 -0.7929875655 -0.00151093
20299880.0 -0.0253175939 0.0575868467 0.0001117113 -0.0001456351 0.0002796985 -4.34134e-05 -0.7995318011 0.0022761802
25299850.0 -0.0143580311 0.0664366879 0.000302868 6.11585e-05 0.0001335943 0.0001250146 -0.8057043424 0.0083762468
30299820.0 -0.0033752522 0.0730351556 7.86512e-05 -0.0001103466 0.0001428689 4.87476e-05 -0.812008206 0.0164146733
35299790.0 0.0075260458 0.0776930772 -6.43556e-05 -0.0001029182 8.36918e-05 1.1439e-05 -0.8170403199 0.0249501106
40299760.0 0.0189657117 0.080636026 -0.0001540323 -0.0001192471 8.4453e-06 7.57019e-05 -0.8213609791 0.0344820568
45299730.0 0.029615332 0.0816801912 0.0001942285 3.32096e-05 -0.000145724 0.00015662 -0.8249013381 0.0445063226
50299700.0 0.0392089889 0.08177009 -5.70106e-05 0.0001346482 -8.9599e-06 -6.26372e-05 -0.827111837 0.0540383592
55299670.0 0.0483198846 0.0803494726 -1.91317e-05 -0.0003593712 5.09692e-05 0.000171437 -0.8294044096 0.0645662397
60299640.0 0.0568388526 0.0788904086 -6.84279e-05 0.0001819586 -9.92037e-05 1.1304e-06 -0.830509851 0.0742666964
65299610.0 0.0642406172 0.0761749676 -5.40383e-05 -0.0001204199 -4.70342e-05 0.0001413701 -0.8320722016 0.0843436758
70299580.0 0.0710231204 0.0735350381 7.05142e-05 -2.66945e-05 9.94054e-05 4.1759e-05 -0.831578417 0.0943704413
75299550.0 0.0773470177 0.0701349855 -6.7838e-06 6.95417e-05 0.0002673814 -9.08876e-05 -0.8320948946 0.104158015
80299520.0 0.0829483498 0.0665602239 -6.81588e-05 -6.67013e-05 6.9761e-06 -0.0001790651 -0.8320368686 0.1140760553
85299490.0 0.0877628557 0.062847566 -2.10722e-05 -2.07861e-05 0.0001422558 0.0001155377 -0.8315733912 0.1234471334
90299460.0 0.0923445972 0.0590656405 -3.01652e-05 9.69806e-05 -4.1978e-06 -8.37199e-05 -0.8304316557 0.133223353
95299430.0 0.0964119012 0.0549227472 -0.0001021918 2.84858e-05 9.4227e-05 -0.0002197392 -0.8291385374 0.143420453
100299400.0 0.0996817837 0.0512559545 5.2736e-06 -1.87512e-05 -0.0001487402 5.36075e-05 -0.8286152802 0.1523114576
105299370.0 0.103062517 0.0473622742 0.0001464621 8.52084e-05 -0.0001148587 0.0001238222 -0.826957607 0.1609042293
110299340.0 0.1060436827 0.0433879585 -0.0001492973 4.7689e-05 0.0001543151 3.78948e-05 -0.8252194833 0.171028682
115299310.0 0.1082242159 0.0393316597 0.0001885004 0.0001767121 0.0002164899 -2.86636e-05 -0.8240538589 0.1801147621
120299280.0 0.1105472067 0.035409342 -3.59461e-05 0.0001085665 -4.42604e-05 -4.9147e-06 -0.8223765722 0.1888153007
125299250.0 0.1121731962 0.0314087423 -0.0001618889 1.59369e-05 -9.22785e-05 -2.66768e-05 -0.8208303196 0.1979537411
130299220.0 0.1137076974 0.027872207 -0.0002127915 0.0001308094 4.76817e-05 -0.0001375691 -0.8185600883 0.2068527506
135299190.0 0.1152117269 0.0243153663 -0.0001262741 0.0001836742 7.57628e-05 0.000122249 -0.8162215349 0.2158519182
140299160.0 0.1162780562 0.0207751593 -0.0001199979 0.0002549704 -7.2601e-06 0.0001022699 -0.8139031058 0.2247471206
145299130.0 0.1174632493 0.0171919941 -9.91111e-05 2.62634e-05 -4.81704e-05 0.0002079877 -0.8120845029 0.2346398625
150299100.0 0.1184323563 0.0135867591 -8.65602e-05 -0.0001131366 0.0001974694 0.0001502222 -0.8102759887 0.242723465
155299070.0 0.1190299328 0.0101495065 6.48048e-05 -0.000101106 0.0001385201 0.0001249491 -0.8070176508 0.2515386587
160299040.0 0.1192952009 0.0071113379 0.0001091552 -6.46873e-05 0.0003773939 -8.89678e-05 -0.8049837666 0.2609494196
165299010.0 0.120172153 0.0036420398 -3.03896e-05 6.49935e-05 4.92912e-05 9.77029e-05 -0.8016280746 0.2695107086
170298980.0 0.1199602871 0.0009204087 -3.70011e-05 3.59958e-05 8.2704e-06 -6.60559e-05 -0.7989266309 0.2779963932
175298950.0 0.1200946328 -0.0023781421 0.0001393508 1.18994e-05 -8.68919e-05 3.29017e-05 -0.7964327871 0.2868365376
180298920.0 0.1203520767 -0.0050442081 4.5912e-05 0.0001333331 -7.46502e-05 -9.3023e-05 -0.7932757572 0.2950497548
185298890.0 0.1207856287 -0.0080636541 -1.96769e-05 -1.61848e-05 8.94116e-05 -1.23288e-05 -0.7900394689 0.303466437
190298860.0 0.1207111152 -0.011070095 8.01128e-05 -0.0001287642 -0.0001163675 -0.0002941529 -0.7876481402 0.3123620993
195298830.0 0.12010372 -0.0137088111 -0.0001393445 -0.0001684258 8.89475e-05 -9.05477e-05 -0.7843260293 0.3213779615
200298800.0 0.120043384 -0.0164859163 0.0001124359 1.52957e-05 -4.19123e-05 6.15741e-05 -0.7811902235 0.3291805048
205298770.0 0.119837898 -0.0189556538 -2.60103e-05 -0.000110946 0.0001567609 -5.5572e-06 -0.7771969703 0.3374028678
210298740.0 0.1191673045 -0.0217247339 5.52402e-05 2.8439e-05 0.0001323712 -8.66633e-05 -0.7743783315 0.3460595271
215298710.0 0.1186144011 -0.0242746268 0.0001119373 -0.0001274722 0.0001715854 -1.7104e-05 -0.7707617738 0.3535904415
220298680.0 0.1179673897 -0.0269187588 5.25772e-05 0.0001531203 -5.20332e-05 -6.59518e-05 -0.7673347254 0.3623264259
225298650.0 0.117954131 -0.0293299168 -2.24035e-05 0.0002061525 -7.39465e-05 4.11311e-05 -0.763246522 0.3702032464
230298620.0 0.1169262026 -0.0315592773 1.00065e-05 0.0001644515 0.000181452 7.22076e-05 -0.7597357923 0.3785796657
235298590.0 0.1163953852 -0.033834105 -7.87305e-05 0.0003381991 -4.33192e-05 0.0001232356 -0.7550598567 0.3863550769
240298560.0 0.1157349808 -0.0362252822 1.75426e-05 5.90705e-05 0.0001333792 -9.9825e-06 -0.7516345704 0.3946568655
245298530.0 0.1148135962 -0.0387667498 -3.00758e-05 4.40049e-05 -9.34605e-05 7.1312e-06 -0.7475295091 0.4025476681
250298500.0 0.1142475988 -0.0406800223 -1.54509e-05 -7.47132e-05 0.0001264099 -0.0001290393 -0.7440310033 0.4102862424
255298470.0 0.1131231891 -0.0430504255 0.0001140546 0.0002065677 9.15636e-05 0.0001617235 -0.7387118184 0.4179468965
260298440.0 0.1124847157 -0.0450894095 -5.38414e-05 -1.1065e-06 0.0001033205 -0.000147985 -0.7347534574 0.4260284483
265298410.0 0.1115693857 -0.0467303386 0.0001432186 6.69641e-05 -4.55475e-05 0.0002756203 -0.7301756989 0.433301676
270298380.0 0.1106462464 -0.0489632164 0.0002661067 6.89856e-05 5.72723e-05 6.20551e-05 -0.7252208369 0.4408662528
275298350.0 0.1096342695 -0.051033002 -0.0001199178 3.03126e-05 0.0001430509 -3.82448e-05 -0.7208535026 0.4484077638
280298320.0 0.1089205451 -0.052775485 0.0003357551 2.48972e-05 -1.82106e-05 0.0001621412 -0.7155057014 0.4556406083
285298290.0 0.108062294 -0.0546005428 0.0001791451 0.0002368007 -2.18906e-05 0.000186066 -0.7104105481 0.4635864257
290298260.0 0.1071022907 -0.0567892203 -8.16368e-05 -3.78982e-05 2.74481e-05 8.05596e-05 -0.705878909 0.4707204954
295298230.0 0.1060502664 -0.0587084059 0.0001342043 0.0001397997 0.0001059894 0.0002233257 -0.7009944701 0.4777278136
300298200.0 0.1050763127 -0.0602332848 9.40565e-05 9.89324e-05 -6.01173e-05 -0.0001451356 -0.6957319072 0.485487239
305298170.0 0.1041531442 -0.0623115107 0.0001108271 3.1307e-06 9.20572e-05 -0.0001063598 -0.6900068561 0.4930431012
310298140.0 0.1027191225 -0.064301979 -3.70945e-05 9.9766e-06 0.0003656437 0.0001502762 -0.6857104174 0.4996445107
315298110.0 0.1021283189 -0.0659521313 0.0005009251 3.10032e-05 5.05987e-05 0.0001758178 -0.6796541666 0.5063392367
320298080.0 0.1011136913 -0.0680144021 5.00621e-05 7.49706e-05 0.0001141818 5.23383e-05 -0.6743612962 0.5142521651
325298050.0 0.0996302909 -0.0699187977 5.83643e-05 5.63071e-05 3.84573e-05 0.0001170573 -0.668826495 0.5208857165
330298020.0 0.0980662683 -0.07171758 5.11638e-05 -5.19137e-05 0.000172841 -7.49438e-05 -0.663618162 0.5283493303
335297990.0 0.0966854988 -0.0731125609 -8.88202e-05 8.30558e-05 0.0001720711 0.0001105767 -0.6580716535 0.5348312437
340297960.0 0.0949667025 -0.0745469042 0.000296155 3.98651e-05 0.0001169359 -0.0001123463 -0.6519918425 0.5416266694
345297930.0 0.0936350766 -0.0759725651 -3.07588e-05 7.01326e-05 0.0002001365 -5.26114e-05 -0.6465499869 0.548134574
350297900.0 0.0923548066 -0.077408843 -7.95494e-05 -0.0002339619 -1.07525e-05 -0.0001966563 -0.6413044148 0.5554230175
355297870.0 0.0910781481 -0.0785084242 7.96787e-05 0.0003079069 0.0002327063 2.72328e-05 -0.635314716 0.5618511455
360297840.0 0.0893710324 -0.0798035861 -1.12827e-05 7.2875e-06 -0.0001466253 -6.0109e-06 -0.6293611149 0.5688717364
365297810.0 0.0880177612 -0.081131335 0.0001061629 -7.30137e-05 0.0002263911 0.0001048671 -0.6229493475 0.5755796581
370297780.0 0.0866073546 -0.0824528936 0.0001420478 -0.0002293451 8.32737e-05 -3.13471e-05 -0.6172404932 0.5817253346
375297750.0 0.0851787797 -0.0836054042 0.0001246446 0.0003998034 9.50126e-05 -5.75938e-05 -0.6115991117 0.5875032975
380297720.0 0.0839039485 -0.0850881959 -7.14206e-05 2.70463e-05 4.1857e-06 0.0001213669 -0.6056625289 0.5940681883
385297690.0 0.0822874855 -0.0859258796 0.000198489 2.12632e-05 1.90612e-05 0.0001946065 -0.5985165734 0.6008846691
390297660.0 0.0809176889 -0.0870651657 0.0002224821 0.0001787378 0.0002709042 0.0002103399 -0.5933607134 0.6065625261
395297630.0 0.0796956283 -0.0884172605 0.0001018171 4.71528e-05 7.8531e-05 -0.000127403 -0.5865644497 0.6133617316
400297600.0 0.0782393414 -0.0893627072 6.06331e-05 0.0001229567 0.0001455356 -5.87477e-05 -0.5805807508 0.6190298694
405297570.0 0.0765653696 -0.090310764 0.0002560326 -8.50869e-05 -9.98801e-05 5.73255e-05 -0.5740744807 0.6247844797
410297540.0 0.0749399763 -0.0916638006 -5.58809e-05 4.07588e-05 6.4083e-05 4.08281e-05 -0.5670909832 0.6305263313
415297510.0 0.0740098709 -0.0928099151 6.1786e-05 -3.92928e-05 -7.43059e-05 5.12367e-05 -0.5612772256 0.6359296643
420297480.0 0.0722044493 -0.0935655051 0.0002081452 0.0001328208 0.000198867 0.0001875193 -0.5542713543 0.6422222874
425297450.0 0.0707424798 -0.0946181984 0.000275166 5.51894e-05 4.0008e-05 0.0002361913 -0.5477299881 0.6481904627
430297420.0 0.0691071262 -0.095615046 0.00014395 2.33062e-05 0.0001964746 7.74116e-05 -0.5412965605 0.6527944582
435297390.0 0.0676735872 -0.0964969802 8.27272e-05 -3.205e-07 0.0001037241 -9.93464e-05 -0.5341391014 0.6582561707
440297360.0 0.0659994062 -0.0977022498 -6.6458e-06 0.0001517588 0.0001329687 3.43051e-05 -0.5275205731 0.6637606126
445297330.0 0.0645797328 -0.098483441 4.80684e-05 5.6203e-06 1.02495e-05 -4.7468e-05 -0.5204231792 0.6681497348
450297300.0 0.063092753 -0.0992907825 0.0001605979 -3.37909e-05 9.34729e-05 -3.35777e-05 -0.5132149196 0.6741492105
455297270.0 0.0612953329 -0.1000955934 1.1296e-05 4.92398e-05 4.5345e-06 6.29981e-05 -0.506388896 0.6783315907
460297240.0 0.0599285532 -0.1010124665 0.0001144589 0.0001240737 0.0002195759 -3.75873e-05 -0.4993900904 0.6836889552
465297210.0 0.0584812803 -0.1018743115 0.0001822021 0.0001178813 0.0001553722 -1.57601e-05 -0.4919465545 0.6888546565
470297180.0 0.0566946362 -0.1025139523 0.0001329789 -0.0001228142 0.000118525 0.0001412185 -0.4848853837 0.6942666574
475297150.0 0.0550967921 -0.1035552449 0.0002941496 -4.06084e-05 0.0001610569 -0.0001735234 -0.4771551415 0.6983457355
480297120.0 0.0537022332 -0.1039065344 9.30045e-05 -0.0001024849 0.0002881277 0.0002773661 -0.4697772079 0.7038021186
485297090.0 0.0519233127 -0.1044246464 1.03318e-05 0.0001597862 0.0002442617 5.59589e-05 -0.4631114251 0.7082553294
490297060.0 0.0502344946 -0.104788601 4.81514e-05 0.0001581305 -0.0001106135 0.0002638986 -0.4558067373 0.712494684
495297030.0 0.0487082965 -0.106036029 0.0003812676 7.65807e-05 0.0001459559 6.1877e-05 -0.4485485919 0.7174969671
500297000.0 0.0473712951 -0.1060787044 -0.0001877133 -1.47303e-05 -1.7393e-05 8.25226e-05 -0.4412074076 0.7218488268
505296970.0 0.0455215128 -0.1073170066 9.92614e-05 -1.41642e-05 0.0001366794 -0.0001027883 -0.4333501143 0.7262707806
510296940.0 0.0440524767 -0.10774642 0.0002110247 -0.0002422028 4.42002e-05 0.000422068 -0.4260703012 0.731032368
515296910.0 0.0424926603 -0.1082327328 0.0001843616 -9.55222e-05 -0.0001388187 -3.35682e-05 -0.4185941371 0.7349286806
520296880.0 0.0409567368 -0.1086067621 -4.79518e-05 6.46453e-05 0.0001307785 1.51139e-05 -0.4108269977 0.7392873482
525296850.0 0.0391419272 -0.1093607283 0.0003461228 0.0001886799 9.77064e-05 0.0001963965 -0.4037122215 0.7433801724
530296820.0 0.037546397 -0.1095513829 -0.0002544851 -5.05645e-05 2.93988e-05 1.85921e-05 -0.3964822001 0.7474052571
535296790.0 0.0357172399 -0.1099391191 0.0001357691 -3.70488e-05 -0.0002092551 -9.09909e-05 -0.389290448 0.7515366656
540296760.0 0.0338923304 -0.1103796061 0.0001997554 0.0002055813 6.12929e-05 0.000178877 -0.3807856482 0.7555188775
545296730.0 0.0321170577 -0.1107682921 0.000164046 6.41432e-05 6.75233e-05 8.18211e-05 -0.3730297946 0.7596148941
550296700.0 0.0309490986 -0.1111849521 -7.1839e-06 -0.0003266994 2.57337e-05 -0.0001384634 -0.3652478322 0.7632424827
555296670.0 0.0289074308 -0.1115362077 0.0001764695 2.01118e-05 8.55211e-05 3.1053e-05 -0.3578224345 0.7672121721
560296640.0 0.0276817292 -0.111672927 6.96302e-05 -0.0001709529 2.39759e-05 4.78191e-05 -0.3503678329 0.7704148294
565296610.0 0.0258241937 -0.1119930803 -3.21696e-05 -5.32176e-05 -4.9881e-05 0.000110564 -0.3420881973 0.7738281119
570296580.0 0.0241664317 -0.1125007388 0.0001630921 3.83243e-05 6.27302e-05 0.0001382018 -0.3353831331 0.777861985
575296550.0 0.022382486 -0.1126045808 0.0004490393 -5.20466e-05 -0.0001243733 9.07276e-05 -0.326704038 0.7803656913
580296520.0 0.020867728 -0.1129964353 0.0001477799 0.0002140381 0.0002366736 7.57498e-05 -0.318234714 0.7842654092
585296490.0 0.0187213647 -0.1131464751 0.0001363705 -0.000112253 0.0002163709 -0.0001025151 -0.3105060074 0.7876385129
590296460.0 0.0175949977 -0.1131997312 0.0002810699 -6.96923e-05 6.34226e-05 0.0001500329 -0.3029802227 0.7898508571
595296430.0 0.0157905632 -0.1132127228 0.0001179422 -1.4593e-06 0.0003513109 1.91937e-05 -0.294526363 0.7929102772
600296400.0 0.0137953839 -0.1134885598 3.3256e-06 3.4485e-06 0.0001104935 -7.88009e-05 -0.2867770861 0.7955529056
605296370.0 0.0123578701 -0.113637131 0.0002184253 1.39606e-05 9.30749e-05 -0.0001573555 -0.2780431749 0.7982272604
610296340.0 0.0103143922 -0.1138336214 8.57167e-05 -0.0003293476 0.0001112429 -2.90125e-05 -0.2702467537 0.8006541366
615296310.0 0.0090459673 -0.1139252672 0.0001671378 -1.78224e-05 0.0001591749 -2.16372e-05 -0.2619642342 0.8034722451
620296280.0 0.007111453 -0.1137862806 0.00036556 0.0001667953 0.0003611537 -4.05814e-05 -0.2545666959 0.8059870645
625296250.0 0.0055257245 -0.1141047191 -3.5762e-06 0.0003024404 0.0001760145 0.0001652101 -0.2457273428 0.8079082845
630296220.0 0.0041189999 -0.1140452337 -0.00012418 -6.0493e-05 0.0002726798 4.10496e-05 -0.2376229906 0.8105241203
635296190.0 0.0019075294 -0.11391677 0.0001914103 3.02037e-05 0.0002065586 -4.85734e-05 -0.2293407115 0.8122991978
640296160.0 0.0008418913 -0.1138785847 0.0002500665 0.0001104398 0.0003101055 0.000127072 -0.2213873953 0.8154662821
645296130.0 -0.0009111113 -0.1136074002 0.0002524057 5.222e-05 0.0001501898 -0.0002747606 -0.2128337314 0.8171026071
650296100.0 -0.0026897889 -0.1134401016 0.0003248811 5.75744e-05 0.0001815656 1.80032e-05 -0.2043663653 0.8189704099
655296070.0 -0.0047958864 -0.1134790655 0.0002211903 -5.85778e-05 0.0001596718 2.08297e-05 -0.1962923477 0.8209622862
660296040.0 -0.0061527625 -0.1133681007 0.0004359509 5.78373e-05 4.33295e-05 0.0002682933 -0.1879179678 0.8230023646
665296010.0 -0.0077824274 -0.1134384534 0.0004027211 2.35089e-05 0.0001801215 1.44429e-05 -0.1789366369 0.8246993871
670295980.0 -0.0097431486 -0.1130627436 -6.74271e-05 -4.05763e-05 0.000273993 -5.99666e-05 -0.1717601001 0.8264427027
675295950.0 -0.0112637515 -0.1125997277 0.0001855219 -8.57339e-05 0.0002176801 0.0001235694 -0.1638406156 0.8288442718
680295920.0 -0.0127087794 -0.112114372 -6.42658e-05 5.68495e-05 0.0002139433 5.58336e-05 -0.1544553576 0.8310502467
685295890.0 -0.0143204668 -0.112040499 0.0002112759 4.43511e-05 0.0002146647 0.0002367333 -0.1463716321 0.8312854063
690295860.0 -0.0160912336 -0.1117645592 0.0001190671 0.0001848391 0.0001475068 -0.0001599294 -0.1378294414 0.8336332451
695295830.0 -0.0178717134 -0.1113903146 0.0002190874 2.49108e-05 0.0003561242 -7.42061e-05 -0.1291022227 0.8344772023
700295800.0 -0.0192608569 -0.1113223312 -6.0644e-06 -0.0002210453 0.0002633624 -1.6392e-05 -0.1221770762 0.8360128305
705295770.0 -0.0210273428 -0.1106917869 0.0002357184 -5.76051e-05 0.0004351283 -7.81515e-05 -0.1133614511 0.8378196649
710295740.0 -0.0224384731 -0.1103051348 0.0003243726 0.0001537044 0.0002551016 -1.55992e-05 -0.1047250718 0.8383332899
715295710.0 -0.0243578782 -0.1100166722 2.40295e-05 7.3946e-06 0.0002564475 7.2455e-06 -0.0960778054 0.8397306073
720295680.0 -0.025895888 -0.1097022291 0.0003705295 -0.0001575537 0.0001422738 1.84864e-05 -0.0878265274 0.8404911411
725295650.0 -0.0274944535 -0.1089101235 -4.2443e-06 -4.82455e-05 2.80545e-05 -6.8216e-05 -0.0799579757 0.8415827192
730295620.0 -0.0289922354 -0.1083794425 9.4921e-05 -8.7451e-06 4.6004e-06 -0.0001613471 -0.0714727965 0.8419688681
735295590.0 -0.0307737193 -0.1078795037 0.0002034525 -6.15991e-05 0.0001839991 -4.30128e-05 -0.0630281129 0.8424198939
740295560.0 -0.0325381878 -0.1074225699 0.0001385395 4.55431e-05 0.0001631392 -4.59685e-05 -0.0538674726 0.8441334447
745295530.0 -0.0343606031 -0.106944682 0.0001950013 4.25736e-05 0.0002536256 -4.55552e-05 -0.0454079325 0.8439197695
750295500.0 -0.0352837508 -0.106292035 9.28059e-05 3.69535e-05 -2.70483e-05 -7.92888e-05 -0.0380675754 0.8441242586
755295470.0 -0.0371419789 -0.1059140712 7.09569e-05 -0.0001106036 0.0002106166 -1.55988e-05 -0.029125168 0.8441801331
760295440.0 -0.0386578451 -0.1051502543 0.0001480146 1.61133e-05 0.0002529405 0.0001984962 -0.0207828846 0.844269525
765295410.0 -0.0401749989 -0.1043779133 -4.58026e-05 5.52766e-05 0.0001858843 0.000168899 -0.0124245085 0.8448566294
770295380.0 -0.0418271803 -0.1039506716 0.0002702668 6.75367e-05 0.0001518084 -3.25305e-05 -0.0043098814 0.8443760116
775295350.0 -0.0436734976 -0.1035102179 0.0001547417 2.11071e-05 0.0002422021 -0.000192347 0.0035430787 0.8437181365
780295320.0 -0.0452909585 -0.1029324588 0.0001541814 0.0003226436 0.0002326537 9.51777e-05 0.0121072857 0.8435415432
785295290.0 -0.0468544298 -0.1019117735 0.0002662312 -0.0002982895 0.000208175 4.46721e-05 0.0211724731 0.843864232
790295260.0 -0.0477980056 -0.1011268519 0.0003890707 -9.25243e-05 0.0002272457 9.8449e-06 0.0300346246 0.8436790135
795295230.0 -0.0495454041 -0.1003465416 0.0002366929 0.0002895163 0.0001011716 -0.0001321418 0.0387581318 0.8427640548
800295200.0 -0.0510373264 -0.0996270763 0.000184846 4.21927e-05 8.31614e-05 -3.08958e-05 0.0473269495 0.8426956548
805295170.0 -0.0524643717 -0.0992354628 -0.0001163796 3.38536e-05 0.0001430976 -3.95972e-05 0.0545826274 0.8425109963
810295140.0 -0.0539293157 -0.0981819476 0.00025776 -0.0001294124 1.75944e-05 -4.58425e-05 0.0636020656 0.8410715865
815295110.0 -0.0556097824 -0.0974784836 -7.17066e-05 0.0001115767 0.0002145625 0.0001440744 0.0717153664 0.8406739362
820295080.0 -0.0570635327 -0.0962891831 -4.88554e-05 -0.0001023758 0.0001731422 6.38454e-05 0.0803896882 0.8396517871
825295050.0 -0.0579713775 -0.095588098 0.0003250734 -0.0001474683 4.2795e-06 -8.59684e-05 0.0886460711 0.839762245
830295020.0 -0.0596515026 -0.0947425076 0.0001561678 0.0001251389 0.0002991641 -7.52426e-05 0.0977655082 0.838401451
835294990.0 -0.0611038297 -0.093663009 2.35452e-05 -0.0001834842 0.0001914558 5.4487e-06 0.1049294054 0.8377343425
840294960.0 -0.0626121203 -0.0928286927 0.0002445182 -0.0001101839 7.52364e-05 -4.08772e-05 0.113730478 0.8362792528
845294930.0 -0.0638281095 -0.0918360424 7.25988e-05 -0.0001438405 0.0002779378 -6.90818e-05 0.1219171433 0.8350785212
850294900.0 -0.0652258064 -0.0908814864 0.0002567959 -6.54952e-05 0.0001814887 -0.000114366 0.1298932363 0.8340726693
