!Created with skrf (http://scikit-rf.org).
# Hz S RI R 50.0 
!freq ReS11 ImS11 ReS21 ImS21 ReS12 ImS12 ReS22 ImS22
300000.0 -0.3237105288 -0.0815343305 0.3764303547 0.0446129303 0.3740400186 0.0410687535 -0.3203177306 -0.1000159564
5299970.0 -0.3264073616 0.0044539088 0.3780824045 0.0022986743 0.3784542488 0.0025239697 -0.324145771 0.0049571019
10299940.0 -0.3244581165 0.0134710768 0.3795355177 0.0016736117 0.3793006591 0.0020699721 -0.3213800407 0.0158403161
15299910.0 -0.3216978066 0.0203921092 0.3819671783 0.0025503655 0.3819700383 0.0022976484 -0.3183700124 0.0236025236
20299880.0 -0.3187443052 0.0262951915 0.3848661164 0.0017938147 0.3847305987 0.0017469949 -0.3145624311 0.0303486614
25299850.0 -0.3156550337 0.0315725238 0.3880711501 0.0001301265 0.3879676504 0.0001316111 -0.3106600594 0.0359141519
30299820.0 -0.312838452 0.0356769832 0.3914092522 -0.002134724 0.3914252577 -0.0023374837 -0.3071028339 0.0408605853
35299790.0 -0.3102453637 0.0402837391 0.3949746681 -0.0058045572 0.3950083489 -0.0055534656 -0.3034858424 0.0453575004
40299760.0 -0.3072816057 0.0435821267 0.3979138225 -0.0089185086 0.3982091606 -0.0089316519 -0.3002248775 0.0485653454
45299730.0 -0.3044822473 0.0466598781 0.4003726027 -0.0128024248 0.4010258087 -0.0126674765 -0.2972465275 0.0520840372
50299700.0 -0.3022960774 0.0495991283 0.4033864232 -0.0173418108 0.403405071 -0.0173633819 -0.2942576634 0.0545973362
55299670.0 -0.3001239322 0.0522004119 0.4056205988 -0.0223305282 0.4052919498 -0.0219151399 -0.2915918532 0.0573416747
60299640.0 -0.2981702288 0.0552636299 0.4077714582 -0.0270362379 0.4076385622 -0.0269081566 -0.2890730393 0.0595041399
65299610.0 -0.2963347144 0.0573901278 0.4092912367 -0.0320718009 0.4094333639 -0.0319362209 -0.2873099156 0.0619446584
70299580.0 -0.2946484053 0.0601175863 0.4103763134 -0.0373605134 0.4105039829 -0.0370351818 -0.2849896707 0.0643520584
75299550.0 -0.2930395942 0.0628231651 0.41144928 -0.0422154153 0.4113320112 -0.0422531188 -0.2832904962 0.0657447891
80299520.0 -0.291553337 0.0648142533 0.4123919824 -0.0479255869 0.4124146729 -0.0475909228 -0.2818305238 0.0683712106
85299490.0 -0.2903046579 0.0669530694 0.4129018225 -0.0525346937 0.4129210447 -0.0525081276 -0.2801757375 0.0700252547
90299460.0 -0.288896634 0.0694349301 0.4129655709 -0.0581851149 0.4134536971 -0.0580166108 -0.2783445722 0.0721665842
95299430.0 -0.2873450428 0.0715657095 0.4134207091 -0.0631923451 0.4134294721 -0.0631992968 -0.276613299 0.0744832605
100299400.0 -0.2861284864 0.0741606557 0.4131540442 -0.0682409089 0.4133061446 -0.0682111374 -0.2753086454 0.0760626468
105299370.0 -0.2849692624 0.0763294944 0.4135490164 -0.0736899058 0.4134424505 -0.0738537164 -0.2739218254 0.0782597957
110299340.0 -0.2841412187 0.0788082123 0.4133887298 -0.0787975732 0.4129663952 -0.0786683733 -0.2730758005 0.0803448713
115299310.0 -0.283144328 0.0810708908 0.4128726814 -0.0838635578 0.4128464198 -0.0838451015 -0.2717376083 0.0823298988
120299280.0 -0.2817364986 0.0832186626 0.4119593221 -0.0887802702 0.4125080168 -0.0890870659 -0.2703720862 0.0846143755
125299250.0 -0.280939841 0.0853998037 0.4119991691 -0.0939271973 0.412040682 -0.0939234559 -0.2696001561 0.0862571124
130299220.0 -0.2805496372 0.0881769798 0.4109834901 -0.0992670533 0.4109915545 -0.0991549508 -0.2686080619 0.0885256586
135299190.0 -0.2794668554 0.0909691488 0.4106838246 -0.1043492155 0.410426759 -0.1037908171 -0.2670570737 0.0907523347
140299160.0 -0.27850444 0.0933465518 0.409751966 -0.109440183 0.4096677002 -0.1092150842 -0.2663743087 0.0933823766
145299130.0 -0.2774450135 0.0956918424 0.4090437885 -0.1140850197 0.4084109982 -0.114129402 -0.2651775394 0.0959898801
150299100.0 -0.2763528708 0.0983315283 0.4074022643 -0.1185349625 0.4078025059 -0.1187109012 -0.2643770819 0.0984707866
155299070.0 -0.2758849557 0.1008301704 0.4068697433 -0.1244176594 0.4064239989 -0.124174374 -0.2631346351 0.10081528
160299040.0 -0.274322031 0.1036453955 0.405249637 -0.1287487483 0.4050631083 -0.1288175202 -0.262512744 0.1032698765
165299010.0 -0.2736822594 0.1060127771 0.4040631974 -0.1339449979 0.4041335035 -0.1336945752 -0.2610973143 0.1057535001
170298980.0 -0.2729075323 0.1085645132 0.4025515167 -0.1382890036 0.40279195 -0.1386325763 -0.2600873688 0.1079627266
175298950.0 -0.2720075394 0.1113580949 0.401803379 -0.1430654378 0.4011378379 -0.1431074571 -0.2594651874 0.110526645
180298920.0 -0.2709690526 0.1140611548 0.4004156359 -0.1478584834 0.3997278065 -0.1478366905 -0.2584546381 0.1134731228
185298890.0 -0.2694129292 0.1165725205 0.3981269106 -0.1528138997 0.398260239 -0.1523683489 -0.2571022048 0.1159724089
190298860.0 -0.2687186742 0.1194311815 0.3970625766 -0.1575041658 0.3972193691 -0.1574288974 -0.2562018793 0.1179389064
195298830.0 -0.2676259904 0.1216621041 0.3952364274 -0.1618562848 0.3951063097 -0.161923014 -0.2549378442 0.121175135
200298800.0 -0.2662395985 0.1247340831 0.3935034956 -0.1670469106 0.3933059957 -0.1668304017 -0.2543114377 0.1235783995
205298770.0 -0.2654428905 0.1275172429 0.3912054384 -0.1714550993 0.391782203 -0.1712789036 -0.2534165237 0.1257075965
210298740.0 -0.2644096729 0.1298289193 0.389696163 -0.1757604929 0.389843239 -0.1754079804 -0.2519957332 0.1286828895
215298710.0 -0.2634606523 0.1327874991 0.3880505311 -0.180396134 0.3879403918 -0.1806365314 -0.2510376744 0.1311548252
220298680.0 -0.2620294731 0.1352785747 0.3856880738 -0.1847140876 0.3857704411 -0.1848290484 -0.2500689691 0.1335046264
225298650.0 -0.2609933743 0.1379933985 0.383950579 -0.1893128896 0.3841981519 -0.1895140523 -0.2492805613 0.1360282418
230298620.0 -0.259660869 0.1409204825 0.3821036369 -0.1933588599 0.3824393743 -0.1933345699 -0.248065824 0.1385096965
235298590.0 -0.2584784522 0.1437284827 0.3800162665 -0.1980098981 0.3796758147 -0.1976217218 -0.2465434403 0.1413335468
240298560.0 -0.2569564545 0.1460904023 0.3775863001 -0.2026283817 0.3774302959 -0.2023553889 -0.2450978902 0.1440577852
245298530.0 -0.2558492174 0.1488301777 0.3757661718 -0.2065082883 0.3753371906 -0.206728915 -0.2439867238 0.1458891923
250298500.0 -0.2543214818 0.151896759 0.3727764399 -0.2110207462 0.3725884948 -0.2108988958 -0.2425805259 0.1484884556
255298470.0 -0.2528699425 0.1542117913 0.3702050102 -0.2149705584 0.3706900224 -0.2152422372 -0.2412537665 0.1510326873
260298440.0 -0.2517111779 0.1568532146 0.3682146904 -0.2195008866 0.368347497 -0.2193470385 -0.2396180318 0.154041462
265298410.0 -0.2501636237 0.1598170088 0.3660754328 -0.223852198 0.3659239581 -0.2234299169 -0.238247879 0.1563569674
270298380.0 -0.2484276273 0.1625609707 0.3634296075 -0.2273487071 0.3637895835 -0.2276630054 -0.2369741275 0.1584860529
275298350.0 -0.2469362136 0.1652331733 0.3608907604 -0.2320254591 0.3613011706 -0.2320165978 -0.2351151264 0.1611142716
280298320.0 -0.2452051819 0.1680702702 0.3587726412 -0.2360240732 0.3582475787 -0.2359330552 -0.2335147551 0.1637131846
285298290.0 -0.2432075235 0.1708684505 0.3555131102 -0.2398253401 0.3556379857 -0.2399942097 -0.231980232 0.1658816407
290298260.0 -0.2418437037 0.1728954404 0.3531794514 -0.2435919427 0.3533013802 -0.2440738885 -0.2304126394 0.1687224151
295298230.0 -0.2400605697 0.1755738398 0.350641999 -0.2477420895 0.3503382408 -0.2479312993 -0.2283109177 0.1708994655
300298200.0 -0.2386489934 0.178450445 0.348496541 -0.2517761891 0.3478709912 -0.2520427934 -0.2268874018 0.1734044841
305298170.0 -0.2365477775 0.1805336033 0.3449507266 -0.256060536 0.3448889082 -0.2557999128 -0.2244644206 0.1756824756
310298140.0 -0.2346581765 0.1835020226 0.342439327 -0.2596420232 0.342362852 -0.2599088336 -0.2229006013 0.1782139746
315298110.0 -0.2331703056 0.1859186542 0.3393578656 -0.2635705507 0.3396443972 -0.2636807605 -0.2212397365 0.1805668015
320298080.0 -0.2310848622 0.1883210447 0.3361618987 -0.2677179356 0.3365469573 -0.2676160106 -0.2194233963 0.1830259541
325298050.0 -0.2291536371 0.1907778157 0.3332350091 -0.2717203952 0.3331249061 -0.2715427704 -0.2176747879 0.1853616244
330298020.0 -0.2275073686 0.193008686 0.3299546493 -0.2751845402 0.3301181218 -0.2752032039 -0.2158346256 0.1880215406
335297990.0 -0.2255037013 0.1954210296 0.3268977617 -0.2784634636 0.3267685334 -0.2789341191 -0.2144974615 0.1905478848
340297960.0 -0.2241492257 0.1985572724 0.3238105706 -0.2824403509 0.3232730371 -0.2824254383 -0.2121706708 0.193015921
345297930.0 -0.2219973213 0.2010371178 0.3206575218 -0.2861899933 0.3203502367 -0.2860796434 -0.2107575798 0.1950678034
350297900.0 -0.2200990187 0.2032095518 0.3169057049 -0.2893653465 0.3172694505 -0.2895123123 -0.2086897551 0.1979270937
355297870.0 -0.2182096934 0.2059889864 0.3139578973 -0.2929228568 0.3143803533 -0.2928934971 -0.2066863082 0.2001013039
360297840.0 -0.2159836818 0.2082635936 0.3110884932 -0.2961799351 0.3110766329 -0.2961779708 -0.2047888767 0.2025861619
365297810.0 -0.2139873747 0.2110128242 0.3075184152 -0.2997745102 0.3077681621 -0.3003050591 -0.2026294851 0.2050364194
370297780.0 -0.2116454028 0.2131874687 0.3041722331 -0.3031735473 0.3044612934 -0.3029858836 -0.2008061281 0.2076226485
375297750.0 -0.2093295151 0.2157663589 0.3009421087 -0.3065897306 0.3011128748 -0.306359958 -0.1989503392 0.2093514215
380297720.0 -0.2073015224 0.2177645433 0.2975079895 -0.3098421722 0.2974972933 -0.3093692526 -0.1967713039 0.2117331596
385297690.0 -0.2055127673 0.2202990386 0.2940325855 -0.3126859967 0.2934555838 -0.3132642077 -0.1945941418 0.2142453908
390297660.0 -0.2028608755 0.2228859306 0.2906292725 -0.3163313833 0.2906047165 -0.3158068271 -0.1926690411 0.2165327778
395297630.0 -0.2011160151 0.2249547313 0.2871956965 -0.3197442325 0.2868890103 -0.3195168262 -0.1899094655 0.2190377979
400297600.0 -0.1980508542 0.2276729505 0.2830209192 -0.3229529091 0.283457889 -0.3227016915 -0.1879309704 0.2208598246
405297570.0 -0.1962411866 0.2294819096 0.2797488536 -0.3252963756 0.2797493 -0.3254587166 -0.1858630292 0.2229826976
410297540.0 -0.1938581399 0.231658645 0.2762572559 -0.328528858 0.2764277801 -0.3287335797 -0.183840864 0.2251815021
415297510.0 -0.1911212268 0.2336774716 0.2727176368 -0.3320177728 0.272434929 -0.3317331785 -0.181458423 0.227391833
420297480.0 -0.1892642534 0.2362194472 0.2689377989 -0.3347814243 0.2686603609 -0.3348782974 -0.1791080404 0.2292398696
425297450.0 -0.1867463341 0.2381886303 0.2654873277 -0.3379037682 0.2654296445 -0.3379577687 -0.1770674986 0.2315578135
430297420.0 -0.1838856408 0.2403236034 0.261249072 -0.340295166 0.2610568431 -0.3402844183 -0.1749526464 0.2332328442
435297390.0 -0.1818197328 0.2422178301 0.2573414989 -0.3429788997 0.2572085693 -0.3433119195 -0.1721637059 0.2351088018
440297360.0 -0.1791211941 0.2445309908 0.2536573251 -0.3457840789 0.254012589 -0.3460050765 -0.1697988043 0.2369498659
445297330.0 -0.176494838 0.246554173 0.2502274053 -0.3487584009 0.2502857887 -0.3483546877 -0.1671074108 0.238581272
450297300.0 -0.174009831 0.2480515702 0.2463949902 -0.3512555013 0.2461012138 -0.3513301193 -0.1646976628 0.2403221754
455297270.0 -0.1714429161 0.2504335372 0.2422219791 -0.3539450566 0.2421993791 -0.3540365423 -0.1622649134 0.242226911
460297240.0 -0.1690892231 0.2522005104 0.2383574312 -0.3562965954 0.2385079924 -0.3566674415 -0.1597898498 0.2443405686
465297210.0 -0.1660159281 0.2545042615 0.2344090384 -0.359346842 0.2344359479 -0.3595032718 -0.1569795759 0.2459685917
470297180.0 -0.1634599827 0.256402795 0.2301969335 -0.3619782957 0.2303531112 -0.3619556675 -0.1539556558 0.2482491919
475297150.0 -0.1612439754 0.2577586328 0.2262191086 -0.3639678503 0.22645126 -0.3638370049 -0.1514066417 0.249293133
480297120.0 -0.1582930447 0.2600510038 0.2223986661 -0.3670541251 0.2221836215 -0.3667784172 -0.1486856874 0.2513552943
485297090.0 -0.1553513138 0.2615835552 0.2183683283 -0.3687400196 0.2185323256 -0.3687310904 -0.1459659051 0.2531399481
490297060.0 -0.1532615851 0.2636364802 0.2146786963 -0.3713740671 0.2146317815 -0.3712331247 -0.1434977121 0.2548881183
495297030.0 -0.1502108155 0.2652209326 0.209939102 -0.3734865959 0.2103326688 -0.3736887654 -0.140924368 0.2566036454
500297000.0 -0.1475164917 0.2669074162 0.2064665145 -0.3757225334 0.2060208532 -0.3755782497 -0.137978316 0.2587335934
505296970.0 -0.1444999228 0.2686380181 0.2022046665 -0.378087693 0.2018142227 -0.3783496092 -0.1355758468 0.2600393264
510296940.0 -0.1417054181 0.2702034791 0.1978598331 -0.3803682275 0.1973843722 -0.38043175 -0.132530578 0.2617294132
515296910.0 -0.1385241983 0.2720429708 0.1935664227 -0.382416927 0.1931554727 -0.3818808195 -0.1298632772 0.2632102822
520296880.0 -0.1359330667 0.2736116112 0.1894213988 -0.3847035944 0.1889175078 -0.3840229905 -0.1269845025 0.2645584556
525296850.0 -0.1332102791 0.2747831863 0.1852032097 -0.3862408979 0.1856311391 -0.3861018988 -0.1245968733 0.2667148304
530296820.0 -0.1303401202 0.276601717 0.1810713963 -0.3885398463 0.1809784634 -0.388478955 -0.1216149148 0.2681134095
535296790.0 -0.1275128071 0.2781867554 0.1770190694 -0.3902144862 0.1769708547 -0.3898083662 -0.1190208851 0.2693681075
540296760.0 -0.1248531409 0.2800198927 0.1725015553 -0.3923853467 0.1726493532 -0.3921662096 -0.1166158657 0.2712455238
545296730.0 -0.1219874763 0.2810319169 0.1680586011 -0.3936435326 0.1680016955 -0.3939300265 -0.1135425352 0.2723753561
550296700.0 -0.1185270992 0.2828664694 0.1636524478 -0.3958732584 0.1637993337 -0.3958192673 -0.1106970647 0.2733817542
555296670.0 -0.1153641666 0.2835973434 0.1596575406 -0.3973030114 0.159705365 -0.3976886594 -0.1078384521 0.2751866653
560296640.0 -0.1125631357 0.2857580127 0.1551634211 -0.3994703949 0.1554574621 -0.3992734835 -0.1048597908 0.2764521451
565296610.0 -0.1097756499 0.2867203927 0.150846088 -0.4006858204 0.1511353579 -0.4009455557 -0.1022569547 0.2774476636
570296580.0 -0.1070406364 0.2878058416 0.1466309146 -0.4028447633 0.1462027416 -0.4024511295 -0.0996901724 0.2790338793
575296550.0 -0.1039905357 0.2894885773 0.1420860468 -0.4041153941 0.1416982387 -0.4042695909 -0.0964357773 0.2804634907
580296520.0 -0.1004409933 0.2906709398 0.1375723856 -0.405586448 0.1373962365 -0.4055101789 -0.0931319503 0.2812628726
585296490.0 -0.0975694627 0.291667853 0.1332834079 -0.4068617597 0.1331769435 -0.4072260585 -0.0904192298 0.2828939869
590296460.0 -0.0944192825 0.2925517416 0.1290271805 -0.4077199047 0.1283453196 -0.408299847 -0.0879191055 0.2836146559
595296430.0 -0.0914330236 0.2936656686 0.1238132631 -0.4098657899 0.1240513449 -0.4096738284 -0.084796168 0.2843223615
600296400.0 -0.0888190853 0.2949730532 0.1200051376 -0.4109707878 0.1197241764 -0.4108044217 -0.0817889587 0.2853869854
605296370.0 -0.0857959717 0.2959933261 0.1153736181 -0.4122005932 0.1154193636 -0.4121279519 -0.0785230809 0.2863895765
610296340.0 -0.0820785563 0.2970479982 0.1104535727 -0.4134347852 0.1107077225 -0.4131220768 -0.0754292403 0.2871212364
615296310.0 -0.0789598465 0.2979430512 0.1057348691 -0.4140971785 0.1061839667 -0.4147251037 -0.0724550611 0.2881236492
620296280.0 -0.0758272217 0.2987410277 0.1015798995 -0.4155618719 0.101284249 -0.4155798206 -0.0695293279 0.2891457689
625296250.0 -0.0731391573 0.2995402142 0.0978312999 -0.4167827649 0.0972797774 -0.4168177856 -0.0661540861 0.2897698416
630296220.0 -0.069160453 0.300582728 0.0921477176 -0.4172852066 0.0925534247 -0.4173745033 -0.0634131155 0.290864162
635296190.0 -0.0668925492 0.3015744756 0.0881602447 -0.4184020271 0.0880813274 -0.4184758757 -0.0603023087 0.291370818
640296160.0 -0.0636786898 0.3024836443 0.083531141 -0.4191022073 0.0839364085 -0.4193440741 -0.0570425403 0.2919845403
645296130.0 -0.0603914218 0.3034106385 0.0789961917 -0.4199844654 0.0789913025 -0.420137452 -0.0539363287 0.292771183
650296100.0 -0.0573325177 0.3039209215 0.0745016251 -0.4207817501 0.0743762439 -0.4209324912 -0.0506254444 0.2928448969
655296070.0 -0.0541172982 0.3046141061 0.0698528996 -0.4218164621 0.0699838455 -0.4216122684 -0.047765921 0.2938230524
660296040.0 -0.0508229512 0.305376944 0.0652780233 -0.4223432992 0.065197443 -0.4224717642 -0.0442705195 0.2946020738
665296010.0 -0.0472696503 0.3055637645 0.0601925926 -0.4231619109 0.0607521678 -0.4231308004 -0.0412434982 0.2959801325
670295980.0 -0.044855951 0.3067531915 0.0563798449 -0.423631261 0.0560763437 -0.4234467701 -0.038111693 0.2962389259
675295950.0 -0.0412964487 0.3071721198 0.0516569654 -0.4241253944 0.0513887537 -0.4237753315 -0.0354148274 0.2969105804
680295920.0 -0.0379894847 0.3078401666 0.0470177747 -0.42457991 0.0464049229 -0.4251494116 -0.0318591897 0.2979404716
685295890.0 -0.0343972984 0.308628664 0.0420939364 -0.4249777896 0.0421203816 -0.4251907662 -0.0287726777 0.2978968285
690295860.0 -0.0314391098 0.3089283129 0.0375945821 -0.4253466638 0.0374930219 -0.425854038 -0.0253628752 0.2988786534
695295830.0 -0.0283058875 0.3091661051 0.0332933477 -0.4257092264 0.0327030789 -0.4255046669 -0.0226108064 0.2990338093
700295800.0 -0.0250668263 0.3098580933 0.0281516224 -0.4261838992 0.0281495069 -0.425852834 -0.0195719457 0.2998327531
705295770.0 -0.0219493675 0.3103821432 0.0236373429 -0.4263058514 0.0241448196 -0.4265498776 -0.0165612241 0.3006616428
710295740.0 -0.0184953448 0.3105452171 0.0193208291 -0.4270769554 0.0195976087 -0.4269733217 -0.0137113396 0.3004467094
715295710.0 -0.0156178641 0.3108771389 0.0146995258 -0.4270387714 0.0143469023 -0.4266730936 -0.0101461098 0.3004436089
720295680.0 -0.0121274366 0.3116820102 0.0098528152 -0.4274202541 0.0100839098 -0.4269266658 -0.0070788281 0.3015558711
725295650.0 -0.0086929076 0.3116237482 0.0050236152 -0.4268195628 0.0055409808 -0.4268170939 -0.0044041823 0.3014704182
730295620.0 -0.0055219241 0.3118905901 0.0007087714 -0.4267727055 0.0007981046 -0.427087347 -0.0014726482 0.3013497981
735295590.0 -0.0023851052 0.3120740564 -0.0038314113 -0.4265022083 -0.0039380213 -0.4268396675 0.0020415256 0.301505487
740295560.0 0.0008084339 0.3121062941 -0.0081752335 -0.426454314 -0.0087023897 -0.4269924955 0.0056122131 0.3020745631
745295530.0 0.0040564912 0.3120641532 -0.0131127976 -0.4261478434 -0.0134633381 -0.4266883103 0.008842601 0.301958743
750295500.0 0.0076326698 0.3124236242 -0.0181519804 -0.4260946448 -0.0179050718 -0.4265126147 0.0112656505 0.3015079482
755295470.0 0.0104765872 0.3121651532 -0.0221571656 -0.4260926715 -0.0224955413 -0.4260661877 0.015124117 0.3014850065
760295440.0 0.0139840093 0.3122416952 -0.0268846427 -0.426005628 -0.0270603657 -0.4258832962 0.0179059955 0.3013718471
765295410.0 0.0172305361 0.3123444206 -0.0316498418 -0.4255648529 -0.0319359816 -0.4253604013 0.0211558851 0.3017589735
770295380.0 0.0203687883 0.3123056688 -0.0365623241 -0.4249736514 -0.0364908859 -0.4247570732 0.0241910738 0.3013578153
775295350.0 0.0234530722 0.3118375719 -0.0409148813 -0.424218027 -0.040723949 -0.4247828823 0.0269208265 0.3011204408
780295320.0 0.0269774974 0.311697626 -0.0455213985 -0.4239390331 -0.0450490576 -0.423820038 0.0301677794 0.3008716689
785295290.0 0.0299853845 0.3114638762 -0.050385302 -0.4231526237 -0.0504346804 -0.4233195196 0.0340651375 0.3006608473
790295260.0 0.0336099822 0.3117638648 -0.05420777 -0.4231509778 -0.0537579987 -0.4227453555 0.0372070055 0.300463503
795295230.0 0.0365527758 0.3110248966 -0.0590623909 -0.4221112385 -0.0589285962 -0.422291185 0.0404083129 0.3001373167
800295200.0 0.0397697479 0.3111871956 -0.0638458573 -0.4214045178 -0.0637821544 -0.421555726 0.0436787803 0.2997497174
805295170.0 0.0432127057 0.3106965772 -0.0680956131 -0.42085998 -0.0681377065 -0.4207525064 0.0465992775 0.299686146
810295140.0 0.0464095516 0.3101293373 -0.0727931228 -0.4196101605 -0.0726267098 -0.4201540637 0.0501402586 0.2994708992
815295110.0 0.0496738444 0.3093996914 -0.0771694037 -0.4186939489 -0.0771405613 -0.4190339823 0.053124758 0.2987032979
820295080.0 0.052560045 0.3098423451 -0.081546296 -0.4179878938 -0.0814684853 -0.4179958381 0.0562750655 0.2987748044
825295050.0 0.0565248972 0.3089106613 -0.0858979097 -0.4169773619 -0.0863213233 -0.4171592233 0.0595004793 0.2981518142
830295020.0 0.0591744949 0.3086780721 -0.0904634746 -0.4162921451 -0.0907713115 -0.4159567683 0.0631575601 0.2977564519
