!Created with skrf (http://scikit-rf.org).
# Hz S RI R 50.0 
!freq ReS11 ImS11 ReS21 ImS21 ReS12 ImS12 ReS22 ImS22
300000.0 -0.2375848265 -0.1185444002 0.4679141107 0.0775669612 0.4648870636 0.0787487844 -0.2333240363 -0.1248293348
5299970.0 -0.2447718313 0.0054812602 0.4736139882 0.0062828812 0.4740865987 0.0057941171 -0.2439736679 0.0051837488
10299940.0 -0.2419839078 0.0185670868 0.4761609988 0.0064717947 0.4761569763 0.0072049693 -0.2405703723 0.0183264559
15299910.0 -0.2368762074 0.0283764964 0.4796602833 0.0083248652 0.4794502651 0.0082628197 -0.2361052869 0.0275469164
20299880.0 -0.2314170571 0.0362752552 0.4839956638 0.0080295066 0.4845628339 0.008430226 -0.2311877816 0.0354125793
25299850.0 -0.225725661 0.0428154096 0.4897133277 0.0081792849 0.4897488011 0.007572543 -0.2260241388 0.0418011872
30299820.0 -0.2201987127 0.0476770945 0.4950572211 0.0057649883 0.4953961996 0.005292157 -0.2207475247 0.0470224166
35299790.0 -0.2145005097 0.0517784797 0.4999417951 0.0024362645 0.5002541325 0.0024322101 -0.2159159837 0.0515187291
40299760.0 -0.2091343797 0.05464118 0.505526586 -0.0017199901 0.5057673185 -0.0015951522 -0.2108178734 0.0547750903
45299730.0 -0.2040201227 0.0570605625 0.5102269932 -0.0061809122 0.5108469127 -0.0063094241 -0.2058850796 0.057733948
50299700.0 -0.1989329222 0.0587698503 0.514205816 -0.0118951018 0.5147292695 -0.0121396628 -0.2011266276 0.0603220572
55299670.0 -0.1950535632 0.0603399579 0.5183063833 -0.0174345044 0.5180051232 -0.0178070294 -0.1976878183 0.0617629868
60299640.0 -0.190921923 0.0618484839 0.5219613087 -0.0240534492 0.5216765197 -0.023872706 -0.1938668912 0.0633069683
65299610.0 -0.1872329356 0.062620358 0.5248228326 -0.0304273502 0.5249472437 -0.0302607637 -0.1902001953 0.0647016281
70299580.0 -0.1839285375 0.0629537885 0.527329374 -0.0365614815 0.5272771528 -0.0371257328 -0.1873550737 0.0658737382
75299550.0 -0.1813168692 0.0638352077 0.5291113986 -0.0441148471 0.5293357063 -0.0435625772 -0.184081001 0.066901569
80299520.0 -0.1784686397 0.0645040254 0.5311375628 -0.0510420282 0.5314099318 -0.0507961382 -0.1815997946 0.0681996001
85299490.0 -0.1756563964 0.0648604358 0.5323199539 -0.057801201 0.532482566 -0.057582148 -0.1794068599 0.0685409918
90299460.0 -0.1733672745 0.0654316857 0.5332389672 -0.0647300973 0.5330682472 -0.0645110696 -0.1771292145 0.0698236245
95299430.0 -0.1715017734 0.0660449234 0.5342293452 -0.0716392455 0.5344758764 -0.0716156675 -0.1751488112 0.0708579304
100299400.0 -0.1694413421 0.0662207456 0.5344726152 -0.0785577719 0.5348219052 -0.0783039244 -0.1733113134 0.07198002
105299370.0 -0.1676623578 0.0665801449 0.5347329648 -0.0854423795 0.5356756695 -0.0850728002 -0.1709945199 0.0721865628
110299340.0 -0.1660069961 0.0667999592 0.5354355648 -0.0914317671 0.5355368729 -0.0918247185 -0.1698934087 0.0730819856
115299310.0 -0.164832028 0.0676137779 0.5352241989 -0.098544059 0.5355777251 -0.0989889487 -0.1683630621 0.0745458959
120299280.0 -0.1634970438 0.0682554001 0.5356128996 -0.1059998699 0.5349114926 -0.1060549963 -0.1667822888 0.0745762029
125299250.0 -0.1618280951 0.0686022362 0.5348192418 -0.112292994 0.5348278688 -0.1124572149 -0.1653329243 0.0758730121
130299220.0 -0.1607606841 0.0690080302 0.5343954867 -0.1193020793 0.5343304073 -0.1196815451 -0.1641259482 0.0768103275
135299190.0 -0.1596943859 0.0700989812 0.5337410959 -0.1258153028 0.5339074731 -0.1259185418 -0.1630604246 0.077784176
140299160.0 -0.1587830244 0.0708404641 0.5329246329 -0.1325512969 0.532795187 -0.1323242471 -0.1622993049 0.0787855394
145299130.0 -0.1577521469 0.071728287 0.5315302453 -0.139171458 0.5320993103 -0.1389681861 -0.1611437441 0.0798643933
150299100.0 -0.1568298446 0.0724379538 0.5307454755 -0.1460330593 0.5304876556 -0.145709502 -0.1600738111 0.0812452522
155299070.0 -0.1557856308 0.0735401385 0.5289820266 -0.1524121871 0.5297103797 -0.1522316909 -0.1587879717 0.0823596139
160299040.0 -0.1546989826 0.0745438057 0.5279672838 -0.1588744168 0.5279517725 -0.1589459865 -0.158078425 0.0837689548
165299010.0 -0.1538312109 0.0753477446 0.5268424107 -0.1650608324 0.5264828088 -0.1653567277 -0.1569360856 0.0844375349
170298980.0 -0.1530770546 0.0763432904 0.5250015179 -0.1716563663 0.5251925224 -0.1715013727 -0.1562278932 0.0856334744
175298950.0 -0.1522004209 0.0772088167 0.5234487962 -0.1777454827 0.5238960077 -0.1781198252 -0.1551753834 0.08732661
180298920.0 -0.1515010444 0.0785495082 0.5218059108 -0.1842612735 0.5219322604 -0.1846316249 -0.1539990002 0.0885018815
185298890.0 -0.1508078851 0.0795513708 0.5204170581 -0.1905281971 0.5201470847 -0.190902931 -0.1528213078 0.0894851152
190298860.0 -0.1497909704 0.0810067335 0.5177262148 -0.1964728185 0.5180040608 -0.1964408461 -0.1521062285 0.0907734567
195298830.0 -0.1492134724 0.0820337645 0.5161798682 -0.202519417 0.5164965804 -0.2025209779 -0.1514656913 0.0923356738
200298800.0 -0.1481254784 0.082889978 0.5140793537 -0.2094133758 0.5140710684 -0.2088021105 -0.15015033 0.0935775591
205298770.0 -0.147943612 0.0838116213 0.5114828538 -0.2147209493 0.5119700491 -0.2146076771 -0.1492383643 0.0950014738
210298740.0 -0.1470066574 0.0855179611 0.5097684722 -0.220917689 0.5092865986 -0.2207967918 -0.148628106 0.0961830732
215298710.0 -0.1461615961 0.0866651086 0.5070121348 -0.2266677237 0.5071539592 -0.2266000372 -0.1474280825 0.0977494952
220298680.0 -0.1452868575 0.0879003957 0.5049375115 -0.2326058364 0.5044468636 -0.2329023594 -0.1465177507 0.0989996978
225298650.0 -0.1446089811 0.0889693739 0.5019752407 -0.2382083549 0.5022679752 -0.2380348563 -0.1456960977 0.1004511551
230298620.0 -0.1437045641 0.0906909373 0.4996664303 -0.2445170086 0.5001013358 -0.2447847622 -0.1446983404 0.1018245839
235298590.0 -0.1430713177 0.0917837168 0.4973472496 -0.2505373076 0.4972750051 -0.2502753826 -0.1433412176 0.1035448127
240298560.0 -0.1424515457 0.0934970867 0.4941788842 -0.2558519472 0.4944119855 -0.2555900207 -0.1424834538 0.1044864536
245298530.0 -0.1415792436 0.0942815069 0.491662441 -0.2614194419 0.4914221299 -0.2616030265 -0.1415540125 0.1063788469
250298500.0 -0.1409473024 0.0955832753 0.4891798093 -0.2672912713 0.4888964537 -0.2670472036 -0.1406990575 0.1078022596
255298470.0 -0.1399428078 0.0970425213 0.4860834365 -0.2724846172 0.486278429 -0.2725545528 -0.1393873132 0.109079377
260298440.0 -0.1390085692 0.0980625297 0.4830671441 -0.2774420771 0.4833058514 -0.2780334379 -0.1383626423 0.1105596053
265298410.0 -0.1387359163 0.0996991655 0.4797687964 -0.2842465775 0.4797291142 -0.2840335129 -0.1367125833 0.1118374986
270298380.0 -0.137572397 0.1007545316 0.4767855733 -0.2893633595 0.4767281163 -0.2889969479 -0.13589137 0.1134635011
275298350.0 -0.1367122985 0.1026380233 0.4728795096 -0.2942890697 0.4733811503 -0.2943851756 -0.134854886 0.1151240671
280298320.0 -0.1364420384 0.1037623645 0.4706729158 -0.2996900212 0.4708547025 -0.2999487588 -0.1337067776 0.1165068123
285298290.0 -0.1350536214 0.1051187384 0.4670583943 -0.3051303435 0.4675992292 -0.3053325694 -0.1324315205 0.118138855
290298260.0 -0.1341857352 0.1065062826 0.4643353512 -0.3105502718 0.4642790793 -0.310688527 -0.1313056981 0.1192431539
295298230.0 -0.1335668214 0.1073605311 0.4608828407 -0.3157644696 0.4608159734 -0.3159780237 -0.1298605559 0.120260287
300298200.0 -0.1323419861 0.109154308 0.4577508777 -0.32113598 0.4573593756 -0.3209035944 -0.1287089647 0.1220024999
305298170.0 -0.1314152222 0.1100448527 0.4539294676 -0.32651292 0.4543024796 -0.3264631805 -0.127332584 0.1230369594
310298140.0 -0.1303101332 0.1112530699 0.4501821899 -0.331486691 0.4507772276 -0.3315201386 -0.1258786098 0.1244152113
315298110.0 -0.1297861886 0.1123369696 0.4469030082 -0.3372049811 0.4468418837 -0.3372524251 -0.1248845565 0.1259994626
320298080.0 -0.1285942739 0.1136157248 0.4425078684 -0.3418747999 0.4432787182 -0.3420816091 -0.1233667447 0.1269214555
325298050.0 -0.1283929261 0.1147164127 0.4391607664 -0.346853538 0.4396233294 -0.3471128716 -0.1221250585 0.1284728168
330298020.0 -0.1277379272 0.1161987977 0.4352411718 -0.3520277185 0.4355987867 -0.3520547967 -0.1213682637 0.1294548087
335297990.0 -0.1266587936 0.1173325851 0.4311195143 -0.3564881657 0.431259662 -0.3569151589 -0.1198988322 0.1311091138
340297960.0 -0.1258458179 0.1186248662 0.4265866798 -0.3618002037 0.4269358143 -0.3616312171 -0.1191078359 0.1325859008
345297930.0 -0.1250581647 0.1198432342 0.4231405488 -0.3663925886 0.4231514598 -0.366611717 -0.1174181642 0.1338234501
350297900.0 -0.1239519637 0.1211777923 0.419008846 -0.370662242 0.4194627185 -0.3705629917 -0.1162576253 0.1351335039
355297870.0 -0.1232714452 0.1225120817 0.4151399269 -0.375023388 0.4149196278 -0.3752577637 -0.1146020477 0.136741999
360297840.0 -0.1221160673 0.1238865182 0.4105056803 -0.3798580954 0.4108495532 -0.3801834225 -0.1134356473 0.1379022692
365297810.0 -0.121165177 0.1251625488 0.4065505424 -0.3843977684 0.4065218704 -0.384372487 -0.1122477342 0.139410626
370297780.0 -0.1198914641 0.1265928223 0.4016273634 -0.3889082077 0.4024128954 -0.388976255 -0.1106444721 0.1405987954
375297750.0 -0.1187459929 0.1278398552 0.397844722 -0.3933006166 0.3980462038 -0.3936260513 -0.1090544588 0.1421909011
380297720.0 -0.1181173465 0.1292694775 0.3940605924 -0.3978798359 0.3933984166 -0.3979761843 -0.1074654405 0.1435496064
385297690.0 -0.1172785118 0.1299922464 0.388756342 -0.4017703326 0.3892912857 -0.4024302408 -0.1058113302 0.1450397394
390297660.0 -0.1157052467 0.1313956273 0.384645286 -0.4059690095 0.3849908904 -0.4063294238 -0.1044345621 0.1461059413
395297630.0 -0.1143413642 0.1327787884 0.3803753219 -0.4095525139 0.3804302188 -0.4100148026 -0.1030447344 0.1474279564
400297600.0 -0.1135801767 0.1337438541 0.3757288457 -0.4145919438 0.3762794122 -0.4143550341 -0.1012912611 0.148900048
405297570.0 -0.1121622311 0.1345428957 0.3716307183 -0.4186474718 0.3717096744 -0.4185392849 -0.0995659626 0.1501511424
410297540.0 -0.1107908175 0.1362036363 0.3665285309 -0.4231281237 0.3668976039 -0.4225951515 -0.0980127245 0.1513086898
415297510.0 -0.1097926427 0.1374352098 0.3618013193 -0.4267529379 0.3623448138 -0.427118481 -0.0963614763 0.1525892339
420297480.0 -0.1088862771 0.1382717959 0.3572463792 -0.4309499925 0.357546686 -0.4311188014 -0.0940878155 0.1541921905
425297450.0 -0.1071337414 0.1395429901 0.3525221903 -0.4342643949 0.3524594133 -0.4341637649 -0.0928543486 0.154640696
430297420.0 -0.1060544539 0.1407452642 0.3484201646 -0.4384524044 0.3480589597 -0.4380577817 -0.0909252018 0.1560052383
435297390.0 -0.1048686585 0.1415310859 0.3427899358 -0.4426201472 0.3429392225 -0.4422811634 -0.0898496095 0.1578386992
440297360.0 -0.1032140425 0.1428633698 0.3380770524 -0.4462138598 0.3382905511 -0.4458981425 -0.0878889117 0.1587746899
445297330.0 -0.1016894056 0.1437732561 0.3333516916 -0.4494602677 0.3334976407 -0.4499029387 -0.0861569889 0.1601562119
450297300.0 -0.1003522034 0.1448285865 0.3281741011 -0.4532222184 0.3286872593 -0.4530294125 -0.0842641261 0.161058454
455297270.0 -0.0997004162 0.1457617778 0.323529463 -0.456646518 0.3240797607 -0.4566803767 -0.0827534158 0.1617786502
460297240.0 -0.0978414266 0.1468012163 0.3187065681 -0.4607078277 0.3183861604 -0.460372543 -0.0806600841 0.1628427924
465297210.0 -0.0964281844 0.1479223589 0.3130134933 -0.4636930181 0.3130684431 -0.4640839401 -0.0784013891 0.1643635849
470297180.0 -0.0952031088 0.1490170323 0.3083571717 -0.4669778085 0.3087229566 -0.4669938338 -0.0768047683 0.164814728
475297150.0 -0.0937892296 0.150302761 0.3032160304 -0.4704652376 0.3033376126 -0.4707918185 -0.0748076352 0.1662931923
480297120.0 -0.0918284513 0.1514835862 0.2977920061 -0.4738637742 0.2980339173 -0.4735392607 -0.0733965745 0.16693117
485297090.0 -0.0907291694 0.1518436023 0.2925223148 -0.4769483103 0.2925343473 -0.4771399005 -0.0711993438 0.1681390614
490297060.0 -0.0885418544 0.153140097 0.2868781342 -0.4802522589 0.287563844 -0.4801147313 -0.0697168343 0.1685833493
495297030.0 -0.0876410683 0.1536477103 0.2826104763 -0.4830352098 0.2823083368 -0.4834190255 -0.0674390291 0.1698267893
500297000.0 -0.0859801221 0.1549625416 0.2768716492 -0.4858511328 0.277265522 -0.4863689463 -0.0656370319 0.1707263158
505296970.0 -0.0842455663 0.1559984429 0.2717497461 -0.489593316 0.2717331412 -0.4887842966 -0.0636465199 0.1709340907
510296940.0 -0.082730026 0.1566632693 0.2664650901 -0.4925318831 0.2665803052 -0.492868876 -0.0614333093 0.1723619445
515296910.0 -0.0813328006 0.158019165 0.2606820482 -0.4953424356 0.2602545103 -0.4948737163 -0.0597885079 0.1728634754
520296880.0 -0.0797730855 0.1587151307 0.2554481868 -0.4980669072 0.2552061367 -0.4974251668 -0.0575583376 0.1740047033
525296850.0 -0.0781632487 0.1593690985 0.2503415943 -0.5005760819 0.2496926705 -0.5004822346 -0.0554734002 0.1746034638
530296820.0 -0.0765957429 0.160316104 0.2442307866 -0.5029809284 0.2447055756 -0.5032465531 -0.0538925911 0.1752335994
535296790.0 -0.0743159445 0.1613794785 0.23888673 -0.5057532132 0.2392327543 -0.5056534967 -0.0515150374 0.1762359126
540296760.0 -0.0728115367 0.1623697135 0.2336478539 -0.5082752295 0.2332933474 -0.5082175709 -0.0497862453 0.1763822274
545296730.0 -0.0717389868 0.1633329138 0.2281214109 -0.5106239074 0.2275518941 -0.5105817308 -0.0473949041 0.177443513
550296700.0 -0.0694780313 0.1640918078 0.2222658482 -0.5128699102 0.2218138062 -0.5134652421 -0.0454717169 0.1782952496
555296670.0 -0.0680080513 0.1649811962 0.2168529468 -0.5154976889 0.2165946163 -0.5157404378 -0.0437321104 0.1783574658
560296640.0 -0.0660726106 0.1656293241 0.2108430761 -0.5178428993 0.2113973848 -0.517955427 -0.041784312 0.1794610555
565296610.0 -0.0646426527 0.1666043249 0.2057604145 -0.5200761526 0.2057412687 -0.5197292235 -0.0392102335 0.1801366926
570296580.0 -0.0630411597 0.1675144318 0.1996883298 -0.5224853628 0.1996496761 -0.5223754035 -0.0377964086 0.1802637814
575296550.0 -0.0612983012 0.1678274935 0.1944452792 -0.5241104667 0.1939480894 -0.5243295113 -0.0354975115 0.1809359214
580296520.0 -0.0593722536 0.1692366341 0.1881842684 -0.526350821 0.1882512652 -0.5264678491 -0.0341926314 0.1813143926
585296490.0 -0.0578568405 0.1698900995 0.1829586634 -0.5287179187 0.1822433585 -0.5283869826 -0.0314606277 0.1822483939
590296460.0 -0.0554573022 0.170471776 0.1768789576 -0.5303792503 0.1770033063 -0.5306017223 -0.0296825083 0.1825022411
595296430.0 -0.0540988297 0.1711288297 0.1708683456 -0.5321866328 0.1709485823 -0.5322046226 -0.0274225279 0.1825465364
600296400.0 -0.0520010616 0.1719669008 0.1649998736 -0.5339074976 0.1653353021 -0.5337425887 -0.0253009014 0.1829334088
605296370.0 -0.0510223159 0.1728908801 0.1596924585 -0.5357504897 0.1592852993 -0.5360652066 -0.0233115522 0.1839047826
610296340.0 -0.0487531574 0.1737408817 0.1539172915 -0.5369781349 0.1538154697 -0.5371379427 -0.0213746904 0.1841880394
615296310.0 -0.0466261298 0.1741611631 0.1475628454 -0.5390464874 0.1474806592 -0.5389438506 -0.0188687998 0.1846587688
620296280.0 -0.045473787 0.1753006291 0.1417065687 -0.5405391693 0.1416673929 -0.5407416893 -0.0172950183 0.1851420189
625296250.0 -0.0437101785 0.1754285867 0.13596767 -0.5419782854 0.1357590067 -0.5423741891 -0.0153328494 0.1850878919
630296220.0 -0.0417490804 0.1767639511 0.1302512266 -0.5438276085 0.1299921451 -0.5433219058 -0.0130491657 0.1856912551
635296190.0 -0.0398603703 0.1775192878 0.1244726979 -0.5445544492 0.1242116551 -0.5444928231 -0.0111393498 0.1858999805
640296160.0 -0.0383548888 0.1778290831 0.1181647639 -0.546270375 0.1180408426 -0.5459981401 -0.0090894163 0.1859659404
645296130.0 -0.0361331963 0.1787886463 0.1122207852 -0.5476225087 0.1123579974 -0.5470508741 -0.0068198413 0.1859232431
650296100.0 -0.0345805117 0.1789792835 0.1063868764 -0.5487383215 0.1057932397 -0.5485088114 -0.0044026459 0.1863535113
655296070.0 -0.032816736 0.1796520166 0.1001528494 -0.5496194229 0.100168349 -0.5492329611 -0.0030741482 0.1866362342
660296040.0 -0.0310890231 0.1804988594 0.0947670782 -0.550614044 0.094373396 -0.550513221 -0.0007887197 0.1865235842
665296010.0 -0.0296399186 0.181075306 0.0880381135 -0.5511497759 0.0882825273 -0.551262869 0.0015237236 0.1867082917
670295980.0 -0.027645008 0.1814633506 0.0823505854 -0.5523271299 0.0824673824 -0.5518574237 0.0030674299 0.1869222415
675295950.0 -0.0259468581 0.1818247914 0.0765016901 -0.5529990125 0.0765609131 -0.5530262366 0.0055350873 0.1871746235
680295920.0 -0.024131731 0.1827709155 0.0704890125 -0.553528698 0.0709280258 -0.5535325958 0.007598176 0.1866218156
685295890.0 -0.0221922667 0.1831783782 0.0643559935 -0.554573985 0.064552204 -0.5547194545 0.0097827677 0.187443779
690295860.0 -0.0207049385 0.1835631534 0.0590794194 -0.5551837188 0.0585084386 -0.5553946422 0.0113791293 0.1872297474
695295830.0 -0.0188925096 0.1841074167 0.0530450781 -0.5559285678 0.0527443685 -0.555570811 0.0137768405 0.1876909725
700295800.0 -0.0168394686 0.1846477105 0.046840701 -0.5562987171 0.046502459 -0.5563644005 0.0160879462 0.1872542348
705295770.0 -0.0156931392 0.185245112 0.0404441064 -0.5574063741 0.0407270037 -0.5563934142 0.0179144389 0.1876603682
710295740.0 -0.0134545419 0.1851207417 0.0346799146 -0.5568702698 0.0342104154 -0.5575123928 0.0201429931 0.187464682
715295710.0 -0.0116378899 0.1859219804 0.0289050322 -0.5575644604 0.028773048 -0.5574871682 0.0220242755 0.1872605673
720295680.0 -0.0095012326 0.1863127102 0.0225688382 -0.5575900855 0.0223137335 -0.5576319726 0.0241786209 0.1869254971
725295650.0 -0.0085678467 0.1867629659 0.0169411241 -0.5579794087 0.0166689608 -0.5578559552 0.0258882707 0.1872859208
730295620.0 -0.0071552709 0.1868598798 0.0109007281 -0.5578632574 0.0107145532 -0.5578652684 0.0276894022 0.1874667296
735295590.0 -0.004973311 0.1873779573 0.0046379721 -0.5582843007 0.0048688283 -0.5579377836 0.029951468 0.1868938506
740295560.0 -0.003500206 0.1874283968 -0.0009762896 -0.5579436018 -0.0011020189 -0.5580840046 0.0319924642 0.1867152775
745295530.0 -0.0016730439 0.187787583 -0.007157435 -0.5572151308 -0.006788199 -0.5577329192 0.0336831666 0.1869053495
750295500.0 3.69883e-05 0.188384768 -0.0127262181 -0.5582199903 -0.0133830962 -0.557424756 0.0362944533 0.1863879648
755295470.0 0.00174816 0.1884978731 -0.0188526239 -0.557887163 -0.0191259631 -0.5579129727 0.0381878316 0.1867410368
760295440.0 0.0037104288 0.1891484796 -0.0254522222 -0.5577478203 -0.024992591 -0.5570908434 0.0404723921 0.1854674716
765295410.0 0.0052799337 0.1887388607 -0.0311392814 -0.5569377077 -0.0309412357 -0.5569798437 0.0422935796 0.185689974
770295380.0 0.0068555939 0.1890161366 -0.0363855558 -0.5563318293 -0.0370693521 -0.5570083882 0.0440713688 0.1854621034
775295350.0 0.0087455978 0.1891686934 -0.0425270792 -0.5562782297 -0.0432049849 -0.5557281577 0.0463492945 0.1851153009
780295320.0 0.0107262104 0.1896007493 -0.0488345133 -0.5554911064 -0.0488133788 -0.5553254707 0.0484444124 0.1844240514
785295290.0 0.012101183 0.1895126596 -0.0545757338 -0.5550425468 -0.0549863934 -0.5550557813 0.0500786196 0.1844611908
790295260.0 0.0139385557 0.1891990676 -0.0607202478 -0.554467206 -0.0606565581 -0.5548499876 0.0520498874 0.1842851411
795295230.0 0.0156484416 0.1893914714 -0.0668829289 -0.5539242833 -0.0667236817 -0.553683108 0.0542573668 0.1831463648
800295200.0 0.0169684982 0.1896655755 -0.0720321917 -0.5527095687 -0.0725507093 -0.5533110472 0.0562480914 0.1827917984
805295170.0 0.0186524296 0.1897898354 -0.0782835732 -0.5521472452 -0.0782597236 -0.552147582 0.058681882 0.1824534688
810295140.0 0.0208385514 0.1895182837 -0.0843454257 -0.5511515303 -0.084296315 -0.5514073158 0.0606292669 0.1822341859
815295110.0 0.0223132301 0.1897678592 -0.0904164253 -0.5499352286 -0.0897366449 -0.5504952419 0.0621964209 0.1815998115
820295080.0 0.0241708302 0.1897783982 -0.095485487 -0.5489193068 -0.095891269 -0.54932873 0.0636658151 0.1815139942
825295050.0 0.0256866238 0.1893854941 -0.1015935093 -0.5480939119 -0.1022641282 -0.5482099219 0.0666130722 0.1810219398
830295020.0 0.0276412214 0.1894801672 -0.1078576493 -0.5468411519 -0.1079778232 -0.5469428632 0.0682423719 0.1798048376
