!Created with skrf (http://scikit-rf.org).
# Hz S RI R 50.0 
!freq ReS11 ImS11 ReS21 ImS21 ReS12 ImS12 ReS22 ImS22
300000.0 -0.2386125101 -0.07366942 0.4712955444 0.0503977294 0.4673478789 0.0499430222 -0.240376243 -0.0914150096
5299970.0 -0.2443010511 0.0075729186 0.4735439224 0.0046962119 0.4734455227 0.0048132822 -0.2440006388 0.0075655007
10299940.0 -0.2410085419 0.0191139852 0.4753739906 0.0059514201 0.475867916 0.0063628413 -0.2408019759 0.0202831743
15299910.0 -0.2365642593 0.0280025331 0.4792183593 0.007852663 0.479283663 0.0076198957 -0.2362039951 0.0297297575
20299880.0 -0.2320219666 0.0354142566 0.4837954461 0.0085131722 0.4838368921 0.0080952435 -0.2309700592 0.0373188691
25299850.0 -0.226653115 0.0420873653 0.4891230327 0.0074480992 0.4889251203 0.0073703726 -0.2248920252 0.0437670774
30299820.0 -0.2215319886 0.0472398745 0.4945550241 0.0052354552 0.4944068006 0.0050970365 -0.2188290324 0.0492648754
35299790.0 -0.2163261618 0.0513875936 0.4998535823 0.0019139507 0.4999535438 0.0019972573 -0.2136827964 0.053378921
40299760.0 -0.2111772697 0.0552233519 0.5050953691 -0.0020566753 0.5049998975 -0.0017404194 -0.2080274783 0.0559486164
45299730.0 -0.2065934383 0.0577201793 0.5095371945 -0.0065573398 0.5100172884 -0.0064600937 -0.2030135371 0.0590725098
50299700.0 -0.2021535439 0.0599392489 0.5142028986 -0.012396442 0.5141420664 -0.0121342433 -0.1985397693 0.0606484415
55299670.0 -0.1982013026 0.0618509579 0.5178104737 -0.0187569547 0.5178699381 -0.0180052988 -0.1945119634 0.062096471
60299640.0 -0.1943495425 0.0632305369 0.5208222155 -0.0243878549 0.5213813076 -0.024148781 -0.1901636582 0.0630868913
65299610.0 -0.1910513771 0.0646002376 0.523820966 -0.030731607 0.5241802769 -0.030907054 -0.1869694575 0.0643146464
70299580.0 -0.1880055992 0.0660918135 0.526460307 -0.0372438113 0.5264444041 -0.0374734516 -0.1838124547 0.0648950757
75299550.0 -0.1851672834 0.0673769601 0.5283098482 -0.0438782883 0.5282914458 -0.0440694238 -0.1811586003 0.0651738207
80299520.0 -0.1826965838 0.068237606 0.5306814754 -0.0514030565 0.5307750384 -0.0511610778 -0.1783181199 0.0659585104
85299490.0 -0.1801671389 0.0686455899 0.5315308467 -0.0574575171 0.5318639955 -0.0574163212 -0.1760469222 0.0661220846
90299460.0 -0.1779807763 0.0698305612 0.5327326973 -0.0651515355 0.5330008289 -0.064852314 -0.1738353043 0.066842821
95299430.0 -0.17584318 0.0705987936 0.5338906538 -0.0715604929 0.5336991259 -0.0720191125 -0.1714255109 0.0672762782
100299400.0 -0.1740410359 0.071665633 0.5336981227 -0.0785477873 0.5336395442 -0.0788771664 -0.1692667984 0.0674270451
105299370.0 -0.1721128907 0.0723869175 0.5341250006 -0.0858218236 0.5342206816 -0.0856695837 -0.1677642814 0.0680192414
110299340.0 -0.1702521101 0.0733191046 0.5343332981 -0.0925435796 0.5343448826 -0.0924029623 -0.1665010421 0.068419217
115299310.0 -0.1686956966 0.0740515527 0.5345368374 -0.0993407821 0.5344914555 -0.0991840957 -0.1650353267 0.068738519
120299280.0 -0.1672211451 0.0746020763 0.5338112529 -0.1061217597 0.5343798427 -0.1061836249 -0.1632449648 0.0694186125
125299250.0 -0.1662091816 0.0756503664 0.5337741604 -0.1125319962 0.5340055271 -0.112607872 -0.1624125136 0.0695196644
130299220.0 -0.1650076457 0.0767447482 0.5329373406 -0.1195071871 0.5331455137 -0.119553154 -0.1611893304 0.0701564883
135299190.0 -0.1636465746 0.0777837516 0.5328123742 -0.1262690006 0.5325201573 -0.12604811 -0.1596004161 0.0711079805
140299160.0 -0.1626996041 0.078945586 0.5321136547 -0.1327615995 0.5321069372 -0.1332409961 -0.1588274948 0.0719513839
145299130.0 -0.1615647315 0.0799625339 0.5310808703 -0.139222112 0.5309797589 -0.1392995029 -0.15792007 0.0724960367
150299100.0 -0.160002676 0.0811970216 0.5296708506 -0.1455787096 0.5298239537 -0.1456130283 -0.1567011821 0.0736062909
155299070.0 -0.1594570097 0.0820763347 0.5287612833 -0.1528856345 0.5284890746 -0.1526155005 -0.1559538621 0.0748564166
160299040.0 -0.1582103707 0.0834108578 0.5273522663 -0.1586526474 0.5269225606 -0.1588140172 -0.1554671827 0.0753260083
165299010.0 -0.1572909234 0.0846343513 0.5258664546 -0.1656743098 0.5258900954 -0.1656482225 -0.1541106225 0.0765668024
170298980.0 -0.1563462368 0.0856350439 0.5240063197 -0.1719330082 0.5242937088 -0.1718253944 -0.1533255652 0.0774236284
175298950.0 -0.1556357619 0.086833985 0.5228322495 -0.1778213404 0.5224724103 -0.1780542592 -0.1528908537 0.0789125808
180298920.0 -0.1548790434 0.0883207648 0.5206727327 -0.1842828091 0.5209176341 -0.1842244196 -0.1519235492 0.0799306396
185298890.0 -0.1533727666 0.0893007674 0.5188891549 -0.190786953 0.5189503581 -0.1903096055 -0.1513326019 0.0811899124
190298860.0 -0.1525998555 0.0910182601 0.517140968 -0.19723739 0.5172947469 -0.1965421794 -0.150529216 0.0818912833
195298830.0 -0.1520330666 0.0921659159 0.515219838 -0.2026544447 0.5152457776 -0.2026237761 -0.1495125321 0.0830651659
200298800.0 -0.1507088075 0.093711534 0.5127249983 -0.2091328001 0.513195014 -0.2091235918 -0.149307131 0.0842580296
205298770.0 -0.1496900414 0.0948967 0.5104238797 -0.2153055524 0.5104368405 -0.2147703857 -0.1484155477 0.0847338291
210298740.0 -0.1488322652 0.0963069192 0.5082806412 -0.2206962974 0.5085411457 -0.2207303953 -0.1474936624 0.0867672407
215298710.0 -0.1482313111 0.0976734442 0.5062988445 -0.2270943547 0.5063226025 -0.2271327561 -0.1471663883 0.0877450192
220298680.0 -0.1470580425 0.0987322417 0.5034210961 -0.2327540206 0.5034751493 -0.2327326966 -0.1468907822 0.088528676
225298650.0 -0.1459402858 0.1004086848 0.5013293105 -0.2390026239 0.5016726106 -0.2386537102 -0.1462164349 0.0898293687
230298620.0 -0.145255551 0.1021945015 0.4990872653 -0.2444836792 0.499235465 -0.2443965787 -0.145568892 0.0911429489
235298590.0 -0.1440821639 0.1036892826 0.4963796268 -0.2502424397 0.4964482226 -0.2501745764 -0.144570006 0.0921146347
240298560.0 -0.1431151259 0.1048683979 0.4933703888 -0.2558466162 0.4935410034 -0.2563902498 -0.1441462624 0.0938535694
245298530.0 -0.142051016 0.1065607745 0.4911244572 -0.2618562869 0.4908379163 -0.261722943 -0.1429875334 0.0940489661
250298500.0 -0.1407760382 0.1082327431 0.487418241 -0.2675481425 0.4872901 -0.2671489378 -0.1425822822 0.0957223584
255298470.0 -0.1397630232 0.1089521318 0.4841538188 -0.2724459876 0.4847394567 -0.2726472837 -0.1412231649 0.0968026388
260298440.0 -0.1389653848 0.1104537316 0.4815239533 -0.2786633416 0.4816707745 -0.2782405651 -0.1402983357 0.0981880193
265298410.0 -0.1375595232 0.112653307 0.478819042 -0.2842346859 0.4789294038 -0.2838372915 -0.1397168234 0.0994812085
270298380.0 -0.1365269988 0.113544746 0.476090532 -0.2891478746 0.4760961182 -0.2894222695 -0.1389076143 0.1008309073
275298350.0 -0.1350599619 0.1152001058 0.4728918257 -0.2951124551 0.4729615658 -0.2950911674 -0.1381094448 0.1018143727
280298320.0 -0.1339905321 0.1167660917 0.4692579973 -0.3002627988 0.4694492695 -0.3001730944 -0.1367972964 0.102918054
285298290.0 -0.1327588804 0.1182735931 0.4663857785 -0.305273622 0.4659807888 -0.3056760399 -0.135875736 0.1042449009
290298260.0 -0.131455953 0.1197084096 0.4625936464 -0.3108794633 0.463075008 -0.3106970332 -0.1349318337 0.1058483755
295298230.0 -0.1301632724 0.1207696171 0.459818831 -0.3162110646 0.4593617133 -0.3161124737 -0.133244768 0.106587094
300298200.0 -0.129259731 0.1222863499 0.4565054279 -0.321001714 0.4563165925 -0.3211101185 -0.1329048141 0.1082266915
305298170.0 -0.1276593479 0.1234333992 0.4524196318 -0.3265069346 0.4524011499 -0.3265485656 -0.1312485699 0.1090411737
310298140.0 -0.1264269808 0.1251350567 0.4490832841 -0.3313686996 0.449314413 -0.3317401006 -0.130738384 0.1103743651
315298110.0 -0.1252528714 0.1261235409 0.4452433727 -0.3366983619 0.4453782648 -0.3370564432 -0.1296737098 0.111543625
320298080.0 -0.1239437727 0.1275514198 0.4410132048 -0.3422677852 0.44178412 -0.3421205504 -0.1287445955 0.1129080906
325298050.0 -0.1225360915 0.1286303283 0.4377398548 -0.3472214015 0.4375543876 -0.3470994981 -0.1281549375 0.1138846991
330298020.0 -0.1213039591 0.1299001899 0.4336348477 -0.3520100417 0.4335212077 -0.352007498 -0.1271698583 0.114980506
335297990.0 -0.120057387 0.1308915887 0.4295768933 -0.3566100967 0.4296035585 -0.3568780551 -0.1265617919 0.11667237
340297960.0 -0.1192362563 0.1328115932 0.4254001885 -0.3616909707 0.4251344427 -0.3617603118 -0.1247838514 0.1181759517
345297930.0 -0.1179211193 0.1345477085 0.4212677999 -0.3664275068 0.4210479695 -0.3663959735 -0.1242388333 0.119020927
350297900.0 -0.1164586279 0.1354781771 0.4168971641 -0.371037985 0.4169638116 -0.3710133909 -0.1234517164 0.1210327804
355297870.0 -0.1152954778 0.1375988527 0.413154053 -0.3757662851 0.4132641269 -0.3755010134 -0.1222869879 0.1220238604
360297840.0 -0.1135223194 0.1385574787 0.409063394 -0.3800662378 0.4093635593 -0.3801131994 -0.121132214 0.1237247843
365297810.0 -0.1125734134 0.1402345323 0.4046316416 -0.3848087252 0.4048768215 -0.385034041 -0.1201993982 0.1248033208
370297780.0 -0.1107222761 0.1410913808 0.3998708815 -0.3886168317 0.4004770916 -0.3885645742 -0.1191576486 0.1263522151
375297750.0 -0.1090503718 0.1429561462 0.3961099722 -0.3936214715 0.3964596562 -0.3935209372 -0.1176576063 0.1277208524
380297720.0 -0.1079089731 0.1440925166 0.3921615847 -0.3980562856 0.3920966088 -0.3971288656 -0.1173773358 0.1286693018
385297690.0 -0.1063721964 0.1454173359 0.3871827061 -0.4018993656 0.3871089432 -0.4022994288 -0.1154659756 0.1300023064
390297660.0 -0.1049477917 0.1468991499 0.3832924105 -0.4062366701 0.3829360865 -0.406028431 -0.1149803049 0.1311602958
395297630.0 -0.1033309708 0.1481891214 0.378908292 -0.4104646946 0.3787144917 -0.410688216 -0.1129731832 0.1327647724
400297600.0 -0.1018142063 0.1494521776 0.373885639 -0.4148641431 0.3739640187 -0.414874403 -0.1122709093 0.1338203456
405297570.0 -0.1000652783 0.1506161613 0.3691669211 -0.4186516025 0.3693314629 -0.4187109408 -0.1114438317 0.1349909032
410297540.0 -0.0985233442 0.1518926675 0.3652913581 -0.422794247 0.3648250038 -0.4230653268 -0.1099319202 0.1365091355
415297510.0 -0.0965603407 0.1528946492 0.359973986 -0.4267473282 0.3601152998 -0.4269176846 -0.1088058981 0.1374715191
420297480.0 -0.0951745953 0.1548584234 0.3553708285 -0.4309855819 0.3553071934 -0.4310096422 -0.1078116762 0.1387119272
425297450.0 -0.0934997823 0.1553445933 0.3511084962 -0.4347243373 0.3508493221 -0.4345208702 -0.1065444351 0.1399611286
430297420.0 -0.0918186897 0.1564762309 0.3461130904 -0.4378763914 0.3458792256 -0.4382548603 -0.1052829066 0.1409307805
435297390.0 -0.0902802704 0.157762748 0.3408263629 -0.4420526827 0.3408365166 -0.4418904123 -0.103429452 0.1419797943
440297360.0 -0.0881582901 0.158935743 0.3361412479 -0.4456039097 0.3360171653 -0.4459104481 -0.1023955648 0.1427909433
445297330.0 -0.0868389951 0.1600956247 0.3316667726 -0.4494018985 0.3313362613 -0.4493460492 -0.1009606761 0.1436809779
450297300.0 -0.0846653591 0.1609626929 0.3265123803 -0.4529214074 0.3265299931 -0.4532989615 -0.0997111317 0.1448408428
455297270.0 -0.083329168 0.1620520752 0.3210244829 -0.4568040386 0.321519992 -0.4568221559 -0.0981428899 0.1458148078
460297240.0 -0.0815145984 0.1631831842 0.3162713796 -0.4597584622 0.3161994328 -0.4599704376 -0.0967696839 0.1473984419
465297210.0 -0.0796243752 0.1643959442 0.3116118196 -0.4635513223 0.3113755099 -0.4637264265 -0.095211453 0.1478972632
470297180.0 -0.0776179473 0.1646775251 0.3058961945 -0.4666877043 0.3065973982 -0.4669012717 -0.0936801395 0.149325063
475297150.0 -0.0757949185 0.1658900718 0.3003237165 -0.4696887558 0.3008896882 -0.4699238485 -0.0920303873 0.1499677274
480297120.0 -0.0741918947 0.167054743 0.2958186378 -0.4731376106 0.2953276836 -0.4735948223 -0.0905735139 0.1510464788
485297090.0 -0.0722901827 0.1680352893 0.290926985 -0.476472116 0.2908357231 -0.475747422 -0.0890226397 0.1518424439
490297060.0 -0.0709620887 0.168897523 0.2855306351 -0.4794847682 0.2855671647 -0.4791740203 -0.0874218888 0.153275039
495297030.0 -0.0688362053 0.1700137878 0.2801842551 -0.4826704913 0.2807384775 -0.482553702 -0.0862563457 0.1543670167
500297000.0 -0.0667359528 0.1706634299 0.2748540075 -0.485313177 0.2749986125 -0.4849809755 -0.0845065321 0.1558653086
505296970.0 -0.0651621132 0.1713147587 0.2698493676 -0.4878991139 0.2692966996 -0.4885521791 -0.0832018876 0.1566942206
510296940.0 -0.062983182 0.1725083992 0.2640670552 -0.4917205767 0.2639508351 -0.4914911664 -0.0814640468 0.1574229037
515296910.0 -0.0608212901 0.1732967392 0.258718752 -0.4943669308 0.2594324477 -0.4942144783 -0.0802200389 0.1584644102
520296880.0 -0.0593019858 0.1742476778 0.2535551428 -0.4973479713 0.2533013504 -0.4970038276 -0.0785100723 0.1592309115
525296850.0 -0.0572971862 0.1742896569 0.2476934213 -0.4995815313 0.2485327732 -0.4996132838 -0.077250781 0.1604118645
530296820.0 -0.0554759436 0.1757333864 0.2427637269 -0.502803113 0.2425056688 -0.5024142027 -0.0755172499 0.1613896276
535296790.0 -0.053764619 0.17620049 0.2373870005 -0.5049924504 0.237440482 -0.5045880237 -0.0739133644 0.161898233
540296760.0 -0.0517038427 0.1774767757 0.2315891589 -0.5078395448 0.2314245065 -0.5073868028 -0.0730226552 0.1634355798
545296730.0 -0.0501635948 0.1779322031 0.2259170084 -0.5100437022 0.2261595796 -0.5102624711 -0.0712602656 0.1640611624
550296700.0 -0.0474583325 0.1788513414 0.2202734864 -0.5121703427 0.2204473908 -0.5127072516 -0.0695874395 0.1649262091
555296670.0 -0.0458190017 0.1792362903 0.2155063869 -0.5149722752 0.215113674 -0.5145020507 -0.0680100867 0.1659594124
560296640.0 -0.0435599404 0.1804926601 0.2093425095 -0.5172496309 0.2093890137 -0.5171884288 -0.0665035597 0.1666014093
565296610.0 -0.0419971161 0.1805344617 0.2033219605 -0.5194175648 0.2038692545 -0.5193525868 -0.0652199437 0.1672114735
570296580.0 -0.0400249727 0.1813308401 0.1982031445 -0.522077626 0.1976013214 -0.5215313067 -0.0632912279 0.1685852979
575296550.0 -0.0380337331 0.1822156621 0.1924420205 -0.5237844361 0.1922544411 -0.523931753 -0.0616914767 0.1690131109
580296520.0 -0.0357646686 0.1822643021 0.1864070214 -0.5260053971 0.1867937529 -0.5257506 -0.0599600943 0.169360139
585296490.0 -0.0338452909 0.1826132181 0.1809829602 -0.5269760968 0.1810911923 -0.5272501364 -0.0586345349 0.1701461303
590296460.0 -0.0315016704 0.1833613781 0.1752385453 -0.5288819528 0.1753785909 -0.5293724773 -0.0573712819 0.1708792016
595296430.0 -0.0296268635 0.1839219317 0.1690462525 -0.5316814208 0.1691921946 -0.5311782992 -0.0556003734 0.1712912757
600296400.0 -0.028030616 0.1841092046 0.1638096317 -0.5330686561 0.1634514635 -0.5326683292 -0.0538393581 0.1723484147
605296370.0 -0.0260310572 0.1847110013 0.1574912703 -0.5346267612 0.1578377212 -0.534701661 -0.0519475491 0.1729338023
610296340.0 -0.0238019439 0.1851619412 0.1518757312 -0.536416347 0.1521280896 -0.5363797013 -0.0505480766 0.1732903225
615296310.0 -0.0211853959 0.185165745 0.1455416378 -0.5377131978 0.1457944165 -0.5381922976 -0.0483599689 0.1738546393
620296280.0 -0.0196286718 0.1855299339 0.1401613402 -0.5392788213 0.1404086293 -0.5392958127 -0.0472312669 0.1746050861
625296250.0 -0.017565712 0.1856543202 0.1350381703 -0.5409176656 0.1344813024 -0.5413386639 -0.0449553283 0.1751445113
630296220.0 -0.014883872 0.1865748394 0.1280287416 -0.5423930897 0.1286236531 -0.5424152508 -0.0435793903 0.1759970108
635296190.0 -0.0138595259 0.1865690356 0.1231064094 -0.5435594099 0.1226659266 -0.5435394147 -0.041657026 0.1765664933
640296160.0 -0.0116836587 0.1868258031 0.1171390284 -0.5443858828 0.1168904874 -0.5451803801 -0.0398277117 0.1770254973
645296130.0 -0.0095032797 0.1874038476 0.1109568363 -0.5456717103 0.1111412216 -0.54612441 -0.0381063733 0.1776287729
650296100.0 -0.0071982286 0.1875258977 0.1048490691 -0.5473260007 0.1052459911 -0.547105834 -0.0360933347 0.1774099968
655296070.0 -0.0054357552 0.1875019244 0.0992367616 -0.5484654612 0.0990474272 -0.5483027702 -0.0343730378 0.1782932292
660296040.0 -0.0035305868 0.1874528531 0.0933923001 -0.5492582023 0.0932958286 -0.5494611108 -0.0325295793 0.1786910541
665296010.0 -0.0012031804 0.1876369274 0.0868223863 -0.5501875082 0.0871365559 -0.5502305378 -0.03061563 0.1797577851
670295980.0 0.0001454995 0.1882082589 0.0815477408 -0.5509409286 0.0811444507 -0.551100843 -0.0292243331 0.1799501874
675295950.0 0.0026575373 0.1885386238 0.0753559739 -0.5520383938 0.075370976 -0.5514236513 -0.0276673924 0.180402996
680295920.0 0.0046433072 0.1883423701 0.0690514901 -0.5523026468 0.0688435118 -0.5528260974 -0.0254715422 0.1814737775
685295890.0 0.0070251321 0.1889885342 0.0634713239 -0.5536434552 0.0631376651 -0.5532865077 -0.0239527062 0.181429208
690295860.0 0.0090417772 0.1886139719 0.0570620129 -0.5532495784 0.0575816579 -0.5543537396 -0.0220490398 0.182628843
695295830.0 0.0110030801 0.1885122167 0.052015685 -0.5543760838 0.0510988272 -0.554323926 -0.0200721993 0.1825159406
700295800.0 0.0132738043 0.1881528859 0.0450335983 -0.5543453178 0.0448544177 -0.5547378061 -0.0186063228 0.1834261048
705295770.0 0.0150839225 0.1887121464 0.039184881 -0.5553735897 0.0394401662 -0.5557684418 -0.0168956224 0.1836087161
710295740.0 0.0176662146 0.1887364794 0.0335477473 -0.5563692078 0.0335718794 -0.5561108379 -0.0151743153 0.1834598694
715295710.0 0.0193619844 0.1884909529 0.0278178281 -0.5559488187 0.0271541115 -0.556398653 -0.0130016958 0.1841531974
720295680.0 0.0214684806 0.1885117163 0.0213028242 -0.5566461331 0.0215161957 -0.5564308247 -0.011411199 0.1847126181
725295650.0 0.023645634 0.1884042417 0.0155185576 -0.5564581969 0.0156443185 -0.5568813959 -0.0105460815 0.1852133453
730295620.0 0.0261243771 0.1882327506 0.0091466986 -0.5561248847 0.0095863755 -0.5566532058 -0.0085308593 0.1847415239
735295590.0 0.027578238 0.1886778224 0.0033252798 -0.5566632218 0.0033011385 -0.556713817 -0.0069208127 0.1848045608
740295560.0 0.02976353 0.1881719824 -0.0025941762 -0.5567229537 -0.0026880438 -0.5565021859 -0.0047149071 0.1853598443
745295530.0 0.0317812348 0.1878665662 -0.0087806932 -0.556196025 -0.0087884963 -0.5559655642 -0.0025863544 0.1851765043
750295500.0 0.033981545 0.1876423204 -0.0145626923 -0.5559483945 -0.0144740999 -0.5563141574 -0.0012848131 0.1854884283
755295470.0 0.0363035677 0.187308384 -0.0203379545 -0.5560568202 -0.0207976789 -0.5561069024 0.0012085347 0.1852677347
760295440.0 0.038044458 0.1870963985 -0.0264237997 -0.5560128403 -0.0265433732 -0.5563444519 0.0024719839 0.1857466118
765295410.0 0.0400937586 0.186879609 -0.03271968 -0.5554527549 -0.0328394987 -0.5557852802 0.0044891022 0.1858578488
770295380.0 0.0419061678 0.1862770203 -0.0386963513 -0.5553218753 -0.0389840889 -0.5549080795 0.0059774792 0.1856929704
775295350.0 0.0439421002 0.1859868088 -0.0449498588 -0.5541057228 -0.0442960708 -0.5543707562 0.0073649578 0.1860828594
780295320.0 0.0462753843 0.1857496059 -0.0505754094 -0.5538515041 -0.0503066262 -0.5539592848 0.0091125068 0.1856111569
785295290.0 0.0481008806 0.184839642 -0.0565365597 -0.5526422628 -0.056564654 -0.5533400715 0.0116835421 0.1859154322
790295260.0 0.0506661267 0.1853164497 -0.0621376428 -0.5529743906 -0.0615179895 -0.5525131963 0.0134018483 0.1859616944
795295230.0 0.0521917252 0.1844754594 -0.0683150863 -0.5518449371 -0.0678259402 -0.5517115885 0.0153733623 0.1860253181
800295200.0 0.0541837191 0.1841689387 -0.0749771941 -0.5508244006 -0.0745232328 -0.5510918576 0.0172313875 0.185920653
805295170.0 0.0565493922 0.1833169438 -0.0801764233 -0.5500685905 -0.0803720876 -0.5500236189 0.0189578424 0.1860914879
810295140.0 0.0579091128 0.1827022794 -0.0858870531 -0.5488400877 -0.0864445794 -0.5495142861 0.0210573233 0.1860828658
815295110.0 0.0603327083 0.1821940496 -0.0921179976 -0.5480370344 -0.0919870939 -0.5480999458 0.022789357 0.186159677
820295080.0 0.062048481 0.1820610512 -0.0978944016 -0.5468788797 -0.0980410269 -0.5470684354 0.0244708345 0.185637685
825295050.0 0.0644824517 0.1811441817 -0.1033328152 -0.5457759672 -0.1037330077 -0.5462504435 0.0264968087 0.1859951315
830295020.0 0.0662519174 0.1807477614 -0.1100981006 -0.5447659415 -0.1096659254 -0.5447689538 0.0291276284 0.1859195343
