!Created with skrf (http://scikit-rf.org).
# Hz S RI R 50.0 
!freq ReS11 ImS11 ReS21 ImS21 ReS12 ImS12 ReS22 ImS22
300000.0 -0.0960673965 -0.1010043378 0.6245621096 0.0920692035 0.6215571108 0.0948728266 -0.0965887317 -0.1066147911
5299970.0 -0.1016104519 0.0113710427 0.6302096511 0.0107930565 0.6309958068 0.0112310303 -0.1014812267 0.0112477099
10299940.0 -0.0970502807 0.0287478497 0.6349243001 0.0159611964 0.6340426077 0.0166194815 -0.0964270703 0.0284571362
15299910.0 -0.0891515442 0.0423920751 0.6404732969 0.0213139159 0.6409070572 0.0211033165 -0.0898264104 0.041962384
20299880.0 -0.0803800434 0.0537072253 0.6489491672 0.024180522 0.6493054238 0.0244674835 -0.0810684911 0.0528997489
25299850.0 -0.0704535976 0.0624584699 0.6580160207 0.0260518132 0.6586402961 0.0258353971 -0.071652276 0.0619261945
30299820.0 -0.0606611831 0.0687943502 0.6684087594 0.0247991523 0.6676378705 0.0244166894 -0.0618872917 0.0681803591
35299790.0 -0.0505919268 0.0735734998 0.6771949619 0.0223143905 0.6773466556 0.0219051844 -0.0523520689 0.0735290024
40299760.0 -0.0412647025 0.0763648495 0.686724504 0.0176116672 0.6867359981 0.0177254271 -0.0426287676 0.0772024607
45299730.0 -0.0318520613 0.0783312661 0.6955540856 0.0122074601 0.6960268164 0.0122833529 -0.0331890184 0.07916474
50299700.0 -0.0229043931 0.0789969596 0.7036852557 0.0048565705 0.7037978438 0.0054190401 -0.0246121104 0.0804812928
55299670.0 -0.0151506374 0.0788036443 0.7116978771 -0.0022993958 0.710940283 -0.0025525362 -0.0173911174 0.0805730064
60299640.0 -0.0077869865 0.0788061936 0.7182346464 -0.0109518305 0.7181938916 -0.010982222 -0.0096786905 0.0794737405
65299610.0 -0.0012277003 0.0770545931 0.7241713519 -0.0199053262 0.723814824 -0.0197288112 -0.0024080893 0.0784448899
70299580.0 0.0054553307 0.075088532 0.7290311048 -0.0287762736 0.7293069198 -0.0289191694 0.0029545202 0.0769974455
75299550.0 0.0105738433 0.0731245642 0.7334140475 -0.0392257614 0.733789302 -0.038695572 0.0086588694 0.075463315
80299520.0 0.0155555669 0.0714556244 0.7377359834 -0.0486213625 0.7376311502 -0.0488548954 0.013806109 0.0731232724
85299490.0 0.0200167873 0.0690343292 0.7412256779 -0.0586017156 0.7408394051 -0.0582322197 0.0180982523 0.0708733741
90299460.0 0.0240824655 0.0667117367 0.7434594613 -0.0687023183 0.743206309 -0.0683634098 0.022738634 0.0691220318
95299430.0 0.0279527047 0.0641588087 0.7458422551 -0.0783283794 0.7462275806 -0.0790148923 0.0257074728 0.0666047661
100299400.0 0.0314299128 0.0614931756 0.7477486598 -0.0889595942 0.7479678002 -0.0887206317 0.0294557356 0.0647288707
105299370.0 0.0342728107 0.0592043539 0.7487647607 -0.0985369213 0.7497688034 -0.0989843784 0.0328167179 0.0616422228
110299340.0 0.0373630334 0.0562703395 0.7506534405 -0.108684879 0.7506619648 -0.1084708721 0.0348964517 0.0591120593
115299310.0 0.0396092739 0.0545473984 0.751351924 -0.1186180312 0.7515373144 -0.1190496895 0.0375229667 0.0575762249
120299280.0 0.0414587779 0.0521701263 0.7520586935 -0.1291408458 0.7517192022 -0.1293559874 0.0399653177 0.0544980458
125299250.0 0.0437580294 0.0496120531 0.7521490189 -0.1384590472 0.7520793646 -0.138597974 0.0420362506 0.0527777128
130299220.0 0.0457445093 0.0470287352 0.7519850868 -0.1493619273 0.7518814512 -0.1497301411 0.0439407667 0.0507415823
135299190.0 0.0470149912 0.0451145126 0.7518609436 -0.1583829981 0.7522783801 -0.15870551 0.0453399308 0.04790487
140299160.0 0.0490337567 0.043358712 0.7515612081 -0.1683860578 0.7511336108 -0.1680550733 0.0463340603 0.0455313074
145299130.0 0.0494052112 0.0410495911 0.7502433696 -0.1781968432 0.7505974448 -0.1782685989 0.0478390417 0.0437869535
150299100.0 0.0507948807 0.0392490737 0.7496350625 -0.187835667 0.7491103248 -0.1878528737 0.0490742776 0.0421902323
155299070.0 0.0524022039 0.0372033059 0.7474602101 -0.197312141 0.7483636609 -0.1977673038 0.0505091383 0.0395583576
160299040.0 0.0531822795 0.0355181306 0.7471011093 -0.2069736746 0.7466380936 -0.2070576901 0.0509109043 0.0380673065
165299010.0 0.0544655552 0.0334749101 0.7451948893 -0.2161376925 0.7450118244 -0.216634149 0.052341344 0.035588835
170298980.0 0.055032821 0.0317039104 0.7432125884 -0.2258230771 0.743325488 -0.2261935587 0.0525228377 0.0340298855
175298950.0 0.0558881022 0.0303866144 0.7414953503 -0.2354628008 0.7421170848 -0.2357487288 0.0536012346 0.0327192235
180298920.0 0.0563158247 0.0290847383 0.7393928235 -0.2446251067 0.739189603 -0.2446792753 0.0540179037 0.0306200436
185298890.0 0.0567603221 0.0270338716 0.7376508289 -0.253601674 0.7372327308 -0.2532525908 0.0552409835 0.0290538643
190298860.0 0.0578881401 0.02564161 0.7343931152 -0.2623616685 0.7348424571 -0.2622159804 0.0553237779 0.0271134329
195298830.0 0.0578806306 0.0243695719 0.7328628477 -0.2715644598 0.7324340171 -0.2716960207 0.0555318242 0.0257519143
200298800.0 0.0584941662 0.0223829531 0.7296528852 -0.2808775639 0.7296649736 -0.2808763882 0.0563541711 0.0239761313
205298770.0 0.0583824009 0.0209167703 0.726475571 -0.2894597632 0.7273017202 -0.2891330647 0.0570527926 0.0226013156
210298740.0 0.0588514074 0.0200927894 0.7244199769 -0.298483615 0.7233426341 -0.2983031821 0.0565307738 0.0208307329
215298710.0 0.059189964 0.0185750588 0.7209123149 -0.306868981 0.7210245927 -0.3069910977 0.057213196 0.0197468106
220298680.0 0.0595255042 0.0177348469 0.717637458 -0.3151359635 0.7172163107 -0.3160187426 0.0574319618 0.0180423464
225298650.0 0.0598182226 0.0160142153 0.7139581374 -0.3240333105 0.714719019 -0.3238739384 0.0576338989 0.0165088394
230298620.0 0.0603223005 0.0151888711 0.7112694605 -0.3329111337 0.7110656482 -0.3328532897 0.0572124442 0.0152662419
235298590.0 0.0599515146 0.0138414185 0.7080448617 -0.3420008148 0.7078938202 -0.3413366406 0.057873804 0.0141502784
240298560.0 0.0602321167 0.0129861324 0.7042786685 -0.3493994947 0.7040497924 -0.3493985968 0.0575852075 0.0128658836
245298530.0 0.0603954181 0.0109781455 0.7004812472 -0.3585861572 0.6997310044 -0.3579759011 0.0578844785 0.011624538
250298500.0 0.0603084402 0.0100568341 0.6969016279 -0.3661573807 0.6965170719 -0.3657295999 0.0577020439 0.0103755656
255298470.0 0.0606484532 0.0095647151 0.6929799029 -0.3745119865 0.6930345328 -0.374010249 0.0577581804 0.0098683104
260298440.0 0.0606106625 0.0080195973 0.6891376458 -0.3816295973 0.688972599 -0.3821496178 0.0577708863 0.0079228156
265298410.0 0.0599872281 0.0073486171 0.6844452561 -0.3905735999 0.6843713437 -0.390944211 0.0589370426 0.006736244
270298380.0 0.0601896646 0.0063910863 0.6806712865 -0.3981568216 0.6802401098 -0.3981759572 0.0583809256 0.0059703337
275298350.0 0.0603947332 0.0057583312 0.6759481171 -0.4056106863 0.675664514 -0.4060382587 0.0577971641 0.0050889452
280298320.0 0.0598042276 0.0044744164 0.6720239184 -0.4137642533 0.6720405205 -0.4139822471 0.0582505717 0.0042393509
285298290.0 0.0597496532 0.0034184835 0.6671432169 -0.4217726474 0.6678194787 -0.4218503608 0.0581229917 0.0027505674
290298260.0 0.059992762 0.0028055305 0.6638851115 -0.429884409 0.6634328138 -0.4297399456 0.0582834138 0.0016092219
295298230.0 0.0598160178 0.0013409111 0.6585074994 -0.4374912747 0.6585317265 -0.4377754189 0.0580498686 0.000357129
300298200.0 0.0603212076 0.0007750691 0.653607181 -0.4449470016 0.6535263649 -0.4453458857 0.0577570663 -0.0008342152
305298170.0 0.0600906931 -0.0007819701 0.649028366 -0.4530671822 0.6489523928 -0.4530572872 0.0579178773 -0.0021833084
310298140.0 0.0602809852 -0.001634126 0.6442625331 -0.4604388548 0.6441451219 -0.4600470963 0.0578963395 -0.0037372296
315298110.0 0.0598315358 -0.0031128058 0.6391668316 -0.4688079189 0.6392602758 -0.4687858914 0.0577910184 -0.0044523057
320298080.0 0.0597248311 -0.0037267223 0.6340067055 -0.4754598408 0.6344354662 -0.4762052125 0.0573514376 -0.0055698376
325298050.0 0.0586012234 -0.0052887099 0.6282430335 -0.4829680453 0.6289961932 -0.4829873691 0.0570545879 -0.006682855
330298020.0 0.0574917768 -0.0058922738 0.6227304231 -0.4905962774 0.6236344711 -0.4905703738 0.0557877885 -0.0077808139
335297990.0 0.0574916963 -0.0067680391 0.6170603788 -0.4974232538 0.6172272057 -0.4976475795 0.0555729665 -0.0087634404
340297960.0 0.0568986647 -0.0076917865 0.6113456292 -0.5046790901 0.6109323291 -0.5049493586 0.0551414202 -0.0092602269
345297930.0 0.0563175541 -0.0084049563 0.6059792271 -0.511880606 0.6058231769 -0.5117812133 0.0553148159 -0.0104423799
350297900.0 0.0558100423 -0.0089354306 0.6003901073 -0.5178613378 0.60021168 -0.5184074594 0.0549888068 -0.011696012
355297870.0 0.0556636432 -0.0095892124 0.5947472894 -0.5239636233 0.5941315174 -0.524648812 0.0546922448 -0.0119148171
360297840.0 0.0550601095 -0.0103744611 0.5877225106 -0.5316571531 0.5882379219 -0.5315275918 0.053498995 -0.0122040972
365297810.0 0.0547228095 -0.010896566 0.5823001975 -0.5378816488 0.582430949 -0.5381344173 0.0529454936 -0.0132100926
370297780.0 0.0545907318 -0.0114567646 0.5761990204 -0.5447489319 0.5762232465 -0.5445804372 0.0527431236 -0.014123676
375297750.0 0.0543353428 -0.0122711103 0.5706699735 -0.5508240151 0.5705359612 -0.551299425 0.052899203 -0.014693455
380297720.0 0.0535002956 -0.0127864931 0.5644428169 -0.5576191592 0.564228354 -0.5571038659 0.052073275 -0.0151737542
385297690.0 0.0528747238 -0.013768889 0.5579657486 -0.5636458053 0.5583782519 -0.5643094497 0.0519403224 -0.0154057889
390297660.0 0.0528848511 -0.0143329871 0.5521262593 -0.5691667494 0.5521520623 -0.5694891996 0.0522776372 -0.016572059
395297630.0 0.053024759 -0.0149407772 0.5460665718 -0.5751531745 0.5460472587 -0.5754809345 0.0512484234 -0.0170113337
400297600.0 0.0519738133 -0.0157950416 0.5392496838 -0.5820459029 0.5398513918 -0.5819439898 0.0514734141 -0.0172667964
405297570.0 0.0518520206 -0.0167413259 0.5331986329 -0.5872221168 0.5334689664 -0.5879318474 0.0508654855 -0.0177845963
410297540.0 0.051608897 -0.0164573886 0.5266960835 -0.5936690506 0.5266123757 -0.5937148456 0.0502757745 -0.0188487394
415297510.0 0.0507829634 -0.0176242087 0.5196835355 -0.5996159558 0.5205753893 -0.5998924187 0.0506777449 -0.0190719108
420297480.0 0.050497971 -0.0185351388 0.5136453153 -0.6053102738 0.5138572971 -0.6055485348 0.0502947135 -0.0193673166
425297450.0 0.0508533345 -0.0190488011 0.5066218804 -0.6108760053 0.5067024587 -0.6112579215 0.0497908447 -0.0208045725
430297420.0 0.0500686811 -0.0193180627 0.5004067644 -0.6168823228 0.5010251124 -0.6164234767 0.0499450971 -0.0209086572
435297390.0 0.0497945617 -0.0204159367 0.4932600132 -0.6224688954 0.4932590782 -0.6222922469 0.0488892748 -0.0212800531
440297360.0 0.0497906089 -0.0210051102 0.4863368408 -0.6280830822 0.486280807 -0.627867344 0.0486909458 -0.0217894746
445297330.0 0.0492352653 -0.021851396 0.4798045391 -0.6328490366 0.47938822 -0.6327344066 0.0484743632 -0.0220591849
450297300.0 0.0488132056 -0.0222354583 0.4728598364 -0.6376926027 0.4731475697 -0.6379501217 0.0476912818 -0.0227373352
455297270.0 0.0480645647 -0.0228539332 0.4660605083 -0.6438364592 0.4660391773 -0.6435484517 0.04778722 -0.0234072142
460297240.0 0.0480630595 -0.0234188448 0.4587338393 -0.649487953 0.4583249058 -0.6491932465 0.0473742014 -0.0244020274
465297210.0 0.04775399 -0.0240815719 0.4511231446 -0.6536426825 0.4510549426 -0.654275332 0.0472808736 -0.0237469679
470297180.0 0.0473653768 -0.0250589783 0.4440423053 -0.6585962518 0.4445536823 -0.6590861511 0.0470168604 -0.0249223816
475297150.0 0.0463789639 -0.0250579163 0.4371864601 -0.6632368038 0.4372262098 -0.6635845815 0.0464953812 -0.0257431027
480297120.0 0.046701183 -0.0250272623 0.4294072057 -0.6681840738 0.4299056814 -0.6685617714 0.0457324509 -0.026226833
485297090.0 0.0462306101 -0.0265929458 0.421853381 -0.6734408234 0.4226225248 -0.6730747585 0.0457527154 -0.0262542933
490297060.0 0.0462249909 -0.0267122045 0.4143586219 -0.6778695783 0.4147289927 -0.6783264346 0.0454313656 -0.0272950378
495297030.0 0.0450955426 -0.0281016809 0.4080118586 -0.682863258 0.407593626 -0.6823069519 0.0454784718 -0.0278373309
500297000.0 0.0448974329 -0.0278229819 0.3999810891 -0.6868381769 0.4001087202 -0.6873780718 0.0447394665 -0.027624005
505296970.0 0.0449231521 -0.0283297852 0.3927743448 -0.6912335927 0.3926629252 -0.6916426932 0.0443851764 -0.0291073607
510296940.0 0.0443890855 -0.0290495251 0.3846007623 -0.6966756754 0.3851799864 -0.6959268621 0.0442164836 -0.0291986943
515296910.0 0.0436212789 -0.028899261 0.3766096421 -0.6999102216 0.3768295646 -0.6997048132 0.0436455985 -0.0304223477
520296880.0 0.0434062542 -0.0295985897 0.369286676 -0.7036949479 0.3693762541 -0.7036945339 0.0437969559 -0.0296600237
525296850.0 0.043384139 -0.0304491647 0.3615166793 -0.7079558964 0.3615376962 -0.7077014133 0.0436450381 -0.030472199
530296820.0 0.042445966 -0.0309372947 0.3535772396 -0.7117350833 0.3538963237 -0.7118964238 0.0431257135 -0.0314723736
535296790.0 0.042768579 -0.0309082297 0.3462782005 -0.7149378443 0.3462393336 -0.7159401021 0.0433225281 -0.0313220377
540296760.0 0.0419772612 -0.0315027433 0.3377678347 -0.7192421465 0.3385885736 -0.7192890651 0.0419158314 -0.0326118584
545296730.0 0.0408650853 -0.0319195038 0.330234814 -0.7224772456 0.3300807266 -0.7232461155 0.0419005724 -0.0325523048
550296700.0 0.0414625264 -0.0322233235 0.3222023433 -0.7269069411 0.3224665671 -0.7269822044 0.0417939811 -0.0331872118
555296670.0 0.0406317712 -0.0328070261 0.3143423136 -0.7309732152 0.3148042326 -0.7302782713 0.0408247993 -0.0344292993
560296640.0 0.0409944093 -0.0331559753 0.3059639666 -0.7335417065 0.3067004041 -0.7336304417 0.0403022144 -0.0337930899
565296610.0 0.0395662299 -0.0334889334 0.2984952703 -0.7371086943 0.2983327225 -0.7367197513 0.0403153788 -0.0341359727
570296580.0 0.0392075591 -0.0335260478 0.2900280512 -0.7400433004 0.2902618513 -0.7406223106 0.039592186 -0.0349724919
575296550.0 0.0390875695 -0.0343457754 0.2826229365 -0.7433540339 0.2820939834 -0.7435049761 0.0390955237 -0.0351493788
580296520.0 0.0387059593 -0.0343687781 0.274219411 -0.7467852378 0.2741785591 -0.7467329663 0.0381282209 -0.035629486
585296490.0 0.0383043686 -0.0345889648 0.2663321722 -0.7489590346 0.2657314689 -0.7492560702 0.0385673954 -0.0356940109
590296460.0 0.038506783 -0.0349124317 0.2573435016 -0.7523187876 0.2578975782 -0.7525664286 0.0373008371 -0.0360858967
595296430.0 0.0378433892 -0.0354057272 0.2487833674 -0.7548120564 0.2489889123 -0.7550657558 0.0373689647 -0.037091603
600296400.0 0.0374950096 -0.0357700485 0.240581033 -0.7574346992 0.2412750476 -0.7579125984 0.0371565472 -0.0371487739
605296370.0 0.0360125492 -0.0357856238 0.2331996341 -0.7602747539 0.2321665181 -0.7605889363 0.0363689611 -0.0373991183
610296340.0 0.0364180294 -0.0357460293 0.2252522467 -0.7622180802 0.2250787229 -0.762256016 0.0354633086 -0.0377562362
615296310.0 0.0362688427 -0.0363705489 0.2162357226 -0.7655042016 0.2161751344 -0.7649185537 0.0353016372 -0.0379046185
620296280.0 0.0349404713 -0.0359120614 0.2068408411 -0.7672879953 0.2074202089 -0.7672746183 0.0344402369 -0.0382933861
625296250.0 0.0344212785 -0.0368420789 0.1992778513 -0.7698591133 0.1991092386 -0.7700005667 0.0336410018 -0.0387631368
630296220.0 0.0342575268 -0.0367498455 0.1903744323 -0.7722585909 0.190579394 -0.7717226909 0.0335414759 -0.0388711835
635296190.0 0.0334412841 -0.0367363891 0.1827610748 -0.7737684361 0.1825766312 -0.7737425587 0.0331112117 -0.0392333722
640296160.0 0.0327159596 -0.0371377517 0.1734113251 -0.7762474224 0.1739167299 -0.7759147266 0.0321204327 -0.0399480476
645296130.0 0.0331279498 -0.0367382926 0.1652621512 -0.7774788406 0.1653234856 -0.7777943923 0.0311745133 -0.0404307697
650296100.0 0.031941525 -0.0373207727 0.1569304899 -0.7796522446 0.1570448113 -0.7800371165 0.0319345435 -0.0404323008
655296070.0 0.0314644868 -0.0376365837 0.1480253545 -0.7813307126 0.1484477351 -0.7814721776 0.0303112199 -0.0404837106
660296040.0 0.0311076903 -0.0375459504 0.1397229517 -0.7830366311 0.1398625592 -0.7831638976 0.0301024788 -0.0414772719
665296010.0 0.0307214392 -0.0377694844 0.1305208986 -0.783797875 0.1312926768 -0.7839057386 0.0297450755 -0.0409731288
670295980.0 0.0301799326 -0.037815324 0.1221572834 -0.7852674694 0.1225174924 -0.7852500102 0.028303841 -0.0416476063
675295950.0 0.0293727107 -0.0379396929 0.114315629 -0.7863741625 0.1141184314 -0.7869291517 0.0277458546 -0.0414258141
680295920.0 0.0289416261 -0.0379133959 0.1055555307 -0.7877962177 0.1060293787 -0.7876387903 0.027900789 -0.0421275082
685295890.0 0.0286299985 -0.0378633557 0.0967918399 -0.7892523642 0.0973220206 -0.7893925531 0.0272607616 -0.0416067142
690295860.0 0.0273682668 -0.0379606368 0.0882431141 -0.790087545 0.0882576266 -0.7904302793 0.0260260727 -0.0420453119
695295830.0 0.0273718201 -0.0386666616 0.0800535592 -0.7914322687 0.0801505284 -0.7910252026 0.0256328379 -0.0423390164
700295800.0 0.0267611014 -0.0381143983 0.0715331631 -0.7917098213 0.0714066429 -0.7917989017 0.0249286768 -0.0420085095
705295770.0 0.0256860962 -0.0385530347 0.0622493744 -0.7931403594 0.0630319536 -0.7921425982 0.02451654 -0.0425252587
710295740.0 0.0254939628 -0.0385409948 0.053868444 -0.7935282706 0.0541767405 -0.7935919861 0.0238509299 -0.0423197485
715295710.0 0.0246131515 -0.0380256072 0.0451010159 -0.7940813516 0.0455883442 -0.7938701746 0.0230096748 -0.0427442575
720295680.0 0.0245802925 -0.0382966926 0.0365075357 -0.7934601837 0.0370218707 -0.7943586271 0.0224986606 -0.0429028269
725295650.0 0.0231483945 -0.0382401229 0.0284454973 -0.7948367809 0.0284777032 -0.7946377092 0.0213208052 -0.0424079216
730295620.0 0.0223819151 -0.0386831692 0.0194746282 -0.7944343362 0.0196289364 -0.7937989578 0.0209053194 -0.0421551281
735295590.0 0.0225194215 -0.0386561429 0.0106349906 -0.7951118732 0.0108873069 -0.7947288183 0.0199535686 -0.0432323127
740295560.0 0.0214866931 -0.0387727242 0.0019315278 -0.7951576578 0.0030233492 -0.7949520951 0.0192005697 -0.0426502765
745295530.0 0.0206339567 -0.0383741137 -0.0063470605 -0.7940913488 -0.0056281989 -0.7953554306 0.0178904905 -0.0431944211
750295500.0 0.0201507499 -0.038301788 -0.0149851909 -0.7949451096 -0.0152628093 -0.7941145253 0.0179859508 -0.0426305648
755295470.0 0.0191461428 -0.0384095464 -0.0230320071 -0.7947425301 -0.0232621968 -0.7945668036 0.0175717768 -0.0423316602
760295440.0 0.0187657607 -0.0378480288 -0.0326213887 -0.7939370336 -0.0320521612 -0.7935125953 0.0170808471 -0.0437291778
765295410.0 0.0189333328 -0.0385675891 -0.0407155978 -0.7934606275 -0.0402139388 -0.7936613793 0.0162335352 -0.0428486789
770295380.0 0.0178131522 -0.0380141516 -0.0490648498 -0.7929813236 -0.0489827747 -0.793924246 0.0151817477 -0.0430582747
775295350.0 0.0172284068 -0.0382554784 -0.0574935111 -0.7924198342 -0.0574803965 -0.7918947941 0.0150002619 -0.0425025721
780295320.0 0.0164022707 -0.0378118155 -0.0659757557 -0.7914717311 -0.0662064363 -0.7917966002 0.0144959332 -0.0428071864
785295290.0 0.0156450873 -0.0383466509 -0.0749971662 -0.7913149414 -0.0748571759 -0.7908456798 0.0131498201 -0.042379798
790295260.0 0.0156647793 -0.0387926104 -0.0830856734 -0.7902208808 -0.0830712234 -0.7904739355 0.0125848571 -0.0419908732
795295230.0 0.0144662984 -0.0384601059 -0.0922464194 -0.7893337042 -0.0923572321 -0.7899444679 0.0119893813 -0.0432635771
800295200.0 0.0133990445 -0.037944848 -0.0997018273 -0.7875056106 -0.1006515694 -0.7880687442 0.0110001494 -0.0421194983
805295170.0 0.0129609217 -0.0381166543 -0.1092295983 -0.7869217465 -0.1086074946 -0.7870810321 0.0117631277 -0.0419962983
810295140.0 0.012739136 -0.0378499898 -0.1175467028 -0.7854960436 -0.1175490352 -0.7858765515 0.0104927211 -0.042188646
815295110.0 0.0120594129 -0.0376111516 -0.1261065875 -0.7842667791 -0.126020611 -0.7845769956 0.0095215742 -0.0421288917
820295080.0 0.0115944174 -0.0377220914 -0.1340831015 -0.7826045818 -0.1344114901 -0.7836781856 0.0080972472 -0.0411813722
825295050.0 0.0103748543 -0.037890777 -0.1431115899 -0.7813920382 -0.1426194392 -0.7812075946 0.0089178813 -0.0408584507
830295020.0 0.0098287138 -0.0375427003 -0.1514773313 -0.7796955087 -0.1512389292 -0.7798591888 0.0079205321 -0.0417650412
