!Created with skrf (http://scikit-rf.org).
# Hz S RI R 50.0 
!freq ReS11 ImS11 ReS21 ImS21 ReS12 ImS12 ReS22 ImS22
300000.0 -0.7705626118 -0.1476230852 -0.0034275377 0.0009813469 0.0007546181 -0.0013322944 -0.7682595732 -0.1675992458
5299970.0 -0.7853517343 -0.0074154505 0.0001821554 0.0001235285 5.37959e-05 1.42579e-05 -0.7845542603 -0.0080023787
10299940.0 -0.7878602064 -0.0039504091 -0.0001805816 2.09125e-05 -0.00014799 -0.0001141352 -0.7879817712 -0.0055342838
15299910.0 -0.7929099705 -0.0014549421 -1.19994e-05 -1.61823e-05 0.0001660198 -4.01919e-05 -0.793492318 -0.0031744652
20299880.0 -0.7997040918 0.0025131386 -2.52267e-05 -0.0002607246 0.0001380906 -6.92704e-05 -0.8003214763 0.0016495312
25299850.0 -0.8062928771 0.0079071164 5.77367e-05 0.0001799748 0.0001446929 8.27049e-05 -0.8062346832 0.0071863993
30299820.0 -0.8117723003 0.0162312741 -0.0001176036 -1.70843e-05 4.58622e-05 7.38259e-05 -0.8125630713 0.0146806477
35299790.0 -0.8168007501 0.0251208851 3.73352e-05 2.0155e-05 8.30454e-05 6.90864e-05 -0.8174812254 0.0242458199
40299760.0 -0.8214825697 0.0343329248 0.0001363541 -1.3612e-06 5.92314e-05 -0.0001128038 -0.8216492637 0.0334458242
45299730.0 -0.8250649849 0.0440993856 -0.0003441961 -3.0989e-06 2.46679e-05 -6.32277e-05 -0.8249435215 0.0425099793
50299700.0 -0.8270276695 0.053929483 -0.0001429032 -4.74291e-05 1.34603e-05 6.7448e-05 -0.8278104979 0.0525718615
55299670.0 -0.8288725939 0.0643404404 8.00226e-05 -7.18295e-05 -2.03297e-05 -1.50273e-05 -0.8294366042 0.0631252705
60299640.0 -0.8296978941 0.0741912439 -0.0001893461 8.0404e-06 -0.0001897582 -2.86093e-05 -0.8308002543 0.0731555652
65299610.0 -0.8311808301 0.0847419561 4.17667e-05 0.0002177691 0.0001158638 -2.63708e-05 -0.8311834049 0.0828604888
70299580.0 -0.831584179 0.0942536193 6.68917e-05 4.87685e-05 5.09504e-05 -5.56844e-05 -0.8318684297 0.092843078
75299550.0 -0.8313858421 0.1043018038 -5.82326e-05 1.8477e-06 5.30697e-05 0.0001881811 -0.8323168428 0.1023971812
80299520.0 -0.8310007174 0.1148740009 0.000186624 0.0001207461 -5.77185e-05 8.0389e-05 -0.832111985 0.1123155522
85299490.0 -0.8303817022 0.124266858 -5.78808e-05 5.42314e-05 0.0001283481 9.80354e-05 -0.8316311825 0.1222120023
90299460.0 -0.8295368317 0.1339938872 0.0001000433 0.0001512891 1.21304e-05 4.15398e-05 -0.831098536 0.1313530656
95299430.0 -0.8287441681 0.143597695 -4.82037e-05 0.000176014 -9.68554e-05 -2.76983e-05 -0.8301848438 0.1412880083
100299400.0 -0.8278456529 0.153144044 -8.55603e-05 0.0004096483 -4.79396e-05 -2.94309e-05 -0.8289742132 0.1494579656
105299370.0 -0.8265804931 0.1624847501 -0.0002239992 3.1705e-05 -2.3128e-06 -0.0002353579 -0.8277518802 0.1593364428
110299340.0 -0.8249445361 0.1709455117 1.39944e-05 -7.66209e-05 -9.2935e-06 -3.71438e-05 -0.8267711838 0.1680440805
115299310.0 -0.8239386801 0.1809824946 6.44001e-05 8.60595e-05 0.0001027166 8.86665e-05 -0.82483888 0.176996872
120299280.0 -0.821866313 0.1891255847 -5.65606e-05 5.60654e-05 7.95136e-05 2.76848e-05 -0.8239184645 0.1862334928
125299250.0 -0.8201643012 0.1987099917 4.93538e-05 -0.0001192446 -5.1553e-06 -0.0001568941 -0.8218384108 0.1956300864
130299220.0 -0.8184290921 0.2078456144 0.0002047288 0.0001195292 -0.000117125 9.62597e-05 -0.820200908 0.2042980315
135299190.0 -0.8162445799 0.2166797445 0.0001882097 -2.84906e-05 0.0001763337 -0.0001207637 -0.8178826389 0.2126162416
140299160.0 -0.8146947272 0.2254051885 7.86422e-05 4.71162e-05 0.000189651 -0.0002077125 -0.8158705712 0.2219793257
145299130.0 -0.8121046441 0.2343027521 0.0001945233 -0.0002004043 0.0001483621 3.357e-06 -0.8137175218 0.230092594
150299100.0 -0.8101202006 0.2431708896 -0.0001128054 -4.01851e-05 -8.4642e-06 0.000238853 -0.8116243043 0.2385121647
155299070.0 -0.8076263565 0.2524962591 -0.0001186746 5.59823e-05 -5.50497e-05 7.25376e-05 -0.8099244968 0.2473026263
160299040.0 -0.8043926936 0.2608120824 5.2306e-05 -0.0002095227 -6.6304e-06 -1.61288e-05 -0.8077331334 0.2568931702
165299010.0 -0.8021616505 0.2696431678 -0.000100739 3.30434e-05 2.47899e-05 -0.0001776812 -0.8043255932 0.2647948025
170298980.0 -0.7996544067 0.2778438112 -0.0002049479 8.26501e-05 -2.28903e-05 -1.47778e-05 -0.8022132367 0.2732710019
175298950.0 -0.7963991489 0.2872463719 -0.0001528445 0.00014817 0.0003332651 -0.0001010368 -0.7990603179 0.2821001031
180298920.0 -0.7938650044 0.2955702009 5.62174e-05 4.0804e-06 2.02189e-05 -0.0001059213 -0.7955366404 0.2906695248
185298890.0 -0.790492121 0.3045301331 0.0001148777 3.12377e-05 0.0001031891 -7.8015e-05 -0.7929364136 0.2982517555
190298860.0 -0.7870017732 0.3127514214 1.89191e-05 -5.65679e-05 -0.0003075176 6.1014e-05 -0.7892490471 0.3076284048
195298830.0 -0.7839411442 0.3207959883 0.0001732981 -8.56927e-05 0.0001276367 -4.47019e-05 -0.7872377167 0.3158468614
200298800.0 -0.780778128 0.3297039183 1.4064e-05 6.44607e-05 -0.0002253936 0.0001596223 -0.7832695588 0.3244214817
205298770.0 -0.7772915407 0.3373008613 3.99862e-05 3.40215e-05 0.0001084396 -7.42928e-05 -0.7797780424 0.3323148592
210298740.0 -0.7736253978 0.3458534372 5.22506e-05 3.9752e-05 -0.0002022496 -2.57624e-05 -0.7768744119 0.3401720997
215298710.0 -0.7705985289 0.3540471732 -2.7126e-06 9.4378e-06 0.0001368474 1.83101e-05 -0.7731261851 0.3483220009
220298680.0 -0.7669342779 0.3623907618 5.4339e-06 -1.9677e-06 -6.05037e-05 5.97877e-05 -0.7696784557 0.3569709878
225298650.0 -0.7626657484 0.370894972 0.0001210721 -3.24718e-05 0.0001046797 0.0001481519 -0.7658085294 0.3645583303
230298620.0 -0.7590206732 0.3788193277 -6.95208e-05 -7.81342e-05 1.17991e-05 -9.39062e-05 -0.7614169833 0.3725939132
235298590.0 -0.7548594367 0.3871412067 0.000137542 6.24961e-05 -0.0001762168 4.16978e-05 -0.7581395628 0.3802083685
240298560.0 -0.7510627859 0.3950941203 -5.44955e-05 8.18317e-05 0.000120496 5.18978e-05 -0.7538352419 0.3884809649
245298530.0 -0.7464285095 0.4032762254 6.3459e-05 0.0002269856 6.57e-07 -1.03157e-05 -0.7498371632 0.396764275
250298500.0 -0.7427848672 0.4105343305 -4.65929e-05 6.88318e-05 -3.86911e-05 0.0001244243 -0.7458216808 0.4044229261
255298470.0 -0.7380240111 0.4188986755 -0.0002435161 2.554e-06 7.72126e-05 -0.0001556038 -0.7412725385 0.4121879143
260298440.0 -0.7339307273 0.4262685541 -9.15952e-05 -0.0001614881 0.0001650516 5.27394e-05 -0.7366329616 0.4196728604
265298410.0 -0.7293534417 0.4345612892 -1.52433e-05 6.26712e-05 -0.0001147353 3.54005e-05 -0.7322020476 0.427504881
270298380.0 -0.7245539148 0.4419936857 -5.35776e-05 -0.0001539018 -0.0001085645 -9.27879e-05 -0.7274616504 0.4350837633
275298350.0 -0.7190525366 0.4491415384 -1.38051e-05 -9.10784e-05 -9.08971e-05 0.000111598 -0.7224898717 0.4431379508
280298320.0 -0.7150122685 0.4567598351 -9.02559e-05 -0.0002358642 8.57129e-05 -0.0002611975 -0.7185621907 0.4500340494
285298290.0 -0.7102668152 0.4646674292 1.76336e-05 -1.25375e-05 0.0001095732 -5.77692e-05 -0.7129960634 0.4576636078
290298260.0 -0.7054284891 0.4719917457 -0.000149163 -0.0001883501 -6.18587e-05 -0.000130348 -0.7085884571 0.4654833092
295298230.0 -0.7009317749 0.4792782874 -8.52422e-05 -0.0001747126 -3.24994e-05 0.0001542018 -0.7035638191 0.4728737986
300298200.0 -0.6952935006 0.4867210974 -4.3836e-06 -7.62875e-05 0.0002352833 3.0951e-06 -0.6987926049 0.4799616759
305298170.0 -0.6898423029 0.4943672832 -0.0001135805 0.0002517448 -5.44713e-05 8.59112e-05 -0.6927361839 0.4880947462
310298140.0 -0.6849197973 0.5007800886 -0.0001928199 -8.44422e-05 -5.90337e-05 0.0002802103 -0.6886331376 0.4949370396
315298110.0 -0.6798235703 0.5083229246 -0.0001589086 -0.0001307668 9.4099e-05 -0.0001888913 -0.6827800283 0.502030577
320298080.0 -0.6742067686 0.5162764682 7.9448e-05 4.06304e-05 1.02073e-05 0.0001735161 -0.6777448108 0.5092942629
325298050.0 -0.6680066963 0.5223949154 9.10659e-05 0.0001330929 -1.79491e-05 1.2163e-06 -0.6716724812 0.5160514971
330298020.0 -0.6630486875 0.5294027066 0.0002095321 9.43791e-05 5.97896e-05 -0.0001206889 -0.6662511995 0.5229992418
335297990.0 -0.6572880323 0.5361663971 0.0001158854 -5.8588e-05 4.43424e-05 -4.52656e-05 -0.66093916 0.5300767509
340297960.0 -0.6523985095 0.542899642 7.16684e-05 0.0002075573 -0.0001157239 -5.45102e-05 -0.6554217058 0.5373206218
345297930.0 -0.6468005277 0.5491437295 8.27105e-05 0.0001672906 -2.2742e-05 5.6392e-05 -0.6494968319 0.5442638057
350297900.0 -0.640348238 0.5564359826 -0.0001665804 -9.85613e-05 -7.22664e-05 9.54118e-05 -0.6440812657 0.5512960546
355297870.0 -0.6345784977 0.5628590967 -5.18224e-05 9.4071e-06 6.89422e-05 1.96218e-05 -0.6383540426 0.5571253921
360297840.0 -0.6286275914 0.5687465955 -7.86281e-05 -2.97182e-05 6.39267e-05 0.0002260281 -0.6319694434 0.5636229374
365297810.0 -0.6222317899 0.5755384528 -1.59977e-05 6.40069e-05 2.54572e-05 4.47774e-05 -0.6260714637 0.5705215527
370297780.0 -0.6157063121 0.5815315743 8.6591e-06 -5.21304e-05 -0.000136029 -5.84959e-05 -0.6205584791 0.5765874357
375297750.0 -0.609837965 0.587991366 -2.4179e-06 0.0002161397 1.93726e-05 0.0001479166 -0.6145593474 0.5834812356
380297720.0 -0.6042334688 0.5949553704 2.25998e-05 -4.411e-06 1.34345e-05 -0.0001439692 -0.6077332045 0.5905970983
385297690.0 -0.5978532978 0.6012724656 0.0001421825 -6.40088e-05 -8.1323e-06 -5.68159e-05 -0.6021598754 0.5961114592
390297660.0 -0.5909983088 0.6075627517 -3.81361e-05 6.4258e-06 1.6297e-06 4.81296e-05 -0.5956500427 0.601889567
395297630.0 -0.5851591186 0.6132633402 -0.0002798341 3.46615e-05 -4.68102e-05 -2.7573e-06 -0.5889576586 0.6082674665
400297600.0 -0.578940093 0.6196861481 -4.07246e-05 -4.23485e-05 3.90772e-05 2.00567e-05 -0.5830086835 0.6140562406
405297570.0 -0.5726019621 0.6252621737 0.0001118388 0.0001564005 0.0001471899 -8.62755e-05 -0.5770492768 0.6202347161
410297540.0 -0.5659091799 0.6310032918 0.000224619 0.00014742 0.0001440558 -4.8197e-06 -0.5695141009 0.6258573986
415297510.0 -0.5591664643 0.636300612 0.0001158174 7.8048e-05 5.08589e-05 -5.49659e-05 -0.5633968861 0.6325514362
420297480.0 -0.5518257429 0.6418986423 8.37149e-05 0.0002362379 1.50717e-05 -3.31858e-05 -0.5569554947 0.6365892168
425297450.0 -0.5457186333 0.6479399506 -0.0001708344 0.0001935139 -8.2734e-06 -0.0001819457 -0.5502728503 0.643527854
430297420.0 -0.5391898956 0.6532546582 -4.54001e-05 2.56714e-05 1.96508e-05 -4.13399e-05 -0.5437009723 0.6485926559
435297390.0 -0.5320022685 0.6592133737 -3.40895e-05 1.9547e-06 4.63383e-05 -0.0001630695 -0.53694299 0.6538208803
440297360.0 -0.5250381653 0.6641466628 -8.54353e-05 6.89348e-05 -9.83146e-05 -3.27601e-05 -0.5300005518 0.6586899684
445297330.0 -0.5186500766 0.6700423895 -1.24469e-05 0.0001987004 -9.7847e-05 -1.52762e-05 -0.52337018 0.6646144747
450297300.0 -0.5113878782 0.6745020789 -0.0001385261 -2.13403e-05 3.88728e-05 0.000135888 -0.5170702856 0.6701439944
455297270.0 -0.5046789797 0.6799291748 1.85361e-05 3.19052e-05 -8.47386e-05 2.39603e-05 -0.5096740042 0.6749336513
460297240.0 -0.4977106988 0.6857707894 -5.38493e-05 -2.6411e-05 -6.10896e-05 -0.0003012952 -0.5028005404 0.6804566582
465297210.0 -0.4897245062 0.6903790959 0.0001399907 -0.0001546491 -0.0001583431 -8.33432e-05 -0.4959444979 0.6850525328
470297180.0 -0.4828359092 0.6948050489 -0.0001393993 -4.62653e-05 -6.63692e-05 0.0001601752 -0.4891461162 0.6896136481
475297150.0 -0.4761111494 0.7002247668 0.0001514478 -6.4963e-06 6.59043e-05 1.91541e-05 -0.4821288281 0.6946804222
480297120.0 -0.4691526444 0.7047612778 5.46338e-05 3.97673e-05 -5.85956e-05 0.0002832511 -0.4753262943 0.699736749
485297090.0 -0.4610223317 0.7098495067 0.0001643429 0.0001610217 -0.0001155166 -8.79117e-05 -0.4678444896 0.7041093841
490297060.0 -0.4542696475 0.7141084661 -9.65482e-05 0.0002256845 -4.43868e-05 -0.0001334213 -0.4608402533 0.708547142
495297030.0 -0.4469889986 0.7190612305 0.0001171998 -5.8551e-06 -0.0001051081 5.26114e-05 -0.4534572184 0.7123807042
500297000.0 -0.438692053 0.7236460047 -3.2135e-05 -0.0001539254 -0.0001402922 0.0001553819 -0.4465365927 0.7171529555
505296970.0 -0.4315848607 0.7271748082 -3.06137e-05 -5.28643e-05 0.0001209401 -5.26169e-05 -0.440007956 0.7219783303
510296940.0 -0.4243292543 0.7323593188 -7.7832e-06 -9.12555e-05 3.76283e-05 -6.70162e-05 -0.4316844643 0.7262386691
515296910.0 -0.4168603032 0.736467018 7.07693e-05 -3.5409e-05 0.0003826533 -0.0002134339 -0.4247816839 0.7306885557
520296880.0 -0.4094392841 0.7407695496 4.15372e-05 -4.21624e-05 7.1515e-05 -8.17729e-05 -0.4174912605 0.7346638447
525296850.0 -0.4018363734 0.7443782293 -1.40098e-05 9.60324e-05 -6.98496e-05 9.19497e-05 -0.4096055934 0.7392285327
530296820.0 -0.3936178703 0.7480326146 -0.0001402768 1.0269e-06 -0.0001507134 -0.0001456624 -0.403096991 0.7427192869
535296790.0 -0.3862579502 0.7524961268 -0.0001959168 0.0002023071 -4.97181e-05 -5.63349e-05 -0.3953315646 0.7464084846
540296760.0 -0.3781210166 0.7557936399 -5.87433e-05 5.32815e-05 0.0001512393 3.71544e-05 -0.3876169606 0.7510563961
545296730.0 -0.3710854632 0.7596424615 -0.0001137046 -5.64678e-05 -1.08639e-05 4.52208e-05 -0.3805499107 0.7541602916
550296700.0 -0.363518058 0.764280582 5.80108e-05 0.000169159 -9.5379e-05 -0.0001257563 -0.3727917161 0.7581943749
555296670.0 -0.3544016144 0.7672700774 -9.977e-05 3.48008e-05 0.0002278923 0.0001737071 -0.3649407049 0.7615315281
560296640.0 -0.3469387203 0.7705587091 -9.28093e-05 0.000384297 -0.0001367961 0.0001104532 -0.3576710117 0.7656305302
565296610.0 -0.3399962362 0.7740516887 0.0001068427 0.0002632651 -7.75367e-05 5.33396e-05 -0.3499097382 0.7687133286
570296580.0 -0.3314918006 0.7771767245 0.0001387705 0.0001506977 -0.0001218928 -7.61045e-05 -0.342718969 0.7724369461
575296550.0 -0.3235007249 0.7804081975 4.94447e-05 4.18371e-05 -0.0001442049 7.51529e-05 -0.3347838178 0.7753647087
580296520.0 -0.3158009377 0.7845166904 -3.51497e-05 0.0003568469 -9.54212e-05 -3.42113e-05 -0.3265276416 0.7790414096
585296490.0 -0.3073687352 0.7863708241 4.36648e-05 -0.0002692939 0.0001329137 -0.0001310993 -0.319387137 0.7813949069
590296460.0 -0.2998133456 0.7898566613 -0.0001802164 0.000148484 -3.0381e-05 -5.29154e-05 -0.3117513579 0.7847127591
595296430.0 -0.2913547723 0.7934683721 -7.09393e-05 0.0001016041 9.26698e-05 4.40349e-05 -0.3030874733 0.7874093563
600296400.0 -0.2834514859 0.7963236702 -6.31273e-05 0.0001037907 0.0001802264 -0.0001120012 -0.2959127085 0.7911212178
605296370.0 -0.2755612067 0.7990055369 3.79096e-05 9.0061e-06 4.04718e-05 0.000168862 -0.2882266719 0.7939226751
610296340.0 -0.2675817889 0.801422665 -1.02568e-05 0.0002397393 -1.55436e-05 -2.42111e-05 -0.2798806767 0.7969827935
615296310.0 -0.2591124808 0.8042523923 1.94584e-05 -1.28041e-05 -9.5048e-05 0.0001362557 -0.2722808567 0.7993724673
620296280.0 -0.2501118512 0.8057347971 -5.1654e-06 1.82308e-05 -0.0001530503 0.0002042373 -0.2643226855 0.8017948286
625296250.0 -0.2423968239 0.8088909386 -0.0001340295 -7.60676e-05 2.0537e-05 -5.39955e-05 -0.2568560206 0.8047191034
630296220.0 -0.23409991 0.8118667193 -8.05788e-05 -3.23008e-05 -9.12334e-05 0.0001761377 -0.2484511713 0.807154753
635296190.0 -0.2262984938 0.8142568873 0.0001732182 3.64215e-05 0.000115217 0.00011845 -0.2405224059 0.8093157435
640296160.0 -0.2177553301 0.8157738767 7.93125e-05 5.27237e-05 -0.0001619201 4.60316e-05 -0.232186007 0.811772127
645296130.0 -0.2098490056 0.8177730115 -4.93294e-05 4.51779e-05 -6.99892e-05 4.06089e-05 -0.225134347 0.8142112484
650296100.0 -0.2018520157 0.8209858673 -0.0001714399 0.0003928542 7.41077e-05 5.62055e-05 -0.2163091501 0.8165983439
655296070.0 -0.1932556546 0.8220623455 -8.15209e-05 -4.94918e-05 4.94135e-05 7.8938e-05 -0.2079112649 0.8181138718
660296040.0 -0.1854552289 0.8240058745 -0.0001125889 -0.0001541799 8.13177e-05 4.54443e-05 -0.199855608 0.8205304731
665296010.0 -0.1763848464 0.826227053 -3.72516e-05 9.4182e-06 -6.14347e-05 5.32968e-05 -0.1923538618 0.8225709422
670295980.0 -0.167657011 0.8275370693 -0.0001057312 0.0001072275 -0.0001652587 7.31043e-05 -0.1851100161 0.823925271
675295950.0 -0.1600219662 0.8288981027 4.0002e-05 2.802e-06 7.05712e-05 -1.13648e-05 -0.1761101302 0.8260657055
680295920.0 -0.151575674 0.8307690483 -2.76306e-05 -9.0947e-05 -7.43728e-05 2.79328e-05 -0.1679978014 0.8275507992
685295890.0 -0.1428232741 0.8319454524 5.694e-06 -7.2905e-05 0.0001402683 -3.69832e-05 -0.1597134125 0.8291885636
690295860.0 -0.134624488 0.8334287906 2.98809e-05 -5.77677e-05 7.94625e-05 -8.99091e-05 -0.1513871294 0.8311340455
695295830.0 -0.1254685734 0.8341285356 -3.76973e-05 -0.0001320124 -0.0001622501 -0.0001294557 -0.143534299 0.8322206377
700295800.0 -0.1172871914 0.8355066908 0.000126826 2.00271e-05 1.72377e-05 -5.50858e-05 -0.134823452 0.8333813225
705295770.0 -0.1085037224 0.8373635928 0.0001007253 6.61758e-05 4.08329e-05 3.63241e-05 -0.1270486722 0.8350093978
710295740.0 -0.100918138 0.8378437943 -3.5198e-05 -4.84586e-05 -0.000111075 -3.32578e-05 -0.1194557655 0.8363741214
715295710.0 -0.0931541559 0.8389073202 -0.0001989704 -3.51664e-05 -7.5455e-06 -8.16233e-05 -0.1107100055 0.8378836714
720295680.0 -0.0841641213 0.8398455538 4.6174e-06 0.0001509027 -7.2803e-05 -0.0001864626 -0.1017615369 0.8383514882
725295650.0 -0.0748163417 0.8408691166 -0.0001757987 -9.40359e-05 3.37373e-05 4.10489e-05 -0.0937055821 0.8397506562
730295620.0 -0.0670009727 0.8411798166 0.000186254 -0.000162515 6.13274e-05 -6.74732e-05 -0.085367022 0.8403064076
735295590.0 -0.0582533348 0.8415512504 5.5452e-06 0.000131516 -2.515e-05 0.0001466877 -0.076796009 0.8409198151
740295560.0 -0.050022131 0.8425055863 6.19248e-05 7.44206e-05 4.3739e-05 2.0901e-06 -0.0688010713 0.8413559734
745295530.0 -0.0413456708 0.8427194485 -0.0001646403 -4.54274e-05 -0.0001480119 6.85177e-05 -0.0604708522 0.8421711569
750295500.0 -0.0337831206 0.8430121995 -0.0001576995 0.0001542211 0.0002619859 -9.49472e-05 -0.0519876569 0.8424461485
755295470.0 -0.0242118301 0.8436302742 -0.0001151229 6.26602e-05 -9.47293e-05 5.73237e-05 -0.0444092692 0.8435550658
760295440.0 -0.0157543068 0.8434723472 0.0001799037 -5.97471e-05 2.8181e-06 -0.0001281445 -0.0362219151 0.8436341845
765295410.0 -0.0076996695 0.8435891219 -1.96638e-05 6.3068e-05 -4.3774e-06 4.1766e-05 -0.0271387984 0.8440842628
770295380.0 0.0004926478 0.8445073096 1.56872e-05 -0.0001876972 -1.86856e-05 3.50047e-05 -0.0187065014 0.8441317153
775295350.0 0.0087170649 0.8443680374 0.0001025162 0.0001231811 -7.2652e-06 -8.44198e-05 -0.0113360197 0.8438636562
780295320.0 0.0177373969 0.843191786 -3.28939e-05 -0.0001022617 -0.0002805988 0.0001480049 -0.0024838385 0.8442705855
785295290.0 0.026736542 0.8435678097 0.0001250207 -5.07756e-05 -1.74718e-05 -3.14356e-05 0.0050648702 0.8443136541
790295260.0 0.0348600401 0.8429165782 5.94364e-05 0.000124769 9.0332e-06 -6.3478e-06 0.0145852713 0.8444287256
795295230.0 0.0422721846 0.8434276638 -9.0978e-05 0.0001286686 -3.37279e-05 9.01033e-05 0.0225299996 0.8441725092
800295200.0 0.0514488496 0.8428136168 1.98776e-05 -0.0001134161 0.0001049391 0.000138315 0.0309566502 0.8438346831
805295170.0 0.0598923416 0.8422441712 -9.54876e-05 0.0002106582 -0.0002896719 4.17626e-05 0.0384346141 0.8433185358
810295140.0 0.0682259682 0.8409362887 9.82824e-05 0.0001863578 6.86507e-05 -7.85576e-05 0.0469589662 0.8440436314
815295110.0 0.0770648316 0.8400617791 0.0001398127 -0.0002302273 0.00019123 -1.65819e-05 0.0554751601 0.8428028092
820295080.0 0.0854881821 0.8392811541 -0.000160992 1.57044e-05 0.0001609624 6.03358e-05 0.0633168539 0.8418150686
825295050.0 0.0938185398 0.8382977401 -3.9244e-06 0.0001378819 -0.0001379891 -0.0001823964 0.0720419336 0.8415463911
830295020.0 0.1021423202 0.8377354847 -6.68836e-05 -0.0001205665 2.42104e-05 -0.0003004814 0.0801869894 0.8405259946
835294990.0 0.1100556164 0.8366564376 -3.94367e-05 0.0001068385 -5.50751e-05 0.0001109494 0.0883341133 0.8394443834
840294960.0 0.1187147149 0.8354914618 -2.533e-06 -2.26196e-05 9.36701e-05 5.94879e-05 0.0963651524 0.8392118706
845294930.0 0.1273804842 0.834582267 4.16989e-05 3.39237e-05 0.0002415991 -4.71642e-05 0.1047420077 0.8374430489
850294900.0 0.1357223952 0.8326600854 0.0001330495 -0.0001770127 -0.0001342013 5.77861e-05 0.1130626816 0.8368781154
