!Created with skrf (http://scikit-rf.org).
# Hz S RI R 50.0 
!freq ReS11 ImS11 ReS21 ImS21 ReS12 ImS12 ReS22 ImS22
300000.0 -0.0996986329 -0.0706969174 0.6297106508 0.064923733 0.6229163027 0.0660719509 -0.1005180976 -0.0773272162
5299970.0 -0.1021885318 0.0128830428 0.6312463111 0.0100389878 0.6302490253 0.0105365459 -0.1009352945 0.0130288611
10299940.0 -0.097292982 0.0290951907 0.6338119135 0.0156309283 0.6340185326 0.0157976175 -0.0960363589 0.0304297048
15299910.0 -0.0899094511 0.0426350128 0.6404543099 0.0201278565 0.6406714347 0.0204342029 -0.0884872442 0.0435363395
20299880.0 -0.0815041007 0.0533323701 0.6485655732 0.0240934611 0.6486872194 0.0240644141 -0.0798299385 0.0545845778
25299850.0 -0.0721613494 0.0621477897 0.6576182701 0.0251943884 0.6578865337 0.0254149298 -0.0697298271 0.0633557466
30299820.0 -0.0620674051 0.0688216171 0.6673989073 0.02421942 0.6672286804 0.0247756276 -0.059853608 0.0699550277
35299790.0 -0.0526667556 0.0736567209 0.6773714495 0.02145063 0.6774045455 0.0218974313 -0.0500332088 0.075016403
40299760.0 -0.0431478665 0.0772381969 0.6859408095 0.0173255769 0.6867733131 0.0179007416 -0.0402282414 0.0774657613
45299730.0 -0.0343720888 0.0795371122 0.6951782406 0.0122666417 0.6957176137 0.0121719662 -0.0312989633 0.0798130911
50299700.0 -0.0256057627 0.0802999458 0.7038832588 0.0048867585 0.7036335513 0.0056027558 -0.022556234 0.0805482815
55299670.0 -0.0177686366 0.0805198999 0.7110572642 -0.0035192861 0.7108358265 -0.0024781561 -0.0146801009 0.0808709664
60299640.0 -0.0099664557 0.0800748161 0.717457257 -0.0116218218 0.7176467891 -0.0110104441 -0.0077174093 0.0797608469
65299610.0 -0.003827543 0.0790551809 0.7234541176 -0.0196017915 0.7235478746 -0.0199643306 -0.0010756173 0.0784736078
70299580.0 0.0027428983 0.0776999612 0.728906654 -0.0295207543 0.7286617517 -0.0289102407 0.0047209765 0.0768850888
75299550.0 0.0081258867 0.0761069665 0.7327811771 -0.0387178403 0.7326651673 -0.0385692922 0.010208181 0.0748639128
80299520.0 0.0132779637 0.0736079619 0.7370310317 -0.0491169805 0.7371068216 -0.0488575452 0.0151642052 0.0725274813
85299490.0 0.0177605736 0.0714549471 0.7399007033 -0.0585224717 0.7408138246 -0.0579218776 0.0194872251 0.0698433265
90299460.0 0.021633285 0.0690340779 0.7426695664 -0.0689584645 0.7434237728 -0.0688848 0.0235731576 0.0682840242
95299430.0 0.0259467834 0.0665867991 0.7457675064 -0.0789221101 0.7457296052 -0.0789428345 0.0276916357 0.0655444332
100299400.0 0.0290976759 0.064487537 0.7468612804 -0.0890172524 0.7470205944 -0.08930711 0.0311964332 0.0625443987
105299370.0 0.0322462471 0.0622556976 0.7484247385 -0.0995839479 0.7490012134 -0.098853811 0.0339866282 0.0606528271
110299340.0 0.0351599007 0.0595520377 0.7497710692 -0.1089801248 0.7497374311 -0.1089757707 0.0360356855 0.0579552187
115299310.0 0.0375004126 0.0573739779 0.7503796912 -0.1190753419 0.7506261272 -0.1190662716 0.0391353394 0.0557392605
120299280.0 0.0399279747 0.0548719625 0.7510903519 -0.1289148637 0.7514631254 -0.129462267 0.0414142443 0.0532827691
125299250.0 0.0418267488 0.0522231025 0.7516454571 -0.1387307656 0.7515113319 -0.138685931 0.0430327363 0.0505187957
130299220.0 0.0437463098 0.0502496923 0.7511237344 -0.1490185111 0.7511541988 -0.1489973168 0.044801247 0.0483001594
135299190.0 0.0452039651 0.0484538348 0.7515155975 -0.1590169576 0.7513767654 -0.1585186952 0.0468104 0.0460911246
140299160.0 0.0466547655 0.0464695164 0.7509682075 -0.1683442894 0.7506269996 -0.1687553315 0.0479447912 0.0444306779
145299130.0 0.0483031157 0.0438035091 0.7503848561 -0.1782440578 0.7496132098 -0.1775170039 0.0495325969 0.0422498342
150299100.0 0.0497632202 0.042196181 0.7487570266 -0.187318226 0.7490180124 -0.1873718115 0.0509293779 0.0404091755
155299070.0 0.0501835378 0.0397157641 0.7478612436 -0.1980753733 0.7477814133 -0.1978449018 0.0518036379 0.0384666082
160299040.0 0.0520392062 0.0381352017 0.7464644306 -0.2071836753 0.7454698535 -0.2072627489 0.0522142355 0.036389433
165299010.0 0.0522850051 0.0364038025 0.7448268156 -0.2168529724 0.7448538434 -0.2170271571 0.0539201146 0.0349941135
170298980.0 0.0533569462 0.0341735413 0.7432853141 -0.2263721635 0.7429714663 -0.2258824579 0.05407382 0.0333556149
175298950.0 0.0537102591 0.0325138354 0.7413470567 -0.2351747165 0.7411713801 -0.2351777137 0.0548662387 0.0315364818
180298920.0 0.0545759471 0.0307277462 0.7389410928 -0.2449746235 0.7386479009 -0.2446131402 0.0558259922 0.0297366989
185298890.0 0.0557240541 0.0288550506 0.7363922375 -0.2536329976 0.7364910556 -0.2533332973 0.0558606566 0.0285672962
190298860.0 0.0555624306 0.0275698897 0.7347847722 -0.2629245605 0.7348246772 -0.2631119705 0.0563438093 0.0262888817
195298830.0 0.0561707867 0.0251953401 0.7313030126 -0.2719237393 0.7320931083 -0.2714738891 0.0573534166 0.02521123
200298800.0 0.0564075647 0.0244035029 0.7290138878 -0.2809551609 0.7291358165 -0.2812738009 0.0567900411 0.0236523599
205298770.0 0.0568059946 0.0229638046 0.7257207253 -0.2900985658 0.7259389211 -0.2893362905 0.0574633773 0.0213618498
210298740.0 0.057140573 0.0210108607 0.7231197047 -0.2977253154 0.7233895647 -0.2979819497 0.0579567464 0.0211975082
215298710.0 0.0569949853 0.0196676681 0.7199996552 -0.3073880645 0.7202106233 -0.3071500822 0.0579849051 0.0198014177
220298680.0 0.0575725875 0.0179875696 0.7170305428 -0.3159002683 0.7169692306 -0.3154441101 0.0576307694 0.0178917549
225298650.0 0.0579328673 0.0166220714 0.7138251609 -0.3249083292 0.7136804154 -0.3243728963 0.0576251342 0.0165086699
230298620.0 0.0580418312 0.0159820898 0.7108494139 -0.3323647049 0.7111336259 -0.3330340599 0.0574655753 0.015093465
235298590.0 0.0579881621 0.0148579711 0.7074513705 -0.3417288271 0.7071676999 -0.3407410313 0.0576908138 0.014031806
240298560.0 0.0581247439 0.0135842026 0.7038885607 -0.3497048317 0.7035628646 -0.3497772756 0.0576297045 0.0130356571
245298530.0 0.0579600993 0.0121502999 0.7000890093 -0.3580737652 0.6999847884 -0.3583196188 0.0580283939 0.0109991528
250298500.0 0.0586014086 0.0110838055 0.6955497199 -0.3662650362 0.695325048 -0.3656276779 0.0581678303 0.0104705702
255298470.0 0.0583457317 0.0095921273 0.691182159 -0.3743206771 0.6918279919 -0.3740994543 0.0584394894 0.0088379781
260298440.0 0.0580881746 0.0082264992 0.687684006 -0.3830250492 0.6873834859 -0.3821595703 0.0586099506 0.0078871652
265298410.0 0.0589837657 0.0076240765 0.6838577592 -0.3906375519 0.6841355112 -0.3902404834 0.058148392 0.0069301464
270298380.0 0.0585055806 0.0063791954 0.6798026504 -0.3981913042 0.6798398189 -0.3982213551 0.0582283497 0.0057830241
275298350.0 0.0591356136 0.0052030303 0.6754997253 -0.4066402213 0.6757317111 -0.406727955 0.0584747143 0.0044572041
280298320.0 0.0586938006 0.0043709851 0.6706575307 -0.4149944369 0.6713233314 -0.4141546939 0.0588322839 0.0036389698
285298290.0 0.0587443325 0.003325343 0.666887768 -0.4227413352 0.666493246 -0.4221794448 0.0587914518 0.002351024
290298260.0 0.059066832 0.002196102 0.6619494109 -0.4296098956 0.6619836424 -0.4297204293 0.0586963414 0.0018110637
295298230.0 0.0590649905 0.0009201687 0.657625663 -0.4376553075 0.6574154901 -0.4372827711 0.059544444 0.0005243429
300298200.0 0.0583754031 -0.0002562802 0.652930139 -0.4451436557 0.6529901507 -0.445281337 0.0586171234 -0.0009924168
305298170.0 0.0589014167 -0.0015122357 0.6479757178 -0.4536062034 0.6480490315 -0.45275192 0.059589825 -0.0019848642
310298140.0 0.0585814243 -0.0022754012 0.6428985572 -0.4611352716 0.6434727799 -0.4604075232 0.0594725703 -0.003127489
315298110.0 0.058418687 -0.0040167629 0.6378842988 -0.4683752857 0.6385904105 -0.4686178496 0.0589703594 -0.0042314734
320298080.0 0.0585332424 -0.0049878981 0.6323531403 -0.476151467 0.6332567856 -0.4758004412 0.058802845 -0.0053898287
325298050.0 0.0577078718 -0.0061211877 0.6272729078 -0.4838710315 0.6276195131 -0.4830726004 0.0579936088 -0.0061476231
330298020.0 0.0574341861 -0.0072349174 0.6214127149 -0.4907768868 0.6218089552 -0.4906251138 0.0575687146 -0.0072761839
335297990.0 0.0569562919 -0.0085265186 0.6165222213 -0.4979508633 0.6155656023 -0.4977192566 0.0567127376 -0.0076694127
340297960.0 0.0561768571 -0.0087945658 0.6101473048 -0.5048496111 0.6097995634 -0.5048140991 0.0568969624 -0.0085874075
345297930.0 0.0559775735 -0.0092020001 0.6044452161 -0.5117249896 0.6043019265 -0.5121010664 0.0565070681 -0.0096507861
350297900.0 0.0551457042 -0.0109016657 0.5979183909 -0.5181546343 0.5977524834 -0.5184773439 0.0554920487 -0.0098164279
355297870.0 0.0548372934 -0.0108070647 0.5922496216 -0.5249373511 0.5927575973 -0.5244317454 0.0551216374 -0.0106031979
360297840.0 0.0549099585 -0.0113936076 0.5877769749 -0.5317557959 0.5875024486 -0.531271285 0.0549584694 -0.0112211192
365297810.0 0.0541806631 -0.0118546685 0.5807336811 -0.5385661215 0.5811884953 -0.5380369684 0.0547090005 -0.0118091017
370297780.0 0.0544085664 -0.0131162821 0.5748351707 -0.5449728778 0.5753767429 -0.5441028368 0.0543529547 -0.0123178029
375297750.0 0.053794673 -0.0136679754 0.5690848957 -0.5510434483 0.5697612604 -0.5507629647 0.0542449654 -0.012786637
380297720.0 0.053628151 -0.0140644146 0.5631475157 -0.5581062823 0.5627759506 -0.5564660381 0.0534202981 -0.0138307995
385297690.0 0.0528385529 -0.0148693365 0.5564812307 -0.5636642085 0.5562261031 -0.5635602701 0.0533096142 -0.0141619077
390297660.0 0.0527949214 -0.0153447891 0.5503164666 -0.5702111563 0.5503328301 -0.5696238323 0.0527289529 -0.0152063523
395297630.0 0.052133708 -0.0158464417 0.544381855 -0.5756850314 0.5445610543 -0.5758014683 0.0532311757 -0.015660581
400297600.0 0.0517677508 -0.0165538159 0.5376834627 -0.5825715832 0.5379349329 -0.5821096855 0.0523771515 -0.0163253033
405297570.0 0.0513580312 -0.0174085456 0.5316086059 -0.5879387996 0.5315609669 -0.5876054842 0.0516106648 -0.0168337491
410297540.0 0.051336417 -0.0179895279 0.5251171443 -0.5942999302 0.525394784 -0.5941122901 0.0513869877 -0.017200723
415297510.0 0.0513123415 -0.0185604609 0.5178943646 -0.6002089046 0.5185207173 -0.5996493758 0.0512677352 -0.0180328597
420297480.0 0.0509380933 -0.0188939412 0.5113715984 -0.6057559143 0.5113410729 -0.6058636063 0.0506790568 -0.0188885787
425297450.0 0.050400125 -0.020427334 0.5053749011 -0.6114787088 0.5053324903 -0.6112407644 0.0497554407 -0.0188312375
430297420.0 0.049990704 -0.0207087173 0.498074108 -0.6162240273 0.4981392407 -0.6158985377 0.0496255921 -0.0202338901
435297390.0 0.0494618443 -0.0214715152 0.4908641914 -0.6225680554 0.4909777357 -0.6223053195 0.0501881672 -0.0205652455
440297360.0 0.0495625271 -0.0214535657 0.4844242102 -0.627446297 0.4845028475 -0.6269066942 0.0492336433 -0.0212771093
445297330.0 0.0488692251 -0.0228196658 0.4777573795 -0.6329229548 0.4780547826 -0.6319801569 0.0493465295 -0.0221267766
450297300.0 0.0488980825 -0.0229598041 0.4709225363 -0.6383084673 0.4707768861 -0.6385693469 0.0486121082 -0.0231353252
455297270.0 0.048216756 -0.0236817034 0.4633014219 -0.6437914655 0.4638369205 -0.6436642937 0.0483904762 -0.0232784519
460297240.0 0.0478929479 -0.0240873887 0.4565094523 -0.6484115224 0.4566855697 -0.6485625275 0.0481740483 -0.0233401658
465297210.0 0.0478062831 -0.0248497015 0.449830605 -0.6535758421 0.4499534227 -0.6543833039 0.0478317081 -0.0249137389
470297180.0 0.0471309798 -0.0253418612 0.4419342754 -0.6589077492 0.4425670968 -0.6589517148 0.0475109819 -0.0248142675
475297150.0 0.0468363901 -0.026240952 0.4348958481 -0.6630531081 0.435195712 -0.6630380128 0.0473571638 -0.0258289449
480297120.0 0.046338638 -0.0261601885 0.4275677271 -0.6680753436 0.4278494319 -0.6684045459 0.0471631871 -0.025700336
485297090.0 0.0455689908 -0.0268980596 0.4203750667 -0.6725841595 0.4203818689 -0.672659851 0.0464385231 -0.0269366094
490297060.0 0.0451090039 -0.0276407114 0.4128641151 -0.678369324 0.4131926753 -0.6771596271 0.046250461 -0.0265044675
495297030.0 0.0448969707 -0.028007963 0.4053795373 -0.682028129 0.4059352529 -0.6820641324 0.0450299001 -0.0274775644
500297000.0 0.0442446188 -0.0287825922 0.397714803 -0.6861186895 0.3975167746 -0.6860500331 0.0450836592 -0.0274562465
505296970.0 0.0442392808 -0.0293750341 0.3904205646 -0.6907393064 0.3900995676 -0.69091769 0.04468591 -0.0281719043
510296940.0 0.0435655939 -0.0295444058 0.3821915207 -0.6953290336 0.3825818531 -0.6952270281 0.0445641725 -0.028150149
515296910.0 0.0426673352 -0.0294377122 0.374767062 -0.6991251557 0.3749917874 -0.6991045973 0.0438629068 -0.0288026198
520296880.0 0.0423371069 -0.0303609497 0.367067049 -0.7037710953 0.3674213373 -0.7032451935 0.0435028147 -0.0297318603
525296850.0 0.0423445721 -0.0312375593 0.35909102 -0.7073653655 0.3602592199 -0.7072407057 0.0425613962 -0.0295699446
530296820.0 0.0416604112 -0.0311446318 0.3517248466 -0.7114232755 0.352138875 -0.7111026893 0.0426811581 -0.0300598991
535296790.0 0.0405227875 -0.0314673689 0.34457895 -0.7150804126 0.3442146566 -0.7144847933 0.0418883231 -0.0312391549
540296760.0 0.0402372037 -0.031597298 0.3362278979 -0.7191935441 0.3357014227 -0.7188377424 0.0409390278 -0.0306368223
545296730.0 0.0398008909 -0.0323933998 0.3283593863 -0.7221451148 0.3282284673 -0.7225036348 0.0404698169 -0.031433512
550296700.0 0.0400119378 -0.0325280783 0.3203504266 -0.7262422398 0.3201203186 -0.726683599 0.0399609185 -0.0315602
555296670.0 0.038830754 -0.0331969 0.3127158837 -0.7297558061 0.312893278 -0.72934921 0.0392871134 -0.0318381096
560296640.0 0.038763882 -0.0329516324 0.3041209908 -0.7328685522 0.3046488632 -0.7331591741 0.0390816561 -0.0322565957
565296610.0 0.037798184 -0.0339623245 0.2959625939 -0.7363480249 0.2965887942 -0.7361179725 0.0383348646 -0.0332107715
570296580.0 0.0370470211 -0.0340311207 0.2885996924 -0.7398189017 0.287451772 -0.7393680867 0.0377126106 -0.0324946899
575296550.0 0.0364110438 -0.0341320426 0.2802489488 -0.7428842562 0.2800080187 -0.7427543172 0.0375237461 -0.0335054257
580296520.0 0.0361295322 -0.0346166551 0.2721132876 -0.7460690457 0.2726800825 -0.7458160659 0.0371011247 -0.0342483163
585296490.0 0.0354594876 -0.0358709316 0.2644797714 -0.7482130958 0.2642739736 -0.7487040412 0.0363405175 -0.0342017304
590296460.0 0.0354857464 -0.0354252928 0.2558043862 -0.7508740568 0.2559241648 -0.750984526 0.0350378596 -0.0345354366
595296430.0 0.0352105587 -0.0354847217 0.2471309059 -0.7541584482 0.2476723833 -0.7540819658 0.0354268821 -0.0352670364
600296400.0 0.0339704012 -0.0360310119 0.2390923521 -0.7571682576 0.2390531179 -0.7561630708 0.0343103897 -0.0356578541
605296370.0 0.0337290935 -0.0362893529 0.2307923673 -0.7589809833 0.2316403557 -0.7593382779 0.0338760076 -0.0357090484
610296340.0 0.0333012653 -0.0367151856 0.2221051655 -0.7619540684 0.2229189475 -0.7616302794 0.0338501544 -0.0363966196
615296310.0 0.0328359012 -0.0376602666 0.2138379634 -0.7641851389 0.2137251938 -0.7644027746 0.0333073355 -0.0361813428
620296280.0 0.0322220201 -0.0379965883 0.2057326427 -0.7663630294 0.206094643 -0.7662181119 0.0322442141 -0.0368550637
625296250.0 0.0314559587 -0.0385917054 0.1985710141 -0.7694619592 0.1978197682 -0.7687005153 0.0324589397 -0.0370308906
630296220.0 0.0319176604 -0.0380500518 0.1886158841 -0.7711862148 0.1886644961 -0.7704911233 0.031547855 -0.036964263
635296190.0 0.0298904934 -0.0392603919 0.180736818 -0.7730851652 0.1808075501 -0.7729568613 0.0313947568 -0.0377053605
640296160.0 0.0296483211 -0.038770396 0.1721390163 -0.7745366282 0.1722191744 -0.7748370388 0.0305554226 -0.0380699322
645296130.0 0.0291284103 -0.038869668 0.1636902614 -0.7761559547 0.1643134377 -0.7766445746 0.0303248895 -0.0378998596
650296100.0 0.0286089621 -0.039430862 0.1550114071 -0.7781037888 0.1554332378 -0.7783880614 0.0302039158 -0.0394489456
655296070.0 0.0274755168 -0.0399146531 0.1463218437 -0.7800812664 0.1471974036 -0.7804200198 0.0295115292 -0.0386065191
660296040.0 0.0266057331 -0.0406030614 0.1382869435 -0.7818935792 0.1388239402 -0.7815686826 0.0289954558 -0.0388555833
665296010.0 0.026877956 -0.0403396197 0.1291901303 -0.782657611 0.1301467097 -0.7828679068 0.0285561552 -0.0382890834
670295980.0 0.0249600749 -0.0403596448 0.1212014087 -0.7844742837 0.1214492103 -0.7839730145 0.0273092822 -0.0390397687
675295950.0 0.0250862882 -0.0401987931 0.112527405 -0.7851586125 0.1131261205 -0.7847771707 0.0265260875 -0.0391885818
680295920.0 0.0241686283 -0.0410540058 0.1039124551 -0.7864919717 0.103505399 -0.7869929214 0.0261470674 -0.0386630956
685295890.0 0.0241360477 -0.040499908 0.095061251 -0.7878821418 0.0950203154 -0.7878160119 0.025763752 -0.0390657862
690295860.0 0.0238557832 -0.0405710276 0.0870229079 -0.787873908 0.0869179518 -0.7889042163 0.0246339963 -0.0385627223
695295830.0 0.0229336587 -0.0410447574 0.0788921727 -0.7895675821 0.0783966023 -0.7894714587 0.02449219 -0.0391285818
700295800.0 0.0224157107 -0.0416249432 0.0696714799 -0.789969058 0.0692857676 -0.7899016897 0.0236915773 -0.0382846269
705295770.0 0.0213302271 -0.0407577331 0.0614417309 -0.790707733 0.0613282166 -0.7909044357 0.0231142074 -0.0390882252
710295740.0 0.0213946783 -0.0413685423 0.0525201815 -0.7924146803 0.0535851599 -0.7927434275 0.0228195895 -0.0398333494
715295710.0 0.0200603539 -0.0414537597 0.0447341692 -0.7922376109 0.0437176526 -0.7921599746 0.0223585719 -0.0397023221
720295680.0 0.0199883753 -0.0416694821 0.0354059778 -0.7928072241 0.0356261128 -0.7923082909 0.0215272178 -0.0391872841
725295650.0 0.0195241416 -0.0416358019 0.0267088348 -0.7925581561 0.0270723482 -0.7929483787 0.0201084877 -0.0395095158
730295620.0 0.019128498 -0.0413415567 0.0179531508 -0.7928127673 0.0178942443 -0.7929434484 0.0197378225 -0.0398417548
735295590.0 0.0181218711 -0.0412461899 0.0094696436 -0.7935140278 0.0094395077 -0.7934286428 0.01896332 -0.0401106052
740295560.0 0.0174265208 -0.041423324 0.0011538091 -0.7934362956 0.0010076309 -0.7929280544 0.0187435275 -0.0398401937
745295530.0 0.0168044686 -0.0414630452 -0.0078479254 -0.7924109013 -0.0078626985 -0.7932056171 0.0183659692 -0.0405356957
750295500.0 0.0164706353 -0.0417003527 -0.0166800944 -0.7928060641 -0.0160959737 -0.7930066161 0.0174590411 -0.0402919075
755295470.0 0.0158132966 -0.0419443709 -0.0249166579 -0.7924511478 -0.0246154834 -0.7929078345 0.0172938427 -0.0408140458
760295440.0 0.0150553452 -0.041669952 -0.0337285854 -0.79289142 -0.0338651662 -0.7929350667 0.0164681457 -0.0405455491
765295410.0 0.0143945903 -0.0420897632 -0.0423229026 -0.7922023188 -0.0425474354 -0.7923805267 0.0162439657 -0.0405981325
770295380.0 0.0134868562 -0.0421359347 -0.0515642665 -0.7916578445 -0.0509628159 -0.7916648774 0.0148975268 -0.041120983
775295350.0 0.0127319741 -0.0427102936 -0.0598822624 -0.7905853195 -0.0591049775 -0.7910500379 0.0138003763 -0.0404909154
780295320.0 0.0124494571 -0.041969299 -0.0683883111 -0.7898003025 -0.0676493817 -0.7899841608 0.0136066476 -0.0412385859
785295290.0 0.0116205466 -0.0428774709 -0.0768924826 -0.7882271975 -0.0763550151 -0.7895940757 0.0138030255 -0.0407594989
790295260.0 0.0115574704 -0.0416737775 -0.0846577645 -0.7886328204 -0.0839514563 -0.7885033344 0.0127888765 -0.0410762359
795295230.0 0.010739576 -0.0424180942 -0.0937599799 -0.787650558 -0.093123613 -0.7877141167 0.0124170766 -0.0402019078
800295200.0 0.0099105454 -0.0419751807 -0.1034580408 -0.7859059414 -0.10189018 -0.7864844034 0.0120765496 -0.040768055
805295170.0 0.0091446206 -0.0423337868 -0.1115734895 -0.7846234595 -0.111015269 -0.7852646022 0.0111867806 -0.0404591758
810295140.0 0.0082515285 -0.0426001889 -0.1192217535 -0.783522595 -0.1193561367 -0.7838822241 0.0110712519 -0.0401922786
815295110.0 0.0083728208 -0.042812288 -0.1275549526 -0.7822376138 -0.1278649175 -0.7825685509 0.0100050077 -0.0403281092
820295080.0 0.0068719375 -0.0416781887 -0.1364533881 -0.7807190438 -0.1359686649 -0.7808762718 0.0098437939 -0.0404180891
825295050.0 0.007246876 -0.0419379548 -0.1440372082 -0.7787577401 -0.1449368461 -0.7795705924 0.0096504799 -0.0403652044
830295020.0 0.0063446987 -0.0414926422 -0.1535802315 -0.7769563718 -0.1532715001 -0.7773982994 0.0094866666 -0.0398539293
