!Created with skrf (http://scikit-rf.org).
# Hz S RI R 50.0 
!freq ReS11 ImS11 ReS21 ImS21 ReS12 ImS12 ReS22 ImS22
300000.0 0.8591196459 -0.002934364 0.0002388404 -0.0004994842 -1.14622e-05 0.0001877057 -0.7730915744 -0.1276936848
5299970.0 0.858910553 -0.0096939232 6.1971e-05 -0.0002517589 0.000170333 -3.21029e-05 -0.7854762233 -0.0070082696
10299940.0 0.8580331573 -0.0185875054 8.21e-05 0.0001183919 7.19205e-05 -0.0001060106 -0.7884855035 -0.0039403738
15299910.0 0.8570210742 -0.0266775104 -3.37698e-05 -2.69785e-05 -0.0001392437 8.35387e-05 -0.7935985824 -0.0018538668
20299880.0 0.8559618743 -0.0348448789 -8.5397e-05 -0.0001678659 -1.49375e-05 0.0001479344 -0.8003310999 0.0020711726
25299850.0 0.8553593293 -0.0435292094 0.0001164073 -9.7865e-05 0.0001057082 -0.0001666675 -0.8069275744 0.0082500707
30299820.0 0.8548363912 -0.0522017904 -0.0001182188 -4.78099e-05 7.54637e-05 -8.89045e-05 -0.8125720197 0.0164151308
35299790.0 0.8543993661 -0.060304462 -0.0002577244 7.36013e-05 4.22665e-05 -6.91044e-05 -0.8175602297 0.0249665512
40299760.0 0.8528200201 -0.0687337126 -0.0001974767 -0.0001610258 -0.0001013447 -2.7677e-05 -0.8214814184 0.0341408506
45299730.0 0.8528327761 -0.0767545965 0.0001715917 -1.40503e-05 1.20486e-05 -0.0001719889 -0.8257189179 0.0436477624
50299700.0 0.8518474703 -0.0845396265 -4.13918e-05 1.23889e-05 -9.45577e-05 -1.62269e-05 -0.8269653533 0.053834463
55299670.0 0.850510481 -0.093441361 -0.0001343468 9.60985e-05 0.0001167423 -5.0369e-06 -0.8299970218 0.0644058159
60299640.0 0.8497766376 -0.1012821459 4.24367e-05 -5.33142e-05 4.47532e-05 -3.95902e-05 -0.8304792161 0.0740895774
65299610.0 0.8482161812 -0.1094997263 -8.95113e-05 -2.66199e-05 1.52601e-05 1.40298e-05 -0.8319745051 0.0843962444
70299580.0 0.8476895493 -0.1187918349 2.3672e-05 -0.0002452283 -4.4234e-06 1.4454e-05 -0.8317988411 0.0943323417
75299550.0 0.8463891187 -0.1265022305 4.1905e-06 -0.000109638 8.975e-05 -3.64307e-05 -0.8322885033 0.1035287397
80299520.0 0.8442819166 -0.1345543799 0.0001408975 6.80031e-05 0.0001011898 7.22938e-05 -0.8323991141 0.1136246779
85299490.0 0.8432279106 -0.1429652584 5.2507e-06 -0.0001309785 -0.0001859865 0.0001809468 -0.8317573494 0.1232303017
90299460.0 0.8418386573 -0.1508877495 -3.09105e-05 0.0001152635 -2.18672e-05 0.0001266202 -0.8307608112 0.1329356046
95299430.0 0.8398876109 -0.1593638606 -6.0992e-05 -9.82678e-05 4.71968e-05 -7.00553e-05 -0.8291174459 0.1429570423
100299400.0 0.8382204217 -0.1673656751 -9.031e-05 9.46897e-05 -0.0001256016 8.62417e-05 -0.8285304729 0.1524034528
105299370.0 0.8372689033 -0.1749775208 4.0766e-05 0.000116995 -1.55643e-05 -8.1754e-05 -0.8272848102 0.1614435478
110299340.0 0.8352743917 -0.1840633071 1.90742e-05 8.97426e-05 -0.0001635144 -4.17502e-05 -0.8259889774 0.1706709363
115299310.0 0.8337151614 -0.1922925835 -9.92219e-05 -0.0001432685 -0.0001844348 -0.0001299682 -0.8241059614 0.1800901563
120299280.0 0.8319416393 -0.2001342317 -9.0762e-06 3.1649e-05 -0.0001020734 -0.0001645876 -0.8226551214 0.1887176389
125299250.0 0.829332529 -0.2086565356 4.57084e-05 5.54198e-05 7.21301e-05 -4.73161e-05 -0.8213756729 0.1977110294
130299220.0 0.8275717671 -0.2159214897 -4.24507e-05 -0.0001115719 -7.72734e-05 -8.086e-07 -0.8193387682 0.2068861241
135299190.0 0.8252630813 -0.2238038954 0.0002460957 -4.72557e-05 3.01011e-05 7.32277e-05 -0.8170248956 0.2160762743
140299160.0 0.823112546 -0.231915049 8.12849e-05 -0.0001749645 0.0001444803 -3.86807e-05 -0.8147234191 0.2248368071
145299130.0 0.8203769254 -0.2403701773 -3.15293e-05 -3.04426e-05 0.0001349466 7.90685e-05 -0.8130720847 0.2341718361
150299100.0 0.8183059403 -0.2482736217 2.67614e-05 0.0001211058 8.17327e-05 7.95127e-05 -0.8107965415 0.2428668776
155299070.0 0.8154575787 -0.2559996782 0.0001648624 0.000164017 4.5371e-06 2.4122e-05 -0.8078778379 0.2516978691
160299040.0 0.813002791 -0.26396347 -0.0002062462 1.42062e-05 8.55527e-05 4.9678e-06 -0.8058369642 0.2610493791
165299010.0 0.8106833857 -0.271880614 9.72589e-05 0.00014139 6.78559e-05 -3.6777e-05 -0.8033853113 0.2693335154
170298980.0 0.8078387093 -0.2799227766 8.03851e-05 6.46042e-05 5.07463e-05 6.2718e-06 -0.8003756991 0.2780703593
175298950.0 0.8048111883 -0.2879558414 -0.0001403904 -7.68038e-05 -9.576e-06 6.57973e-05 -0.7978738185 0.2863708354
180298920.0 0.8022049765 -0.2957540781 0.0001087063 -0.0001993862 -0.0001098411 0.0001134925 -0.7945529656 0.2949359921
185298890.0 0.7986452757 -0.3035340704 -9.50487e-05 0.0001082389 3.8857e-05 -0.0001438194 -0.79152427 0.3042647811
190298860.0 0.7960177479 -0.3116547051 -0.000101481 -0.0001505657 -9.59139e-05 -8.78812e-05 -0.7885058931 0.3125046857
195298830.0 0.792651416 -0.3185291472 -0.0001055138 -0.000135879 -6.74581e-05 9.84471e-05 -0.7850121518 0.3208303655
200298800.0 0.7891426873 -0.3263472701 5.6438e-05 -5.01338e-05 -0.0001983855 6.91069e-05 -0.7820529088 0.3287445717
205298770.0 0.786159996 -0.3346152564 -0.0001256879 -1.9446e-05 0.000182501 0.0001265352 -0.7782341915 0.3374633203
210298740.0 0.7829412698 -0.3417891978 -7.49845e-05 8.91768e-05 0.0002209317 3.13615e-05 -0.7749259611 0.3455186844
215298710.0 0.779373268 -0.3497216478 -6.3927e-06 -6.3546e-05 0.0001893283 1.22333e-05 -0.7715709448 0.3534843451
220298680.0 0.7759807109 -0.3573273657 0.0001629963 3.6222e-06 -1.55927e-05 -1.09185e-05 -0.7676182277 0.3620391157
225298650.0 0.7723614505 -0.3654580717 -7.3997e-05 -8.69194e-05 -0.000146627 2.50999e-05 -0.7644052043 0.3700897813
230298620.0 0.7688863927 -0.3726410561 7.26486e-05 0.0001168675 -0.0001083406 -0.0001481634 -0.7596956013 0.3782684702
235298590.0 0.7647307623 -0.3797754752 0.0001100885 0.000209494 1.52872e-05 -9.04297e-05 -0.7560510222 0.3859110941
240298560.0 0.7613902542 -0.3875382175 0.0002034746 -3.15425e-05 6.89509e-05 7.46264e-05 -0.7517072035 0.3946970706
245298530.0 0.7575322881 -0.3949070528 -4.17083e-05 -8.50873e-05 3.62034e-05 -3.15216e-05 -0.7481585936 0.401576278
250298500.0 0.7535186098 -0.4021882597 -0.0001162722 9.32581e-05 -0.0003554449 0.000163547 -0.7437266503 0.4096805845
255298470.0 0.7496435367 -0.4096481908 -5.29e-08 0.0002974723 0.0001323633 0.0001849803 -0.7388462998 0.4176976283
260298440.0 0.7454435505 -0.4165993184 4.65638e-05 -5.8981e-06 0.0001107753 -0.0001533646 -0.7349897539 0.4261144274
265298410.0 0.7415268744 -0.4239957144 -9.8362e-06 -0.0001722392 0.0001492248 -0.0001594092 -0.7303823303 0.4334856676
270298380.0 0.737046359 -0.4311263984 2.7855e-06 -1.70246e-05 -3.0263e-05 0.0002206208 -0.7259853892 0.4409772494
275298350.0 0.7331562839 -0.4383946726 -0.0001502369 -2.27335e-05 -0.0001922264 -0.0001730447 -0.7211601306 0.448817029
280298320.0 0.7282919856 -0.4458206567 -0.0002723374 1.57302e-05 1.13668e-05 0.0003042484 -0.7158955406 0.456250092
285298290.0 0.7249268649 -0.4526586668 -2.44153e-05 4.59539e-05 -7.61227e-05 -3.76006e-05 -0.7110059483 0.4640241999
290298260.0 0.7204965217 -0.4595493842 -4.8937e-05 0.0001724646 0.0001643139 4.60669e-05 -0.7063651394 0.4711213942
295298230.0 0.7158292852 -0.4666850164 0.0001753557 -5.77047e-05 0.0001340026 -0.0001037007 -0.7015548507 0.4778550609
300298200.0 0.7115325052 -0.4741827208 0.000208319 -9.61533e-05 3.14904e-05 0.0001159302 -0.6966474914 0.4856232976
305298170.0 0.7070525013 -0.4810400332 0.0001187611 -0.0001186694 9.99536e-05 -3.08235e-05 -0.6908890117 0.4934088965
310298140.0 0.7026728448 -0.4878580816 7.1724e-06 7.1737e-05 -6.53492e-05 -0.0001461332 -0.6863253259 0.5001565419
315298110.0 0.6982028615 -0.4959333973 0.0001367825 0.0001029162 0.0001947722 0.0001706417 -0.681187854 0.5069711635
320298080.0 0.6935678472 -0.5031285548 2.93542e-05 0.0002277776 -9.95312e-05 4.34363e-05 -0.675754363 0.5150603829
325298050.0 0.6877755404 -0.5104248907 -0.000270053 -4.35719e-05 -6.3025e-05 0.0001680223 -0.6698228675 0.5214023587
330298020.0 0.6822025141 -0.5178214739 -0.0002253787 4.7672e-06 -6.24848e-05 7.34959e-05 -0.6646665951 0.5285974231
335297990.0 0.6757756291 -0.5247719999 -0.0002085658 -0.0001539427 0.0001536944 -3.08522e-05 -0.6590525284 0.5355282411
340297960.0 0.6699933975 -0.5308547568 9.62689e-05 -0.0001052756 3.01777e-05 -0.0001204293 -0.6529099483 0.5423854635
345297930.0 0.6641037623 -0.537362983 0.0001312354 3.12582e-05 -0.000136342 2.90172e-05 -0.6473798231 0.5485732131
350297900.0 0.6584948348 -0.5434871016 0.0002002553 8.4339e-06 -6.60124e-05 0.0001369955 -0.6421640821 0.5555290415
355297870.0 0.6530288475 -0.5500363376 2.15469e-05 -8.45758e-05 9.64743e-05 -0.0001562293 -0.636824379 0.5615966311
360297840.0 0.6477121192 -0.5555962638 -0.0001437912 -1.92372e-05 2.25887e-05 2.99751e-05 -0.6301812705 0.5686611501
365297810.0 0.6415046743 -0.5617994068 0.0003065232 4.37434e-05 -0.000160035 -0.000151997 -0.6237706569 0.5749947576
370297780.0 0.6362885856 -0.5684592653 2.8e-09 2.92222e-05 0.0001422156 -1.24956e-05 -0.6179754268 0.5814477291
375297750.0 0.629586607 -0.5740565107 5.94618e-05 -0.000192875 -0.0001411346 -3.7892e-05 -0.6124045462 0.5876021981
380297720.0 0.6247333559 -0.5800282703 0.000105006 -6.113e-07 -4.71946e-05 9.23023e-05 -0.6064024451 0.5939883834
385297690.0 0.6185784239 -0.586212635 7.58608e-05 6.15484e-05 9.34104e-05 3.01367e-05 -0.5991797939 0.6002092256
390297660.0 0.6127274557 -0.5919547254 -0.0001722821 -6.15429e-05 9.67225e-05 0.0002304306 -0.5931873777 0.6066275024
395297630.0 0.6073576082 -0.597832905 -0.0001561514 -8.76498e-05 -6.33983e-05 -6.79457e-05 -0.5868646874 0.6128538086
400297600.0 0.6008697345 -0.6036157619 9.99153e-05 -1.61405e-05 4.25363e-05 9.36176e-05 -0.5807939808 0.6183633107
405297570.0 0.5948992551 -0.6093335711 -0.0001004212 -4.65639e-05 0.0002741915 -0.0001499851 -0.5740114013 0.6243110144
410297540.0 0.5888624588 -0.6155413941 -0.0001329064 -6.1088e-06 -2.42072e-05 -0.0002682831 -0.5678876599 0.6309724001
415297510.0 0.5827883698 -0.6213342462 -0.0002529619 -0.0001427997 -3.9512e-06 -2.36572e-05 -0.5613666157 0.6365175011
420297480.0 0.5761374458 -0.6261526324 0.0001822746 -0.0001517146 0.0003034727 4.09264e-05 -0.5539056141 0.6418741082
425297450.0 0.5699213745 -0.6312092502 -5.46386e-05 -4.15778e-05 2.02871e-05 6.78118e-05 -0.5478485505 0.6480232657
430297420.0 0.5639162602 -0.6376698091 7.82804e-05 9.1429e-06 -4.45394e-05 3.71691e-05 -0.5417118827 0.6526930486
435297390.0 0.5577192747 -0.6430926909 0.0001850963 0.0001131051 -0.0001278915 6.87507e-05 -0.5343158614 0.6587960576
440297360.0 0.5511349948 -0.6490038918 9.89805e-05 7.54909e-05 -5.247e-05 -0.0001673933 -0.5274517538 0.6635039855
445297330.0 0.5449659974 -0.6537167208 -9.0634e-06 -0.0002746128 8.83545e-05 -0.000127698 -0.5205600828 0.6687695438
450297300.0 0.5389518985 -0.658908748 4.95957e-05 -0.0002196464 -7.08116e-05 -8.37613e-05 -0.5134689378 0.6739185294
455297270.0 0.5317766442 -0.6640185158 -9.87985e-05 5.33223e-05 8.37483e-05 0.0001418569 -0.5066853266 0.6789584625
460297240.0 0.5248150162 -0.669176346 0.0002173948 0.0002126274 0.0001068482 7.66054e-05 -0.4999451052 0.6842745256
465297210.0 0.5181443317 -0.6743836274 -0.0002509078 -0.0001136647 6.54528e-05 6.36393e-05 -0.4925671731 0.6892484685
470297180.0 0.5110653476 -0.6788205313 -0.0002264305 -0.0001011312 -0.0001189158 -0.0001547993 -0.485147386 0.6948385811
475297150.0 0.5050542931 -0.6841059954 -5.40698e-05 1.62169e-05 0.000123341 0.0001158314 -0.4782870428 0.6986559853
480297120.0 0.497582255 -0.6890282474 0.0001223018 0.0001047514 -0.0001225074 -1.1741e-06 -0.4704766591 0.7041914032
485297090.0 0.490741587 -0.6935365373 -0.0001028672 -0.0001702168 0.0001298311 0.0001667635 -0.4637821141 0.7086050121
490297060.0 0.4839509827 -0.6979838052 1.84475e-05 0.000148258 -0.000130012 9.4728e-06 -0.4564683311 0.7134218019
495297030.0 0.4767690421 -0.7026308284 -0.0001475812 -0.0002184414 0.0001090077 4.8555e-06 -0.4496300479 0.7182971841
500297000.0 0.470111268 -0.7078424957 7.8073e-06 -0.0001345859 5.88622e-05 -6.34459e-05 -0.4413160559 0.7229902468
505296970.0 0.4636667624 -0.712413779 0.0001397665 -7.80385e-05 4.05681e-05 0.0001339325 -0.4345381271 0.72689511
510296940.0 0.4555673933 -0.7172190255 -1.50992e-05 3.25762e-05 8.78289e-05 6.6733e-05 -0.4268047675 0.7310199824
515296910.0 0.4494657462 -0.7212299167 -0.0001291987 -0.0001301461 -8.96489e-05 -0.0001414686 -0.419429163 0.7352375566
520296880.0 0.440988676 -0.7255679575 -0.0001243796 7.61366e-05 -7.89884e-05 -2.16672e-05 -0.4114819041 0.7393042111
525296850.0 0.4346148109 -0.7296140329 8.96e-05 -0.000140598 0.00011849 -8.63049e-05 -0.4049245088 0.744045296
530296820.0 0.4272268155 -0.7333302224 -0.000105355 7.77928e-05 -7.67384e-05 -4.95058e-05 -0.3967858327 0.7479334185
535296790.0 0.4202834417 -0.7379321865 5.95993e-05 -5.49438e-05 -3.14433e-05 0.0001408562 -0.3898842419 0.7517799189
540296760.0 0.4123386081 -0.7416481686 -2.33626e-05 -9.84034e-05 -7.20206e-05 -2.7043e-06 -0.3816521268 0.7554319514
545296730.0 0.4047766166 -0.7460961591 -0.0002330585 0.0001357301 1.94239e-05 -0.0001076764 -0.374316488 0.7592342838
550296700.0 0.3977594234 -0.7489634825 -0.0001543711 5.49685e-05 0.0001256554 6.36197e-05 -0.3663953082 0.7631927179
555296670.0 0.3896190901 -0.7535944612 2.32268e-05 9.71389e-05 -0.0001584873 0.0001845534 -0.358325981 0.7668491924
560296640.0 0.3828259127 -0.7569207326 3.18546e-05 0.0001197866 -3.0773e-05 4.45251e-05 -0.3507135774 0.7705217875
565296610.0 0.3748721659 -0.7606078181 -0.0001756816 2.19667e-05 -7.64413e-05 8.13635e-05 -0.3425483146 0.7735494812
570296580.0 0.3674262587 -0.7641153459 -0.0001830389 -3.61249e-05 1.24541e-05 -7.19745e-05 -0.3350229426 0.7776327146
575296550.0 0.3593980238 -0.7675542216 2.76664e-05 -4.74876e-05 7.39845e-05 6.80033e-05 -0.3270402752 0.7806421506
580296520.0 0.3522846071 -0.771225234 -9.5433e-06 -5.08821e-05 -0.0003832478 -1.59308e-05 -0.3188408761 0.7838066276
585296490.0 0.3436052377 -0.7749447544 9.74791e-05 0.0001345361 -0.0001291804 5.40503e-05 -0.3108150532 0.7874161695
590296460.0 0.3369033907 -0.7767387521 0.0002303347 -3.94327e-05 3.12674e-05 4.57708e-05 -0.3033453896 0.7903199838
595296430.0 0.3286573069 -0.7809391845 -3.73005e-05 0.0001502256 0.000157618 -2.63038e-05 -0.2952611055 0.7926998678
600296400.0 0.3210233428 -0.7839072189 2.59958e-05 -0.0002635949 -1.53225e-05 0.0001185724 -0.2869466023 0.7954684049
605296370.0 0.3127986806 -0.7867804964 -2.44848e-05 0.0001071628 -9.36101e-05 6.3239e-06 -0.2784846516 0.7986426906
610296340.0 0.3055290891 -0.78978126 2.09073e-05 -0.0001652858 2.2401e-05 0.0002343653 -0.2708547597 0.8013240343
615296310.0 0.2978047515 -0.7931122145 0.0002539954 -7.81264e-05 -2.16632e-05 5.49283e-05 -0.2624538543 0.8034056088
620296280.0 0.289641987 -0.7959524235 -8.91208e-05 0.0002477111 -8.4206e-05 7.95238e-05 -0.254852622 0.8068457486
625296250.0 0.2818282509 -0.7990099043 4.1248e-05 -0.0001506933 8.71224e-05 0.0001376812 -0.2454346722 0.8090559576
630296220.0 0.2740391552 -0.8012787733 0.0002347753 -0.0001574365 4.68644e-05 -0.0001791304 -0.2378173248 0.8111090217
635296190.0 0.2659292929 -0.8037596786 -0.000342726 0.0001135616 -3.49165e-05 -4.90148e-05 -0.2300768406 0.8134942912
640296160.0 0.2583601362 -0.80604556 3.35203e-05 0.0001729456 -0.000106159 -4.16427e-05 -0.2212939099 0.8161095797
645296130.0 0.2501564318 -0.8082785855 -0.0002745828 1.58046e-05 -0.0001011661 -5.50973e-05 -0.2136263411 0.8180943094
650296100.0 0.2411409963 -0.8106466642 -0.0002502918 -0.0001956879 0.0001083241 1.4228e-06 -0.2054061071 0.8193302305
655296070.0 0.2331596528 -0.8128517797 9.1957e-06 0.000167804 -8.35064e-05 3.12756e-05 -0.1969437328 0.821613762
660296040.0 0.2260378789 -0.8154449564 0.0002331471 0.000271404 -7.60191e-05 -9.38414e-05 -0.1882674798 0.8240127924
665296010.0 0.217217038 -0.8172786015 0.0001013796 0.0001556899 -8.49389e-05 -2.7294e-06 -0.1796028113 0.8262934795
670295980.0 0.20884713 -0.8193460823 -0.0002453456 -5.07067e-05 0.0001298265 0.0001643046 -0.1724051426 0.8275007024
675295950.0 0.2012740199 -0.8206068986 0.0002192612 4.52188e-05 -1.68302e-05 0.0001233176 -0.1640177111 0.8291384691
680295920.0 0.1927792796 -0.8231706257 0.0002808836 0.000286736 -0.0001003098 2.35934e-05 -0.1554360995 0.8312547996
685295890.0 0.1849446547 -0.8240784571 -0.0001806387 0.00015668 -1.76025e-05 1.4099e-06 -0.1467739747 0.8319040677
690295860.0 0.1758478484 -0.8260699781 3.04198e-05 -8.812e-05 2.44992e-05 0.0001087316 -0.1394974347 0.8338133825
695295830.0 0.168350282 -0.8276542752 0.0002094791 5.27734e-05 -0.0001707577 0.0003175403 -0.1297178777 0.8353622571
700295800.0 0.1598413895 -0.8291659419 -0.0001319489 -0.0001343732 0.0001795972 -7.5241e-06 -0.1230656515 0.8365491547
705295770.0 0.1510470699 -0.8304752364 -2.58958e-05 4.51376e-05 8.47318e-05 -4.48007e-05 -0.1141722123 0.8382833386
710295740.0 0.1429919838 -0.8314588296 5.15101e-05 1.8073e-06 0.0002750099 -9.9383e-06 -0.1050830892 0.8383344199
715295710.0 0.1344850906 -0.8339351717 0.0001632472 8.63783e-05 0.0002012714 6.0849e-05 -0.0967657409 0.8393209129
720295680.0 0.1266179491 -0.8346292042 -7.3778e-05 0.0001462805 -6.94281e-05 -1.40006e-05 -0.0885837212 0.8405571077
725295650.0 0.1177445968 -0.83528025 -3.56903e-05 9.70243e-05 3.3149e-06 1.8388e-06 -0.0805750737 0.8416558566
730295620.0 0.109274892 -0.8363052535 0.0001390773 0.000250423 -0.0001834433 -0.0001742633 -0.0726997912 0.8424112789
735295590.0 0.101095492 -0.8367123944 0.0002457559 -0.0001150881 6.265e-07 -9.35607e-05 -0.0638389432 0.8423499808
740295560.0 0.092660001 -0.8377530743 -0.000183818 0.000145615 -9.88488e-05 7.69187e-05 -0.0546239657 0.8437553936
745295530.0 0.0843352036 -0.8385541574 -1.15971e-05 -0.000284389 3.5502e-05 -6.15114e-05 -0.0462286628 0.8439001477
750295500.0 0.0761288258 -0.8390755202 9.98979e-05 8.73461e-05 0.0001022198 -0.0001096371 -0.0384883201 0.8445625876
755295470.0 0.0677558843 -0.8401604971 -5.11052e-05 0.0001333688 5.2623e-06 2.03951e-05 -0.0295493622 0.8441019834
760295440.0 0.058913629 -0.8403194642 -5.34441e-05 9.65731e-05 -0.00010861 -1.62606e-05 -0.0212552259 0.8443234223
765295410.0 0.0506906386 -0.8409030416 -0.0002491294 0.0001290173 4.50907e-05 8.65006e-05 -0.0127215754 0.8454505388
770295380.0 0.0423201692 -0.8409590259 1.35672e-05 -0.0001408745 9.6425e-06 -0.0001098266 -0.004124518 0.8450284117
775295350.0 0.0339260957 -0.8416029846 -0.0001051528 -7.50289e-05 -0.0001845088 -8.67556e-05 0.003515465 0.844269445
780295320.0 0.0261678339 -0.8414766922 -1.20544e-05 5.42887e-05 -0.0001398257 -3.3293e-06 0.011882437 0.8441947686
785295290.0 0.0168228559 -0.8418746727 -6.29309e-05 0.0001210508 -0.0002240187 -0.0001170823 0.0209500962 0.8440999397
790295260.0 0.0089964616 -0.8417041905 -7.2761e-05 -0.0002352019 -3.76775e-05 0.0001251718 0.0296071462 0.8447207372
795295230.0 0.0006438516 -0.8410112769 2.2953e-06 -0.0001134013 -9.99124e-05 -7.674e-07 0.0387039694 0.8434759632
800295200.0 -0.0081458095 -0.8409818214 -7.83944e-05 -0.0002048098 0.0003495748 1.22755e-05 0.0463711471 0.8435498212
805295170.0 -0.0166747737 -0.8412518588 -0.0001146817 0.0001598221 -2.64121e-05 -0.0001394361 0.0546628351 0.8430455926
810295140.0 -0.024545666 -0.8404616103 -6.7997e-05 -9.08695e-05 9.5207e-05 -2.67441e-05 0.0631621431 0.8419898334
815295110.0 -0.0332797114 -0.8402784883 -2.9327e-05 0.0002143885 -0.0001209451 0.0001096573 0.0719573785 0.8416320655
820295080.0 -0.0413255564 -0.8394982253 0.0001426402 6.46241e-05 -0.0001600234 -1.20349e-05 0.0799902096 0.840999567
825295050.0 -0.0493797556 -0.8388910757 0.0001032197 -8.6883e-05 3.23411e-05 0.0001492992 0.0882140286 0.8401129297
830295020.0 -0.0582938144 -0.8388082448 -0.0001000186 -0.0002055263 1.67057e-05 -0.0002269163 0.0968959695 0.8386947306
835294990.0 -0.0661616367 -0.8374697031 -2.93418e-05 -4.94159e-05 -8.98524e-05 8.48972e-05 0.1048475973 0.8384534858
840294960.0 -0.0753263483 -0.8368149241 -0.000245575 8.08481e-05 -5.09705e-05 -0.0001832903 0.1130639751 0.8370572575
845294930.0 -0.0826901939 -0.8353745794 2.96841e-05 -0.0001279129 1.1881e-06 -8.163e-07 0.1212651936 0.8353894796
