!Created with skrf (http://scikit-rf.org).
# Hz S RI R 50.0 
!freq ReS11 ImS11 ReS21 ImS21 ReS12 ImS12 ReS22 ImS22
300000.0 -0.049061841 -0.0486944643 -0.0022563018 0.0006657322 0.0007323844 0.0001355595 -0.77390616 -0.1463143931
5299970.0 -0.0486709301 0.015184194 0.0001400203 -0.0001681586 -2.45097e-05 5.3041e-05 -0.7835181289 -0.0075304081
10299940.0 -0.0432723833 0.0316377249 4.2991e-06 3.42586e-05 -4.49266e-05 -3.76756e-05 -0.7868528294 -0.0039295507
15299910.0 -0.0350323132 0.0459954102 0.0002785051 -9.6297e-06 9.73613e-05 7.85518e-05 -0.7919817659 -0.0014834483
20299880.0 -0.025131607 0.0573219426 0.0001561676 -0.0001284478 -2.81986e-05 -3.22128e-05 -0.798890698 0.0021493696
25299850.0 -0.0144502168 0.0665796148 2.06287e-05 -4.777e-07 -0.0001622077 -7.73163e-05 -0.8052734935 0.0084362503
30299820.0 -0.0033892617 0.0730401536 0.0001616049 0.0002197141 2.75622e-05 0.0001716327 -0.8114400518 0.0161839786
35299790.0 0.0078226018 0.0776040287 0.0002042271 5.25921e-05 -0.0001466005 5.87434e-05 -0.8168485263 0.0252642322
40299760.0 0.0192700405 0.0805148099 1.25534e-05 5.51411e-05 4.0063e-06 0.0002421675 -0.8209983827 0.0349383492
45299730.0 0.0297542828 0.0817252072 5.53912e-05 -2.17924e-05 2.85706e-05 3.24933e-05 -0.8249888522 0.0439360049
50299700.0 0.0391712585 0.0814929039 -3.16085e-05 0.0001203411 -6.07711e-05 6.71822e-05 -0.8268211834 0.0542319727
55299670.0 0.0484350081 0.0804065397 0.0003715358 -9.715e-07 9.88858e-05 8.4621e-05 -0.8294316359 0.0645201261
60299640.0 0.0566406275 0.0788642334 0.0002286176 -2.75156e-05 1.13902e-05 -8.726e-06 -0.8301984197 0.0744336141
65299610.0 0.0641823335 0.0762534792 -0.0001003174 -5.9855e-06 0.0001191048 7.06256e-05 -0.8316353295 0.0841924539
70299580.0 0.0711219245 0.0734085853 -0.0001268073 -3.81624e-05 0.0001125431 3.38844e-05 -0.8316039413 0.0947626014
75299550.0 0.0773994569 0.0699718015 4.88971e-05 -3.2951e-06 0.0002888066 4.02101e-05 -0.8325281882 0.1043803573
80299520.0 0.0832012791 0.0666750836 0.0001197252 0.0002384234 -2.34282e-05 -5.15918e-05 -0.8323973498 0.114130237
85299490.0 0.0876247386 0.0625803973 -2.52615e-05 0.0001970599 -7.77895e-05 0.0002562257 -0.8314730944 0.1236795409
90299460.0 0.0921654653 0.0589230753 -1.47427e-05 0.0001832509 9.30963e-05 7.53387e-05 -0.8307335064 0.1333874738
95299430.0 0.0964223834 0.0550828091 0.0001945798 -3.65048e-05 -9.63282e-05 7.58428e-05 -0.8289016654 0.1432270121
100299400.0 0.0996939599 0.0510773094 -7.82939e-05 -5.52289e-05 0.0001528379 -5.32882e-05 -0.8284526434 0.1522471511
105299370.0 0.1031202927 0.0472635577 0.0001784632 -9.26077e-05 0.0002194812 -3.375e-05 -0.8269121687 0.1611493348
110299340.0 0.1059706394 0.043250744 6.79998e-05 0.0001063663 4.74457e-05 1.36085e-05 -0.8255495099 0.170596105
115299310.0 0.1082626034 0.0390328432 0.0001175891 0.0001518746 0.0001095851 9.41323e-05 -0.8239381915 0.1799161059
120299280.0 0.1102345121 0.0350397219 4.715e-06 0.0001011095 -0.0001518532 7.77408e-05 -0.8216404487 0.1884999032
125299250.0 0.1120046725 0.0310232617 -8.05945e-05 3.96024e-05 7.17477e-05 6.0881e-06 -0.8207234263 0.1976297952
130299220.0 0.1138396097 0.0276084344 1.06529e-05 -7.20048e-05 1.4378e-05 -4.24892e-05 -0.8179836032 0.2065471351
135299190.0 0.1153608357 0.0243175987 0.0001658964 -5.6393e-06 -6.19789e-05 8.58116e-05 -0.8159186982 0.2155026283
140299160.0 0.1163375239 0.0207885072 -1.18336e-05 9.8952e-05 -0.0001914591 -4.92275e-05 -0.8135573705 0.2246516306
145299130.0 0.1175236012 0.0169961275 0.0001323974 2.4771e-06 4.50743e-05 -6.48669e-05 -0.8115240478 0.2342077904
150299100.0 0.118555589 0.0134734158 -2.42765e-05 0.0001518306 -8.75967e-05 3.85113e-05 -0.8095079569 0.2431236162
155299070.0 0.1190015735 0.0100256481 -0.0001072481 -5.72767e-05 0.0002588646 0.0002609773 -0.806426242 0.2517111424
160299040.0 0.1193296922 0.0071402719 -0.0004075037 8.545e-06 -9.85234e-05 5.95579e-05 -0.8039301263 0.2605310983
165299010.0 0.1198726541 0.0037384771 0.0001347282 2.52603e-05 0.0002554452 0.0001212021 -0.8017451182 0.2693439627
170298980.0 0.1201700227 0.0009401099 3.4474e-06 -0.0001538539 -0.0002762013 6.4506e-05 -0.7987490618 0.2779732249
175298950.0 0.1203053904 -0.0023161787 -0.0002460271 -2.00416e-05 0.0001248211 -5.3118e-06 -0.7960074888 0.2865736243
180298920.0 0.120506594 -0.0050506332 0.0001632772 0.0002375492 -4.34374e-05 0.0002399247 -0.7929662097 0.295171393
185298890.0 0.1205951191 -0.0083703674 -3.49125e-05 0.0001352196 -6.50956e-05 5.1914e-05 -0.7892477884 0.3037163239
190298860.0 0.1205116272 -0.0110529332 8.4451e-06 9.43862e-05 4.61698e-05 5.38485e-05 -0.7873696856 0.3121881514
195298830.0 0.1202702015 -0.0138329972 7.80336e-05 0.0001487108 0.0002222733 0.0002013801 -0.7840735308 0.3212775373
200298800.0 0.1200674249 -0.0164622138 0.0001327577 -3.96486e-05 0.0001879316 -0.0003300685 -0.7810136572 0.3291383475
205298770.0 0.1195582765 -0.019322309 5.9603e-06 7.07709e-05 -0.0002104431 0.0002615585 -0.7771237879 0.3377987104
210298740.0 0.119169984 -0.0217391783 0.0001177189 -0.0001242838 1.62407e-05 0.0001179048 -0.7740259463 0.3464164941
215298710.0 0.1187095297 -0.0243827193 0.0001403252 0.0001028482 1.14109e-05 -1.96085e-05 -0.7709229372 0.3543677286
220298680.0 0.1179978304 -0.0267185117 6.96014e-05 0.0001162063 3.0686e-06 -0.0001313692 -0.7672755572 0.3624917593
225298650.0 0.1173881824 -0.0292496414 2.94798e-05 7.20764e-05 1.62244e-05 -9.07134e-05 -0.7628197285 0.3704962393
230298620.0 0.1166747531 -0.0316143963 0.0002321634 0.0001519259 -4.8467e-06 5.41542e-05 -0.7597379358 0.3790923694
235298590.0 0.116358599 -0.033975001 0.0001534238 -4.47627e-05 0.0001245279 8.05108e-05 -0.7555725303 0.3872605372
240298560.0 0.1158353287 -0.0362743901 -7.63256e-05 7.7482e-05 1.09614e-05 2.1405e-05 -0.7513326308 0.3957591827
245298530.0 0.1149387072 -0.0388361101 0.0001586474 0.000225933 7.4447e-05 -5.65969e-05 -0.7478431251 0.4027513206
250298500.0 0.114159518 -0.0407798127 1.64993e-05 -7.88137e-05 9.30234e-05 5.47613e-05 -0.7434731764 0.4103962347
255298470.0 0.1127969441 -0.043099188 0.0002672322 0.0001451991 3.61931e-05 4.10853e-05 -0.7385518529 0.4181960125
260298440.0 0.1123743792 -0.0451580489 -4.6163e-05 0.0001273463 0.000119875 -5.78278e-05 -0.7348577553 0.4264761053
265298410.0 0.1114868245 -0.0469049811 -9.7928e-06 9.14225e-05 6.34061e-05 0.0001073111 -0.730205969 0.4337363151
270298380.0 0.1105373071 -0.0490503905 -8.52746e-05 0.0001340626 0.000131237 -0.0001556495 -0.7252788525 0.4412973531
275298350.0 0.1097096214 -0.0510534017 5.37701e-05 8.35741e-05 0.0002214626 9.831e-06 -0.7200004278 0.448451894
280298320.0 0.1088864421 -0.0532698757 -0.0001591996 6.78136e-05 -1.29141e-05 0.0001091316 -0.7156724389 0.4559087762
285298290.0 0.1080353661 -0.0548632833 4.19529e-05 -2.9066e-06 0.0001163169 -6.65114e-05 -0.7104389908 0.4636150871
290298260.0 0.1069096503 -0.056727942 0.0002168388 6.62621e-05 9.07608e-05 -0.0001047997 -0.7053881025 0.4706637969
295298230.0 0.105937884 -0.0589127952 9.40062e-05 0.000139614 8.65084e-05 0.0001021881 -0.7000989456 0.4775662125
300298200.0 0.1049829394 -0.0607691807 -4.83115e-05 -8.1573e-06 6.99479e-05 4.78097e-05 -0.6955101815 0.4850418376
305298170.0 0.1040622438 -0.0625925543 0.0001251156 -4.32372e-05 9.39919e-05 0.0001270323 -0.6894689338 0.4927997682
310298140.0 0.103081047 -0.0640926051 -1.14061e-05 -0.0002410207 0.0001551714 1.84258e-05 -0.6848132547 0.4995283769
315298110.0 0.1019782248 -0.0663185635 0.0001559937 0.00023603 -7.33182e-05 7.7443e-05 -0.6791505256 0.5066733277
320298080.0 0.1010442964 -0.0683156604 5.39275e-05 -6.9554e-05 0.0001771102 -3.61252e-05 -0.6734557886 0.5142461071
325298050.0 0.0994631724 -0.0699889272 0.0001136295 -8.50021e-05 0.000269712 5.35594e-05 -0.6680778492 0.5205585175
330298020.0 0.0979306704 -0.0717451038 0.0003172552 0.0001636576 9.56093e-05 1.52153e-05 -0.662575512 0.5279110338
335297990.0 0.0964649291 -0.073388282 -0.0001235344 -0.0001032892 9.77114e-05 -6.49776e-05 -0.6576772242 0.534749845
340297960.0 0.0948679424 -0.0749480101 4.26622e-05 -0.0001210892 -0.0001102207 -0.0001970166 -0.65174993 0.5418844202
345297930.0 0.0935336185 -0.0761566689 0.0001337786 -0.0002308536 -6.8179e-05 -2.09431e-05 -0.645884115 0.5485659989
350297900.0 0.0924145711 -0.0772765625 0.000144625 1.331e-06 5.27345e-05 0.0002263548 -0.6407050222 0.5550486174
355297870.0 0.0908806137 -0.0788398671 3.37318e-05 4.60206e-05 4.45457e-05 6.47771e-05 -0.6346375888 0.5619432772
360297840.0 0.0893481769 -0.0800927971 0.0002095809 0.0001598443 6.73967e-05 -0.0001953837 -0.6290739956 0.5687171706
365297810.0 0.088113951 -0.0811800668 0.000253688 1.57887e-05 -8.72165e-05 0.0003940453 -0.6222543528 0.5753974534
370297780.0 0.0866174776 -0.0826251311 -0.0001177229 1.77113e-05 -9.87607e-05 1.54074e-05 -0.6167728354 0.5820288795
375297750.0 0.0853349824 -0.0839458559 1.3859e-05 6.13164e-05 0.0002848616 -0.0001828861 -0.6108907263 0.5879052266
380297720.0 0.0836411245 -0.0851379312 0.0001184857 -2.40012e-05 -1.60304e-05 -3.50816e-05 -0.6049734755 0.5944039956
385297690.0 0.0823518498 -0.0861781569 0.0002929732 9.82575e-05 0.000160585 -3.16968e-05 -0.5987890385 0.6009959642
390297660.0 0.0810814838 -0.087190355 0.0001176454 -0.0003663705 2.33751e-05 0.0001052537 -0.5927339612 0.6073788354
395297630.0 0.0793135495 -0.0885012991 -0.0001830707 -8.35051e-05 5.00087e-05 9.02336e-05 -0.5865116714 0.6132277606
400297600.0 0.0781870717 -0.0893513359 9.44173e-05 0.0002029103 -2.34783e-05 -0.0002228561 -0.5804831143 0.6193290781
405297570.0 0.0765143346 -0.0908060956 -0.0001100526 0.0002634694 6.97312e-05 0.0001813144 -0.5738319929 0.6247335347
410297540.0 0.074722735 -0.0915532215 0.0002289758 -0.0001606044 3.8743e-05 2.52788e-05 -0.5673035755 0.6314892246
415297510.0 0.0736951333 -0.0930948661 -3.55782e-05 -8.01533e-05 2.7658e-05 0.0001271415 -0.5611566233 0.6368574276
420297480.0 0.0718923963 -0.0934337674 -0.0001555564 8.25279e-05 8.83166e-05 7.1458e-05 -0.5541434195 0.6427837568
425297450.0 0.0705761643 -0.0946742331 -2.94253e-05 0.0003994036 7.3572e-05 5.15567e-05 -0.5476411229 0.6480149814
430297420.0 0.069131173 -0.0959233309 0.000184618 6.88327e-05 3.53017e-05 0.0003537459 -0.5408650107 0.6530841779
435297390.0 0.0674277435 -0.0966965762 7.78898e-05 -0.0001248645 8.8316e-05 6.36137e-05 -0.5337888861 0.6584929972
440297360.0 0.0658244211 -0.0978477067 0.0001471734 -0.0001075554 8.384e-05 0.0001095801 -0.5272975006 0.6638270555
445297330.0 0.0645742653 -0.0986657463 0.0001385722 0.0001197264 0.0001634275 -0.0002480862 -0.5197585598 0.6683645414
450297300.0 0.0629460058 -0.099635964 0.0003087946 -0.0004439939 -0.0001486222 -5.86508e-05 -0.5124812539 0.6737363152
455297270.0 0.0611369976 -0.1004559371 0.0002192813 -9.44721e-05 0.0001327868 6.07466e-05 -0.5057459476 0.6781036675
460297240.0 0.059575465 -0.1012695997 0.0002110814 -3.59569e-05 4.3777e-05 5.31398e-05 -0.4987925555 0.6834709601
465297210.0 0.0580915185 -0.1019080061 8.93645e-05 0.0001460681 4.46908e-05 -0.0001338068 -0.4913762795 0.688464299
470297180.0 0.0564113688 -0.1027347003 -0.0001049085 0.0001630692 7.39218e-05 7.455e-05 -0.4842449749 0.69371863
475297150.0 0.0550660405 -0.1036612078 9.02616e-05 -5.72146e-05 9.56726e-05 0.0001996495 -0.4769487046 0.6978094118
480297120.0 0.0535143559 -0.1041120066 -2.54904e-05 0.0001190843 0.0001441877 6.0336e-05 -0.4692446988 0.703015609
485297090.0 0.0520077719 -0.1047683772 0.0001910989 0.0001004745 -2.90881e-05 -0.0001209558 -0.4625568356 0.7076051472
490297060.0 0.0501902915 -0.105224468 0.000100368 -0.0001075134 0.0001498118 3.79513e-05 -0.4548908033 0.7120268628
495297030.0 0.0483305678 -0.1059387525 -0.0001272724 5.37388e-05 9.03073e-05 -0.0001097666 -0.4480302963 0.7177093531
500297000.0 0.0471161943 -0.1067429473 0.0002355443 -3.01636e-05 0.0001117591 0.0001360489 -0.4397780588 0.7218442427
505296970.0 0.0454950744 -0.107693692 6.29e-06 9.1178e-06 0.0001625122 0.0001294031 -0.432493539 0.7261774567
510296940.0 0.0438967903 -0.1079621037 8.866e-06 9.72848e-05 -4.14689e-05 0.0001294392 -0.4248419577 0.7302639197
515296910.0 0.0423200205 -0.1083351969 0.0002088948 -5.72797e-05 3.60846e-05 -2.77789e-05 -0.4178843469 0.7351478355
520296880.0 0.0405981395 -0.1090868761 -4.60261e-05 -2.30693e-05 -1.97877e-05 2.55568e-05 -0.4102282164 0.7389632042
525296850.0 0.0389579871 -0.1097764467 0.00012791 5.49314e-05 7.8445e-05 0.0001443037 -0.4032189579 0.7436531079
530296820.0 0.0371835934 -0.1096817038 -5.5292e-05 0.0003417792 4.7183e-05 -1.33597e-05 -0.3952986253 0.7474934631
535296790.0 0.0357374108 -0.1102086054 4.18082e-05 0.0002822123 0.0001381534 -0.0001385869 -0.388462942 0.751664478
540296760.0 0.0337949669 -0.1108332025 4.2491e-05 -5.52616e-05 0.000298893 -8.5539e-06 -0.3808362188 0.7554592617
545296730.0 0.0321540792 -0.1111441317 0.0001881125 -0.000102589 0.0001155175 0.0002264709 -0.3730082495 0.7596297652
550296700.0 0.0309474376 -0.1112693115 0.0001037096 -0.0001499475 -1.81453e-05 1.79917e-05 -0.3655676486 0.7632975055
555296670.0 0.0287947295 -0.1116912554 0.0001825608 -7.57548e-05 4.78089e-05 1.17112e-05 -0.3578776484 0.7674738056
560296640.0 0.0273863611 -0.1119908418 0.0001629778 -8.01613e-05 0.0003386353 2.67757e-05 -0.3493538743 0.7709551435
565296610.0 0.0256648394 -0.1120603228 -1.05922e-05 -6.75539e-05 0.0001087107 0.0001482764 -0.3414895297 0.7738097829
570296580.0 0.0239547689 -0.1126875843 2.77876e-05 -2.74079e-05 3.54389e-05 5.11299e-05 -0.3344187443 0.7782354971
575296550.0 0.0221685522 -0.1126950007 2.42481e-05 0.0001941904 0.0001272759 -0.0001109637 -0.3265204915 0.7810553181
580296520.0 0.0205629376 -0.1131661064 0.0001332316 -7.52332e-05 0.0001815072 -0.000222183 -0.3176133606 0.7841526805
585296490.0 0.0186772928 -0.1132780206 0.0001148819 0.000218047 0.0002625335 0.0002599412 -0.3103180505 0.7877584124
590296460.0 0.0173582537 -0.1130103623 0.0001427746 -1.7027e-06 0.0001057479 0.0002458561 -0.3023337647 0.7901830205
595296430.0 0.0155543052 -0.1133328505 -0.000130668 1.86537e-05 0.0001303604 0.0001355157 -0.2942565588 0.791988311
600296400.0 0.0136788673 -0.1136077795 9.98054e-05 0.0001487615 0.0001254129 -6.75576e-05 -0.2868353562 0.7952264614
605296370.0 0.012110317 -0.1138304977 -7.48106e-05 -0.0001404389 -6.03365e-05 0.0001487796 -0.2775346439 0.7982722466
610296340.0 0.0103622778 -0.1140342225 0.0003688891 -5.51721e-05 6.866e-07 4.30554e-05 -0.2696688055 0.8007910836
615296310.0 0.0089134639 -0.113970297 0.0001058293 -0.0001221844 0.0002146952 0.0001507609 -0.2609459484 0.8030124391
620296280.0 0.0067778753 -0.1141459952 -0.0001672915 -0.0001066975 8.75785e-05 0.0001887925 -0.25354653 0.8057863055
625296250.0 0.0055351362 -0.1140934335 0.0003308271 6.72391e-05 7.9137e-05 -6.13938e-05 -0.2448554308 0.8072649177
630296220.0 0.0038620923 -0.1142738069 3.06058e-05 -1.85543e-05 -5.72142e-05 0.000134549 -0.2368837649 0.8103114465
635296190.0 0.00183542 -0.1138759478 0.0003659825 0.0002011571 -2.6704e-05 -0.0001568791 -0.2290230783 0.8123327911
640296160.0 0.0005958083 -0.1140913299 4.67645e-05 -7.2539e-05 0.0001309496 -0.0002005648 -0.2204674922 0.8146304466
645296130.0 -0.001390891 -0.113846367 0.0002834531 0.000142858 4.9373e-05 -3.35361e-05 -0.2125692057 0.8160984388
650296100.0 -0.0030299964 -0.113715353 0.0001082284 -7.6637e-05 0.000183667 5.79156e-05 -0.2044711894 0.8180040417
655296070.0 -0.0047041529 -0.113679769 -0.0001933813 7.8122e-06 0.0002264817 6.80258e-05 -0.1952274566 0.8201086335
660296040.0 -0.006433558 -0.1135549168 0.0001429553 2.92499e-05 0.0002949284 -9.16351e-05 -0.1867922623 0.8223529645
665296010.0 -0.0078162146 -0.1136485085 0.0001648109 0.0001100222 0.0002802894 0.000104362 -0.1787838675 0.8247527971
670295980.0 -0.0095976462 -0.1132002397 -2.44535e-05 2.44787e-05 0.0003881446 -0.0001137493 -0.1708502108 0.8259293891
675295950.0 -0.0113976171 -0.112871598 0.0001327543 5.09615e-05 -6.07768e-05 -6.54458e-05 -0.1628914995 0.8281060125
680295920.0 -0.0128407054 -0.1126066324 2.3671e-05 -9.39389e-05 0.0004064452 9.54021e-05 -0.1535768273 0.8303399724
685295890.0 -0.0144675066 -0.1119545925 1.1785e-05 -9.33772e-05 -0.0001282383 2.65696e-05 -0.1452328768 0.8311150125
690295860.0 -0.0159849729 -0.112097267 3.5273e-06 3.23102e-05 1.57937e-05 -4.7084e-06 -0.1375814667 0.832950786
695295830.0 -0.0177488228 -0.1116911216 0.0001818901 -0.0001586756 5.89003e-05 0.0001497766 -0.1286357166 0.8346809803
700295800.0 -0.0196046357 -0.111351792 0.0001646573 -2.02025e-05 0.0001071329 5.24075e-05 -0.1212416837 0.8357635591
705295770.0 -0.0212355314 -0.1108387298 7.42202e-05 9.07496e-05 3.34534e-05 -0.0001857496 -0.1126252685 0.8379396016
710295740.0 -0.0226514584 -0.1106757712 0.0003341621 -0.0002049478 0.0002634906 1.70387e-05 -0.1038061102 0.8386097686
715295710.0 -0.0246433856 -0.1103980409 0.0001399061 -8.00648e-05 0.0003218987 3.16363e-05 -0.0952882494 0.8390373941
720295680.0 -0.0260664859 -0.1095814564 0.0001971336 -0.0001984935 0.0001433712 -3.29443e-05 -0.087124822 0.8411758409
725295650.0 -0.0276674341 -0.108971892 -5.7295e-06 7.66402e-05 0.0002782428 -1.17009e-05 -0.079565426 0.8420318283
730295620.0 -0.0293814989 -0.1084360431 0.0001013506 -3.40695e-05 0.0001121796 -0.0002183634 -0.0712556608 0.8420356987
735295590.0 -0.0308201902 -0.1081208708 0.0002139703 -3.14578e-05 0.0001830966 -6.95398e-05 -0.0624085737 0.8424386566
740295560.0 -0.0325601575 -0.107555335 0.0003045072 7.92508e-05 0.0001288932 -9.21649e-05 -0.0536994233 0.8434936059
745295530.0 -0.0343521673 -0.1069746079 0.0002195433 -6.06899e-05 0.0001958684 4.29994e-05 -0.045510941 0.8436334235
750295500.0 -0.0354267629 -0.1063599551 0.0002703686 -0.0002154546 0.0002134581 -0.0001454337 -0.037462205 0.8441241165
755295470.0 -0.037382395 -0.1055916047 8.13529e-05 -3.89338e-05 0.0002202262 1.59015e-05 -0.028382039 0.8436411399
760295440.0 -0.0388120361 -0.1054379648 0.0001425497 -4.07849e-05 0.0002978116 8.15787e-05 -0.0206288107 0.844454289
765295410.0 -0.040437325 -0.1047565192 0.0003347582 4.1264e-06 -3.368e-07 -1.83048e-05 -0.011858298 0.8443114828
770295380.0 -0.0422148714 -0.10392868 -2.33292e-05 -2.56284e-05 4.39309e-05 0.0001349598 -0.0038306559 0.8439321277
775295350.0 -0.0441845663 -0.1034780248 9.11051e-05 -0.0001937277 0.0001848975 -0.000124088 0.0039901382 0.8433677887
780295320.0 -0.0453431863 -0.1025323297 9.79325e-05 -5.90075e-05 0.0002872399 -1.32181e-05 0.0129465567 0.8434275037
785295290.0 -0.047070895 -0.1024131066 9.02407e-05 -0.0001598212 0.0002346915 6.28853e-05 0.022132042 0.8429087127
790295260.0 -0.0482453495 -0.1011504057 0.000102503 -9.01098e-05 7.00248e-05 0.0001425104 0.0303819381 0.8433245407
795295230.0 -0.0496376583 -0.1006281625 -0.0001007873 4.81893e-05 0.0001834665 -0.0001441114 0.0388953707 0.8419117767
800295200.0 -0.0512922058 -0.0995428565 0.000115086 -7.34673e-05 -4.63576e-05 -0.0001465456 0.0474660493 0.8416432962
805295170.0 -0.0525064813 -0.0991646677 0.0003075089 -0.000140562 5.97661e-05 -2.84805e-05 0.0551958731 0.8414909247
810295140.0 -0.0538980929 -0.0982560012 0.0003656507 8.62848e-05 6.8692e-05 -0.000125084 0.0641240517 0.840397731
815295110.0 -0.0556423364 -0.0974912633 1.73492e-05 -0.0002923419 -0.0002135649 -3.01262e-05 0.0724732074 0.839930586
820295080.0 -0.057079889 -0.0964693817 0.000203289 -2.39569e-05 0.0003204664 -0.0002133798 0.0804112467 0.8393998205
825295050.0 -0.0582035278 -0.0961161711 4.119e-05 -5.20529e-05 8.54658e-05 -5.1554e-05 0.0890566802 0.8387092572
830295020.0 -0.0599047157 -0.0947781925 7.98756e-05 -0.0001743051 0.0002893481 0.0001580341 0.0988482477 0.8375745449
835294990.0 -0.0613306255 -0.0936239567 4.88631e-05 6.62323e-05 0.0002640953 9.62923e-05 0.1057402802 0.836513651
840294960.0 -0.0628636669 -0.0930039573 -1.27704e-05 2.46935e-05 8.68011e-05 1.65183e-05 0.1149786726 0.8352430849
845294930.0 -0.0640873245 -0.0919743067 -1.43393e-05 5.88699e-05 0.0001301197 -0.0001271035 0.1222258956 0.8342952933
850294900.0 -0.0652497786 -0.0907767544 3.16344e-05 -0.000126404 0.0001000669 1.23116e-05 0.1307292963 0.833374465
