!Created with skrf (http://scikit-rf.org).
# Hz S RI R 50.0 
!freq ReS11 ImS11 ReS21 ImS21 ReS12 ImS12 ReS22 ImS22
300000.0 -0.0988699571 -0.0635793682 0.6299921345 0.0587768755 0.6245767113 0.0591889474 -0.1042711139 -0.0692534948
5299970.0 -0.1022864793 0.0134060199 0.6310981182 0.0096232905 0.6305440943 0.010189953 -0.1011271822 0.0134554757
10299940.0 -0.0973915357 0.0295202346 0.6338428515 0.0153988194 0.634254241 0.0156101115 -0.0960392517 0.030596817
15299910.0 -0.0900351523 0.042545497 0.6408164076 0.0201142323 0.6405677463 0.0207041103 -0.0889349097 0.0436948407
20299880.0 -0.0819188339 0.0532593751 0.6486588158 0.024318055 0.6486462238 0.0242068439 -0.0800628757 0.0541484828
25299850.0 -0.0726198853 0.0621786722 0.6578558794 0.0253611951 0.6579363475 0.0258816408 -0.0701131276 0.0632585511
30299820.0 -0.0622327894 0.0689837363 0.66715804 0.0242055006 0.6670912523 0.0241691446 -0.0598534994 0.0699779116
35299790.0 -0.0526238753 0.0739516811 0.6773761385 0.0216525251 0.6771566334 0.0214927219 -0.0501527272 0.0745815718
40299760.0 -0.0433131792 0.0774479687 0.6866391141 0.0175190693 0.6867237217 0.0176512356 -0.0404305409 0.0772275244
45299730.0 -0.0339117648 0.0795567286 0.6949785358 0.0120968402 0.6952609629 0.0120933817 -0.0313153813 0.0794706826
50299700.0 -0.0255833349 0.0801800681 0.7037302646 0.0049391139 0.7033805658 0.0057153676 -0.0228671442 0.080442312
55299670.0 -0.01771094 0.080457152 0.7111838795 -0.0029711149 0.711086461 -0.0022523315 -0.0146694021 0.0806073679
60299640.0 -0.0100282058 0.0803012458 0.7172592989 -0.0112930117 0.7176740611 -0.010583224 -0.0077214968 0.0792141702
65299610.0 -0.0039640112 0.0791420976 0.7235673897 -0.0199199185 0.7236928314 -0.0192971975 -0.001038442 0.0782613347
70299580.0 0.0027445154 0.0774889888 0.7285121668 -0.0294614337 0.7288265452 -0.0291481392 0.0049300152 0.0766669955
75299550.0 0.0083051067 0.0760430369 0.7327493897 -0.038450072 0.7330864416 -0.038885027 0.010280645 0.0747768547
80299520.0 0.0132215331 0.0734566383 0.7370630619 -0.0489706434 0.7374079004 -0.0486903012 0.0153777429 0.0725769539
85299490.0 0.0178877731 0.0714454015 0.740136338 -0.0582146447 0.7407636781 -0.0579292129 0.0195027467 0.0698754879
90299460.0 0.0218727988 0.0690958994 0.7429312644 -0.0685939672 0.7438472469 -0.0684769426 0.0237623109 0.0681919005
95299430.0 0.0259995933 0.0663738159 0.7457459593 -0.0786929466 0.7458627745 -0.078848074 0.0276938818 0.0657084295
100299400.0 0.029234886 0.0645297896 0.7464951731 -0.0890737068 0.7470738415 -0.0891971475 0.0313772949 0.0628543288
105299370.0 0.0323712012 0.0616509814 0.7483410024 -0.0997051592 0.7491053725 -0.099026483 0.0342615293 0.0607978558
110299340.0 0.0348681007 0.0596351215 0.7503175726 -0.1088646471 0.7498271647 -0.1087346234 0.0363062833 0.0580543798
115299310.0 0.0374695076 0.0571239719 0.751135832 -0.1188187476 0.750849112 -0.119046941 0.0390018623 0.0558343323
120299280.0 0.0399390364 0.05466035 0.7515585906 -0.1288268216 0.751836527 -0.129436562 0.0416227113 0.0535060248
125299250.0 0.0417939599 0.0521062801 0.7518290449 -0.1388121058 0.7519315664 -0.1388233178 0.0429298055 0.05036627
130299220.0 0.0434574535 0.0500752006 0.7514581511 -0.1493237253 0.7518041357 -0.1489861527 0.0450160107 0.0484352712
135299190.0 0.0453185721 0.0480723587 0.751580875 -0.1591550399 0.750923116 -0.158896795 0.0465103223 0.0464000287
140299160.0 0.0466463483 0.0463219463 0.7509864269 -0.16869234 0.7511471985 -0.1687892908 0.0476420492 0.0446732771
145299130.0 0.048013211 0.0439148427 0.7505961881 -0.1785794698 0.7499768492 -0.1778940781 0.0491065947 0.0421840612
150299100.0 0.0495725732 0.0423608981 0.7485876498 -0.1870935255 0.7490287404 -0.1873371207 0.0505876961 0.0406544259
155299070.0 0.050168045 0.039989472 0.7479591069 -0.1983562738 0.747864884 -0.1979520119 0.0513801585 0.0387322125
160299040.0 0.0515762006 0.0378528308 0.7466726177 -0.2073020005 0.7460667971 -0.2071984943 0.0518995146 0.0364062974
165299010.0 0.052354327 0.0364703111 0.7441215506 -0.2170281876 0.7448793539 -0.2168311265 0.053004336 0.0350981283
170298980.0 0.0534367952 0.0341763816 0.7432876344 -0.2258178245 0.7432272627 -0.2264487996 0.0539680052 0.0331590971
175298950.0 0.0535111772 0.0323353719 0.7417841805 -0.2352745819 0.7410175969 -0.234820676 0.0545441491 0.0314158189
180298920.0 0.0540977131 0.030767789 0.7393177036 -0.2448256918 0.7390980207 -0.2443694864 0.0554046885 0.0296907413
185298890.0 0.0554328967 0.0289641635 0.7365554099 -0.253603293 0.7367460094 -0.2533501393 0.0554305335 0.0283950521
190298860.0 0.0553778939 0.0275599201 0.7345410065 -0.2631430118 0.7345142974 -0.2627865169 0.0559601114 0.026113616
195298830.0 0.0561784212 0.0255529269 0.7320355097 -0.2722252605 0.7323406512 -0.2713542693 0.0570408765 0.0250381772
200298800.0 0.0563964054 0.0244075879 0.7292338173 -0.2809055095 0.7294834924 -0.2811059067 0.0566781956 0.0235670603
205298770.0 0.0566627732 0.0231249584 0.7263527614 -0.2896521611 0.7265238356 -0.2893221272 0.0572866652 0.021249397
210298740.0 0.0572820647 0.021135497 0.7233701105 -0.2979278473 0.7235149455 -0.2978926523 0.0580346449 0.0210810267
215298710.0 0.056950547 0.0198270452 0.7205027959 -0.3071764672 0.720145157 -0.307208441 0.0576112017 0.0193940046
220298680.0 0.0574778003 0.0177715766 0.7168000992 -0.3154094932 0.7170711205 -0.3159891038 0.0575078207 0.0176665549
225298650.0 0.0577687902 0.0166671274 0.7140976159 -0.3245525349 0.7141852412 -0.3240314048 0.057556198 0.015990414
230298620.0 0.058077556 0.0159825888 0.7108093515 -0.3325188923 0.711289609 -0.3330541498 0.0576551295 0.0149329855
235298590.0 0.0577965474 0.0146725505 0.7067351152 -0.3415012865 0.7069340417 -0.3412332587 0.0581426828 0.0138520068
240298560.0 0.0581182963 0.0134842828 0.7038768004 -0.3501288484 0.7035274655 -0.3496415558 0.0579522066 0.0127647627
245298530.0 0.0580613128 0.011952665 0.7005408695 -0.3580308545 0.7001352028 -0.3584146862 0.0587593102 0.0109465129
250298500.0 0.0586117572 0.0108763145 0.6951029962 -0.3664147834 0.6951318246 -0.3653097443 0.0583311313 0.0103050504
255298470.0 0.0584573117 0.0092683917 0.6913861811 -0.3742366313 0.6917210973 -0.3738891295 0.058414026 0.0089127559
260298440.0 0.0580355272 0.0079023821 0.6880424546 -0.3830323227 0.6878114949 -0.3819383693 0.0588014592 0.0081242059
265298410.0 0.0590433573 0.0074560621 0.6834548722 -0.3907754211 0.6843909311 -0.3900520454 0.0587823367 0.0070533803
270298380.0 0.0584559496 0.006289542 0.6801722768 -0.3980604742 0.6797737389 -0.398100176 0.0583589877 0.0056198185
275298350.0 0.0588890336 0.0048753425 0.6758792213 -0.4068274492 0.6760391555 -0.4066915776 0.0585441476 0.0047425354
280298320.0 0.0585795379 0.0044076961 0.6716889214 -0.4142601415 0.6713817271 -0.4141105301 0.0592048456 0.0038421234
285298290.0 0.0586312807 0.0028975748 0.6666389321 -0.4220816795 0.6665957575 -0.422540023 0.0588614627 0.002555943
290298260.0 0.0589326661 0.002179665 0.6621980085 -0.4298893046 0.6623885003 -0.4299297409 0.0587069379 0.0021491471
295298230.0 0.0586735348 0.0010358574 0.6580975613 -0.4378676403 0.6578327882 -0.437672167 0.059498022 0.0005775981
300298200.0 0.0584686163 -6.7019e-05 0.6533917447 -0.4455615267 0.6533198103 -0.4457182998 0.058954362 -0.0002676538
305298170.0 0.0585779823 -0.0015285618 0.6481244057 -0.4534970664 0.6479471701 -0.4527654134 0.0593995719 -0.0015059311
310298140.0 0.0581444691 -0.0022756388 0.6434641958 -0.4607977585 0.6441196969 -0.4603675433 0.0595463583 -0.0026904232
315298110.0 0.0583672927 -0.0039284108 0.6384765423 -0.4681583158 0.6385745256 -0.4682833555 0.0587038787 -0.0040316483
320298080.0 0.0584352493 -0.004645102 0.632872214 -0.476118921 0.6335695748 -0.4757020927 0.0585309381 -0.0048835226
325298050.0 0.0575378556 -0.0059346891 0.6269963921 -0.4830873101 0.6278255439 -0.4829560288 0.0577012848 -0.0058468926
330298020.0 0.0573477569 -0.0071900785 0.6220811817 -0.490688256 0.6216370698 -0.490493338 0.0570311559 -0.0074535808
335297990.0 0.0571641988 -0.0082850038 0.6157341694 -0.4978309184 0.6160560674 -0.4977583506 0.0566008095 -0.0072651449
340297960.0 0.0560765717 -0.0086502249 0.610365951 -0.5045113434 0.609853074 -0.5045958638 0.0567973007 -0.0085791
345297930.0 0.0556477306 -0.0088569296 0.6045475498 -0.5112645538 0.6044489693 -0.5119156741 0.0561864589 -0.0097566093
350297900.0 0.0551918607 -0.0105048286 0.5979522661 -0.5186748708 0.5984419379 -0.5183822508 0.0554710442 -0.0097591086
355297870.0 0.0549750377 -0.0102093886 0.592884995 -0.5248287245 0.5931990056 -0.5249826947 0.055016013 -0.0103421022
360297840.0 0.0545938877 -0.0110894913 0.5871348034 -0.5315977302 0.5877064108 -0.531216646 0.0548803016 -0.0111645552
365297810.0 0.0541993431 -0.0117547772 0.5812770213 -0.5381293587 0.5816942082 -0.5382210065 0.0547165933 -0.0116093807
370297780.0 0.054429582 -0.0129941407 0.5746623894 -0.5443290517 0.5754851836 -0.5442330651 0.0540840096 -0.0123009298
375297750.0 0.0538060456 -0.0136636191 0.5694173513 -0.5511486437 0.5699978125 -0.5511232312 0.0541311973 -0.0127431772
380297720.0 0.0536354383 -0.0142465076 0.5630867429 -0.5573838919 0.5633634327 -0.55674327 0.0534163462 -0.0139453974
385297690.0 0.0532094068 -0.0148439278 0.5568324197 -0.5637484659 0.5566000809 -0.5634479948 0.0533476161 -0.0146828536
390297660.0 0.0528852793 -0.0153069475 0.5506909186 -0.5701831983 0.5506393579 -0.5691407105 0.0525593301 -0.0155234375
395297630.0 0.0523994887 -0.0160006935 0.5447819377 -0.5761180921 0.5445855418 -0.5762316637 0.0534085742 -0.01612366
400297600.0 0.0520266855 -0.0166650233 0.537577573 -0.5827097085 0.5380466517 -0.5816873421 0.0525952832 -0.0163629386
405297570.0 0.0513018378 -0.0173147977 0.5313458239 -0.5876323781 0.5316827728 -0.5875846324 0.051878712 -0.0168768897
410297540.0 0.0514266951 -0.0181122614 0.5253594327 -0.5937791296 0.5256684437 -0.5937624688 0.0517963363 -0.0173950273
415297510.0 0.0513601601 -0.0185311542 0.5185859929 -0.600246773 0.5187559424 -0.5996118439 0.051503002 -0.0179925708
420297480.0 0.0509401882 -0.019088771 0.5113774981 -0.6050570017 0.5116478449 -0.6062671121 0.050916654 -0.0192326612
425297450.0 0.0502908675 -0.0206016427 0.5053568284 -0.6111146516 0.505150731 -0.6112985655 0.0499052331 -0.0188333227
430297420.0 0.0497929324 -0.0210205499 0.4983590951 -0.6163335758 0.4987078134 -0.6163248837 0.0499776352 -0.0198456449
435297390.0 0.0495081023 -0.0214207197 0.4915335618 -0.622468404 0.4917654319 -0.622188686 0.0505220598 -0.0205607454
440297360.0 0.0492757405 -0.0215732025 0.4845271063 -0.6269613483 0.484986164 -0.6277283296 0.0491909656 -0.0211888804
445297330.0 0.0485714673 -0.0227643483 0.4782209279 -0.6331055606 0.4784421085 -0.6326640222 0.049640627 -0.0221515715
450297300.0 0.0486012989 -0.0231149716 0.4710319638 -0.638556202 0.4710185742 -0.6390117136 0.0485453946 -0.022736149
455297270.0 0.0483910165 -0.0236699125 0.463842578 -0.6437427233 0.4642276996 -0.6438207526 0.0483477018 -0.0229127387
460297240.0 0.0476886027 -0.0241327954 0.4566299008 -0.6482641491 0.4566462229 -0.6486464808 0.0478642 -0.0230578827
465297210.0 0.0475990253 -0.0249408243 0.450118213 -0.6537377917 0.4498473685 -0.653885848 0.0477165668 -0.024392377
470297180.0 0.0469395394 -0.0253675981 0.4419055804 -0.6584880451 0.4420285413 -0.6588135706 0.0472001999 -0.0244125743
475297150.0 0.0467976417 -0.0260323108 0.4346981763 -0.6628190248 0.43548517 -0.6632459112 0.0474756629 -0.0254898226
480297120.0 0.0460006625 -0.0260947168 0.4273580179 -0.6682188006 0.4280801517 -0.6684371003 0.0472796247 -0.0254550797
485297090.0 0.0455865467 -0.0266444715 0.4207169493 -0.6721624728 0.4208096047 -0.6727522183 0.0462566383 -0.0263905321
490297060.0 0.0447735793 -0.0274616598 0.4132320836 -0.6782347902 0.4136481713 -0.6768623373 0.0460032908 -0.0262395096
495297030.0 0.0447635293 -0.027714883 0.4054292022 -0.6822354682 0.40651301 -0.6823664513 0.045072715 -0.0271255082
500297000.0 0.0442343293 -0.0285476655 0.3980285565 -0.6861160689 0.3977379625 -0.6859570944 0.0449273452 -0.0270394865
505296970.0 0.0441712616 -0.0289635637 0.3908418039 -0.6908558774 0.3905459028 -0.6906761579 0.0443473151 -0.0279033412
510296940.0 0.0434777214 -0.029214611 0.3827058402 -0.6950619073 0.3834680885 -0.6949512844 0.0443901303 -0.0280086989
515296910.0 0.0426547468 -0.02935999 0.3754274484 -0.6994499999 0.3752520529 -0.6988758396 0.0439531847 -0.0286235929
520296880.0 0.0422623407 -0.0301973218 0.367585362 -0.7038250661 0.3674862166 -0.7029314004 0.0429739875 -0.0293200868
525296850.0 0.0421448865 -0.031057853 0.3596864258 -0.7072013922 0.3605012049 -0.7072367826 0.0423984799 -0.0298774471
530296820.0 0.0415179151 -0.0310611203 0.3520648997 -0.7115442487 0.3517215099 -0.711357187 0.0422445672 -0.0301212389
535296790.0 0.040618452 -0.0316315858 0.3445094678 -0.7150252453 0.3448532746 -0.7145849055 0.0418642348 -0.0311870051
540296760.0 0.0403974258 -0.0317486403 0.3363896333 -0.7191697802 0.3362353865 -0.7190466123 0.0406074726 -0.0308810998
545296730.0 0.0399406082 -0.0324212151 0.3281111448 -0.7223029732 0.3282735769 -0.7226228787 0.0402976463 -0.0317127195
550296700.0 0.0399747302 -0.0326170457 0.3204182595 -0.7261380213 0.3203414738 -0.7261767905 0.0395518792 -0.032029798
555296670.0 0.0387957097 -0.033384073 0.3126040701 -0.7296909114 0.313366672 -0.7290993247 0.0393318877 -0.0324323256
560296640.0 0.0388109197 -0.033183593 0.3047724147 -0.7334615201 0.3049417259 -0.7328808909 0.0389560234 -0.0328666597
565296610.0 0.0375934907 -0.0339129937 0.296525889 -0.7359870808 0.2963277484 -0.7365832386 0.0383847846 -0.0332895669
570296580.0 0.0372675803 -0.0340769341 0.288799166 -0.7403896497 0.2881180022 -0.739719695 0.0377797948 -0.0325264678
575296550.0 0.0364703345 -0.0341432667 0.2804228392 -0.7433871204 0.2808189552 -0.7426300901 0.0376933617 -0.0339649149
580296520.0 0.0362215799 -0.0346338972 0.2718288302 -0.745999408 0.272551304 -0.7456689312 0.0369632878 -0.0340888813
585296490.0 0.0354827974 -0.0357138874 0.2640923271 -0.7483029192 0.2643902152 -0.7488840557 0.0363097915 -0.0344197389
590296460.0 0.0354668757 -0.0354561288 0.2559471419 -0.7508908225 0.2560938768 -0.75172031 0.0353001264 -0.0346949555
595296430.0 0.0350382837 -0.035793624 0.2476684951 -0.7549209621 0.247337356 -0.7542518905 0.0354716878 -0.0356331128
600296400.0 0.0340606968 -0.036191 0.23941244 -0.7571927643 0.2399151293 -0.7566189116 0.0346987771 -0.0355874221
605296370.0 0.0337233029 -0.0364365109 0.2312843657 -0.759081273 0.2314368247 -0.7593808352 0.0341058519 -0.0357882241
610296340.0 0.0334384478 -0.0367684406 0.2225469015 -0.7612003486 0.2227795509 -0.7619439046 0.0340033924 -0.036245248
615296310.0 0.0329139788 -0.0375580518 0.2143264203 -0.7644502713 0.2142718874 -0.7647026535 0.0335181161 -0.0362498533
620296280.0 0.0323384277 -0.0378629145 0.2063462545 -0.7667765824 0.2064766997 -0.7660625475 0.0324882393 -0.0367409177
625296250.0 0.0311546061 -0.038336706 0.1986875766 -0.7690704176 0.1980887899 -0.7692502798 0.0327583133 -0.0368716027
630296220.0 0.0320273019 -0.0381457876 0.1889861303 -0.7709883957 0.1888607212 -0.7704454857 0.0316754774 -0.0368814055
635296190.0 0.0299242771 -0.0391036811 0.1811693565 -0.7728939127 0.1809924242 -0.7729170384 0.0314971186 -0.0370315729
640296160.0 0.0295482551 -0.0386659261 0.1719767309 -0.7746218639 0.1730075102 -0.7746947976 0.0307206944 -0.0376545861
645296130.0 0.029253431 -0.0388907881 0.1643212531 -0.7760398521 0.1642769895 -0.7764166878 0.0300846078 -0.0374866924
650296100.0 0.0287239149 -0.0394042819 0.1552837334 -0.7781866675 0.156029594 -0.7788267867 0.0302589284 -0.0387526054
655296070.0 0.0276510536 -0.0397191854 0.1470946397 -0.7802569973 0.1475275982 -0.7802952558 0.0294526978 -0.0383105941
660296040.0 0.0266153542 -0.0402365127 0.1384652251 -0.7819189465 0.1387499846 -0.7816772464 0.029040908 -0.0385487201
665296010.0 0.0271261086 -0.0401087389 0.1293791525 -0.7825624482 0.130000683 -0.7828388353 0.0283032158 -0.0382215117
670295980.0 0.0250571583 -0.040081243 0.1213507819 -0.7842443001 0.1214948027 -0.7842496521 0.0269995953 -0.038842074
675295950.0 0.0256068893 -0.0400807636 0.1134002116 -0.7854882658 0.1132030352 -0.7850045269 0.0265872134 -0.0386832411
680295920.0 0.0240987939 -0.0410251353 0.1035736535 -0.7865110391 0.1039814392 -0.7871061953 0.0262720358 -0.0384824668
685295890.0 0.0241039181 -0.0402839114 0.0956290202 -0.7875724052 0.0957183061 -0.7874663716 0.0253417649 -0.0390672411
690295860.0 0.0237923774 -0.0405463432 0.086832189 -0.7880565252 0.0875535134 -0.7891476148 0.0248112913 -0.0387065081
695295830.0 0.0232695392 -0.0411405788 0.0791527549 -0.7897676928 0.078408641 -0.7894888381 0.0242942866 -0.0390101554
700295800.0 0.0223559523 -0.0415812011 0.0698753263 -0.7903591289 0.0693547865 -0.7901296416 0.0235875558 -0.0383787163
705295770.0 0.0215921062 -0.0406259293 0.0609775147 -0.7910174578 0.0614354127 -0.7912861588 0.0229699574 -0.0395260677
710295740.0 0.02135833 -0.0414997945 0.0527309654 -0.7924308572 0.0533540618 -0.7921053997 0.0227884792 -0.0403865219
715295710.0 0.0198904307 -0.0417671947 0.0447092246 -0.7924143061 0.0441404714 -0.7927355041 0.022006999 -0.0399073728
720295680.0 0.0198862182 -0.0417955763 0.0356888267 -0.7930426637 0.0361389252 -0.7926135508 0.0214416564 -0.0392942972
725295650.0 0.0193764623 -0.0416916669 0.0266368103 -0.7926917213 0.0269294094 -0.7935232232 0.0202458263 -0.0395750735
730295620.0 0.0189578628 -0.0416741411 0.0181998564 -0.7930811729 0.0184251556 -0.7937449809 0.019669075 -0.0401775054
735295590.0 0.0178298446 -0.0416026339 0.0098076836 -0.7938256256 0.009531141 -0.7935248887 0.0188636393 -0.0403482256
740295560.0 0.0170545793 -0.041574443 0.0008463323 -0.7932730018 0.0010015449 -0.7933903868 0.0189428575 -0.0401848236
745295530.0 0.0166579381 -0.0416080319 -0.0076437604 -0.7927642122 -0.0077336304 -0.7936425185 0.0183978904 -0.0407062719
750295500.0 0.0163214385 -0.0417802666 -0.0162161393 -0.7929133336 -0.0160959594 -0.7935632651 0.0175701796 -0.0404308512
755295470.0 0.0158677937 -0.042181943 -0.0246237158 -0.7925267678 -0.0244695584 -0.7935809519 0.017591964 -0.0411715706
760295440.0 0.0150047181 -0.0419396236 -0.0334667111 -0.7929964355 -0.033474894 -0.7930109843 0.0169211976 -0.0407628555
765295410.0 0.0142855314 -0.0420269079 -0.0425797711 -0.7926185293 -0.0423029122 -0.7924684354 0.0161479258 -0.0405468505
770295380.0 0.0133027554 -0.0421686676 -0.051253 -0.7922943788 -0.0507277259 -0.7911909882 0.0156908842 -0.0408062319
775295350.0 0.0127532592 -0.0428200229 -0.0592806686 -0.7908744924 -0.0588916787 -0.7907425582 0.0141179864 -0.0400633226
780295320.0 0.0124724553 -0.0420993689 -0.0676879563 -0.7905150599 -0.0675089281 -0.7902931265 0.0136867096 -0.0409574368
785295290.0 0.0114538642 -0.0427199518 -0.0769334258 -0.788874596 -0.0761528251 -0.7891137775 0.0141630097 -0.0406442514
790295260.0 0.0118949065 -0.0414825925 -0.0842944196 -0.7884439839 -0.0840939872 -0.7887150247 0.013063909 -0.0409095952
795295230.0 0.0107344271 -0.0423800732 -0.0936469971 -0.7873942193 -0.0928866088 -0.7881220337 0.0131152308 -0.040296029
800295200.0 0.009849494 -0.0417618091 -0.1026215483 -0.7860663901 -0.1023239535 -0.7865561958 0.0120542563 -0.0405834655
805295170.0 0.0093851018 -0.042007936 -0.1108715196 -0.7852221772 -0.1104958936 -0.7854058566 0.0114405083 -0.0402236868
810295140.0 0.0083332137 -0.0423341474 -0.11939026 -0.7835702414 -0.1192117585 -0.784291528 0.0111492977 -0.0401982614
815295110.0 0.0082651438 -0.0425982991 -0.1275270539 -0.7822770223 -0.1273911696 -0.7826685902 0.0100394483 -0.0401308386
820295080.0 0.0071798115 -0.0415840125 -0.1359647827 -0.7805779174 -0.1356657691 -0.7809423248 0.0095625061 -0.0402720112
825295050.0 0.0073817523 -0.041626974 -0.1444021196 -0.7788455534 -0.1442765757 -0.7795485857 0.00961216 -0.0401226382
830295020.0 0.0063329983 -0.0417912749 -0.1532316285 -0.777501794 -0.1527917037 -0.777631457 0.009309663 -0.0398246737
