!Created with skrf (http://scikit-rf.org).
# Hz S RI R 50.0 
!freq ReS11 ImS11 ReS21 ImS21 ReS12 ImS12 ReS22 ImS22
300000.0 -0.7713572198 -0.1431998097 -0.0009974744 0.0009176405 0.0008728744 0.000581803 -0.7737082173 -0.1642629621
5299970.0 -0.7852691079 -0.0071535857 -4.21652e-05 9.555e-05 -0.0001463357 2.99089e-05 -0.7845728854 -0.0086397087
10299940.0 -0.7874823706 -0.0044726623 -6.96763e-05 -4.38658e-05 0.0003238472 -0.0002772519 -0.7887383313 -0.0051720642
15299910.0 -0.7930349524 -0.0016942528 0.0001747325 -3.2557e-05 0.0001151323 -0.0001807528 -0.7937811822 -0.0030180877
20299880.0 -0.7991217496 0.0026033637 -6.88373e-05 -0.0002000694 2.21136e-05 0.000184543 -0.800439574 0.0012849539
25299850.0 -0.8061700262 0.0083965213 -0.0002072231 -5.07542e-05 0.0002275377 -2.88749e-05 -0.8067621082 0.0073891131
30299820.0 -0.8117381356 0.0164264428 -8.20437e-05 4.02541e-05 -7.06362e-05 -7.31172e-05 -0.8129030899 0.0146530284
35299790.0 -0.8168260796 0.0249694506 -7.59815e-05 2.84571e-05 -1.7631e-06 6.06244e-05 -0.8182546655 0.0239435478
40299760.0 -0.8212979782 0.0340963288 -9.2797e-06 -3.60995e-05 -8.4363e-06 -0.0001526921 -0.8223588982 0.0333408551
45299730.0 -0.8243757258 0.044031984 8.24046e-05 -9.50229e-05 -0.0001376664 0.000162663 -0.8253569426 0.0423605468
50299700.0 -0.8266287409 0.0537838648 4.28667e-05 0.0002780172 0.0001360813 -9.3439e-05 -0.8277367595 0.0522722695
55299670.0 -0.828208419 0.0641487471 0.0002401852 1.05585e-05 0.000180335 3.30294e-05 -0.8297049494 0.06288202
60299640.0 -0.8299505144 0.0742593156 0.0001777372 2.38664e-05 -9.01301e-05 9.99218e-05 -0.8309281967 0.0729337054
65299610.0 -0.831340662 0.084970982 6.66943e-05 0.0001070595 0.0002576622 8.45234e-05 -0.8310996673 0.0822107282
70299580.0 -0.8314294225 0.0949657453 -0.0001589968 0.0001363761 4.21228e-05 0.0001479321 -0.8322604122 0.0920982918
75299550.0 -0.8311932262 0.1048889734 9.53038e-05 -0.0001214462 3.56841e-05 7.19143e-05 -0.8324847774 0.1024318744
80299520.0 -0.8311750165 0.1148256839 0.0001381605 0.0001307758 0.0001383553 0.0001183312 -0.8318668551 0.1118813683
85299490.0 -0.8306269163 0.1240433973 -0.0001946898 -0.000187572 5.14143e-05 -3.83255e-05 -0.8320233078 0.1216381179
90299460.0 -0.8296192827 0.1340199374 -0.0001130442 -1.39247e-05 -8.80478e-05 0.0001039064 -0.8309552464 0.1310921129
95299430.0 -0.8291786679 0.1430965744 0.0001475368 -3.8144e-05 0.0002863006 -2.43338e-05 -0.8300086826 0.1412991856
100299400.0 -0.8278716497 0.1527726284 3.54243e-05 4.16784e-05 -0.0003259012 6.12873e-05 -0.8290265235 0.1492344764
105299370.0 -0.8262967477 0.1618304286 3.48789e-05 0.0001746245 1.92812e-05 -6.19075e-05 -0.8273347002 0.1591228618
110299340.0 -0.8251854355 0.1712358561 0.0002326726 7.40729e-05 -4.27174e-05 0.0001335369 -0.8267554729 0.1685390044
115299310.0 -0.8235080427 0.1803783025 -0.000165086 -3.27449e-05 -0.0001074414 0.0001612545 -0.8250379319 0.1771796212
120299280.0 -0.8219162087 0.1894766957 7.2508e-06 -8.9555e-06 -0.0001151273 -5.47585e-05 -0.8235040305 0.1859411854
125299250.0 -0.8205879866 0.1984917333 -2.36471e-05 -0.0001908037 1.86311e-05 -0.0001211175 -0.8217827067 0.1956928894
130299220.0 -0.8185066087 0.2075300901 3.50179e-05 0.0001152113 -1.6042e-06 5.10375e-05 -0.8200792974 0.2043466667
135299190.0 -0.8168271338 0.2166640187 -6.21589e-05 -7.60413e-05 0.0001093808 0.0001297253 -0.8179290277 0.2126232398
140299160.0 -0.8151392502 0.2255377585 0.0001213187 7.32666e-05 -0.0001610831 -4.29464e-05 -0.8159874366 0.2214751076
145299130.0 -0.8118701299 0.2344407996 5.67357e-05 6.91019e-05 -9.81596e-05 8.74412e-05 -0.8137025855 0.2298025923
150299100.0 -0.8097591242 0.2432300107 -0.0003533413 0.0003095117 7.96675e-05 6.83363e-05 -0.8120255176 0.2379751108
155299070.0 -0.8074307751 0.2525365918 -9.38942e-05 5.94516e-05 1.15031e-05 2.66858e-05 -0.8101511646 0.2473998316
160299040.0 -0.8047570385 0.2610636885 -0.0001832384 -5.72419e-05 1.2156e-06 -6.20159e-05 -0.8075513747 0.2567640286
165299010.0 -0.8021757119 0.2691625439 3.81734e-05 -3.12465e-05 -0.0001253515 -0.0001020165 -0.8042081864 0.2644373768
170298980.0 -0.7992816585 0.2781965171 4.29935e-05 -3.03132e-05 -0.0001878707 4.2135e-06 -0.8019687552 0.2736315333
175298950.0 -0.7970486763 0.2867697296 1.69581e-05 -0.0001868217 -7.83961e-05 0.0001237978 -0.7991731572 0.2816976228
180298920.0 -0.7933157197 0.2946551351 -7.4708e-06 5.60361e-05 -5.05971e-05 -3.64578e-05 -0.7960244166 0.2901939165
185298890.0 -0.7905557215 0.3040425852 0.000109866 7.77157e-05 -0.0001269796 0.0001543771 -0.7935578566 0.2981616145
190298860.0 -0.7872813653 0.3124982864 -5.42917e-05 -0.0001005 3.19245e-05 -7.96834e-05 -0.7899742204 0.3072064677
195298830.0 -0.7841093162 0.3206299656 -0.0001215428 0.0001119615 5.27409e-05 -0.0001089057 -0.7871698183 0.3154595691
200298800.0 -0.780947767 0.3291437409 9.9685e-06 0.0001311014 -4.06532e-05 8.41151e-05 -0.7834079398 0.3238431954
205298770.0 -0.7775055448 0.3374256176 6.69951e-05 0.0001133882 -1.28422e-05 -4.69494e-05 -0.7800281231 0.3319331167
210298740.0 -0.7733823233 0.3458244402 -5.73818e-05 -6.8271e-05 -0.0001212003 4.95591e-05 -0.777114578 0.3405506691
215298710.0 -0.7707368492 0.354574898 0.0001856982 0.0001990854 -0.0001493223 -3.0283e-06 -0.7735878072 0.3480323651
220298680.0 -0.7668894277 0.3620242889 7.10738e-05 0.0001700953 -0.000223833 6.16011e-05 -0.7697500495 0.3569509921
225298650.0 -0.7627061068 0.3707332125 -0.0001117103 -8.28784e-05 -3.6625e-06 0.0001276299 -0.7659490177 0.3646119002
230298620.0 -0.7587629208 0.3787133897 0.0002234014 1.30342e-05 0.0002264117 0.0001326822 -0.7614312756 0.3727055059
235298590.0 -0.7548141503 0.3869198733 -0.0002468874 3.21348e-05 -2.55014e-05 3.85667e-05 -0.7582416756 0.3803107266
240298560.0 -0.7508468289 0.395104731 1.06506e-05 8.4544e-06 -5.02789e-05 -6.19322e-05 -0.7540599779 0.388269151
245298530.0 -0.7465604941 0.402733668 -0.000120743 5.02643e-05 -8.9859e-06 0.0001374148 -0.7501153915 0.3965232674
250298500.0 -0.7424643945 0.4105893469 8.89748e-05 0.0003293341 0.0002781301 -7.05728e-05 -0.7460616656 0.4049091908
255298470.0 -0.7377864289 0.4190718228 -0.0002488971 0.0002947362 3.50724e-05 0.0001996586 -0.7415823918 0.412229687
260298440.0 -0.7335806768 0.4263308813 -4.31605e-05 -3.648e-05 0.0001165706 -0.0001378625 -0.7366527781 0.4197037402
265298410.0 -0.7293201865 0.4340735636 0.0002594569 0.0001289247 -6.56325e-05 -9.08915e-05 -0.7324021545 0.4277192968
270298380.0 -0.7244902022 0.4420561312 -3.69124e-05 7.89895e-05 0.0002501459 0.0002082089 -0.7276158408 0.4352093366
275298350.0 -0.7192176181 0.4487053987 -6.5366e-06 -0.0001184639 6.7315e-06 1.47574e-05 -0.7231763053 0.443263415
280298320.0 -0.7151596397 0.4565722788 3.4634e-06 -0.0003080206 -2.69689e-05 -8.26098e-05 -0.7189764269 0.450307987
285298290.0 -0.709752067 0.464453897 1.77e-08 0.0001180053 0.0002115255 -6.19717e-05 -0.7132236622 0.4579437771
290298260.0 -0.7054268936 0.4716509596 -8.02414e-05 9.3e-09 -0.0001392787 5.12453e-05 -0.708810647 0.4656822415
295298230.0 -0.7004671982 0.4793943233 -0.0001417081 -3.5378e-05 -0.0001379094 -2.52769e-05 -0.7041285133 0.4724754685
300298200.0 -0.6948444851 0.4860938594 -6.1778e-06 -0.000136439 -4.05609e-05 -7.3357e-06 -0.6989292644 0.4798835615
305298170.0 -0.6897064039 0.4942063031 0.000204068 0.0001569821 -6.1368e-06 -0.0002373173 -0.6934766235 0.4877932296
310298140.0 -0.6845259685 0.5009029763 5.02085e-05 0.000111998 -0.0001138171 -4.44851e-05 -0.6884638363 0.4948599493
315298110.0 -0.6795763495 0.5075626354 0.0001607032 -0.0001610466 0.0002066404 7.86425e-05 -0.68312928 0.5020271505
320298080.0 -0.674110148 0.5157119808 1.93546e-05 -0.0001353843 -7.85906e-05 -4.57001e-05 -0.6777322112 0.5093948619
325298050.0 -0.6682442789 0.5217686094 -2.7502e-05 -4.27962e-05 -2.88996e-05 2.7743e-05 -0.6725244189 0.51609535
330298020.0 -0.6628286817 0.5292779776 3.37707e-05 -4.75988e-05 -7.14557e-05 -4.84843e-05 -0.6671228432 0.5226609819
335297990.0 -0.6569613296 0.5360353975 0.0001077139 -0.0001075423 -0.0001180981 8.20704e-05 -0.6616696239 0.5300368031
340297960.0 -0.6522094864 0.5424553459 -4.22815e-05 4.13835e-05 4.57627e-05 7.2949e-05 -0.6559062049 0.5369580723
345297930.0 -0.6462629372 0.548963166 7.81509e-05 -0.0001094821 -0.0001254637 7.89858e-05 -0.6502194786 0.5441924136
350297900.0 -0.6405579231 0.5562180871 -0.0001624498 -0.0001839653 9.01336e-05 -0.0001412577 -0.6440528017 0.5508317262
355297870.0 -0.634404365 0.5624941436 2.1249e-05 0.0001381071 -1.43095e-05 7.56806e-05 -0.6385788466 0.557342019
360297840.0 -0.6287912982 0.5690148417 7.73829e-05 -0.000114717 1.72478e-05 4.05891e-05 -0.6323488454 0.5634449086
365297810.0 -0.6230020903 0.5754285727 0.0001422056 0.0001477178 -1.86316e-05 0.0001544129 -0.6263908532 0.5705527509
370297780.0 -0.6161134856 0.5810983622 -0.0002199427 -6.878e-05 4.90689e-05 5.75807e-05 -0.62055635 0.576442201
375297750.0 -0.6108683921 0.5879064252 -0.0001596578 5.00682e-05 8.09307e-05 -0.0001059512 -0.6140224793 0.5831037914
380297720.0 -0.6043032472 0.5947422157 5.6384e-05 1.31143e-05 -1.89718e-05 -3.9886e-05 -0.6082135228 0.5900451662
385297690.0 -0.5978157762 0.6000612656 -1.68469e-05 -0.0003726551 -5.28181e-05 -5.81004e-05 -0.6025184702 0.5957430512
390297660.0 -0.590952241 0.6065931021 -6.96071e-05 0.0002377054 0.0001234242 -1.20035e-05 -0.5957344034 0.6020982248
395297630.0 -0.585255875 0.6131762214 -7.15744e-05 -0.0002460728 -8.92886e-05 -0.000107974 -0.5893901255 0.6084985456
400297600.0 -0.5786021868 0.6192274963 0.0001321234 -0.0001919253 0.0002156977 0.0002295761 -0.5829335168 0.613592984
405297570.0 -0.5728744002 0.6247971906 -3.79248e-05 -4.19841e-05 -1.46551e-05 5.7445e-05 -0.5774336948 0.6198944437
410297540.0 -0.5659214758 0.6309530412 0.0001213521 6.48944e-05 -0.0001613862 0.0001194849 -0.5699519085 0.6257030256
415297510.0 -0.5594763468 0.6367140842 -1.33243e-05 -4.77763e-05 3.93672e-05 2.67627e-05 -0.5637813059 0.6320576583
420297480.0 -0.5525972397 0.6420518286 -4.88393e-05 -8.39549e-05 -4.3009e-06 -0.0001199946 -0.5569604243 0.6370569039
425297450.0 -0.545712411 0.6478294389 3.5272e-06 -2.7313e-05 -6.57473e-05 -3.17603e-05 -0.5502530239 0.6430031788
430297420.0 -0.5391720122 0.6530192765 -0.0001510131 -7.9498e-06 -0.0001009883 7.98269e-05 -0.5442799495 0.6484266288
435297390.0 -0.5323750395 0.6591187244 -4.83593e-05 -0.0001869166 -2.26462e-05 0.0001850214 -0.536886038 0.6535503013
440297360.0 -0.5255074873 0.6642978995 4.23349e-05 -4.80346e-05 -0.0001683602 4.64993e-05 -0.5303301857 0.658763616
445297330.0 -0.5182921373 0.670260067 -0.000149881 0.0002512964 -3.03243e-05 -5.72959e-05 -0.5235580522 0.6637157356
450297300.0 -0.5112468524 0.6745802052 1.17782e-05 -0.000194258 0.0001980864 -2.31285e-05 -0.5170117798 0.6696498757
455297270.0 -0.504733655 0.6801914921 7.1377e-05 -1.16917e-05 5.14555e-05 -0.0001744195 -0.5097489372 0.6744772563
460297240.0 -0.497747621 0.685510844 -0.000100149 -7.2062e-06 -4.31604e-05 0.0001514255 -0.5026465433 0.6803722439
465297210.0 -0.4898155247 0.6904146635 4.161e-07 -0.0001956732 -6.25585e-05 -0.0001620517 -0.4964168964 0.6842386142
470297180.0 -0.4832888404 0.6947214941 1.66362e-05 -0.0001265681 -9.80669e-05 -7.18407e-05 -0.4896382628 0.6897158833
475297150.0 -0.4762784469 0.7003084272 1.69151e-05 7.52974e-05 -9.5266e-06 -0.0002281587 -0.4823893123 0.6942380218
480297120.0 -0.4691657167 0.7044690123 -9.78807e-05 -6.16166e-05 -0.0001638017 0.000194741 -0.4755204738 0.6997585702
485297090.0 -0.4610578063 0.7094790072 6.48575e-05 -5.02813e-05 -0.0001209058 -6.13897e-05 -0.4682967162 0.7037083293
490297060.0 -0.4540440872 0.7140571168 -9.93426e-05 -0.0002658968 2.76573e-05 4.1475e-05 -0.4616724238 0.7082275045
495297030.0 -0.446861937 0.7192437885 5.15614e-05 -6.00067e-05 -3.87157e-05 0.0002543906 -0.4536909225 0.712838314
500297000.0 -0.4385257659 0.7236803377 -0.0001139096 -0.0001643696 -1.82038e-05 -9.71775e-05 -0.4472436621 0.7178345918
505296970.0 -0.4313509671 0.727425318 5.39168e-05 -7.87631e-05 -8.77455e-05 6.53642e-05 -0.4400621135 0.7218835493
510296940.0 -0.4242818745 0.7318285221 -3.65889e-05 0.0002556575 -3.87658e-05 -8.81988e-05 -0.4324466206 0.7263399674
515296910.0 -0.4174812399 0.7361347962 0.0001711969 -5.63465e-05 5.14817e-05 0.0001119835 -0.42484364 0.7309211696
520296880.0 -0.4094074889 0.7401735839 -0.0001393052 -0.0001097125 -2.57845e-05 -3.8369e-06 -0.4173684659 0.7347623465
525296850.0 -0.402131237 0.7446279028 5.83157e-05 0.0002429898 5.91078e-05 -8.36915e-05 -0.4103016441 0.7392227004
530296820.0 -0.3939503795 0.7482058136 9.7794e-06 6.83417e-05 -4.65829e-05 0.0001338295 -0.4035845032 0.7429342632
535296790.0 -0.3863355417 0.7514160229 2.05317e-05 3.01883e-05 -2.20655e-05 -0.0001392819 -0.3960911006 0.7464491954
540296760.0 -0.378396235 0.7557306845 -0.0002635529 -3.16619e-05 4.7613e-05 -8.29548e-05 -0.3887871255 0.7508873515
545296730.0 -0.3709211603 0.759735507 -5.14208e-05 -4.42324e-05 -3.27196e-05 -3.10283e-05 -0.3811477736 0.7541921594
550296700.0 -0.3631172708 0.7638361266 9.39596e-05 0.0001024037 -0.0001272071 -0.0001647584 -0.3730208764 0.7577582029
555296670.0 -0.3548037397 0.7670259854 9.62635e-05 -0.0001883619 -1.30408e-05 0.0001312317 -0.3661491461 0.7616844467
560296640.0 -0.3469935439 0.7705578317 0.0001137888 2.76275e-05 0.0002032771 -0.0001310507 -0.3577199651 0.7656390367
565296610.0 -0.3406294139 0.7741410121 3.86415e-05 0.0002472244 0.0002742544 -0.0001596743 -0.3506621754 0.768665729
570296580.0 -0.3320312334 0.7770048014 -7.50284e-05 -6.65005e-05 -3.66545e-05 4.77603e-05 -0.3433767315 0.7726657676
575296550.0 -0.3241454166 0.7805919032 0.0001234775 -0.0001041977 9.84083e-05 3.2766e-05 -0.3355930333 0.7755296694
580296520.0 -0.3161270001 0.7837552111 0.0001531772 0.000161207 -0.0001029596 -7.72655e-05 -0.3272760428 0.7787111666
585296490.0 -0.3076569345 0.7864341812 -0.0001253618 4.17121e-05 -0.0001482521 -3.78697e-05 -0.3195268365 0.7818923795
590296460.0 -0.2997196859 0.7896413694 0.0002984153 -4.2149e-06 0.000161874 6.35461e-05 -0.3119397819 0.7849250187
595296430.0 -0.2917012806 0.7931549142 4.19381e-05 -9.16582e-05 3.32107e-05 8.12511e-05 -0.3043305167 0.7872660433
600296400.0 -0.2837300441 0.795499552 -4.1559e-06 -0.0001143654 -0.0001043438 0.0002029062 -0.2963999706 0.7914528498
605296370.0 -0.2758137008 0.7985070842 -1.84783e-05 0.0001407978 -0.0001094027 -3.29322e-05 -0.2887932771 0.7944439986
610296340.0 -0.2673670518 0.80110186 5.71711e-05 8.85742e-05 6.79666e-05 6.63833e-05 -0.2805654361 0.7975285349
615296310.0 -0.2590200837 0.8042170961 -1.71672e-05 -0.0001290196 4.09786e-05 -8.26983e-05 -0.2727075957 0.7994210394
620296280.0 -0.2505635473 0.8060376479 5.86965e-05 9.17865e-05 0.0001537551 -0.0001003492 -0.265143473 0.8014910976
625296250.0 -0.2423389627 0.8091332449 7.97189e-05 -8.1113e-05 -0.0002103882 5.58035e-05 -0.2572289204 0.8045803393
630296220.0 -0.2343874766 0.8120860757 -6.02255e-05 -1.10271e-05 9.88822e-05 -0.0001229061 -0.2489178636 0.8072392822
635296190.0 -0.2263994207 0.813647381 6.60696e-05 0.000194918 -0.0001549158 3.54356e-05 -0.2409855473 0.8088865773
640296160.0 -0.2178248955 0.8151786175 -0.0001481626 -8.06376e-05 -3.84542e-05 4.64977e-05 -0.2327047798 0.8116003313
645296130.0 -0.2101553872 0.8178243502 -0.0001265088 -5.14939e-05 -0.0001331379 0.0001717198 -0.2254391479 0.8134816355
650296100.0 -0.2021112761 0.8204891101 0.0001333558 -0.0003496153 -0.000175049 -5.26794e-05 -0.216911796 0.8164496912
655296070.0 -0.1932829664 0.8218722597 2.38393e-05 4.76059e-05 4.80614e-05 -9.60352e-05 -0.2087682679 0.8182274402
660296040.0 -0.1848456025 0.8241444177 4.92876e-05 0.0002306963 0.0001933583 3.00821e-05 -0.2004574687 0.8203556522
665296010.0 -0.1766482857 0.8257833617 -3.17379e-05 -0.0001016717 0.000115028 -9.6212e-06 -0.1928340408 0.8222332616
670295980.0 -0.1680004599 0.8271987643 7.46666e-05 -5.19467e-05 -5.29423e-05 -0.0002515535 -0.1850944144 0.8238966642
675295950.0 -0.1601674922 0.8285344298 -0.0001072699 -4.1532e-06 8.79223e-05 0.0001339586 -0.1763462948 0.8258457141
680295920.0 -0.1516627354 0.8311021544 0.0001289519 0.0001160329 5.07026e-05 -9.18673e-05 -0.1681706869 0.827535513
685295890.0 -0.1426297661 0.8314957169 -0.0001210031 -4.72434e-05 3.45835e-05 7.36423e-05 -0.1600130044 0.8288651279
690295860.0 -0.134110646 0.8337574872 0.0001669234 -4.55154e-05 -4.26926e-05 9.80439e-05 -0.1521192693 0.8307815267
695295830.0 -0.1259401924 0.8343678669 -0.0002177221 0.0002521455 -1.35831e-05 -2.91397e-05 -0.1438081168 0.8319772931
700295800.0 -0.1177467426 0.8356599095 2.79716e-05 0.0001402567 4.47025e-05 3.2308e-05 -0.1353419036 0.8331575072
705295770.0 -0.1090603623 0.8369862191 -0.0001708702 -0.000197056 -4.57798e-05 5.71494e-05 -0.1277775193 0.8347570638
710295740.0 -0.1012671957 0.8381075471 -4.06008e-05 -3.80873e-05 0.0001894592 -4.53472e-05 -0.120030123 0.8364375407
715295710.0 -0.093047564 0.8391530586 2.83944e-05 0.0001167355 4.22999e-05 -0.0002116681 -0.1112451881 0.8371448496
720295680.0 -0.0845066266 0.8393887701 -9.97353e-05 -9.96133e-05 -0.0001035622 -6.86476e-05 -0.1022652026 0.838468114
725295650.0 -0.0747921642 0.8410721037 -8.20158e-05 5.76543e-05 8.74714e-05 0.0001290275 -0.0944752046 0.8392989407
730295620.0 -0.0673400462 0.8410171137 0.000119475 3.007e-05 1.63158e-05 -9.05349e-05 -0.0858047416 0.8401327501
735295590.0 -0.0584935058 0.8416022926 -8.79668e-05 0.000159521 -7.59976e-05 -2.35186e-05 -0.0772606235 0.8407516396
740295560.0 -0.0506777019 0.8425374449 -0.0002737619 8.50676e-05 -0.0001077181 -0.000125118 -0.0694085707 0.8412845149
745295530.0 -0.0415414313 0.8429408444 0.0002201202 1.09928e-05 -8.9148e-06 3.71568e-05 -0.0615515579 0.842453446
750295500.0 -0.0337326408 0.8428328697 0.0002047658 2.412e-07 6.95933e-05 6.06321e-05 -0.0526198094 0.8421603674
755295470.0 -0.024653906 0.8429792072 -0.0001261592 -2.35216e-05 5.68505e-05 1.04721e-05 -0.0447846782 0.8435940898
760295440.0 -0.0164115027 0.8437512387 3.69483e-05 -3.98243e-05 5.38969e-05 9.00492e-05 -0.0365697521 0.8438526026
765295410.0 -0.0080230679 0.8433322166 1.86714e-05 0.0001720128 -4.75277e-05 -7.99734e-05 -0.0276175851 0.8447112841
770295380.0 0.0002620114 0.8440546121 8.01108e-05 -4.06915e-05 8.86465e-05 -5.05014e-05 -0.0191977731 0.8442474906
775295350.0 0.0086823655 0.844085494 0.0001049674 4.6874e-06 -0.0001037287 -8.9312e-06 -0.0117171354 0.8444907471
780295320.0 0.0177623353 0.8429978411 4.30422e-05 0.0001401589 5.4773e-05 2.7309e-05 -0.0033344232 0.8449240854
785295290.0 0.0258976373 0.8437972199 6.11678e-05 -3.13538e-05 -2.81674e-05 -0.0001315384 0.0049716047 0.8445265631
790295260.0 0.0342612399 0.8430687916 -0.0001088566 -4.21167e-05 -1.41987e-05 -6.08364e-05 0.0141791926 0.8447543655
795295230.0 0.0427047252 0.8434784353 -0.0001542743 0.0001444978 -9.4589e-06 0.0001160704 0.0222689018 0.8443893421
800295200.0 0.0511983132 0.842468144 -0.0001064666 0.0002728702 -0.0002574007 -0.0002021863 0.0297640244 0.8440040551
805295170.0 0.0596536445 0.8421096328 0.0001115287 0.0001063855 -1.51673e-05 0.000285331 0.0379911735 0.8434513707
810295140.0 0.0681749824 0.8411636467 -7.25594e-05 5.608e-07 -4.4531e-06 5.27826e-05 0.046662194 0.8444837257
815295110.0 0.0768855183 0.8401005223 -0.000217478 8.97845e-05 6.04807e-05 -7.3514e-06 0.0550942562 0.8429421409
820295080.0 0.0846655893 0.8390842662 -3.87057e-05 6.97542e-05 0.0001979606 4.57874e-05 0.0630568627 0.8424139342
825295050.0 0.093850461 0.8388362918 0.0001980844 -2.64646e-05 -8.78476e-05 -8.07356e-05 0.0715142325 0.8417371567
830295020.0 0.1018450807 0.837949877 -8.84599e-05 -0.0001048359 -0.0002312732 1.52208e-05 0.0793787403 0.8407833114
835294990.0 0.109990496 0.8370971852 5.95479e-05 0.0001516703 0.0001129419 -4.81726e-05 0.0882577398 0.8400704057
840294960.0 0.1184634097 0.8353243028 5.12576e-05 -4.10428e-05 -0.0001957434 2.47117e-05 0.0954495378 0.8391514092
845294930.0 0.1263366283 0.8345630832 0.0001812815 -2.56073e-05 0.0002126801 -5.35643e-05 0.1037314115 0.838273351
