!Created with skrf (http://scikit-rf.org).
# Hz S RI R 50.0 
!freq ReS11 ImS11 ReS21 ImS21 ReS12 ImS12 ReS22 ImS22
300000.0 -0.3245048064 -0.0788014698 0.3767438864 0.0418214717 0.374809932 0.0380006647 -0.3203865877 -0.0914441564
5299970.0 -0.3266783892 0.004307283 0.3784539902 0.0025827159 0.3784698333 0.0025536519 -0.3244862644 0.0052296873
10299940.0 -0.3244319771 0.0136288699 0.3794124659 0.0020034991 0.3798016822 0.0022359355 -0.3221464716 0.0158278512
15299910.0 -0.3216063606 0.0203497884 0.3817922275 0.0023088259 0.3818452405 0.0022239123 -0.3186604464 0.0238167875
20299880.0 -0.3187107284 0.0260515172 0.3846710803 0.0019187021 0.3847494958 0.0017588115 -0.3154138507 0.0300857018
25299850.0 -0.3157088141 0.0313307278 0.388240127 0.0003853878 0.3884563562 0.0002412534 -0.3112220491 0.0360754771
30299820.0 -0.3129898955 0.0358001744 0.3915926837 -0.0021540803 0.3914393395 -0.0020325465 -0.3072242023 0.0406041519
35299790.0 -0.3101237853 0.0398563521 0.3947790056 -0.0055944065 0.3949229663 -0.0054430505 -0.3040006832 0.0448375732
40299760.0 -0.3072897807 0.043600839 0.3980287278 -0.0090965953 0.3980436875 -0.008758141 -0.3003819159 0.0484613028
45299730.0 -0.3048253376 0.0464266339 0.4007454659 -0.0127680876 0.4012262436 -0.0126208345 -0.2974148133 0.0515834165
50299700.0 -0.3023647225 0.0493227281 0.4034913073 -0.0171119246 0.4034318131 -0.0170365296 -0.2938966851 0.0544100156
55299670.0 -0.3003816947 0.0519812867 0.4061588369 -0.0222048739 0.4055757351 -0.0221013638 -0.2919125775 0.0571399714
60299640.0 -0.2978489212 0.0549255563 0.4076259171 -0.0270924723 0.4077387552 -0.0265275759 -0.2889892925 0.0588210363
65299610.0 -0.2961741405 0.0572042229 0.4090465388 -0.0317630457 0.4091516893 -0.0317404094 -0.2871951869 0.0612526948
70299580.0 -0.29472162 0.0600980876 0.4104319404 -0.0371163976 0.4102629438 -0.0367921463 -0.28495598 0.0636548103
75299550.0 -0.2927414409 0.0624081052 0.4112872829 -0.0421027236 0.4112371868 -0.0422431632 -0.2829866294 0.0659031093
80299520.0 -0.2915845697 0.0646062044 0.4124873295 -0.0473427358 0.4124508972 -0.0474471997 -0.281441866 0.0680233578
85299490.0 -0.2902158991 0.0669344604 0.4129535172 -0.0525413695 0.4127825061 -0.0522481727 -0.2798446865 0.0696751505
90299460.0 -0.2889661477 0.0691253029 0.4132394895 -0.0579758099 0.4134216388 -0.0576681604 -0.2780369495 0.072055653
95299430.0 -0.2875139883 0.0715310195 0.4137486973 -0.062806086 0.4136199275 -0.0630264923 -0.2765454671 0.0742884726
100299400.0 -0.2864666055 0.0741568861 0.4132159348 -0.0681216709 0.413553453 -0.0682110916 -0.2753636105 0.0760539778
105299370.0 -0.2850639528 0.0764261956 0.4132666803 -0.0737250653 0.4133114753 -0.0735891743 -0.2736883137 0.0784116526
110299340.0 -0.2840055381 0.078816062 0.4133509231 -0.0785645521 0.4132227977 -0.0783019581 -0.2726719291 0.0805134519
115299310.0 -0.2828124868 0.0809928489 0.4130138316 -0.0838926521 0.4129974116 -0.0834999802 -0.2715204665 0.0826533828
120299280.0 -0.2819372187 0.0830213796 0.4122072964 -0.088857693 0.412778305 -0.0889107508 -0.2707297317 0.0846820677
125299250.0 -0.2808810946 0.0854515522 0.4121563288 -0.0934238686 0.4122109935 -0.0935885159 -0.2697362908 0.0866041816
130299220.0 -0.280372936 0.0883412828 0.4110739795 -0.0994279105 0.4111128446 -0.0990930292 -0.2684892055 0.0887731669
135299190.0 -0.2792281872 0.0907923358 0.4106630922 -0.1041609207 0.4108212126 -0.1037626756 -0.2671848635 0.0910924766
140299160.0 -0.2784379154 0.093022124 0.4096096374 -0.1092127023 0.4099766438 -0.1088148708 -0.2665349832 0.0938261832
145299130.0 -0.277455949 0.0957469153 0.4089622538 -0.1139186821 0.4084417091 -0.1138558178 -0.2655551685 0.0959941334
150299100.0 -0.2762151464 0.0982341298 0.4076272629 -0.1184391951 0.4077023041 -0.1183170728 -0.2646451604 0.0987953851
155299070.0 -0.2757379273 0.1008171594 0.4069768808 -0.1240589293 0.406575881 -0.1238429468 -0.2636202427 0.1010136933
160299040.0 -0.2747052208 0.1034892518 0.4056180271 -0.1285483586 0.4055222574 -0.1288231132 -0.263186204 0.1033242521
165299010.0 -0.2735951763 0.1059454208 0.4040556821 -0.1338605103 0.404551824 -0.1337855286 -0.2616851499 0.10604573
170298980.0 -0.272959679 0.1085410444 0.4028797574 -0.1382648618 0.4032218276 -0.1382112525 -0.2608876576 0.1082648853
175298950.0 -0.2719711221 0.1114439202 0.4019071487 -0.1434237033 0.4014649856 -0.1431005127 -0.2603702203 0.1108514638
180298920.0 -0.2711062724 0.1139953117 0.4000641669 -0.1478949266 0.4000435897 -0.1476959254 -0.2587582409 0.1132444138
185298890.0 -0.2696603648 0.116482216 0.3986313807 -0.1526698608 0.3985004838 -0.152428038 -0.2578178048 0.1158651989
190298860.0 -0.2688419053 0.1193055069 0.3970287297 -0.1574037983 0.3973854385 -0.1573921768 -0.2569617567 0.1182723197
195298830.0 -0.267713159 0.1218102767 0.3951923332 -0.1619269825 0.3953626592 -0.1618114352 -0.2554377338 0.1210590634
200298800.0 -0.2664364709 0.1244555977 0.3936708528 -0.1664501978 0.3937356259 -0.1665588967 -0.2548130075 0.1231896576
205298770.0 -0.2652331417 0.1273024252 0.3916508879 -0.1712280526 0.392129456 -0.1710509537 -0.2534234859 0.125362892
210298740.0 -0.2644851567 0.1298450617 0.3898457627 -0.1754533289 0.3902168129 -0.1753104492 -0.2522577859 0.1281462665
215298710.0 -0.2633603459 0.1327994065 0.3877239085 -0.1802059465 0.3875860029 -0.1800886317 -0.2513831082 0.1306182096
220298680.0 -0.2622106533 0.1352427459 0.3856756555 -0.184495534 0.3858779398 -0.1842766824 -0.2502302829 0.1330578744
225298650.0 -0.2609884002 0.1377568352 0.3839536829 -0.1890302541 0.3841769001 -0.1890805272 -0.2490616672 0.1358895669
230298620.0 -0.2596225157 0.1408136427 0.3819357464 -0.1930793649 0.3825613761 -0.1933516341 -0.248194501 0.1383816665
235298590.0 -0.2587167948 0.1436559169 0.380184312 -0.1975953091 0.3799463642 -0.1977507541 -0.2465039717 0.1409783507
240298560.0 -0.2568869415 0.1464952379 0.377579718 -0.2023931139 0.3778534454 -0.2019588878 -0.2454438647 0.1435786343
245298530.0 -0.2559192995 0.1486885754 0.3758755893 -0.2065143292 0.3754198639 -0.2062498534 -0.2437729284 0.1454573041
250298500.0 -0.254538545 0.1517234845 0.3729762812 -0.210882182 0.3727996137 -0.2106192694 -0.2426686602 0.1484403939
255298470.0 -0.2528100631 0.1539708138 0.3703280624 -0.2149880878 0.3710732399 -0.2146752425 -0.2412341534 0.1505501407
260298440.0 -0.2515454707 0.1566654424 0.3684238134 -0.2193997021 0.3685057911 -0.2191803077 -0.2395551517 0.153458446
265298410.0 -0.2499859606 0.1598321617 0.3660092684 -0.2235693227 0.3662944337 -0.2231731091 -0.2382951388 0.1565131548
270298380.0 -0.2486416709 0.1624109359 0.3639319689 -0.2272833034 0.3639195434 -0.22722334 -0.2367056558 0.1587810271
275298350.0 -0.2470827155 0.1651161811 0.3611188268 -0.2317103799 0.3614843235 -0.2314901586 -0.2349547697 0.1613108977
280298320.0 -0.244897503 0.167697384 0.3588718066 -0.2358850405 0.3588994878 -0.2357340012 -0.2335021738 0.1638931752
285298290.0 -0.2437700761 0.170340401 0.3561133395 -0.2397660771 0.3561836799 -0.239631471 -0.2318383096 0.16611345
290298260.0 -0.241813845 0.1729453375 0.3533810884 -0.2433700571 0.3536428308 -0.2438248315 -0.230263265 0.1689244608
295298230.0 -0.2402459354 0.1755125359 0.350855674 -0.247697039 0.3509342923 -0.2475938674 -0.2283702792 0.1708656794
300298200.0 -0.2386921126 0.1781405138 0.348450601 -0.2514564562 0.3481012047 -0.2519476022 -0.2270573068 0.1737804866
305298170.0 -0.2366149313 0.1807769829 0.3448922305 -0.2561041032 0.3449426043 -0.2558271868 -0.2247847922 0.1761931573
310298140.0 -0.2349254081 0.1833501356 0.3423132717 -0.2593080578 0.3425630637 -0.2593668355 -0.223174576 0.178363954
315298110.0 -0.2331519205 0.1858898692 0.339772955 -0.2631497907 0.3396693759 -0.2633900593 -0.2217014815 0.180859926
320298080.0 -0.2313791677 0.1883805052 0.3362718102 -0.2677387557 0.3367843962 -0.2673945988 -0.2198305957 0.183560779
325298050.0 -0.2294705281 0.1908475123 0.3332622728 -0.2712864648 0.3336417414 -0.2713282287 -0.2180413871 0.1855505297
330298020.0 -0.22784163 0.1931936559 0.3302208153 -0.2747885945 0.3303667345 -0.2751110312 -0.2165131071 0.1880735823
335297990.0 -0.2257481905 0.1954601761 0.3271828436 -0.278564872 0.3271878428 -0.278757269 -0.2151832596 0.1908673618
340297960.0 -0.2243758058 0.1984252981 0.3238043616 -0.2820633257 0.3238560883 -0.2820548909 -0.2127467099 0.1929834773
345297930.0 -0.2223072412 0.2008942406 0.3206844285 -0.2859525453 0.3206832202 -0.28604693 -0.2112127066 0.1951075942
350297900.0 -0.2202965689 0.2033544414 0.3172109209 -0.28938019 0.317450323 -0.2892258187 -0.2092365483 0.1978349683
355297870.0 -0.2180455074 0.2060516573 0.3145092126 -0.292815639 0.3143959462 -0.2926603167 -0.2073230281 0.1999295908
360297840.0 -0.216228027 0.2085010408 0.3113788309 -0.296238359 0.3114625205 -0.2960951719 -0.2053846158 0.20292905
365297810.0 -0.2143110616 0.2110112886 0.307711394 -0.2997117421 0.3078405858 -0.2996496537 -0.2030717708 0.2049094192
370297780.0 -0.2119115513 0.2133367628 0.3039614609 -0.3030458247 0.3049159682 -0.3027182247 -0.2011065874 0.2072112772
375297750.0 -0.2093560981 0.2157311281 0.3013924335 -0.306396062 0.3011658121 -0.3064283107 -0.1990732926 0.209248052
380297720.0 -0.207348627 0.2180250024 0.2976676475 -0.3098652129 0.2978547453 -0.3091176875 -0.1973590599 0.2116529143
385297690.0 -0.2055586965 0.220211411 0.2939334698 -0.3127319079 0.2941258451 -0.3127535252 -0.1946277766 0.2140353267
390297660.0 -0.203280371 0.2224605634 0.2908824551 -0.3160026979 0.2907342593 -0.3158972596 -0.1929463356 0.2160489313
395297630.0 -0.2008674769 0.2249727172 0.2871327407 -0.3189740359 0.2872682057 -0.3192213022 -0.1901177642 0.2186715556
400297600.0 -0.1983698311 0.2273479092 0.2834208575 -0.3226636321 0.2838226665 -0.3226495164 -0.1881923663 0.2204647498
405297570.0 -0.1965309455 0.2295237093 0.2802221396 -0.3253810951 0.2803781723 -0.3253235379 -0.1863928031 0.2226447507
410297540.0 -0.193877493 0.2316284987 0.2765589331 -0.3283927553 0.2766918684 -0.3284719273 -0.183631869 0.2251109574
415297510.0 -0.1912221755 0.2337843068 0.2725448078 -0.3314974484 0.2731910098 -0.3312571222 -0.1813896295 0.2269567152
420297480.0 -0.1890601696 0.2362609878 0.2689777853 -0.3346631438 0.2691923003 -0.3346623452 -0.1790983722 0.2291668515
425297450.0 -0.1867161292 0.2381771996 0.2656950311 -0.3373990271 0.2657502708 -0.3375667757 -0.1769925001 0.2312241932
430297420.0 -0.184182856 0.2402404056 0.261851822 -0.3397675591 0.2617337631 -0.3400243588 -0.1747771504 0.2333559883
435297390.0 -0.1816877231 0.2424115066 0.2576623606 -0.3430706156 0.257828626 -0.3431232212 -0.171773176 0.2354329253
440297360.0 -0.1791404844 0.2444684184 0.2541313521 -0.3456866015 0.2543389409 -0.3459150793 -0.1695075981 0.2371576985
445297330.0 -0.1766555541 0.2463307615 0.2505092195 -0.3487131921 0.2505516579 -0.3482418886 -0.167045262 0.2386280107
450297300.0 -0.1742362747 0.2482714297 0.2463505975 -0.3511027685 0.2465989257 -0.3514019907 -0.1643996018 0.2405958849
455297270.0 -0.1716934488 0.2506280247 0.2424106423 -0.3536463598 0.242940206 -0.3539779886 -0.1622127586 0.2425497524
460297240.0 -0.1694151901 0.2522986495 0.2390696496 -0.3565295936 0.2387933078 -0.3568107915 -0.1595915279 0.2448703938
465297210.0 -0.1661641526 0.2546124724 0.2350795571 -0.359122822 0.234702416 -0.3593777328 -0.157046733 0.2463308484
470297180.0 -0.1636341242 0.2561799869 0.2306756379 -0.3615102147 0.230869244 -0.3619901289 -0.1545401369 0.2484662708
475297150.0 -0.1612953109 0.2580613924 0.2267522257 -0.3640713359 0.2269201204 -0.3637450228 -0.1517524305 0.2500744651
480297120.0 -0.1582066398 0.2602216769 0.2225668445 -0.3667392172 0.2229660189 -0.3669704948 -0.1490373321 0.2518147783
485297090.0 -0.1556948695 0.2618793015 0.2191403231 -0.3689021275 0.2188109537 -0.3686117249 -0.1464781091 0.2532677003
490297060.0 -0.1532355133 0.2636968216 0.2151861447 -0.3716606018 0.2146836051 -0.3712276564 -0.1440136098 0.2553941769
495297030.0 -0.1503523021 0.2653773882 0.2105785655 -0.3733223768 0.2109429887 -0.3734018696 -0.1414028046 0.2570785427
500297000.0 -0.1473409535 0.2671628696 0.2063824317 -0.3756135541 0.2064433529 -0.3755519234 -0.1385278929 0.2592850666
505296970.0 -0.1446194309 0.2687759528 0.2021847421 -0.3778858032 0.2019962096 -0.3780344803 -0.135907782 0.2605238668
510296940.0 -0.1418192207 0.2705692261 0.1982903644 -0.3806263466 0.1982564177 -0.3804910648 -0.13283924 0.2621144357
515296910.0 -0.1388222231 0.2721346459 0.1939604779 -0.3823384875 0.1941600642 -0.3821675534 -0.1304958336 0.2633579388
520296880.0 -0.1361634713 0.2738033956 0.1899476702 -0.3846038386 0.1898288686 -0.3842689879 -0.1275647532 0.2645601033
525296850.0 -0.1333410067 0.2751571982 0.1854272448 -0.3863399299 0.1860404858 -0.3865104048 -0.1249976244 0.2666998816
530296820.0 -0.1301646246 0.276808211 0.1811893812 -0.3884475315 0.1815934303 -0.388470779 -0.1222630107 0.2678126999
535296790.0 -0.1277699912 0.2782217981 0.177315991 -0.3902198205 0.1772729808 -0.3898061486 -0.1194080974 0.2689854606
540296760.0 -0.1250045815 0.2799186832 0.1727307602 -0.3920828151 0.172676893 -0.392379734 -0.1166377728 0.27111922
545296730.0 -0.1218735014 0.2814961294 0.1683578145 -0.3940102453 0.1686985192 -0.3937037889 -0.1140313625 0.2719134242
550296700.0 -0.1186889091 0.2830662225 0.1642348574 -0.3956847179 0.1643654737 -0.3959531041 -0.1113258151 0.2733425998
555296670.0 -0.1158771791 0.2837121799 0.1600489438 -0.3970550052 0.160022886 -0.3972664321 -0.1079357039 0.2751087592
560296640.0 -0.1124322512 0.2855578607 0.1552809689 -0.3994874406 0.1556640042 -0.3992795093 -0.105544172 0.276271603
565296610.0 -0.1098702182 0.2869989054 0.1510971953 -0.400664007 0.1513073722 -0.4006880758 -0.1022937923 0.2773059138
570296580.0 -0.107096357 0.2878497544 0.1467259399 -0.4026150721 0.146628516 -0.4025566182 -0.0995240001 0.2792771999
575296550.0 -0.1040835818 0.289415833 0.1429033186 -0.404335484 0.1424282874 -0.4040491654 -0.0964507446 0.2799560791
580296520.0 -0.1009811341 0.2906394848 0.1382087712 -0.4057851178 0.1383223599 -0.4058033712 -0.0934179762 0.2812663571
585296490.0 -0.0980911868 0.2916977106 0.1339182693 -0.4065595528 0.1339050596 -0.4069415371 -0.0907065629 0.2823668767
590296460.0 -0.0946495962 0.2928237314 0.1290902415 -0.4078222089 0.1292204337 -0.4083193738 -0.0880542446 0.2833579527
595296430.0 -0.0918726276 0.2937507071 0.1242328583 -0.4097982161 0.1244296323 -0.4094674207 -0.0846987246 0.2837918611
600296400.0 -0.0887297815 0.2951884571 0.1200271437 -0.4106859814 0.1201309343 -0.4107502972 -0.0816201979 0.2852609823
605296370.0 -0.085908904 0.2962033255 0.1155748131 -0.4120302582 0.1158904835 -0.411992798 -0.0783305546 0.2865661084
610296340.0 -0.0824299782 0.2971109722 0.1111162637 -0.4128974452 0.1112885285 -0.4132247243 -0.075575889 0.2873871359
615296310.0 -0.0792885957 0.2983208039 0.1064696249 -0.4141137181 0.1066888008 -0.4146458287 -0.0723917112 0.2882022974
620296280.0 -0.0763717678 0.2987752573 0.101993182 -0.4150372902 0.1022562039 -0.4151299882 -0.0696896305 0.2891855062
625296250.0 -0.0734819948 0.2997703498 0.0978896269 -0.4166480032 0.0975993157 -0.4171749579 -0.0659429042 0.2897353778
630296220.0 -0.0694115799 0.3007325741 0.0925780652 -0.4177883674 0.0930931927 -0.4176193506 -0.0633067191 0.2910781366
635296190.0 -0.0669436519 0.3016899915 0.0888488678 -0.4182005249 0.0884708302 -0.4188520886 -0.0603326651 0.2916358547
640296160.0 -0.0638076172 0.3028359384 0.0842104258 -0.4195020662 0.0844719141 -0.4195750143 -0.0571792569 0.2924894447
645296130.0 -0.0604605781 0.3037542724 0.0790296003 -0.4198598982 0.0797177754 -0.4203519801 -0.054292308 0.2935091127
650296100.0 -0.0573348554 0.3040872773 0.0748232945 -0.42070668 0.0751714312 -0.4209874004 -0.0509127732 0.2937341325
655296070.0 -0.0544186189 0.3050365525 0.070359259 -0.4219396013 0.0704873404 -0.421747778 -0.0475386427 0.2946183903
660296040.0 -0.0511788091 0.3054839191 0.0659748104 -0.4220801033 0.0657730832 -0.4228702629 -0.0444782062 0.2955352489
665296010.0 -0.0475957128 0.305873779 0.0609825709 -0.4229342622 0.0614513902 -0.4230245672 -0.0416516429 0.2962129
670295980.0 -0.0448152115 0.306991861 0.0565724907 -0.4234110201 0.0568118369 -0.4239328622 -0.0386135777 0.2967473341
675295950.0 -0.0418240904 0.3075829979 0.0520549449 -0.4240942273 0.051975407 -0.4236992639 -0.0360586083 0.2972252936
680295920.0 -0.0383312668 0.3080495872 0.0474510373 -0.424287357 0.0470625209 -0.425260929 -0.0324380051 0.2984370772
685295890.0 -0.0349230683 0.3089719904 0.0425744517 -0.4249891193 0.0427197208 -0.4253694113 -0.0293039093 0.2985909291
690295860.0 -0.0319644732 0.309165452 0.0382720805 -0.4249341962 0.0381654191 -0.426029416 -0.0263161877 0.2993632297
695295830.0 -0.0286226942 0.3095719863 0.0338543861 -0.4255051943 0.0332125176 -0.4259236269 -0.0229001405 0.2991055159
700295800.0 -0.0250225734 0.3098154956 0.0286786753 -0.425784344 0.0287615496 -0.4260852673 -0.0204147988 0.3001707792
705295770.0 -0.0223671159 0.310864457 0.0242304737 -0.4262389459 0.0246410637 -0.4266233101 -0.0168964652 0.3004888894
710295740.0 -0.0188713127 0.3109168977 0.0199360426 -0.4270613159 0.0199621132 -0.4267068813 -0.0137251991 0.3002314924
715295710.0 -0.0157746165 0.3110158828 0.015220985 -0.4268635947 0.0148788542 -0.4267914013 -0.0103128255 0.3002591648
720295680.0 -0.0125305608 0.3115702683 0.0105022501 -0.4272327249 0.0107260068 -0.4273157381 -0.0071404811 0.3013432674
725295650.0 -0.009049336 0.3116864842 0.0057934641 -0.4267749662 0.0059759939 -0.4270392062 -0.0044427386 0.3018503627
730295620.0 -0.0053460353 0.3122411572 0.0008734499 -0.427121889 0.0014818381 -0.4267278389 -0.0014020419 0.3011554982
735295590.0 -0.002881542 0.312384656 -0.0033103343 -0.4269924406 -0.0034728301 -0.4267942415 0.001695048 0.3015210033
740295560.0 0.000486724 0.312379477 -0.0078694748 -0.4264571198 -0.008073427 -0.4274772962 0.0053635978 0.3019127016
745295530.0 0.0036230602 0.3126721453 -0.0127177482 -0.4263214099 -0.0127749083 -0.4262402976 0.0087496675 0.3013321077
750295500.0 0.0074294929 0.3123812439 -0.0171292502 -0.4262681945 -0.0169970009 -0.4264251565 0.0116410686 0.3015827972
755295470.0 0.0106421261 0.3125800235 -0.0218487983 -0.4264516981 -0.0218471881 -0.4262926726 0.0150331384 0.3012507475
760295440.0 0.0135411538 0.3127157921 -0.0264674482 -0.4262569132 -0.0265157607 -0.426161977 0.0179337622 0.3016431541
765295410.0 0.0170164044 0.3126949053 -0.0312540144 -0.4256054135 -0.0313744734 -0.4256318617 0.0213101933 0.3016064676
770295380.0 0.0198848043 0.3126117563 -0.0356722427 -0.4252205907 -0.0357264803 -0.4250017803 0.0243110264 0.3010683774
775295350.0 0.0234431457 0.3120312382 -0.0403741957 -0.4242915283 -0.0399087472 -0.4246817875 0.0270271703 0.3014808956
780295320.0 0.026541681 0.3122260605 -0.0449601099 -0.424091595 -0.0442561515 -0.423734963 0.0304321851 0.3011309317
785295290.0 0.0296509236 0.3116897994 -0.0496335785 -0.4231355408 -0.0490490138 -0.4237313125 0.0338799331 0.3009722911
790295260.0 0.03361634 0.3121444675 -0.053983247 -0.4227874146 -0.0533232855 -0.4230588832 0.0369501758 0.3007763146
795295230.0 0.0363384404 0.3117369931 -0.058561544 -0.4222709154 -0.0584248418 -0.4225385261 0.0403811094 0.3005259297
800295200.0 0.0397205781 0.3115780648 -0.063652083 -0.4214604106 -0.0628397224 -0.4218802807 0.0436339772 0.300561386
805295170.0 0.0431976207 0.3110242863 -0.0678340213 -0.4207800829 -0.0673343215 -0.4211063109 0.0465172212 0.3001449616
810295140.0 0.0459741047 0.310493763 -0.0720868519 -0.4198634748 -0.0721213467 -0.4203060722 0.0500685141 0.3000151755
815295110.0 0.0494321422 0.3103619685 -0.0768439173 -0.419237711 -0.0765186541 -0.4194377162 0.0530369299 0.2994222387
820295080.0 0.0525419898 0.3102358609 -0.0813180529 -0.418457362 -0.0807771157 -0.4183095967 0.0563424694 0.2991401342
825295050.0 0.0565619362 0.3096263574 -0.0857610659 -0.4172276109 -0.085548358 -0.4175422504 0.0596642007 0.2984596327
830295020.0 0.0592357656 0.3093292969 -0.0903898071 -0.416230935 -0.0900749208 -0.4162989982 0.063210735 0.2980020356
