!Created with skrf (http://scikit-rf.org).
# Hz S RI R 50.0 
!freq ReS11 ImS11 ReS21 ImS21 ReS12 ImS12 ReS22 ImS22
300000.0 0.8593713404 -0.0024516025 -0.0002440808 -0.0010501541 -0.0001508854 0.0011278564 -0.7709922503 -0.1418452181
5299970.0 0.8593326118 -0.0100229081 -0.0003969787 1.35979e-05 0.0001858013 3.17214e-05 -0.7842126129 -0.0074307375
10299940.0 0.8578985759 -0.0187582833 7.69855e-05 -3.07727e-05 -4.57548e-05 -0.0001109108 -0.7874191395 -0.0032926828
15299910.0 0.8568777332 -0.0269748929 -1.23368e-05 4.72183e-05 -9.02133e-05 -2.0098e-06 -0.7928797807 -0.0012282062
20299880.0 0.8566217535 -0.035203349 -0.0001006777 -0.0001885891 0.0001833416 5.24901e-05 -0.7991960494 0.0024543964
25299850.0 0.8562834346 -0.0436236816 -0.0004185244 -3.34331e-05 2.27343e-05 -4.13251e-05 -0.8053832166 0.0085513197
30299820.0 0.8550501629 -0.0521757768 -8.64051e-05 -4.04876e-05 -7.80844e-05 4.28468e-05 -0.8118587988 0.0164739021
35299790.0 0.8546034825 -0.0603961703 -2.09873e-05 -4.8532e-05 5.77704e-05 1.39244e-05 -0.8169747244 0.0253694083
40299760.0 0.8531881521 -0.0688187368 -7.49791e-05 -3.22188e-05 -4.21987e-05 -0.0001395431 -0.8206927515 0.0344365639
45299730.0 0.8530358801 -0.0775141459 -4.09023e-05 -1.38654e-05 2.922e-07 6.08913e-05 -0.8247173372 0.0439306056
50299700.0 0.8521906885 -0.0848914739 6.52126e-05 -9.98931e-05 2.65466e-05 6.90938e-05 -0.8272255078 0.0540289755
55299670.0 0.8507252105 -0.0936773394 0.0001442513 6.1291e-05 -0.0001694247 1.32002e-05 -0.8297996697 0.0642122458
60299640.0 0.8497470678 -0.1012344507 -9.9991e-06 -0.0001573082 4.26691e-05 -6.50712e-05 -0.8300275905 0.0741675589
65299610.0 0.8486468437 -0.1101764709 3.8673e-05 0.000104741 3.75211e-05 2.5815e-05 -0.8317837823 0.0843263511
70299580.0 0.8472115627 -0.118700654 -3.36433e-05 0.0001496918 -0.0001568773 1.0651e-06 -0.8317643352 0.0944870232
75299550.0 0.8459873157 -0.1261937939 -6.94251e-05 -0.0001546156 -0.0001340411 -8.0025e-06 -0.8321436591 0.1044438088
80299520.0 0.8443825495 -0.1350337026 9.39478e-05 0.0001104293 -0.0001756913 0.0001064028 -0.8322778893 0.1143673802
85299490.0 0.8433608734 -0.1430583456 0.0001259175 4.1078e-06 -0.0001309514 -9.5069e-05 -0.8314755105 0.1236555177
90299460.0 0.8417695496 -0.1508938844 -1.3881e-05 5.05413e-05 0.0001324524 -8.27744e-05 -0.8308375501 0.1332127097
95299430.0 0.8400981431 -0.1598018068 7.68223e-05 8.19355e-05 7.19974e-05 -4.23381e-05 -0.8293696438 0.1429459708
100299400.0 0.8382865215 -0.1680616956 -3.878e-05 -2.75863e-05 0.000171137 -5.63264e-05 -0.8287196296 0.1520633037
105299370.0 0.8371988944 -0.1758084515 -1.25648e-05 -0.0001176883 -5.95963e-05 0.0001739222 -0.8269275108 0.1609439137
110299340.0 0.8354638772 -0.184056448 3.1291e-05 8.7081e-05 7.80126e-05 5.9039e-05 -0.8254783222 0.1710842107
115299310.0 0.8334209508 -0.1924835405 1.77328e-05 2.12399e-05 -7.3856e-06 -0.0001071023 -0.8234489307 0.1798787138
120299280.0 0.8318511618 -0.1998507219 0.0001327417 -7.81373e-05 9.74734e-05 0.0001260099 -0.8218077377 0.1886691611
125299250.0 0.829634331 -0.20829974 4.42107e-05 9.46989e-05 -0.0001489391 5.87619e-05 -0.8209526447 0.1985359398
130299220.0 0.8272285841 -0.2167327299 -7.08257e-05 1.86205e-05 -0.0001380507 -2.90939e-05 -0.8180733042 0.2064811382
135299190.0 0.8248561343 -0.2245202014 0.0001660236 -2.29442e-05 -2.52188e-05 -3.71625e-05 -0.816388527 0.216074038
140299160.0 0.8227564281 -0.2323982935 3.25361e-05 2.78521e-05 0.0001492153 -2.29035e-05 -0.813814345 0.2249054263
145299130.0 0.8205745042 -0.2410416924 -0.000169989 -9.98925e-05 4.41103e-05 0.0001351667 -0.8116851446 0.2340465645
150299100.0 0.8181130062 -0.2490444628 0.0002136459 -0.000176367 -0.0002424831 1.72796e-05 -0.8102838246 0.24302992
155299070.0 0.8151915162 -0.2569093329 1.79956e-05 -0.0001193632 -6.08674e-05 -8.4045e-05 -0.8069014241 0.2518179468
160299040.0 0.8126730149 -0.2644660929 -8.07712e-05 3.78617e-05 -8.33259e-05 0.0001444792 -0.8051128023 0.2602408598
165299010.0 0.8110335806 -0.2728078926 -4.1952e-06 -7.58381e-05 -9.98e-07 0.0002027102 -0.8019195484 0.2696333775
170298980.0 0.8078409714 -0.2807598172 0.0002865387 0.0003310166 -5.72516e-05 -5.43527e-05 -0.7989187209 0.2778201744
175298950.0 0.804709008 -0.2883536082 7.98892e-05 -9.59755e-05 0.0001116896 1.96809e-05 -0.7964870902 0.286784763
180298920.0 0.8024329138 -0.2958763567 -0.0002636115 2.56498e-05 6.10586e-05 -2.93758e-05 -0.793531949 0.2947929659
185298890.0 0.7985187058 -0.3041011542 -3.26826e-05 0.0001604807 7.2758e-06 0.0002198293 -0.7902498187 0.3040960994
190298860.0 0.795870315 -0.3118541105 1.546e-07 0.0001392725 -0.0003093115 -8.5898e-06 -0.7877373525 0.3123312206
195298830.0 0.7927952085 -0.3193557977 -4.45999e-05 0.0001245441 -7.36416e-05 0.0001205572 -0.784418274 0.3213966297
200298800.0 0.789201187 -0.3269490104 -0.0002833707 0.0001170664 0.0001202447 -7.04378e-05 -0.7813326386 0.3292254652
205298770.0 0.7861464909 -0.3348035 0.0001534724 -2.63534e-05 -0.0002405079 6.29187e-05 -0.7775032144 0.3375914502
210298740.0 0.7827717812 -0.3423338446 0.0001559492 8.24883e-05 -2.72557e-05 4.70573e-05 -0.7744026608 0.3457215039
215298710.0 0.7791671943 -0.3507519237 0.0002180202 3.1844e-06 -0.0002124556 7.96e-06 -0.7709456652 0.3540758253
220298680.0 0.7759106963 -0.3577564639 -6.7449e-06 4.5172e-06 5.93257e-05 -0.0002323569 -0.7672254735 0.3620935286
225298650.0 0.7720721244 -0.3660417121 4.59362e-05 -0.0001436578 1.36109e-05 9.89058e-05 -0.7642101307 0.370769853
230298620.0 0.7687817494 -0.3730331426 2.02963e-05 1.47801e-05 -5.84001e-05 2.57387e-05 -0.7598330311 0.3787622291
235298590.0 0.7645866863 -0.3802841375 3.54447e-05 -3.15534e-05 7.90144e-05 -7.31968e-05 -0.7558263155 0.3868178723
240298560.0 0.761086275 -0.3876525238 -4.33751e-05 -1.2386e-05 1.04891e-05 -2.79769e-05 -0.7518253443 0.3956538438
245298530.0 0.756938171 -0.395375079 4.38627e-05 -1.49346e-05 1.83708e-05 -0.0001004727 -0.7478326446 0.4025434451
250298500.0 0.7527428324 -0.4020930064 -4.33392e-05 4.06144e-05 4.4133e-05 -0.0001649826 -0.7439027632 0.4103811286
255298470.0 0.7486596358 -0.4104223986 -0.0001393834 7.24931e-05 0.0001490937 8.17218e-05 -0.738188757 0.4179986543
260298440.0 0.7454661936 -0.4171023406 7.1812e-06 -7.6505e-05 -1.38182e-05 0.0001586908 -0.7346831169 0.4262826335
265298410.0 0.7409351771 -0.4243977975 -0.0001087689 -7.77758e-05 1.6267e-06 7.5143e-06 -0.7301580654 0.4338805628
270298380.0 0.7367387983 -0.4319124347 0.0001339478 -9.13955e-05 -9.706e-07 -5.11887e-05 -0.725628329 0.4412143387
275298350.0 0.732371635 -0.4392338933 -0.0001449751 -0.0001438715 7.38921e-05 -3.57847e-05 -0.7207433821 0.4481182568
280298320.0 0.7281697843 -0.4457137291 0.0002287593 -6.11213e-05 -0.0001874258 0.0001833482 -0.7160586407 0.4562344356
285298290.0 0.7237425309 -0.4535498408 5.24231e-05 0.0001053404 -3.5309e-06 -8.04624e-05 -0.7103254804 0.4634008865
290298260.0 0.7198330221 -0.4597275051 -0.000125557 7.5834e-06 6.67497e-05 -7.43323e-05 -0.7059193707 0.4708902775
295298230.0 0.7157712845 -0.4675013023 0.0002970477 0.0001660798 0.0001186425 9.93666e-05 -0.700865793 0.4780675782
300298200.0 0.7113373968 -0.474665932 -9.95278e-05 -0.0001457704 -0.0001787916 0.0001302739 -0.695558386 0.4853124944
305298170.0 0.7068630285 -0.4816197541 -0.0001065679 1.77983e-05 -2.62548e-05 0.0001447833 -0.6898218511 0.4930924123
310298140.0 0.7023539083 -0.4887782554 -0.0001299372 0.0002615517 -4.86492e-05 0.0001921728 -0.6853396549 0.4998945308
315298110.0 0.6976463453 -0.4962858603 3.4201e-05 -9.33691e-05 -0.0001303567 7.26017e-05 -0.6795695748 0.5064374371
320298080.0 0.6930554875 -0.5040536361 0.0001227543 0.0001329236 -8.87534e-05 -3.48083e-05 -0.674440608 0.5146883917
325298050.0 0.68751511 -0.5112142636 -6.87816e-05 0.0001771147 -0.0001137906 -5.41431e-05 -0.6682360742 0.5211289446
330298020.0 0.6819422675 -0.5188345945 8.79644e-05 0.0001259146 4.88797e-05 4.70432e-05 -0.6632486742 0.528405991
335297990.0 0.6757109136 -0.5260101765 9.45305e-05 2.01126e-05 -3.73857e-05 8.76011e-05 -0.6580818375 0.5353097687
340297960.0 0.6694376003 -0.5323448018 -0.0001363795 0.0002429846 8.45637e-05 -0.0001031344 -0.6522659128 0.5420883726
345297930.0 0.6636062268 -0.5382394832 0.0002979537 6.2007e-06 4.38862e-05 7.5005e-06 -0.6469162163 0.5485631984
350297900.0 0.6580739694 -0.5442079687 0.0001003646 1.9787e-05 -0.0001437831 -0.0001287238 -0.6412812027 0.5555400209
355297870.0 0.652609317 -0.5501763705 -5.83158e-05 -6.9575e-05 -6.86586e-05 -6.24345e-05 -0.6354173089 0.5619544567
360297840.0 0.6469747793 -0.556933679 6.64201e-05 -0.0001333381 -0.0002431973 4.37166e-05 -0.6290101878 0.5683925818
365297810.0 0.6410524814 -0.5624582556 7.42449e-05 4.28953e-05 -1.35073e-05 -5.86072e-05 -0.6228600487 0.5749492072
370297780.0 0.6358013744 -0.5692675163 -5.55047e-05 9.8849e-05 -8.1541e-05 -0.000101861 -0.6171301345 0.5818390475
375297750.0 0.6290790421 -0.5749502307 4.19759e-05 -3.01739e-05 -6.36318e-05 0.0001080752 -0.6112796598 0.5879379828
380297720.0 0.6240655038 -0.5808307718 0.0002017757 -0.0001885096 3.95679e-05 -0.000233848 -0.6055314662 0.5936516116
385297690.0 0.6180452041 -0.5865832065 -0.0001881396 0.0001826236 -0.0001397381 -0.0002250567 -0.5988153468 0.6004105194
390297660.0 0.6119787457 -0.5924430691 -5.9843e-06 -9.24107e-05 -0.0002242219 0.0001550376 -0.5929231689 0.6066651639
395297630.0 0.6061572731 -0.5983132689 -4.73473e-05 -2.21211e-05 4.54877e-05 5.95824e-05 -0.5862016097 0.6131450149
400297600.0 0.6001138007 -0.6039119501 0.0002485001 -0.0001484776 -0.0001491889 0.0002393723 -0.5807481491 0.6187357376
405297570.0 0.5940450355 -0.6097377235 -3.54027e-05 1.4736e-05 -3.08283e-05 -0.0001008273 -0.5738230999 0.6253157407
410297540.0 0.5879447531 -0.6159828787 0.0001848427 0.0001355887 6.64324e-05 -0.0001474443 -0.5673374011 0.6305922515
415297510.0 0.5821705413 -0.6214163386 -9.1876e-06 8.76153e-05 7.99829e-05 2.36223e-05 -0.5608596964 0.6366652878
420297480.0 0.5758462928 -0.6267114506 -1.8283e-06 0.0001664674 -1.67213e-05 4.91764e-05 -0.5537908155 0.6430285978
425297450.0 0.5695909302 -0.6326195754 2.24387e-05 2.28094e-05 2.782e-06 -4.537e-07 -0.5479483748 0.6480634377
430297420.0 0.5634794279 -0.6376404279 0.0001368926 5.17808e-05 -8.8109e-05 8.83924e-05 -0.5410794143 0.6526620945
435297390.0 0.5573568044 -0.6433470964 0.000123532 2.47522e-05 -3.7728e-06 -1.19675e-05 -0.5335566135 0.6584757909
440297360.0 0.5504340439 -0.6490452906 0.0001633435 -0.0001643563 6.68836e-05 8.9474e-06 -0.5268555145 0.6639153694
445297330.0 0.5442523214 -0.6542869852 -3.15653e-05 5.61953e-05 -0.0001770207 -0.0001079775 -0.5202306161 0.6685864426
450297300.0 0.5383110149 -0.6592122551 -6.27443e-05 2.97754e-05 2.7357e-05 3.07226e-05 -0.5126683071 0.6737837145
455297270.0 0.5309072794 -0.6646511215 7.85218e-05 3.88548e-05 -1.51669e-05 5.01992e-05 -0.5062327304 0.6784893671
460297240.0 0.5235478049 -0.6699108727 9.91982e-05 0.0001352197 -9.44452e-05 -0.0001097492 -0.4992498222 0.6840226758
465297210.0 0.5180163197 -0.6753969436 4.7603e-06 -9.57389e-05 1.44648e-05 5.08073e-05 -0.4912914236 0.6884894514
470297180.0 0.5105447198 -0.6793852409 -0.0002262576 7.53323e-05 2.16535e-05 -8.7433e-06 -0.4845935389 0.6942855844
475297150.0 0.5041165335 -0.6848256659 -1.52661e-05 -4.77605e-05 8.38311e-05 -7.10156e-05 -0.4772312048 0.6983895694
480297120.0 0.496553052 -0.6895579709 -3.19464e-05 -0.0001144151 0.0002729394 8.47328e-05 -0.4698970782 0.703426873
485297090.0 0.4903162466 -0.6944763658 0.0001376385 -0.0001306555 -8.48307e-05 -3.79226e-05 -0.4628148998 0.7078007685
490297060.0 0.4829149638 -0.6990140836 -0.0001346933 -0.000131374 1.91136e-05 -0.0002521375 -0.455243694 0.7124560245
495297030.0 0.4763389569 -0.7035296245 -1.2386e-05 0.000140499 -3.40213e-05 -1.38928e-05 -0.4484060545 0.7173982813
500297000.0 0.4692328056 -0.7084988609 0.0001317214 -0.0002052821 5.33293e-05 -3.55628e-05 -0.440376227 0.7221677079
505296970.0 0.462482129 -0.7132211905 -0.0001716516 0.0001346466 2.87744e-05 0.0002970808 -0.4331783476 0.7262692734
510296940.0 0.45481605 -0.7176667039 -2.99266e-05 -0.0002959386 -0.0001324441 -0.0001803758 -0.4262819941 0.7302506878
515296910.0 0.4482901927 -0.7214175274 0.0002184485 -1.3857e-05 8.39437e-05 0.0003183841 -0.418165777 0.7351814069
520296880.0 0.4403095369 -0.726010672 8.0318e-06 2.52602e-05 0.000198836 2.2359e-06 -0.4106739928 0.7391556543
525296850.0 0.4336586243 -0.7301766407 -1.0821e-05 5.06423e-05 4.7905e-06 -0.0001594656 -0.4035571963 0.7436532653
530296820.0 0.4261646323 -0.7340366348 0.0001701857 0.0002271435 -2.3953e-05 -0.0001221247 -0.3958710583 0.747409326
535296790.0 0.4193540751 -0.7381421987 -2.59337e-05 -5.8511e-06 -3.094e-07 0.0003306302 -0.3888592722 0.7510440315
540296760.0 0.4112831194 -0.7423747725 2.7775e-06 -0.0001210585 -0.0002011258 -2.75912e-05 -0.3805018979 0.7554820222
545296730.0 0.4041668788 -0.7464357349 -0.0001180894 -7.9331e-06 8.0151e-06 9.59816e-05 -0.3722700746 0.7593513115
550296700.0 0.3969698873 -0.7490002777 0.0001227461 -0.0001403573 -1.92548e-05 -5.80581e-05 -0.3652063066 0.7628882538
555296670.0 0.3890834184 -0.7545571101 9.45941e-05 -0.0001471244 -7.62007e-05 -0.000150559 -0.3575898974 0.7671485769
560296640.0 0.3815058674 -0.7573680849 -8.53873e-05 5.12407e-05 -1.49606e-05 -6.67164e-05 -0.349768144 0.7710863644
565296610.0 0.3742191235 -0.760484662 -7.84758e-05 -5.51823e-05 3.00751e-05 -6.4754e-05 -0.3420617524 0.7739018777
570296580.0 0.3664697187 -0.7642333006 6.4367e-05 0.000149897 0.0001705364 9.41801e-05 -0.3350826265 0.7778876095
575296550.0 0.3586565403 -0.7675325958 4.06317e-05 0.0002028603 0.0001029115 6.0629e-05 -0.3261855316 0.7808232833
580296520.0 0.3513474492 -0.7713035091 -0.0001555534 5.90476e-05 -0.0001691813 0.0003118904 -0.3175047539 0.7838255419
585296490.0 0.342904255 -0.7753736349 -3.48816e-05 0.0002030587 1.73691e-05 -0.0001277642 -0.3100278313 0.7876891242
590296460.0 0.3356753783 -0.7776678499 0.0002022135 -7.87958e-05 0.0001316581 8.65658e-05 -0.3026396694 0.7903143968
595296430.0 0.3275673612 -0.7813450942 1.46343e-05 0.0001174002 4.31776e-05 3.48446e-05 -0.2947207411 0.7925759271
600296400.0 0.3196954627 -0.7839316745 0.0002661492 -4.14235e-05 3.2761e-05 0.000194969 -0.2863583989 0.7953458381
605296370.0 0.3124042242 -0.787557117 0.0001990809 9.73199e-05 -0.0001423314 -6.8811e-06 -0.2777494719 0.7984084577
610296340.0 0.304056658 -0.7904083143 4.02809e-05 0.0001631941 -9.14895e-05 3.92689e-05 -0.2699866707 0.8009574954
615296310.0 0.2969567104 -0.793716005 0.0001260568 -0.0001902783 4.66083e-05 -0.0001347656 -0.2613871608 0.8031341863
620296280.0 0.2883620686 -0.795672781 3.7272e-06 -3.95085e-05 1.04912e-05 -3.29643e-05 -0.2540300075 0.8059380737
625296250.0 0.2806949203 -0.798280863 -4.21949e-05 -0.0001265208 4.37318e-05 -5.123e-05 -0.2448972295 0.8081946346
630296220.0 0.2730660286 -0.8022269684 0.0002810422 4.09115e-05 0.000247403 -0.0002065486 -0.2374194957 0.8104308716
635296190.0 0.2648754072 -0.8039124511 -0.0002184528 -0.0001213543 3.43629e-05 -5.10267e-05 -0.2292485321 0.8124795134
640296160.0 0.2567051498 -0.8069579277 -7.59098e-05 -3.528e-07 -3.7477e-06 -0.0002835437 -0.2211122679 0.8152891815
645296130.0 0.2487563301 -0.8079547066 -8.40665e-05 -0.0001019429 0.0001253199 0.0001894386 -0.2125934697 0.8170778952
650296100.0 0.2399145178 -0.8108391595 0.0001652238 0.0002826529 8.52005e-05 7.38429e-05 -0.2048374033 0.8186849173
655296070.0 0.2321437306 -0.8137743599 -3.36702e-05 0.0001982356 3.94774e-05 -0.0002638962 -0.1952287268 0.8205901253
660296040.0 0.2237781835 -0.8153246677 -3.52234e-05 -4.74989e-05 5.36441e-05 0.0001433848 -0.1869134707 0.8228710165
665296010.0 0.2164363676 -0.8178901774 -7.2153e-06 0.0001673711 -0.0001402778 -1.63698e-05 -0.1790061204 0.8248166246
670295980.0 0.2080091952 -0.8196765216 6.77089e-05 1.78436e-05 -0.0001198036 0.000116126 -0.1716281947 0.8263127886
675295950.0 0.20037078 -0.821070123 5.6467e-05 -8.3792e-05 1.15176e-05 -0.0001044465 -0.1631887268 0.8285473658
680295920.0 0.1913944 -0.8227655176 -9.27738e-05 -6.16385e-05 1.40739e-05 0.0002472751 -0.154385146 0.8309927733
685295890.0 0.183545924 -0.8240469321 -3.29166e-05 -0.0002583631 4.77188e-05 -0.0002307069 -0.1458893176 0.831784925
690295860.0 0.1752716494 -0.8265220882 -0.0001069481 9.5025e-06 -2.98182e-05 -5.28683e-05 -0.1379151036 0.8337231627
695295830.0 0.1667865665 -0.8278343998 7.22237e-05 0.000260937 -8.95434e-05 0.0001570357 -0.1287073148 0.8343467667
700295800.0 0.1586026063 -0.8296416417 -9.43265e-05 -4.96496e-05 -4.14686e-05 0.0001906769 -0.1216895501 0.8359420036
705295770.0 0.1502067612 -0.8307280155 -0.0001260187 7.644e-06 0.0001646076 -8.113e-06 -0.1132776759 0.8381346288
710295740.0 0.1416186752 -0.8319231894 -0.000130204 -0.0001462069 0.00012199 -4.09723e-05 -0.1045841643 0.8381272131
715295710.0 0.1334625428 -0.8338999071 0.0002302258 -0.0002516718 5.28648e-05 -4.18147e-05 -0.0960143595 0.8391984783
720295680.0 0.1253231626 -0.834774964 -0.0001667514 -9.16111e-05 -0.0002404003 -0.0001316313 -0.0875675465 0.8405638188
725295650.0 0.1170153012 -0.834951003 -7.32452e-05 -8.32654e-05 -2.72316e-05 -6.14471e-05 -0.0795636157 0.841853226
730295620.0 0.1084022513 -0.8364538414 -8.1239e-05 0.0002195389 0.0002325159 1.4027e-06 -0.0713770356 0.8416857285
735295590.0 0.100216525 -0.8366617063 6.12557e-05 3.34545e-05 -5.82602e-05 8.65975e-05 -0.0628752005 0.8426720687
740295560.0 0.0916577846 -0.8380824952 9.49059e-05 -4.48367e-05 8.0615e-05 3.40568e-05 -0.0532051732 0.843810523
745295530.0 0.0836215762 -0.8385261119 -3.27175e-05 0.0003222539 -0.0001750487 -8.90875e-05 -0.0453292543 0.8437904411
750295500.0 0.0752589847 -0.8393839118 7.81263e-05 0.0001297373 0.0001305903 0.0001495647 -0.0371586719 0.8445427725
755295470.0 0.066269758 -0.8398894415 -8.59626e-05 -7.99159e-05 -0.0001258675 -6.09425e-05 -0.028660602 0.8437723009
760295440.0 0.0577614464 -0.8405124647 9.2331e-06 -8.57084e-05 -7.79774e-05 0.0003211492 -0.0207260127 0.8443651018
765295410.0 0.049812435 -0.8409434886 0.0003035763 -9.79379e-05 5.69077e-05 -4.47309e-05 -0.0120644137 0.844397204
770295380.0 0.0412402656 -0.8411743695 -3.59631e-05 -6.54511e-05 -3.1898e-06 1.37185e-05 -0.0037129922 0.8446018381
775295350.0 0.0327817066 -0.8414915379 0.0001423221 2.58636e-05 -8.8755e-06 -2.46832e-05 0.0043116933 0.8441100338
780295320.0 0.0252152404 -0.8416538236 2.99204e-05 5.52149e-05 0.0001444389 0.0001530617 0.0127122113 0.8438910776
785295290.0 0.0155971721 -0.8422250604 0.0002278738 -6.10833e-05 -0.0001573607 -9.50448e-05 0.0212506209 0.8438862642
790295260.0 0.0076325131 -0.8411051651 -8.12618e-05 0.0001824601 -7.17543e-05 0.0001071122 0.0303397455 0.8436573768
795295230.0 -0.0009764911 -0.8412962825 1.16484e-05 -4.89178e-05 -9.9017e-05 -8.17985e-05 0.0389601698 0.8423108369
800295200.0 -0.00923433 -0.8413733377 -4.98528e-05 0.0002181051 0.0001871744 1.01112e-05 0.0473581924 0.8424144271
805295170.0 -0.0182027102 -0.8410036996 -8.01401e-05 -0.0002323425 8.64076e-05 -8.7078e-06 0.0551020929 0.842147386
810295140.0 -0.0257971898 -0.8403502279 8.32326e-05 -0.0001105811 -0.000134622 3.56299e-05 0.0636816668 0.8410081427
815295110.0 -0.0342248178 -0.8403940435 -6.93665e-05 0.0001352636 -0.0001373386 -0.0001214193 0.0726195348 0.8406035777
820295080.0 -0.0428845404 -0.839216721 8.24147e-05 -0.0001566538 -2.4231e-05 -0.0001252798 0.0805679669 0.8401980779
825295050.0 -0.0516473888 -0.8390130071 0.0001509751 -4.3163e-05 -0.0001284369 2.74588e-05 0.0890082157 0.8392273139
830295020.0 -0.0593251201 -0.8386684073 -0.0001307881 -6.67742e-05 -2.79073e-05 0.0001586311 0.0980231487 0.838283359
835294990.0 -0.0673611044 -0.8378001731 8.33715e-05 -4.48309e-05 0.0001214815 -9.46668e-05 0.1060948998 0.8372786766
840294960.0 -0.0757847094 -0.8368201266 0.0002147463 3.94461e-05 -3.38494e-05 -3.04966e-05 0.1145054134 0.8355499641
845294930.0 -0.0843574232 -0.8358191393 -2.48783e-05 0.0003442464 -4.2602e-05 3.9394e-05 0.1224375392 0.8345119987
850294900.0 -0.0922105492 -0.8346442016 -0.0001621723 -2.37186e-05 8.15298e-05 0.0002399918 0.1305906866 0.8337266953
