!Created with skrf (http://scikit-rf.org).
# Hz S RI R 50.0 
!freq ReS11 ImS11 ReS21 ImS21 ReS12 ImS12 ReS22 ImS22
300000.0 -0.2348367507 -0.1289346077 0.4657454118 0.0844241077 0.464561335 0.0831261683 -0.2338128209 -0.130415146
5299970.0 -0.2447631929 0.0052988948 0.4733895022 0.0060347597 0.4738866369 0.0062706016 -0.2433068183 0.0048885169
10299940.0 -0.2417322708 0.0186904726 0.4758972664 0.0068023457 0.475705326 0.0069894105 -0.2397565982 0.0180430826
15299910.0 -0.2367977476 0.0284989504 0.479327867 0.0082261835 0.4797214551 0.0081705592 -0.2357080055 0.0274756798
20299880.0 -0.2315282688 0.0362025092 0.4842890494 0.0085696194 0.4841822019 0.0085956809 -0.2310085777 0.0353745339
25299850.0 -0.2256658672 0.0428544338 0.4895419452 0.007948512 0.489642128 0.0076708657 -0.2258031005 0.041853303
30299820.0 -0.2201204561 0.047561878 0.4951728277 0.0059107262 0.4950537784 0.0051979177 -0.2204200317 0.0468644724
35299790.0 -0.2142040608 0.0516084573 0.4995321983 0.0025186323 0.5003391585 0.002153432 -0.2152966992 0.0514252126
40299760.0 -0.2092194107 0.0548647812 0.5055456358 -0.0015588088 0.5055461331 -0.0020599284 -0.2103629608 0.0548887399
45299730.0 -0.2042693747 0.0571955983 0.5106266453 -0.0061002463 0.5106060416 -0.0063601211 -0.2053119801 0.057852565
50299700.0 -0.1987847783 0.0589932749 0.5144406134 -0.0119657302 0.5145160507 -0.0118439275 -0.2010666946 0.0603033319
55299670.0 -0.1948459038 0.0603847758 0.5178936779 -0.0174461716 0.5181619943 -0.0176234324 -0.1974505388 0.0621427898
60299640.0 -0.1906280325 0.0615782324 0.5218168374 -0.024374179 0.5217246795 -0.0243243783 -0.1933541071 0.0632093268
65299610.0 -0.1870522248 0.0627466699 0.5249856972 -0.0301230181 0.52488689 -0.0306481368 -0.1898714655 0.0647812807
70299580.0 -0.1838902986 0.0629340375 0.5266220027 -0.0367586051 0.5271532436 -0.0367524785 -0.1869374767 0.066118814
75299550.0 -0.1810781125 0.0639394716 0.528727315 -0.0441029835 0.5292877111 -0.0440821812 -0.1836893479 0.0671927662
80299520.0 -0.178253702 0.0645407886 0.5310440771 -0.0507895861 0.5309498399 -0.0509328528 -0.1814984822 0.0678227878
85299490.0 -0.1757107568 0.0648208734 0.5321508561 -0.0575471107 0.532718669 -0.0576538459 -0.1788266431 0.0689412969
90299460.0 -0.1732788751 0.0652712404 0.5328909787 -0.0646393361 0.5331775007 -0.064470227 -0.176545045 0.0697540395
95299430.0 -0.1712905026 0.0655604303 0.5342769695 -0.0714893657 0.5344832748 -0.0716640868 -0.1747637292 0.070655583
100299400.0 -0.1692354049 0.0661046219 0.5345367438 -0.0784547454 0.5345843536 -0.0784620827 -0.172693232 0.0718576765
105299370.0 -0.1675126849 0.0664189354 0.5346652219 -0.0852427046 0.5351101286 -0.0852414229 -0.1707426413 0.0722648828
110299340.0 -0.1658913296 0.0668741405 0.5350239715 -0.0919311458 0.5351821876 -0.0917097367 -0.1695289036 0.0731363414
115299310.0 -0.1646704064 0.0675196187 0.5353201329 -0.0984309255 0.5352219971 -0.0987621597 -0.1679521624 0.0743498272
120299280.0 -0.1630126333 0.0680616405 0.5350712372 -0.1060256795 0.5347205941 -0.1060630241 -0.166622687 0.0748057077
125299250.0 -0.1617948902 0.068552619 0.5345012354 -0.1123568725 0.5346824312 -0.1126436677 -0.1650693406 0.0762137206
130299220.0 -0.1606924912 0.0693120886 0.5339711448 -0.1195506886 0.5337838876 -0.1198223766 -0.1637061819 0.0770989429
135299190.0 -0.1595913285 0.0701387053 0.5335831097 -0.1257688344 0.5334923643 -0.1260754932 -0.1627592367 0.0776653762
140299160.0 -0.1584347803 0.0704151917 0.5327883741 -0.1326270042 0.5327592284 -0.1324433822 -0.1621989883 0.0787181759
145299130.0 -0.1577907547 0.0718709633 0.5318772058 -0.1391569237 0.5318198386 -0.1391248577 -0.1605343908 0.0800573837
150299100.0 -0.1565597587 0.0723920159 0.5304170548 -0.1452823732 0.530797819 -0.1457848895 -0.1596747584 0.0813398679
155299070.0 -0.1553261747 0.0732103205 0.5285693285 -0.1522530052 0.5296150193 -0.1521420326 -0.1582812365 0.0824303326
160299040.0 -0.1548200042 0.0745670031 0.5279308005 -0.1588009729 0.5278890679 -0.1587676082 -0.1575661791 0.0836479132
165299010.0 -0.1538512948 0.0750838652 0.5266212112 -0.1650095588 0.5263556966 -0.1653007777 -0.1563412273 0.0845807898
170298980.0 -0.1532913437 0.0763828091 0.5248586004 -0.1715640482 0.5250757924 -0.1715672933 -0.155852732 0.0857959115
175298950.0 -0.1521177758 0.0771891066 0.5236319844 -0.1775383798 0.52398114 -0.178223013 -0.1547726716 0.0874464457
180298920.0 -0.1516490107 0.0784433613 0.5214877671 -0.1844712695 0.5217642829 -0.1845743438 -0.1538414409 0.0886654944
185298890.0 -0.1505294498 0.079598606 0.5198675519 -0.1906506929 0.519917835 -0.1905725936 -0.1526168667 0.0894882616
190298860.0 -0.1496473722 0.0809355496 0.5173895979 -0.1967055425 0.5180842813 -0.1965314205 -0.1519073882 0.0909902838
195298830.0 -0.1492946303 0.08194422 0.5164217776 -0.2026742029 0.5162234484 -0.2025476913 -0.1513114598 0.0924299865
200298800.0 -0.1482565716 0.0826216839 0.514093208 -0.2088827381 0.5141342078 -0.2090246042 -0.1499458633 0.0935808509
205298770.0 -0.1477343846 0.0838439916 0.511640115 -0.2145319573 0.5118486609 -0.2146032532 -0.1489760167 0.0951355292
210298740.0 -0.1467684272 0.0855575687 0.5094835554 -0.2211400996 0.5093766478 -0.220949406 -0.1484920316 0.0963754619
215298710.0 -0.1459788047 0.0864472558 0.5067922414 -0.2264256809 0.5071312485 -0.2267541558 -0.1474139424 0.0978739244
220298680.0 -0.145149314 0.0877417674 0.5043313121 -0.2324842362 0.5047499464 -0.2329627513 -0.1464153135 0.0992907819
225298650.0 -0.144595991 0.0890132534 0.5018155801 -0.2382162838 0.5021924328 -0.2380000548 -0.1452081515 0.100505258
230298620.0 -0.1436937022 0.0905078637 0.499901097 -0.2446277779 0.4999829457 -0.2446734537 -0.144484005 0.1018871601
235298590.0 -0.1431191961 0.0917101819 0.497203259 -0.2505236356 0.4971396269 -0.2501181579 -0.1434476008 0.1035284283
240298560.0 -0.1420672956 0.092914584 0.4942539294 -0.2554957424 0.4942629761 -0.25543391 -0.142338734 0.1046778482
245298530.0 -0.1414957243 0.0941241222 0.4914305853 -0.2617413859 0.4916334952 -0.2617750301 -0.1410705201 0.1064034857
250298500.0 -0.140826195 0.0956098441 0.4889710825 -0.2669733663 0.4890156482 -0.2668536511 -0.1405798206 0.1081657298
255298470.0 -0.1400062329 0.097166736 0.4864321474 -0.2724633833 0.4865392802 -0.2730026233 -0.1393255637 0.1095457783
260298440.0 -0.1391837715 0.098025568 0.4830322036 -0.2773331296 0.4827273637 -0.2780186994 -0.1382001169 0.1103110459
265298410.0 -0.1385866605 0.099564614 0.4800528321 -0.2840874881 0.479664246 -0.2839757064 -0.1364426718 0.1117564056
270298380.0 -0.1376391926 0.1008577266 0.4770910095 -0.2889400066 0.4772412965 -0.2889064859 -0.1359269535 0.1135637408
275298350.0 -0.1367928702 0.1025047314 0.4734043528 -0.2942676238 0.4735438743 -0.2945837915 -0.1345155352 0.1152420076
280298320.0 -0.1362173951 0.1035259884 0.4705442594 -0.2993987127 0.4709012554 -0.2999378253 -0.1336899268 0.1166507275
285298290.0 -0.1349905994 0.1051263778 0.4668702307 -0.305069499 0.4673967547 -0.3051649037 -0.1322602846 0.1179631392
290298260.0 -0.1341873486 0.1065372324 0.4644400608 -0.3107627636 0.4641961836 -0.310340604 -0.131107215 0.1192124625
295298230.0 -0.133254667 0.1073383712 0.460692114 -0.3159500447 0.4606733805 -0.3161520055 -0.1296807131 0.1206567805
300298200.0 -0.1322234364 0.1091441566 0.4573904881 -0.3213295557 0.4573656994 -0.3207940628 -0.1287216806 0.1220629903
305298170.0 -0.1314215372 0.1100460008 0.4539936665 -0.3264835152 0.4541464043 -0.3263186503 -0.1271202176 0.1230373398
310298140.0 -0.1304063665 0.1112718882 0.4503518532 -0.331513284 0.450553954 -0.3308826306 -0.1256514274 0.1245140719
315298110.0 -0.1296659004 0.1124028403 0.4467333779 -0.3372765235 0.4467454327 -0.3370551263 -0.1245411024 0.1263416719
320298080.0 -0.1287986045 0.1134852282 0.4426574084 -0.3422031124 0.4436461183 -0.3422260475 -0.1237915952 0.1273359354
325298050.0 -0.1282019486 0.1143495807 0.4389559681 -0.3466685982 0.4395817808 -0.3471761269 -0.1218641638 0.1285011127
330298020.0 -0.1275973298 0.1160578187 0.4351677645 -0.3521094498 0.4356432751 -0.3522279615 -0.1210454743 0.129878176
335297990.0 -0.1264397625 0.1172925402 0.4312079567 -0.3564103764 0.4312474789 -0.3569078885 -0.1197117053 0.1312413078
340297960.0 -0.1259331666 0.1185813587 0.4268701563 -0.3617895283 0.4269199869 -0.3616343485 -0.1187164435 0.1328326218
345297930.0 -0.1250042986 0.1198159566 0.4231098034 -0.3662810782 0.4231353161 -0.3664124029 -0.1171979623 0.1339649528
350297900.0 -0.1241841138 0.1212659364 0.4190670733 -0.370624901 0.4192683612 -0.3707239418 -0.1158231584 0.1352226276
355297870.0 -0.1231699387 0.1225373255 0.4142984038 -0.3751158056 0.4146975182 -0.3751942463 -0.1141478253 0.1366719454
360297840.0 -0.1221143271 0.1239610927 0.4104591236 -0.3794841687 0.4107852752 -0.3803428638 -0.1129856421 0.1384142837
365297810.0 -0.121047119 0.1251276219 0.4060850975 -0.3841990993 0.4063077955 -0.3846582944 -0.1121814996 0.1396398995
370297780.0 -0.1199730939 0.1266764121 0.4018598312 -0.3889796522 0.402527695 -0.3889287444 -0.1105126973 0.1409215059
375297750.0 -0.1191691417 0.1278354576 0.3978400212 -0.3931481737 0.3981670339 -0.3936451096 -0.1092069646 0.142508217
380297720.0 -0.1180304071 0.1289528214 0.3936536517 -0.3979524388 0.3933108174 -0.3977432171 -0.1073533072 0.1437249518
385297690.0 -0.1171405375 0.1303945032 0.3891182429 -0.4016237664 0.3894660028 -0.4025313061 -0.1060258822 0.1453365397
390297660.0 -0.1154736112 0.1311997843 0.3843982684 -0.4056136119 0.3848307259 -0.4062795363 -0.104058745 0.1461356276
395297630.0 -0.1142180895 0.1328012443 0.3804502278 -0.4102467225 0.3803357474 -0.410375446 -0.1027126197 0.1476110799
400297600.0 -0.113421718 0.1336733808 0.3757060025 -0.4144204231 0.3759563818 -0.4144549085 -0.1010252398 0.1490473676
405297570.0 -0.112306061 0.1347389681 0.3713282056 -0.4183151679 0.3715708164 -0.4191580825 -0.0993335581 0.1506449298
410297540.0 -0.1108365921 0.136288556 0.3667160675 -0.423060292 0.3669333695 -0.4225974106 -0.0980365086 0.1515457729
415297510.0 -0.1102898601 0.1373801049 0.3620497217 -0.4265313809 0.362430417 -0.4271173626 -0.0959238244 0.1530251978
420297480.0 -0.1088291956 0.1382916488 0.3574382644 -0.4303363941 0.3574095273 -0.4309192519 -0.0941677311 0.1544339679
425297450.0 -0.1071905456 0.1395666975 0.3527486807 -0.4342624393 0.3526796853 -0.4344137667 -0.092725063 0.1547685046
430297420.0 -0.1061769844 0.1405384377 0.3482635187 -0.4384245081 0.3484425206 -0.4382019368 -0.0909300621 0.1565231879
435297390.0 -0.1048274964 0.1415178756 0.3426297392 -0.4426359179 0.34306227 -0.4419825359 -0.0896457559 0.1577820717
440297360.0 -0.1033852266 0.1426548199 0.3380409808 -0.4460656039 0.3382576344 -0.4459980526 -0.0879329621 0.1588689743
445297330.0 -0.1019069863 0.1435535484 0.33353367 -0.4494478037 0.3334379848 -0.4496900495 -0.0859464589 0.1600577763
450297300.0 -0.1005428503 0.144775453 0.3282738129 -0.4530585504 0.3286931585 -0.453030526 -0.0840165514 0.1610597753
455297270.0 -0.0996645357 0.1455625017 0.3237134043 -0.456628098 0.3235404101 -0.4567611261 -0.0821637103 0.1618515299
460297240.0 -0.0977501695 0.1469657551 0.3184892691 -0.460601228 0.3184620757 -0.4602097349 -0.0802722446 0.1628988908
465297210.0 -0.0967043947 0.1477934577 0.3131541216 -0.4637272911 0.3128775744 -0.464084853 -0.0783664806 0.1644669322
470297180.0 -0.0949996913 0.1486753959 0.3081038052 -0.4668140938 0.308517044 -0.4671094976 -0.0767628261 0.1649518557
475297150.0 -0.093933597 0.149995587 0.3033432091 -0.470380722 0.303455174 -0.470362799 -0.0750261475 0.1661116902
480297120.0 -0.0918245537 0.1513250979 0.2979949103 -0.4739502511 0.2980490551 -0.4735628533 -0.0734281369 0.1670735199
485297090.0 -0.0906761467 0.1517882278 0.2928009692 -0.4768288519 0.2925557114 -0.4764719761 -0.0714031094 0.1682986525
490297060.0 -0.0885657808 0.1531392912 0.2870081136 -0.4803307895 0.2874520052 -0.4801636074 -0.0696426462 0.1688224251
495297030.0 -0.0874433733 0.1537165796 0.2823901547 -0.4832595062 0.2822644933 -0.4834023239 -0.0673932332 0.1697610219
500297000.0 -0.0861873518 0.1549516111 0.2770677973 -0.4860336091 0.2769957801 -0.4862481236 -0.0653274377 0.1710756908
505296970.0 -0.0841399029 0.1559944322 0.2719204064 -0.48960417 0.2718704929 -0.4890121759 -0.0636880878 0.1710682893
510296940.0 -0.0827444315 0.1565348839 0.2667464312 -0.4925469216 0.2664859348 -0.492715462 -0.0613396745 0.1726046084
515296910.0 -0.0812876523 0.1579467485 0.2605231762 -0.4949422899 0.260606692 -0.494793167 -0.0597972045 0.172815857
520296880.0 -0.0793678357 0.1587298405 0.2555254283 -0.4975164922 0.2552921269 -0.4978716968 -0.0572924604 0.1745028586
525296850.0 -0.0778863208 0.1593757826 0.2496422544 -0.5003593102 0.2499712214 -0.5005425565 -0.0553655597 0.1747918976
530296820.0 -0.0765424008 0.160472639 0.2443837712 -0.5036548124 0.2444024982 -0.5031741838 -0.0533324438 0.1752897352
535296790.0 -0.0743645018 0.1611798688 0.2391994795 -0.5056310598 0.2391048098 -0.5059381939 -0.0514880995 0.1767598637
540296760.0 -0.0727540674 0.1623042268 0.2331670441 -0.5083253509 0.2331679899 -0.5083399682 -0.0496763321 0.176884873
545296730.0 -0.0717898478 0.163465446 0.2281027181 -0.5105710958 0.2274173325 -0.5103465182 -0.0474996338 0.1775894712
550296700.0 -0.0693612528 0.1638077917 0.2220645455 -0.513200098 0.2222867958 -0.5131979627 -0.0453651098 0.178254611
555296670.0 -0.068083061 0.1649354512 0.2165431447 -0.5158022108 0.2166361638 -0.5154027048 -0.0437684575 0.1785007299
560296640.0 -0.0657143077 0.1655888666 0.2108292147 -0.5178255695 0.2112361027 -0.5180208782 -0.0414248329 0.1797113761
565296610.0 -0.065057601 0.166309515 0.2058292725 -0.5199462448 0.2054155902 -0.5196656568 -0.0393299073 0.1804170058
570296580.0 -0.0631639187 0.1671936733 0.1999458769 -0.5217981572 0.1997650403 -0.522282342 -0.0377317455 0.1806181634
575296550.0 -0.0611145537 0.167980328 0.1940991722 -0.5243048997 0.1941695683 -0.5242919809 -0.0357443954 0.1811538066
580296520.0 -0.0591408714 0.1690230282 0.1884635109 -0.5265477386 0.1883075391 -0.526686285 -0.0337599672 0.1817096173
585296490.0 -0.0574608973 0.1698265014 0.183013737 -0.5283964387 0.1823861009 -0.5285448133 -0.0312555378 0.1824456554
590296460.0 -0.0553984517 0.170628855 0.1768813698 -0.5301348767 0.1770268184 -0.5304747474 -0.0295879431 0.1828025871
595296430.0 -0.0539326261 0.1710927876 0.1706932448 -0.5318535075 0.1708886495 -0.5319710656 -0.0273311758 0.1829541472
600296400.0 -0.0520149986 0.1722090941 0.1645965038 -0.5337871331 0.1651442471 -0.5340922529 -0.0252177266 0.1832807406
605296370.0 -0.050723145 0.1725889732 0.1597524605 -0.5352525376 0.1588654803 -0.5357861432 -0.0230798704 0.1840106478
610296340.0 -0.0485190782 0.1737139944 0.1537770268 -0.5369787922 0.1538113998 -0.5373465806 -0.0212990099 0.1847331953
615296310.0 -0.0467232153 0.1739658984 0.1476724814 -0.5393569083 0.1474538603 -0.5389666158 -0.0190903925 0.1848519534
620296280.0 -0.045197008 0.1752968449 0.1415204831 -0.540747632 0.1415596672 -0.5403281885 -0.0171755735 0.1852846454
625296250.0 -0.0436101493 0.1755292405 0.1359220322 -0.5418279189 0.1357965901 -0.5419903075 -0.0153110632 0.185356117
630296220.0 -0.0416688743 0.1763722958 0.1299071503 -0.5432751028 0.1300524845 -0.5432318309 -0.0127662571 0.1860074736
635296190.0 -0.040226127 0.1770301222 0.1246606031 -0.5444447155 0.123852442 -0.5448288373 -0.0110974822 0.1860144249
640296160.0 -0.0381136538 0.1777848652 0.1184518948 -0.5460358435 0.1180010334 -0.5460473037 -0.009213121 0.1863898484
645296130.0 -0.0360847971 0.1788850927 0.1123407615 -0.5470203508 0.1121869225 -0.5471900129 -0.0070989374 0.186129785
650296100.0 -0.0346066796 0.1786330881 0.1064233775 -0.5482720214 0.1059920816 -0.5487031008 -0.0045652058 0.1867269293
655296070.0 -0.0332066659 0.1796065727 0.1004006009 -0.5496503125 0.1003833611 -0.5490721449 -0.0031017607 0.1870328009
660296040.0 -0.0309533499 0.1802533836 0.0945234098 -0.5504799081 0.0945331886 -0.5507655122 -0.0007125396 0.1867795645
665296010.0 -0.0291318366 0.1808800985 0.0881588241 -0.5509396343 0.0883079669 -0.5511776969 0.0013089128 0.1870945573
670295980.0 -0.027515103 0.1815520707 0.0824595317 -0.5523604652 0.0823054778 -0.5521127931 0.0031528139 0.1869880476
675295950.0 -0.0256928044 0.1814586993 0.0763813055 -0.5528026766 0.0768680915 -0.5533278745 0.0051966116 0.1872664088
680295920.0 -0.0243189349 0.1827371791 0.0707679072 -0.5536579871 0.0705575527 -0.553596495 0.0076319927 0.1870966415
685295890.0 -0.0220833993 0.1829935659 0.0642978761 -0.5546248764 0.0643473129 -0.5545557664 0.0095914555 0.1876423614
690295860.0 -0.0207658621 0.1835978493 0.0585660833 -0.5550755203 0.0583993624 -0.5554928927 0.0115687384 0.1875457811
695295830.0 -0.0185991315 0.1839519233 0.0530877169 -0.5556097384 0.0527115163 -0.5558172756 0.0137420646 0.1877448667
700295800.0 -0.0168339335 0.184425159 0.0472892574 -0.555858964 0.0469617818 -0.5562057818 0.0157788577 0.1874804082
705295770.0 -0.0153565075 0.1848909822 0.0408246235 -0.5568197747 0.0407298259 -0.5566398308 0.0176729047 0.1879133481
710295740.0 -0.0136137728 0.1850648923 0.034849618 -0.5569904668 0.0346641656 -0.5573509138 0.0199401492 0.1876410728
715295710.0 -0.0115400153 0.1857687755 0.0288964683 -0.5576237978 0.0284492242 -0.5576914594 0.0220714296 0.1873309223
720295680.0 -0.0096364503 0.1860408222 0.0225413159 -0.5573252439 0.0225756072 -0.5579955391 0.0238067216 0.1871780902
725295650.0 -0.0084934242 0.1868401523 0.0172295553 -0.5578491924 0.0168226035 -0.5579014204 0.0259087898 0.187508309
730295620.0 -0.0071210501 0.1865740533 0.0112940501 -0.5576213505 0.0104543047 -0.5574071465 0.0280244758 0.1874868821
735295590.0 -0.0047467163 0.1871775732 0.0048622154 -0.5578888299 0.0049900309 -0.5578782912 0.0299288956 0.1867916857
740295560.0 -0.0033806864 0.1872338326 -0.0010626324 -0.5580711602 -0.0010728764 -0.5585474003 0.0319296068 0.1870301182
745295530.0 -0.0017442945 0.1878464393 -0.0069736574 -0.5574380145 -0.0067497125 -0.5575715806 0.0336649582 0.1867121902
750295500.0 -0.0002193258 0.1880133163 -0.0129093482 -0.5574761917 -0.0134947826 -0.5578688152 0.0358574096 0.1867391873
755295470.0 0.0017505778 0.1882551997 -0.0185956376 -0.5575363539 -0.0191582418 -0.5578609708 0.0382449753 0.1869219784
760295440.0 0.0035755667 0.1890072895 -0.0255645199 -0.5572440688 -0.0254080619 -0.5569439739 0.0404190106 0.1857159676
765295410.0 0.0054391071 0.1888594529 -0.0310231363 -0.5567497611 -0.0305637355 -0.5568759017 0.0422650122 0.1857869923
770295380.0 0.0071232502 0.1893125933 -0.0367775447 -0.5559276622 -0.0368940495 -0.5570470115 0.0437414259 0.185426088
775295350.0 0.0089081116 0.1888582459 -0.0430258255 -0.5560012203 -0.0429562927 -0.5558390839 0.0465560043 0.1851722152
780295320.0 0.0105564738 0.1895300085 -0.0487878495 -0.5554582569 -0.0487981407 -0.5555294507 0.0483392676 0.1846357284
785295290.0 0.0119796327 0.189061243 -0.0547275802 -0.5549080088 -0.0548022826 -0.5552102853 0.0500429773 0.1846270641
790295260.0 0.013751827 0.1891242209 -0.0609851716 -0.5544106513 -0.060486559 -0.5546926347 0.0520128712 0.1843713548
795295230.0 0.0156049373 0.1892747459 -0.0667988593 -0.5535628127 -0.0669528458 -0.5538263992 0.054306352 0.1832748943
800295200.0 0.0172066126 0.1896440899 -0.0722684602 -0.5524056121 -0.0726904558 -0.553091084 0.0559093273 0.1832890586
805295170.0 0.0187610907 0.189453142 -0.0782516591 -0.5521613658 -0.0786227022 -0.5522860358 0.058511762 0.1826736582
810295140.0 0.0209016404 0.1897715568 -0.0844708591 -0.5512094264 -0.0843326867 -0.5510891039 0.0603831526 0.1821109264
815295110.0 0.0223988514 0.1895953493 -0.0900438071 -0.5501104035 -0.0902396973 -0.5502802463 0.0623922583 0.1817350964
820295080.0 0.0238253891 0.1896543109 -0.0954186771 -0.5491153956 -0.095876823 -0.549387413 0.0637002354 0.1816406543
825295050.0 0.0256784536 0.1896535656 -0.101934857 -0.5482155441 -0.1022890749 -0.5481476428 0.0664971056 0.1810556899
830295020.0 0.027443509 0.1894485831 -0.108029955 -0.5470660739 -0.1078159113 -0.5471795687 0.068086538 0.1796473251
