!Created with skrf (http://scikit-rf.org).
# Hz S RI R 50.0 
!freq ReS11 ImS11 ReS21 ImS21 ReS12 ImS12 ReS22 ImS22
300000.0 -0.2117393688 -0.0818377356 -0.0009746099 0.0013848511 -0.000233907 -0.0003414278 -0.7705248197 -0.1653472568
5299970.0 -0.2143862293 0.0086717567 -8.267e-05 -7.27732e-05 2.66137e-05 1.6094e-06 -0.7849894012 -0.0085810381
10299940.0 -0.2104043136 0.0212414796 -1.18942e-05 -2.19195e-05 9.14435e-05 0.0001641725 -0.7884149929 -0.0047989559
15299910.0 -0.2055231684 0.031413562 -8.15474e-05 5.94931e-05 5.89231e-05 -0.0001031697 -0.7935502693 -0.0027654498
20299880.0 -0.1994029444 0.0389367974 -4.83297e-05 -0.0001558424 8.9711e-05 3.11709e-05 -0.8005664395 0.0018001342
25299850.0 -0.1931085102 0.0454619186 -0.0002377479 9.5104e-06 6.91945e-05 1.84876e-05 -0.8069384837 0.0070707642
30299820.0 -0.186379584 0.0502123654 -5.97581e-05 -0.0001833235 9.0145e-06 1.25795e-05 -0.8126019171 0.0145225752
35299790.0 -0.1799571596 0.0543936817 0.0001151843 0.0001184082 -0.0003858285 7.17677e-05 -0.8175776464 0.0233315559
40299760.0 -0.1739942045 0.0571958088 -0.0001425899 2.04467e-05 -6.83098e-05 -2.00592e-05 -0.8219358175 0.0332671467
45299730.0 -0.1684212493 0.0594081217 9.7619e-05 -0.0001181752 9.20352e-05 2.36598e-05 -0.825330704 0.0422541096
50299700.0 -0.1627193255 0.0607812032 -7.15766e-05 0.0001216322 -0.0001689524 -9.28015e-05 -0.8282621341 0.0524175292
55299670.0 -0.1582691866 0.0619146439 4.67713e-05 0.0002008841 -0.0001992244 -0.0001350739 -0.8297842263 0.0630738366
60299640.0 -0.1536430022 0.0621948553 -0.000131003 -4.69991e-05 -7.74815e-05 7.1254e-06 -0.831145093 0.0728670502
65299610.0 -0.1500657495 0.0626630971 4.08992e-05 5.583e-07 3.4521e-05 0.0001047175 -0.8315538365 0.0828172926
70299580.0 -0.146526464 0.062586187 1.4626e-05 0.0001191656 -6.0088e-06 0.0001656691 -0.8323817601 0.0927204284
75299550.0 -0.1431622175 0.0623901726 2.42783e-05 4.90591e-05 -5.09694e-05 -0.0001545941 -0.8325072628 0.1024203676
80299520.0 -0.1402912355 0.0628914423 3.90938e-05 0.0001051517 -6.4682e-06 -8.33884e-05 -0.8321739987 0.1125914741
85299490.0 -0.137843293 0.0623039852 -1.25624e-05 0.0001229901 1.7329e-05 0.0001852479 -0.8319561149 0.1221657959
90299460.0 -0.1356245927 0.0622817591 -6.79919e-05 3.3161e-06 -4.0042e-06 -4.91636e-05 -0.8310422688 0.130887356
95299430.0 -0.1333479522 0.0618268584 0.0001461551 0.00010734 7.05004e-05 0.0002402632 -0.8301666219 0.1411126867
100299400.0 -0.131754634 0.0619428952 -7.04614e-05 -9.46989e-05 -9.25519e-05 6.26336e-05 -0.828540568 0.1498400365
105299370.0 -0.1297502832 0.0617216392 0.0001684329 -3.5901e-05 -1.24533e-05 5.08051e-05 -0.8274604992 0.1591079127
110299340.0 -0.128357677 0.0614589413 -0.000108025 -5.59619e-05 -3.01323e-05 -9.73599e-05 -0.8270378473 0.1683653614
115299310.0 -0.1268653259 0.0611318382 -0.000195078 0.0001430356 0.000116703 -4.611e-05 -0.8246510681 0.1774004748
120299280.0 -0.1257183161 0.0613362245 -6.29707e-05 -6.68224e-05 -0.0001936421 -5.2822e-06 -0.82374875 0.1857738757
125299250.0 -0.1247951943 0.0610022281 -0.0001805765 7.77013e-05 5.95846e-05 0.0001083234 -0.8221535118 0.1951596664
130299220.0 -0.1235904193 0.0613820889 1.39317e-05 -4.18218e-05 2.21936e-05 8.71699e-05 -0.8204071969 0.2040121145
135299190.0 -0.1225208101 0.0610242375 3.31119e-05 -3.49336e-05 4.88045e-05 -7.56067e-05 -0.818034566 0.2129709905
140299160.0 -0.1216518685 0.0614734806 0.0003270489 7.46472e-05 -5.85248e-05 -0.0001328772 -0.8160415668 0.2218806971
145299130.0 -0.1206811082 0.0614422972 -0.0002112069 -6.37169e-05 6.9885e-05 0.0002269158 -0.8137604328 0.2301494022
150299100.0 -0.1202501315 0.0615204705 -3.13611e-05 1.08458e-05 -0.0001428981 -0.0001169317 -0.8117971425 0.2383121047
155299070.0 -0.1190566538 0.0621059894 0.0001415121 -0.0001310333 -9.52291e-05 7.87439e-05 -0.8096710004 0.2477065781
160299040.0 -0.1187451639 0.0621502907 -0.0001099036 3.27331e-05 4.2898e-06 4.25532e-05 -0.8072857896 0.2563873591
165299010.0 -0.1183774406 0.0625711386 0.0002273091 9.0109e-05 -3.22069e-05 8.43898e-05 -0.804715148 0.2650852544
170298980.0 -0.1176826011 0.0627644485 9.4301e-06 0.0002605662 -7.19452e-05 -9.66623e-05 -0.8023446884 0.2734627769
175298950.0 -0.1169663409 0.0634972271 5.35849e-05 -0.0001127793 -0.0002148913 0.0001610106 -0.7989853568 0.2821737074
180298920.0 -0.1161907235 0.0638590295 -4.75891e-05 0.0001926837 0.000204602 4.77392e-05 -0.795633078 0.2902578569
185298890.0 -0.1160559994 0.0643020889 1.45781e-05 0.0001244357 0.0001660919 -1.17199e-05 -0.7930371993 0.2984040478
190298860.0 -0.1151885158 0.064931094 2.92412e-05 3.23644e-05 5.47081e-05 0.0001056084 -0.7896865578 0.3071621605
195298830.0 -0.1145419188 0.0649967591 0.0001214925 -7.75371e-05 2.78653e-05 0.0001770195 -0.7870615191 0.3157898197
200298800.0 -0.1144510427 0.0661658321 -0.0001790179 0.000206945 2.0704e-05 2.78047e-05 -0.7833477616 0.3240119079
205298770.0 -0.1140196659 0.0664767484 0.0001099661 0.0001397586 4.43919e-05 7.02866e-05 -0.7797614074 0.3321319862
210298740.0 -0.1133181561 0.0674552317 -6.84373e-05 3.8795e-05 0.0001813422 7.47327e-05 -0.7772249519 0.3405076091
215298710.0 -0.11306411 0.0678527639 1.8879e-06 -4.97692e-05 -1.47346e-05 5.90932e-05 -0.7738158173 0.3483444893
220298680.0 -0.1126848978 0.0683783939 0.0002261162 0.0001015594 2.2615e-05 0.0002034044 -0.7695122807 0.3570211794
225298650.0 -0.1120917751 0.0692942415 -6.86123e-05 -1.86884e-05 1.76158e-05 0.0001455235 -0.7659729124 0.3649375139
230298620.0 -0.1115696687 0.0700298431 0.0002075713 6.6881e-06 -5.44001e-05 -1.0481e-05 -0.7615533597 0.3727657685
235298590.0 -0.111044866 0.0707899421 3.55519e-05 -8.85464e-05 0.0002025769 0.0001267594 -0.7575598066 0.3801424476
240298560.0 -0.1106848076 0.0716579476 -6.48486e-05 4.45154e-05 4.17782e-05 0.0002311007 -0.7539493974 0.3883008967
245298530.0 -0.1103007666 0.0723442185 8.57321e-05 -7.67755e-05 9.12809e-05 0.0001955196 -0.7504922224 0.3965058883
250298500.0 -0.1098188142 0.0730581954 -0.0001150862 8.44538e-05 0.0001661718 -1.83022e-05 -0.7459539438 0.4046216306
255298470.0 -0.1093144869 0.073922484 9.40255e-05 8.6668e-06 0.0002406684 0.0001369949 -0.7415073269 0.4122699348
260298440.0 -0.1084823685 0.0748683789 -9.43217e-05 0.0001393396 0.0001826606 0.0001466249 -0.7368295646 0.4199179165
265298410.0 -0.108330878 0.075918914 0.0001327184 6.85548e-05 0.0001075005 0.0001987818 -0.7324574057 0.4275178895
270298380.0 -0.1076055141 0.076804217 5.67667e-05 -8.35328e-05 -0.0001092329 0.0001524143 -0.7279191613 0.4354567207
275298350.0 -0.1071282629 0.0776030518 -5.57344e-05 -8.21491e-05 5.41365e-05 0.0001622815 -0.7230155611 0.4433454791
280298320.0 -0.1065763 0.0784101423 -1.62998e-05 0.0002192655 0.0001587144 0.0001092849 -0.7186740778 0.4501352579
285298290.0 -0.1059444202 0.0796543674 -0.0001000374 0.0001342387 1.85162e-05 -4.63109e-05 -0.7136312289 0.4580248884
290298260.0 -0.1053672176 0.0802412069 0.0002037721 1.51654e-05 5.74499e-05 0.0001552846 -0.7090317497 0.4658591017
295298230.0 -0.104842514 0.0811052574 0.0001017736 7.35395e-05 -2.82983e-05 0.0001037088 -0.7038026495 0.4725891664
300298200.0 -0.104223129 0.0816088602 -6.0224e-05 0.0001116865 -0.0001074666 4.40268e-05 -0.6986650325 0.4800182555
305298170.0 -0.1034321361 0.0828662284 0.0001702158 0.0002823351 4.21662e-05 0.0002823399 -0.6935245397 0.4878262911
310298140.0 -0.1029019644 0.0832881229 0.0001865602 0.0003152275 -9.069e-06 0.0001035539 -0.6889980941 0.4950947301
315298110.0 -0.1025517301 0.0843223913 1.60772e-05 0.0001430092 0.0001326646 -2.58352e-05 -0.6832958985 0.5019178801
320298080.0 -0.1016750134 0.0855367995 -0.0002174589 -9.25431e-05 -0.0001649708 0.0003494187 -0.6781380113 0.5097450557
325298050.0 -0.1013822525 0.0863928498 1.22018e-05 0.0001193294 0.0002389924 0.0001620123 -0.6723969446 0.5160119865
330298020.0 -0.1006521569 0.0871243167 -8.09131e-05 0.0001052614 0.000128774 0.0001553013 -0.6665609858 0.5231477541
335297990.0 -0.1003676811 0.0883527222 9.50807e-05 8.06815e-05 1.51925e-05 0.0002178922 -0.6613598154 0.53021947
340297960.0 -0.099825074 0.0891836367 0.0001474196 0.0001802914 0.0001569516 0.000207092 -0.6554681381 0.537276261
345297930.0 -0.0993947869 0.0903250459 -5.91507e-05 1.44328e-05 3.00073e-05 -5.00195e-05 -0.650026762 0.5443701988
350297900.0 -0.0984227858 0.0911552759 0.0002932056 9.40378e-05 0.0001602174 5.59156e-05 -0.6449543092 0.5509521564
355297870.0 -0.0980920738 0.0922358858 0.0001070583 -1.61256e-05 0.0002193265 0.0003521935 -0.638205626 0.5569520998
360297840.0 -0.0973066558 0.0931757267 0.0001975631 -3.64434e-05 6.47487e-05 7.83836e-05 -0.6321805813 0.5637333402
365297810.0 -0.0966209667 0.0941461262 0.0001476626 -0.0001172949 -2.04901e-05 -0.000189552 -0.6265548462 0.5706399087
370297780.0 -0.096066602 0.0951875018 0.0001890722 -9.91721e-05 8.01861e-05 3.03262e-05 -0.6205710435 0.576393865
375297750.0 -0.0953503112 0.096546619 9.5109e-05 0.0001578952 0.0001893177 0.0001352629 -0.6142010283 0.5833764358
380297720.0 -0.0942421614 0.0972650215 3.73214e-05 -3.52945e-05 0.0001577411 0.0002710901 -0.6084024676 0.5900765753
385297690.0 -0.093691134 0.098479018 0.0001310888 -8.37375e-05 2.77908e-05 -2.3128e-05 -0.6023025189 0.5962329726
390297660.0 -0.0930197937 0.0994106929 8.71901e-05 2.58259e-05 9.09117e-05 0.0001546977 -0.5956934249 0.601496285
395297630.0 -0.0919417439 0.1003608803 0.0003381307 8.718e-07 -6.57852e-05 2.80794e-05 -0.5890516249 0.6081085212
400297600.0 -0.0912043076 0.1014662988 8.88289e-05 0.0001076233 -8.06787e-05 0.00016967 -0.5829779996 0.6136930754
405297570.0 -0.0905155483 0.1023445846 0.0001254585 0.0001111752 0.0001086996 6.37823e-05 -0.5769700941 0.6199836372
410297540.0 -0.0896025942 0.1031629881 0.0001698057 -5.05684e-05 0.0001163158 -5.22097e-05 -0.570194754 0.6256167211
415297510.0 -0.0885773758 0.1041396523 0.0002533283 0.0002207405 0.0002975515 0.0001622766 -0.5636749293 0.6319568098
420297480.0 -0.0878056168 0.1052015247 7.5058e-05 -2.5706e-06 0.0003089677 0.0001539842 -0.5573050407 0.6361917769
425297450.0 -0.0870991118 0.1060230461 4.76769e-05 4.60254e-05 0.0001041625 0.0002139166 -0.5504927506 0.6427279344
430297420.0 -0.0862240316 0.1069960627 0.0002325512 5.87376e-05 0.0003128729 0.0001082914 -0.5439145825 0.64901704
435297390.0 -0.0851168431 0.10808975 0.0002405134 2.42294e-05 0.000322583 1.29491e-05 -0.5370957587 0.653592654
440297360.0 -0.0842302462 0.1088357395 0.00026992 -7.7071e-06 0.0001805194 7.80754e-05 -0.5303972717 0.6588996403
445297330.0 -0.0834478657 0.1101561958 6.096e-06 0.0001216151 0.0001035852 4.118e-05 -0.5240356696 0.6643176467
450297300.0 -0.082180734 0.1106947337 0.0001731678 -7.83905e-05 0.0002930815 0.0001604359 -0.5170803422 0.669924053
455297270.0 -0.0814945291 0.1117754546 2.15602e-05 -5.66631e-05 0.0002235068 0.0001270149 -0.5096596216 0.6747757774
460297240.0 -0.0806048239 0.112760451 1.1695e-06 -3.648e-06 5.04576e-05 -0.0001361032 -0.5027038404 0.6799826149
465297210.0 -0.0793482 0.1137305193 0.0001598845 -6.23151e-05 0.0002377131 -1.1772e-05 -0.4966590197 0.684615039
470297180.0 -0.0785222124 0.1147263707 0.0001114576 2.55616e-05 0.0001164355 2.3899e-05 -0.4897647646 0.6892979727
475297150.0 -0.0776912082 0.1153622962 -9.37449e-05 6.49708e-05 0.000340027 -2.86146e-05 -0.4823364378 0.6945202106
480297120.0 -0.076565142 0.1162581322 0.0002308493 -1.13229e-05 0.0001319634 -2.62273e-05 -0.4755037259 0.7001439933
485297090.0 -0.0758094136 0.1173335067 0.000280272 -1.60585e-05 0.0002647096 0.0001468179 -0.4681906067 0.7038970438
490297060.0 -0.0744806707 0.1181311774 0.000329893 -7.68942e-05 5.76583e-05 3.20543e-05 -0.4613678065 0.708511406
495297030.0 -0.0735314367 0.1190797473 0.0001513684 0.0001736737 1.18006e-05 -0.0001015044 -0.4534645914 0.7128670232
500297000.0 -0.072596542 0.1199251423 0.0003859523 6.7857e-05 0.0002901975 -5.84856e-05 -0.4468427707 0.7178151429
505296970.0 -0.0716404611 0.1206741733 4.65847e-05 -0.0002095179 0.0003381941 0.0001560536 -0.4401766232 0.7222993071
510296940.0 -0.0703910553 0.1216814777 0.0001961737 0.000102413 0.0003405705 -2.2284e-05 -0.4320838626 0.7261952333
515296910.0 -0.0694369381 0.1225246983 0.0001936027 0.0001076638 8.52289e-05 -3.83656e-05 -0.4251755462 0.7306085553
520296880.0 -0.0682384226 0.1234751814 0.0001699145 2.42874e-05 0.0001158506 3.35379e-05 -0.4179371263 0.7349919803
525296850.0 -0.0671919217 0.1241657946 -6.38851e-05 0.0001182349 0.0001725245 -0.0002959241 -0.4102835446 0.7391593044
530296820.0 -0.0660367174 0.1249919245 0.0002035799 9.75757e-05 0.0001369944 0.0001795076 -0.4034042522 0.7428847629
535296790.0 -0.0645788228 0.1255908727 6.92767e-05 0.0001309101 0.0002882797 0.0001400217 -0.3958448406 0.7466292097
540296760.0 -0.0638182822 0.1263491344 0.0002188169 7.66803e-05 0.0001670801 -1.95871e-05 -0.3883107554 0.7511877765
545296730.0 -0.0625041807 0.1271807456 0.0001980691 0.0001878298 2.8552e-05 -2.33971e-05 -0.3806993211 0.7541197933
550296700.0 -0.0616401921 0.1281030971 -5.94912e-05 0.0002560386 0.0001037793 0.0001526306 -0.3737341928 0.7581157675
555296670.0 -0.0601099057 0.128968685 0.000269334 9.75695e-05 0.0001823173 0.0001099772 -0.3656239921 0.7617784655
560296640.0 -0.0591143707 0.1294807799 0.0003045208 -6.432e-06 5.75448e-05 -5.0374e-06 -0.3577132183 0.7654515685
565296610.0 -0.0579662581 0.1305397603 0.0002218299 -0.0001397546 0.0003839827 1.97152e-05 -0.3505777639 0.7690904836
570296580.0 -0.0567422329 0.1311540475 0.0001383934 0.0002591603 0.0001146447 -0.0001453388 -0.3431549157 0.7725083828
575296550.0 -0.0554851781 0.131905914 0.0001437892 -7.33534e-05 0.0002906973 -9.10063e-05 -0.3346926691 0.775623174
580296520.0 -0.0542601169 0.1326327634 0.0001466151 0.0002130548 0.0002153173 1.475e-07 -0.3269815508 0.7790216091
585296490.0 -0.0532475239 0.1333201006 0.0001374613 -3.7967e-06 0.0002688554 0.0002036217 -0.319776147 0.7821752801
590296460.0 -0.0520548311 0.1340337671 0.0002132649 0.000179647 0.0002988143 0.000154146 -0.3120627975 0.7849517056
595296430.0 -0.0505848476 0.1345195224 1.91625e-05 -0.0002466884 0.0002322379 -4.53276e-05 -0.3040470089 0.7875875926
600296400.0 -0.0494411008 0.1353360352 0.0003316873 -8.55893e-05 0.0003364742 8.42411e-05 -0.2960722786 0.7917779292
605296370.0 -0.0480870227 0.1362576627 5.74827e-05 -8.06321e-05 0.0004515598 -0.0001952027 -0.2888880302 0.7948886397
610296340.0 -0.0468489421 0.1365430927 0.0004680364 1.694e-06 0.0002605293 7.3796e-06 -0.2807771889 0.79711167
615296310.0 -0.0456865194 0.1374265203 0.0002766475 -4.49347e-05 0.0001590176 -0.0001167801 -0.2727497103 0.7996108741
620296280.0 -0.0441844582 0.1378212807 0.0001223538 -0.000110197 4.98124e-05 0.0002225175 -0.2645350736 0.8016499613
625296250.0 -0.0430038786 0.1385033807 0.0004085266 -0.0001416413 0.0002385809 -0.0001299946 -0.2568469379 0.8039344044
630296220.0 -0.0417511764 0.1390426402 0.000163191 -1.9897e-06 0.0003748283 -2.9548e-05 -0.248871965 0.8074333425
635296190.0 -0.0405135828 0.1397734952 0.0002492118 7.94685e-05 0.0002164225 -9.50324e-05 -0.2404580138 0.8094164888
640296160.0 -0.0391821348 0.1402427961 0.0002789947 5.16493e-05 0.0003765233 9.98476e-05 -0.2325677702 0.8116676835
645296130.0 -0.0379095857 0.1410424983 0.0002921739 0.0001129499 0.0001178313 9.6527e-05 -0.2246671229 0.8139298436
650296100.0 -0.0365983704 0.1416776125 -5.4194e-05 -0.0001066375 0.0002150465 0.000277644 -0.2171692256 0.8166785991
655296070.0 -0.0351908213 0.1420849468 0.0003259749 1.4335e-06 0.0002033456 8.99512e-05 -0.2083284945 0.8177188785
660296040.0 -0.0340967189 0.1426440947 0.0003741115 -1.25358e-05 4.91482e-05 8.60489e-05 -0.2005711692 0.8204324801
665296010.0 -0.0323899132 0.1432897446 0.0003069799 4.95668e-05 0.0002174096 0.000156676 -0.1925922201 0.821877123
670295980.0 -0.0311638159 0.1436155279 0.0004481943 -5.57564e-05 0.0001220742 -3.42933e-05 -0.1852632342 0.8243291082
675295950.0 -0.0299153517 0.1441655574 0.0002931059 -8.16518e-05 0.0001567313 -0.0001435138 -0.1762180025 0.8261062885
680295920.0 -0.0285226565 0.1449191302 0.0001665514 0.0001624822 0.0001931982 -4.8495e-06 -0.1679229145 0.8275711826
685295890.0 -0.0269895805 0.1451066247 0.0001869556 7.70521e-05 0.0002954961 0.0002300086 -0.1594257728 0.8289802732
690295860.0 -0.0255175902 0.1455800464 0.0001818504 -1.5472e-06 0.0001936226 0.0001727811 -0.1520122298 0.830973102
695295830.0 -0.024179905 0.1458326318 0.0002015097 -0.0002817043 0.0001308326 -2.33225e-05 -0.1438332407 0.8325501796
700295800.0 -0.0228713956 0.1464671222 0.0001946807 0.0001548049 0.0003106156 0.0001020086 -0.1350086739 0.8333346118
705295770.0 -0.0214791915 0.1469092148 0.000258893 3.09481e-05 0.0002484146 -7.49945e-05 -0.1275914367 0.8348950036
710295740.0 -0.0200001688 0.1473761588 0.0002639115 5.09451e-05 0.0002585282 -4.8456e-06 -0.1191479529 0.8367649734
715295710.0 -0.0190025928 0.1477755135 0.0002431473 -3.54356e-05 0.0002002444 3.52951e-05 -0.1110106478 0.8373765653
720295680.0 -0.0175059327 0.1480299437 7.68522e-05 6.38423e-05 0.0003254671 0.0001367427 -0.1023646811 0.8386726383
725295650.0 -0.0160122105 0.1484108784 0.0003012159 5.24813e-05 0.0002353205 -0.0001052676 -0.0942322283 0.839655933
730295620.0 -0.014585321 0.1488851818 0.0002146218 5.44017e-05 0.0002218759 5.77516e-05 -0.0854694915 0.8403768092
735295590.0 -0.012901604 0.1490295354 0.0002813632 7.36358e-05 0.0001531674 0.0002028313 -0.0767667468 0.8407151457
740295560.0 -0.0116201931 0.1496629461 0.0002624634 -0.0001096925 0.0001014186 7.16542e-05 -0.0693481969 0.8409584049
745295530.0 -0.0103389287 0.1495756694 0.0002227229 4.2692e-05 0.0002179001 -8.37477e-05 -0.0605762162 0.8422546127
750295500.0 -0.0090365031 0.1500300906 0.0002660029 -6.34394e-05 0.000345606 6.93019e-05 -0.0529392043 0.8420845761
755295470.0 -0.0071581656 0.1505234821 0.0001156956 1.37325e-05 0.0002974124 -0.000158666 -0.0445746179 0.8432642562
760295440.0 -0.0060299397 0.15080669 0.0001415059 -5.13731e-05 0.0004012841 6.28088e-05 -0.0369507704 0.8443032237
765295410.0 -0.0044668742 0.1508746162 0.0003644063 0.0002511898 0.0002323195 -1.22355e-05 -0.027294221 0.8443686914
770295380.0 -0.0029629381 0.1512326601 0.0001481505 0.0001864649 0.0005069893 4.32449e-05 -0.0190697115 0.8443738527
775295350.0 -0.0016526566 0.1516373776 0.0002632464 -0.000345351 0.0003056048 0.0001470985 -0.0116099016 0.8441307181
780295320.0 -9.9469e-06 0.15161971 0.0004736501 9.57817e-05 0.0003792265 -8.59858e-05 -0.0025861876 0.84475617
785295290.0 0.0014482853 0.1520660429 0.0002655112 3.35801e-05 0.0002872307 7.23918e-05 0.0048309124 0.8446030488
790295260.0 0.0026570958 0.15218704 0.0001792258 -3.16423e-05 0.0004282364 -0.000184763 0.0144828755 0.8445276251
795295230.0 0.004112617 0.1527186771 0.0001210692 -0.0001470114 0.0004061472 -8.01755e-05 0.0224844095 0.8445082549
800295200.0 0.006013287 0.1526346322 0.0002822201 -1.4694e-06 0.0002086054 2.6032e-05 0.0303158919 0.8435984666
805295170.0 0.0073370828 0.152734668 0.0001582623 -0.0001585658 0.0003424946 -0.0001829118 0.0385744472 0.8436580631
810295140.0 0.0086906719 0.1528160073 0.0003246217 -0.0002612932 0.0004422169 0.0001787858 0.0468446087 0.8441508794
815295110.0 0.010190638 0.1530461977 0.0001263303 7.8502e-06 0.0001958919 1.1075e-05 0.0550936797 0.8429906406
820295080.0 0.0117110348 0.1529014214 0.0001753984 -0.0001664562 0.0002942483 -1.72187e-05 0.0630927964 0.8423385501
825295050.0 0.0133625856 0.1531336405 0.0001679067 -1.1553e-05 0.0001709475 -0.0001794174 0.071958029 0.8415391957
830295020.0 0.0147368587 0.1533419499 0.0002703347 -0.0002221359 0.0003129169 3.1582e-05 0.0798467321 0.8408706059
835294990.0 0.0160310645 0.1534599144 0.000301806 -5.9304e-05 0.000181262 3.6894e-05 0.0882426424 0.8395853622
840294960.0 0.017558052 0.153508682 0.0002187504 -9.42363e-05 0.0004280765 -3.14043e-05 0.0960086371 0.839267818
845294930.0 0.0192502746 0.1536153058 0.0002571062 -1.17255e-05 0.0005777146 -0.0002155169 0.1046424583 0.8378671485
850294900.0 0.0207047951 0.1534126304 0.0003374626 -0.0002214018 0.0003045184 -0.0003494701 0.1126058608 0.8373919624
