!Created with skrf (http://scikit-rf.org).
# Hz S RI R 50.0 
!freq ReS11 ImS11 ReS21 ImS21 ReS12 ImS12 ReS22 ImS22
300000.0 -0.2414849907 -0.0775693964 0.4716410338 0.0518369916 0.4675752097 0.0516064651 -0.2409078832 -0.092299174
5299970.0 -0.2442617796 0.007322014 0.473750963 0.0049112088 0.4738302649 0.0050002562 -0.2441453268 0.0070999057
10299940.0 -0.2412458115 0.0187364117 0.4755544028 0.0060932 0.4755057582 0.0063890982 -0.2407014406 0.0202804374
15299910.0 -0.2367999527 0.0278671391 0.4789976344 0.0080333152 0.4793916756 0.0074197562 -0.2362113319 0.0296799434
20299880.0 -0.2319128333 0.0353900857 0.4837761465 0.008575751 0.4841744177 0.0084897157 -0.2311091377 0.03759508
25299850.0 -0.2268722691 0.0422077278 0.4890859718 0.0073039374 0.4890408284 0.0076075363 -0.2248079678 0.0435696802
30299820.0 -0.2213331973 0.0470328081 0.4941392137 0.0055372614 0.4944267971 0.0055027794 -0.2189126007 0.0492081592
35299790.0 -0.2164941055 0.0514749029 0.5001705212 0.0020793513 0.4998289159 0.0022193349 -0.2136714231 0.0531476461
40299760.0 -0.211447123 0.0550445524 0.5050986231 -0.0019175724 0.5054184821 -0.0016894014 -0.2080982336 0.056317228
45299730.0 -0.2067710701 0.0576340364 0.5095691436 -0.0064158426 0.5100111472 -0.0063434726 -0.203295441 0.0591578486
50299700.0 -0.2023479911 0.059831911 0.5144012899 -0.0118516772 0.5139370281 -0.0114377401 -0.1986212083 0.0607178511
55299670.0 -0.1984824462 0.0618429462 0.5180002227 -0.018475167 0.5178976236 -0.0180104044 -0.1942853117 0.0623143489
60299640.0 -0.1943546993 0.0635959845 0.5212566512 -0.0243832637 0.5215057653 -0.02395923 -0.1903930986 0.063141122
65299610.0 -0.1911295826 0.0650038132 0.5240534022 -0.0307254124 0.5240703171 -0.0305996252 -0.1870770552 0.0643633944
70299580.0 -0.1879495064 0.066250236 0.5266141065 -0.0370966111 0.5265720304 -0.0370842406 -0.1839270979 0.0648292303
75299550.0 -0.184906639 0.0671443313 0.5281689409 -0.0440253225 0.5282772663 -0.0440666041 -0.1809392748 0.0652240579
80299520.0 -0.1825323395 0.0682398296 0.5304547238 -0.0509168967 0.5305015053 -0.051007378 -0.1784710382 0.0658114765
85299490.0 -0.1803065947 0.0690212997 0.5319487203 -0.0577420326 0.5319361303 -0.0574392934 -0.176256913 0.0660047441
90299460.0 -0.1779775628 0.0700598682 0.5325531188 -0.0649025461 0.5329202904 -0.064740359 -0.173792928 0.0670785325
95299430.0 -0.175582493 0.0705554428 0.5341760245 -0.0717960442 0.5338505278 -0.0715332387 -0.1715380591 0.0672909864
100299400.0 -0.1741173514 0.0716088036 0.5337226727 -0.0783570006 0.5337101049 -0.0786126436 -0.1693648753 0.0673558111
105299370.0 -0.1719235632 0.0722541628 0.5342286267 -0.0855249332 0.5343097819 -0.0856176662 -0.1673669133 0.0680080983
110299340.0 -0.1704879166 0.0733317228 0.5347600078 -0.0922780429 0.5344567818 -0.0920863517 -0.1664282651 0.0684355529
115299310.0 -0.1687996861 0.0742805581 0.5344995551 -0.0993488928 0.5341078064 -0.0991122728 -0.1646940575 0.0691786958
120299280.0 -0.1672245273 0.0747531742 0.5341810085 -0.106095412 0.5346386316 -0.1059353052 -0.1631876069 0.0695865701
125299250.0 -0.1661283574 0.0754869634 0.5339117919 -0.1125944987 0.5341446336 -0.1121071072 -0.1624265544 0.0695424371
130299220.0 -0.1649478965 0.0769241344 0.5335740726 -0.1194890709 0.5332170824 -0.1192747502 -0.1610212139 0.0704972399
135299190.0 -0.1638320605 0.0776708512 0.5328962539 -0.1257516092 0.5329424488 -0.1259162194 -0.159837713 0.0710248985
140299160.0 -0.1627381099 0.0789539896 0.5318224676 -0.132869223 0.5316470812 -0.1326089367 -0.1586277289 0.072164108
145299130.0 -0.1612624875 0.0799628716 0.5313749201 -0.139519357 0.5304506037 -0.1390784064 -0.1577414425 0.0728074697
150299100.0 -0.1599244669 0.081201123 0.529423168 -0.1450951371 0.5298272313 -0.1453198996 -0.1569706305 0.0737293293
155299070.0 -0.1594481977 0.0820199785 0.5289937845 -0.1528066494 0.5286156772 -0.1520508234 -0.1557698804 0.0747513046
160299040.0 -0.1581668523 0.0835049544 0.5269330618 -0.1588859118 0.5269535793 -0.1587990149 -0.1555142961 0.0753856602
165299010.0 -0.157336848 0.0847072378 0.5260110762 -0.1652376257 0.52597497 -0.1655842844 -0.1541490554 0.0768120893
170298980.0 -0.1564919 0.085815836 0.5244017763 -0.1716614359 0.5244298588 -0.1715058955 -0.1536036125 0.077630139
175298950.0 -0.1554163959 0.0868756054 0.5229114946 -0.1775554286 0.5223856484 -0.1779512631 -0.1529643086 0.0787581003
180298920.0 -0.1545291916 0.0883603645 0.520966658 -0.1844321088 0.5207484062 -0.1837470819 -0.152404987 0.0796290705
185298890.0 -0.1531092277 0.0894185683 0.5189252953 -0.1904375153 0.5188411318 -0.1903575738 -0.1513174366 0.0811894513
190298860.0 -0.1526888847 0.091091231 0.5171692484 -0.1966946346 0.517798493 -0.1963623376 -0.1507651866 0.0818844829
195298830.0 -0.1519746071 0.0919887854 0.5154063568 -0.2024620699 0.5151026916 -0.2025864045 -0.1493890553 0.0830166082
200298800.0 -0.1509335439 0.0936465632 0.5131482237 -0.2087284113 0.5131470582 -0.2089651381 -0.1495406221 0.0844733292
205298770.0 -0.1498165641 0.0950462013 0.510700646 -0.2151276752 0.5110254578 -0.2148893064 -0.1487891797 0.0848700882
210298740.0 -0.1487955554 0.0962178185 0.5085489979 -0.22054973 0.508723967 -0.2205391128 -0.1476606555 0.0865644382
215298710.0 -0.1483074184 0.0978612424 0.5065724585 -0.2267913957 0.5061583583 -0.2268590451 -0.1472555076 0.0876761741
220298680.0 -0.1470097634 0.0987023282 0.5032558074 -0.2323256863 0.5037400965 -0.232806741 -0.1468836537 0.0887407854
225298650.0 -0.1461614458 0.1003885439 0.5013163907 -0.2385410077 0.501520362 -0.2384592187 -0.1461774211 0.0896617063
230298620.0 -0.1451777209 0.1021706724 0.4988359961 -0.2440777041 0.4992080204 -0.2444831089 -0.1455320844 0.090950682
235298590.0 -0.143998958 0.1038811739 0.4963396947 -0.2502066518 0.4961746014 -0.2495333301 -0.1443747908 0.0922045078
240298560.0 -0.1431288906 0.1051407706 0.4935099878 -0.2560872875 0.4936532895 -0.2557120152 -0.1439224034 0.0935393984
245298530.0 -0.1421414971 0.1063930297 0.491153269 -0.2618294405 0.4907478316 -0.2614166394 -0.1429914767 0.0941731197
250298500.0 -0.1408738131 0.1079573164 0.4879590126 -0.2672840847 0.4873009114 -0.2667565193 -0.1423976754 0.0957610949
255298470.0 -0.1401817979 0.1091254119 0.4843705273 -0.272897446 0.4849995837 -0.2725632795 -0.1415122473 0.096581291
260298440.0 -0.1390982641 0.1107249488 0.4821872652 -0.2788813662 0.4823330875 -0.2781189018 -0.1403870445 0.0979498387
265298410.0 -0.13734903 0.112597656 0.4789168493 -0.284164135 0.478998404 -0.2832461446 -0.1398783471 0.0994605441
270298380.0 -0.1366054224 0.1136452419 0.4764461949 -0.2891071137 0.4763067066 -0.2890430237 -0.1389051563 0.100621533
275298350.0 -0.1351547386 0.1153001848 0.4728426444 -0.2948261324 0.4732721754 -0.2945712763 -0.1377146131 0.1018716476
280298320.0 -0.1340725518 0.1166974263 0.4697149842 -0.2998541055 0.4697788235 -0.2998281579 -0.1369064198 0.1029752505
285298290.0 -0.1328374029 0.1185229427 0.4665719891 -0.305130299 0.466577085 -0.3054703083 -0.1360554034 0.1043548423
290298260.0 -0.1313194315 0.1198269905 0.4631610943 -0.3103636399 0.463305194 -0.310758019 -0.1348398406 0.1058444198
295298230.0 -0.1301404632 0.1207963186 0.4595002963 -0.3155991495 0.4599384598 -0.3158326797 -0.1334756979 0.106842452
300298200.0 -0.1293127692 0.1222839575 0.4566169747 -0.3207115818 0.4565653408 -0.3214968425 -0.1330204508 0.1079859965
305298170.0 -0.1278514062 0.1235160048 0.4525833625 -0.3265427498 0.4525585481 -0.3262589688 -0.1312064531 0.1091615352
310298140.0 -0.1264189079 0.1253049385 0.4489852419 -0.3316989313 0.449367549 -0.331563647 -0.1303713961 0.1102453379
315298110.0 -0.1252413194 0.1262200256 0.4457951587 -0.3369824064 0.4460312227 -0.3365735663 -0.1294837472 0.1114577879
320298080.0 -0.1234546388 0.127578848 0.4413613416 -0.3419252359 0.4421023116 -0.342160095 -0.1287663827 0.1129524418
325298050.0 -0.1225477839 0.1288962883 0.4377159579 -0.3470395084 0.4378410857 -0.3469648353 -0.1279725994 0.1138525567
330298020.0 -0.1215590852 0.1302394845 0.433919254 -0.3522850096 0.4341091172 -0.3520341922 -0.1269303122 0.1151764451
335297990.0 -0.119929288 0.1313734544 0.4295086468 -0.3566731701 0.4300120493 -0.3567685804 -0.1264244252 0.1171629716
340297960.0 -0.1192069362 0.1330914675 0.4256974971 -0.3611927754 0.4253353468 -0.3615871224 -0.1249894029 0.11818663
345297930.0 -0.1179521143 0.1347554858 0.4218588864 -0.3665546446 0.4215904576 -0.3661662495 -0.1242175529 0.1192003911
350297900.0 -0.1164373679 0.1356485508 0.4169721516 -0.3709801134 0.4172038042 -0.3708843663 -0.1234187013 0.1212251068
355297870.0 -0.1151114876 0.1376873825 0.4129736204 -0.3752880082 0.4138050197 -0.3753334149 -0.1228801968 0.1221797219
360297840.0 -0.1137381716 0.1388359641 0.4091773724 -0.3796718757 0.4094745389 -0.3797273773 -0.121434242 0.1235780277
365297810.0 -0.1124349982 0.1405061006 0.4048777494 -0.3846524475 0.4054971634 -0.38438524 -0.1200174396 0.1250089707
370297780.0 -0.1106057425 0.141570899 0.4006644162 -0.3887723691 0.4008562893 -0.3885844306 -0.1190798866 0.126511385
375297750.0 -0.1091570222 0.1429090586 0.3963341513 -0.3931830436 0.3970504771 -0.3934706038 -0.1180171719 0.1273422906
380297720.0 -0.1076801762 0.1442872118 0.3925553917 -0.3978968444 0.3924331442 -0.3972027078 -0.1172697446 0.1286113933
385297690.0 -0.1065255603 0.1454283187 0.387815519 -0.4016432834 0.387905325 -0.401613619 -0.1160401295 0.1301962808
390297660.0 -0.1049093116 0.1471731344 0.3835797944 -0.4061979443 0.3832222846 -0.4058815546 -0.1148720034 0.1313247038
395297630.0 -0.1031648753 0.1484375109 0.3783430253 -0.4103863458 0.3787773861 -0.4106425367 -0.1128500953 0.1328423771
400297600.0 -0.1017043001 0.149641284 0.374189767 -0.414903604 0.3741307505 -0.4145863153 -0.1119485099 0.133807174
405297570.0 -0.1001203008 0.1507051849 0.3695086476 -0.4187159315 0.3696063078 -0.418377651 -0.1111945929 0.1351362208
410297540.0 -0.0986406656 0.151919318 0.3652629853 -0.422857963 0.3655288253 -0.4226427232 -0.1099234529 0.1365137633
415297510.0 -0.0964591305 0.1528016796 0.3601653425 -0.426777768 0.3606039213 -0.4265368848 -0.1086602968 0.1376333631
420297480.0 -0.095192963 0.1546795436 0.3556707659 -0.430518356 0.3560132824 -0.4306049599 -0.1078097736 0.1384764042
425297450.0 -0.0935801269 0.1554668107 0.3510593282 -0.4342775228 0.3514470802 -0.4346623724 -0.1068326418 0.1400972545
430297420.0 -0.0920338646 0.156578407 0.346195627 -0.4375474191 0.3462369093 -0.4379733936 -0.1051496388 0.1409117129
435297390.0 -0.0904295578 0.1578249675 0.3409584239 -0.4420119423 0.3413898752 -0.4419744729 -0.1034735906 0.1419499819
440297360.0 -0.0884976355 0.1590647016 0.3365035057 -0.4452604692 0.3364944758 -0.4454959811 -0.102112515 0.1427242855
445297330.0 -0.0868862627 0.1600257424 0.3319844245 -0.449841933 0.3319133439 -0.4491102069 -0.1010382393 0.14356458
450297300.0 -0.0848983932 0.1612381138 0.3269245865 -0.4529027632 0.3266535091 -0.4532751847 -0.0997549261 0.144825797
455297270.0 -0.0830950568 0.162283427 0.3211687776 -0.4563698132 0.3218968253 -0.4567585075 -0.0981452403 0.1459254692
460297240.0 -0.0813812613 0.1632077278 0.3163314346 -0.4594937383 0.3169129065 -0.459737762 -0.0967322513 0.1472074641
465297210.0 -0.0795046511 0.1641591623 0.3117264264 -0.4631201418 0.3116809104 -0.4635396641 -0.095004711 0.1482305908
470297180.0 -0.0778037426 0.1651689712 0.306302809 -0.4665268893 0.3064713096 -0.466576987 -0.0935151327 0.1493143812
475297150.0 -0.0760416503 0.1658293853 0.3013730654 -0.469333281 0.3016492686 -0.4697345991 -0.0918798951 0.1500434217
480297120.0 -0.0743405867 0.1674017385 0.2962723808 -0.4729007144 0.2962698622 -0.4734254458 -0.090284524 0.1513329213
485297090.0 -0.0726199275 0.1683807504 0.2916879186 -0.4758962786 0.291085832 -0.4760683059 -0.0890210205 0.1520542408
490297060.0 -0.0708236332 0.1690471037 0.2860580283 -0.4799202106 0.2861102517 -0.4792033985 -0.0872929678 0.153365115
495297030.0 -0.068965352 0.1701057085 0.2803399675 -0.4821657346 0.2812617214 -0.4821058558 -0.0862635174 0.1542925316
500297000.0 -0.0670479398 0.1708496285 0.2752080798 -0.4851228514 0.275001033 -0.4851337539 -0.0845086997 0.1558649373
505296970.0 -0.0648681615 0.1716513617 0.2700207686 -0.4882481367 0.2697595499 -0.488387884 -0.0832041156 0.1563408716
510296940.0 -0.0633405146 0.172769494 0.2646807433 -0.4914386496 0.2644645011 -0.4916553517 -0.0812654626 0.1577629811
515296910.0 -0.0611514979 0.173716047 0.2589570417 -0.4944939962 0.2592249017 -0.4937474551 -0.0800059958 0.1581439629
520296880.0 -0.059456501 0.1744951031 0.2542040777 -0.4972593265 0.2538267988 -0.4966505521 -0.0785883998 0.1594334697
525296850.0 -0.0573148113 0.1747213958 0.2483974828 -0.4998855054 0.2488809581 -0.4998790371 -0.0771448032 0.1603968651
530296820.0 -0.0552714468 0.1758230594 0.2427421443 -0.502396539 0.2427132125 -0.5024068247 -0.0755252016 0.1613355423
535296790.0 -0.0538308916 0.1766295463 0.2381111037 -0.50481462 0.2377511669 -0.5043749025 -0.0740800236 0.1619428835
540296760.0 -0.0519978981 0.1773812605 0.2321589482 -0.5078310165 0.2320532912 -0.507594371 -0.0728792648 0.1636186717
545296730.0 -0.0499605022 0.1781805246 0.2262853634 -0.5094453656 0.2262301427 -0.5099178628 -0.0712106515 0.1637503486
550296700.0 -0.0474273621 0.1789438304 0.2206583906 -0.5125340005 0.2210120381 -0.5126259724 -0.0700214985 0.1650983011
555296670.0 -0.0459925117 0.1794562556 0.2154811378 -0.5147540998 0.21539962 -0.5144297435 -0.0679890007 0.1659205685
560296640.0 -0.0438192542 0.180334851 0.2099696638 -0.5168354043 0.2099654252 -0.5169499177 -0.0665891664 0.1667076679
565296610.0 -0.0420604926 0.1809400241 0.2036566639 -0.5195446166 0.2041861776 -0.5191944565 -0.0646975421 0.1671810808
570296580.0 -0.039922172 0.1813156134 0.1987049843 -0.5217469837 0.1979896223 -0.5215004012 -0.0637971629 0.1688487827
575296550.0 -0.0380522703 0.1822194879 0.1928972871 -0.524053534 0.1928103993 -0.5233961725 -0.0614494508 0.1688132863
580296520.0 -0.0359973022 0.1827523377 0.1870952842 -0.5256983045 0.1869291365 -0.5255827754 -0.0599262373 0.1694891291
585296490.0 -0.033903794 0.182955173 0.1813467565 -0.5271773827 0.181560197 -0.5275741002 -0.0584500014 0.1704797719
590296460.0 -0.0315832012 0.183507893 0.1756366905 -0.5291485878 0.1756894774 -0.5291463538 -0.0574549731 0.1709843136
595296430.0 -0.0298653784 0.1840089598 0.1696020536 -0.5314230075 0.1698166673 -0.5312837116 -0.0553707881 0.1713586162
600296400.0 -0.0280067947 0.1845354726 0.1642609479 -0.5330814716 0.164436062 -0.5326715387 -0.0540145924 0.1721977638
605296370.0 -0.025721751 0.1852506452 0.1583451843 -0.5345535851 0.1586389899 -0.5345593035 -0.0521153385 0.172987534
610296340.0 -0.0237399029 0.1854431958 0.1520951114 -0.5362614037 0.1524412171 -0.5361114988 -0.0502408576 0.1732281114
615296310.0 -0.0215346505 0.1856706192 0.1464099157 -0.5376963646 0.1466892833 -0.5382307951 -0.0486173518 0.1738456734
620296280.0 -0.019636505 0.1857060035 0.140748135 -0.539304475 0.140522434 -0.5392474148 -0.0469851771 0.1744690951
625296250.0 -0.0177686594 0.1859386005 0.1357866222 -0.5411145646 0.1349961697 -0.5408915734 -0.0448516424 0.1751922252
630296220.0 -0.0149651372 0.1862473919 0.1286630402 -0.5422577442 0.1287136712 -0.5420631814 -0.0433834266 0.1758733223
635296190.0 -0.0138555782 0.1867941371 0.1231102988 -0.543088875 0.1231917998 -0.5438178381 -0.0414070343 0.176362858
640296160.0 -0.0115622499 0.1871969803 0.1173836124 -0.5447414595 0.1178859511 -0.5450203151 -0.0397414938 0.1766969924
645296130.0 -0.0094870581 0.1878202261 0.1110558322 -0.5461891988 0.1120051655 -0.5461571074 -0.0382089625 0.1775564983
650296100.0 -0.0071255346 0.1877221376 0.1051530551 -0.5467289778 0.1057991359 -0.5470928038 -0.0359400938 0.1771860107
655296070.0 -0.0053004053 0.1877908514 0.0991532558 -0.54828774 0.0996435801 -0.5484301102 -0.0341715332 0.1785447314
660296040.0 -0.003559541 0.1877670651 0.0935982179 -0.5493283723 0.0938328 -0.5493267554 -0.0323729171 0.178760467
665296010.0 -0.0009555727 0.1880445723 0.0874614166 -0.5500306603 0.0875003438 -0.5501590562 -0.0305928358 0.1797618562
670295980.0 0.0003987853 0.1884206349 0.0816568066 -0.55107269 0.0818935892 -0.5509653769 -0.0293385694 0.1798510605
675295950.0 0.0027195653 0.1884417002 0.0757933643 -0.5514903064 0.0760354683 -0.5511897618 -0.0277004012 0.1806262019
680295920.0 0.0047827607 0.1885393523 0.0694307796 -0.5526379395 0.0695285566 -0.5530109151 -0.0255826381 0.1816472356
685295890.0 0.0069487675 0.1891347547 0.0642022595 -0.5530077547 0.0635713665 -0.5533367618 -0.0237483464 0.1814339922
690295860.0 0.0091339671 0.1888925997 0.057964341 -0.5531650947 0.0578337479 -0.5542474276 -0.0222577102 0.1826162943
695295830.0 0.0112537725 0.1888000937 0.0522266472 -0.5543421078 0.0517382489 -0.5546229786 -0.0204466246 0.1826030682
700295800.0 0.0133298588 0.1886046374 0.0458323901 -0.5545148547 0.0456049348 -0.5544990824 -0.0188732569 0.1833050094
705295770.0 0.0151198751 0.1893431927 0.0396539539 -0.5554187789 0.039942324 -0.5553759527 -0.0170797515 0.1834982524
710295740.0 0.0175394711 0.1888772376 0.0342344573 -0.556027003 0.0342406633 -0.5561968166 -0.0151687691 0.1835177068
715295710.0 0.0191689046 0.188950704 0.0282013537 -0.5561464684 0.0275558528 -0.5559678964 -0.0133004005 0.1837910662
720295680.0 0.0213243926 0.1886017755 0.0219874987 -0.556307267 0.0220243388 -0.556599059 -0.0115159779 0.184690342
725295650.0 0.0237838894 0.1888811609 0.0158794456 -0.5563244268 0.0162351093 -0.5566801029 -0.0103929565 0.184954268
730295620.0 0.0260880849 0.1888747323 0.0095401489 -0.5566143873 0.010175114 -0.5565224658 -0.0086714598 0.1847978365
735295590.0 0.0276854601 0.188772298 0.0040462336 -0.5571225066 0.0039857626 -0.5565276592 -0.0072659938 0.1850501283
740295560.0 0.0297135686 0.1885294419 -0.0022184978 -0.556410871 -0.001666401 -0.5568473045 -0.0046675092 0.1857802353
745295530.0 0.0320160359 0.1882755297 -0.008260249 -0.5562210355 -0.0081743626 -0.5566921108 -0.00294704 0.1852973669
750295500.0 0.0340105743 0.1880946668 -0.0143198373 -0.5561308777 -0.014073522 -0.5562526208 -0.001015141 0.1856110279
755295470.0 0.0359716441 0.1876133138 -0.0197473593 -0.5563669614 -0.019949707 -0.5563554597 0.0009377625 0.1852724216
760295440.0 0.0376811647 0.1876497497 -0.0257640969 -0.5563023367 -0.0261215897 -0.5564401857 0.0023928981 0.1855628962
765295410.0 0.0402088487 0.1872199482 -0.0324161864 -0.5553231313 -0.0324414894 -0.5558891974 0.0042058778 0.1861449301
770295380.0 0.0419148702 0.186957037 -0.0382561673 -0.5553227552 -0.0378990136 -0.5549875685 0.0058409913 0.1857579583
775295350.0 0.0439794188 0.1862307139 -0.0444921918 -0.5545675441 -0.0435764067 -0.5544175848 0.0069947259 0.1861467228
780295320.0 0.0462764347 0.1859100476 -0.0501199045 -0.5537428595 -0.0493832961 -0.5539670321 0.0092913651 0.1854739728
785295290.0 0.0481839186 0.1851109558 -0.0563724452 -0.5532226662 -0.0559971396 -0.5535019589 0.0118461645 0.1857973329
790295260.0 0.0508791801 0.1854629701 -0.0618667812 -0.5526479347 -0.0612985018 -0.5525455824 0.013398534 0.1860061238
795295230.0 0.0521395374 0.1848207462 -0.0680770337 -0.5520090719 -0.0673374433 -0.5520544904 0.015355044 0.1860183577
800295200.0 0.0541343825 0.1844720038 -0.0742725225 -0.5510667692 -0.0738463208 -0.5508334213 0.0171392585 0.1861068754
805295170.0 0.0562735374 0.1839700612 -0.0800700589 -0.5505104362 -0.0797181497 -0.5508184478 0.0190268883 0.1859422328
810295140.0 0.058192513 0.1829030665 -0.0854083712 -0.549261479 -0.0855150679 -0.5493588401 0.0212133013 0.1859289567
815295110.0 0.0604129959 0.1821934277 -0.0913950602 -0.5482495743 -0.0910873306 -0.5488662592 0.0229435892 0.1859495373
820295080.0 0.0619839977 0.182534631 -0.0972432739 -0.5469829081 -0.096898651 -0.5473821953 0.0248047911 0.1858446866
825295050.0 0.0648919525 0.1815902063 -0.1031187962 -0.5458893144 -0.1032203567 -0.5462611337 0.0267378556 0.1858768478
830295020.0 0.0664597052 0.1811859403 -0.1092132328 -0.5444408906 -0.1089726713 -0.5450429325 0.0288417498 0.1859379906
