!Created with skrf (http://scikit-rf.org).
# Hz S RI R 50.0 
!freq ReS11 ImS11 ReS21 ImS21 ReS12 ImS12 ReS22 ImS22
300000.0 -0.3235352124 -0.0877868872 0.3765743928 0.0463705573 0.374658732 0.0435432465 -0.3191083315 -0.0993041386
5299970.0 -0.3265018796 0.0042062667 0.3783601606 0.0021959696 0.3781515615 0.0026614792 -0.323707362 0.0047017807
10299940.0 -0.3240709729 0.0133108666 0.3792390294 0.0014895128 0.3796296612 0.0024371137 -0.3215662109 0.0159824327
15299910.0 -0.3215774891 0.020401331 0.3819728937 0.0021823621 0.3818538726 0.0022495918 -0.3181321542 0.023756874
20299880.0 -0.3189428455 0.0261429181 0.3846631775 0.0020035043 0.3850255487 0.0017302177 -0.3147320337 0.0302758744
25299850.0 -0.3156782954 0.031432309 0.388096919 0.0003098118 0.3880673253 -3.79271e-05 -0.3105559306 0.0359964215
30299820.0 -0.3125140506 0.0355917409 0.3917802719 -0.0021845484 0.3911884212 -0.0025760656 -0.306702787 0.0409558665
35299790.0 -0.3099358574 0.0395946643 0.394875917 -0.0053217192 0.3946395491 -0.0054737802 -0.3032688762 0.0455774374
40299760.0 -0.3072826266 0.0436601867 0.3978335401 -0.0086614716 0.3982494049 -0.0086563158 -0.3000663887 0.0486065822
45299730.0 -0.3047912644 0.046377594 0.400924062 -0.0126443366 0.4009942118 -0.0125760032 -0.2973344237 0.0519889312
50299700.0 -0.3023800413 0.0495236596 0.4034561193 -0.0171363884 0.4035547691 -0.0169739674 -0.2941403352 0.0547572607
55299670.0 -0.3000489547 0.0522096079 0.4052935184 -0.0225801904 0.4052662257 -0.0217988834 -0.2920071628 0.0572349769
60299640.0 -0.2979274043 0.0552102904 0.4074566814 -0.0272263053 0.4076516526 -0.0267995411 -0.2891783963 0.0597236987
65299610.0 -0.296285068 0.0574827563 0.4091494101 -0.032106286 0.409323169 -0.0318382814 -0.2873133871 0.061884141
70299580.0 -0.2947134108 0.0598977027 0.4100788226 -0.036791358 0.4104895134 -0.0367216514 -0.2851349358 0.0636797886
75299550.0 -0.2928731916 0.0624778403 0.4110345702 -0.0422184508 0.4112966472 -0.0422560317 -0.2833308997 0.0657981225
80299520.0 -0.2915036206 0.0648082369 0.4124133034 -0.047497435 0.4125213141 -0.0473728678 -0.281639261 0.0680301274
85299490.0 -0.2903122709 0.0670267522 0.4126084972 -0.0522608661 0.413040062 -0.0523472649 -0.2800887119 0.0699838339
90299460.0 -0.2888518028 0.0691676961 0.4131899426 -0.0579858055 0.4136011964 -0.0579151036 -0.2783443682 0.0719519401
95299430.0 -0.2873656289 0.0715893513 0.4137703882 -0.0631889706 0.4134189996 -0.0633064553 -0.2769159855 0.0742714943
100299400.0 -0.2864915873 0.0742510452 0.4132241298 -0.0682286946 0.4131072124 -0.0680911306 -0.275095561 0.0760024618
105299370.0 -0.2851791924 0.076484677 0.4129957274 -0.0736811408 0.4136822642 -0.0736517068 -0.2739969112 0.0780088346
110299340.0 -0.2839954281 0.0786894698 0.413136933 -0.0788924977 0.413216424 -0.0784345001 -0.2729881659 0.0800583664
115299310.0 -0.2828507416 0.0809055166 0.4129007962 -0.0837511247 0.4128444672 -0.0838526569 -0.2716693282 0.0823245862
120299280.0 -0.2820656945 0.0832365228 0.4123151577 -0.0892450192 0.4123300639 -0.0888300924 -0.2701159099 0.0844122334
125299250.0 -0.2810375551 0.0855660871 0.4116474857 -0.0941245396 0.4121285048 -0.0938864688 -0.2694417144 0.0861776082
130299220.0 -0.2802608684 0.0882183089 0.4110276496 -0.099182416 0.4110275833 -0.0989951704 -0.2683755991 0.0884012305
135299190.0 -0.2793032956 0.0908464229 0.4104337548 -0.1042984874 0.4100689798 -0.1040217478 -0.2668539126 0.0908748483
140299160.0 -0.2785338238 0.0932624037 0.4097213701 -0.1094609336 0.4098650086 -0.1093494745 -0.2663840105 0.0935007077
145299130.0 -0.2774130967 0.0957703998 0.4092315869 -0.114193904 0.4086282898 -0.1139233733 -0.2653516858 0.0958305067
150299100.0 -0.2762836658 0.0983292367 0.4076225511 -0.1187753287 0.4077143484 -0.1186382597 -0.2642322352 0.0984349425
155299070.0 -0.2757221029 0.1006360706 0.4068471127 -0.1241175304 0.4065920221 -0.1237224013 -0.2631016859 0.1006787911
160299040.0 -0.2747605898 0.1035003049 0.4054631791 -0.1284450273 0.4053094703 -0.1287199362 -0.262321262 0.1030147545
165299010.0 -0.2737565439 0.1061139294 0.4041793316 -0.1338617758 0.4040990247 -0.1339744776 -0.2613051931 0.1059635329
170298980.0 -0.2728215681 0.1086651575 0.4029217094 -0.1384482906 0.4028980718 -0.1385248574 -0.2601758373 0.1083162677
175298950.0 -0.2716966369 0.1114283313 0.4018990891 -0.1432197854 0.4012268729 -0.1430786372 -0.2593388657 0.1106927613
180298920.0 -0.270945981 0.1140700447 0.3997328502 -0.1478557915 0.3998656679 -0.147949011 -0.2582301796 0.1132542259
185298890.0 -0.2695070903 0.1163297265 0.3983336198 -0.1524897028 0.3982441957 -0.1524364685 -0.2571415577 0.1159025556
190298860.0 -0.2685806945 0.119572669 0.3971538888 -0.1575006461 0.3968419282 -0.1571877591 -0.2563052996 0.1184357584
195298830.0 -0.268030623 0.1219412376 0.3953791554 -0.1618187408 0.3952604098 -0.1617235169 -0.2552836393 0.1208116126
200298800.0 -0.2662156732 0.124467957 0.3931518649 -0.1664213824 0.3937636767 -0.1666012055 -0.2541764754 0.1235265074
205298770.0 -0.2653901682 0.1273702385 0.3912564189 -0.1716663995 0.3914147892 -0.170947227 -0.2530252893 0.1254508075
210298740.0 -0.2641825349 0.1298720249 0.3895169837 -0.1753856296 0.3898594275 -0.1753485267 -0.2515705066 0.128799992
215298710.0 -0.2637496378 0.1328537774 0.3882665777 -0.1805369623 0.3879621962 -0.1801522678 -0.2511536225 0.1308888902
220298680.0 -0.2620631574 0.1351314033 0.3857628239 -0.184345517 0.3857268693 -0.1845183985 -0.2501184362 0.1334085323
225298650.0 -0.2611582087 0.1377667829 0.3837310858 -0.1890199072 0.3840842767 -0.1891089459 -0.2488729398 0.1363602515
230298620.0 -0.2596242888 0.1408590133 0.3817031476 -0.1934177816 0.382366518 -0.1931770593 -0.2480195163 0.1385287884
235298590.0 -0.2582649852 0.1439939696 0.3800206631 -0.1980367279 0.3800663656 -0.1973551982 -0.2462886303 0.1413202758
240298560.0 -0.2570482894 0.1463118417 0.3774311864 -0.202199867 0.3776417057 -0.2024043749 -0.2452456975 0.1441022847
245298530.0 -0.2560448006 0.1490333094 0.3755141058 -0.2067223255 0.3754623227 -0.2067398329 -0.2441775377 0.1460937154
250298500.0 -0.2540447705 0.152009252 0.3725619531 -0.2112257285 0.3726908991 -0.210528287 -0.2427245338 0.1485495175
255298470.0 -0.2528673879 0.1542686148 0.3702834374 -0.214828195 0.3704283535 -0.2149320447 -0.2410486839 0.1510354603
260298440.0 -0.2516433198 0.1571258932 0.3680994804 -0.2195391572 0.3683702669 -0.2192075769 -0.2395767527 0.1536301262
265298410.0 -0.2500259596 0.1601438986 0.3658235261 -0.2237976459 0.3661216235 -0.2232157007 -0.2382650419 0.1560927242
270298380.0 -0.2486919425 0.1626309119 0.3637832613 -0.2276380164 0.3634874985 -0.2275377931 -0.2369818249 0.1585779231
275298350.0 -0.2468086283 0.1649174377 0.3608150318 -0.2316094353 0.36103583 -0.2314916367 -0.2350263236 0.1610341309
280298320.0 -0.2451611211 0.1678364095 0.3591215579 -0.2357233401 0.3584609084 -0.2357469394 -0.2332205281 0.1636924371
285298290.0 -0.2435964637 0.1708157905 0.3558517515 -0.2398218218 0.3558043424 -0.2395827007 -0.2318519326 0.1657311272
290298260.0 -0.2417504611 0.1729455952 0.3533506786 -0.2435804215 0.3531869401 -0.2439217494 -0.2303248065 0.1688439925
295298230.0 -0.2401083748 0.1754617175 0.3509478386 -0.2475848652 0.3506549752 -0.2478632004 -0.2281630361 0.1706556746
300298200.0 -0.2383442351 0.1781663255 0.3478475613 -0.2515121355 0.3482005279 -0.2517811322 -0.2265957501 0.1732905317
305298170.0 -0.236616952 0.1804898619 0.3446670802 -0.2556986632 0.3451064625 -0.255624853 -0.2244965379 0.1756803157
310298140.0 -0.2352287039 0.1833782846 0.3423284768 -0.2597259679 0.3421002661 -0.2596038579 -0.2230032694 0.1779318952
315298110.0 -0.2330489771 0.1857041813 0.3395484464 -0.2635605101 0.3395231855 -0.2633280955 -0.2211266289 0.1805104395
320298080.0 -0.2313368468 0.1883760851 0.3361838632 -0.267509371 0.3363991944 -0.2675651974 -0.2193238759 0.1830753256
325298050.0 -0.2293700095 0.1908692556 0.333444441 -0.271549045 0.3334318589 -0.2714231713 -0.2176858425 0.1854256004
330298020.0 -0.2277103077 0.1932700577 0.3297930035 -0.2750652939 0.3302257958 -0.2750543632 -0.2159116744 0.1880122233
335297990.0 -0.2255515047 0.1957225806 0.3268504009 -0.27876478 0.3269936296 -0.2788911809 -0.2143882326 0.1909556076
340297960.0 -0.2241744663 0.1984635336 0.3238108359 -0.2823962352 0.3235211983 -0.2822801517 -0.2121797103 0.1929657671
345297930.0 -0.2222247068 0.2010302787 0.32080242 -0.2860038117 0.3203942067 -0.2857586606 -0.2102525464 0.1948629847
350297900.0 -0.2201883109 0.2031501132 0.3169644652 -0.2891541461 0.3174244081 -0.2892421405 -0.2087708451 0.1979131771
355297870.0 -0.2179020395 0.2062692783 0.3138817529 -0.2926983366 0.3142203786 -0.2925163798 -0.2068030624 0.2000129706
360297840.0 -0.2158633351 0.2082748099 0.31120913 -0.2959749177 0.3113960167 -0.2958756374 -0.2047772701 0.2026325784
365297810.0 -0.2140616736 0.2107307793 0.3075431668 -0.2998663466 0.3079754864 -0.2997789969 -0.2027229407 0.2049403518
370297780.0 -0.2120176316 0.2131419743 0.3039127804 -0.3028770024 0.3044531894 -0.3025786779 -0.2007362501 0.2073555298
375297750.0 -0.2096179071 0.2154167479 0.3013520312 -0.306240789 0.3011308832 -0.3062014493 -0.1987918406 0.2095823153
380297720.0 -0.207229115 0.2177405394 0.2974044315 -0.3096089553 0.2975347768 -0.3091125658 -0.1969850317 0.211829075
385297690.0 -0.2055218403 0.2203327477 0.2938823498 -0.3129162198 0.2938179971 -0.3127680494 -0.194620669 0.2141983043
390297660.0 -0.2029750252 0.2226889282 0.2906863614 -0.3162999212 0.2905338903 -0.315793303 -0.1925953946 0.2163015625
395297630.0 -0.2007454333 0.2253481668 0.2871364294 -0.3195102888 0.2870015401 -0.3194662226 -0.1898902906 0.2187600557
400297600.0 -0.1986435278 0.2274644658 0.2834383737 -0.3226687037 0.2835785072 -0.3227102483 -0.188190221 0.2209202254
405297570.0 -0.1964348803 0.2295411232 0.2802204685 -0.3251552134 0.2802981974 -0.3254085876 -0.1863241023 0.2228241098
410297540.0 -0.1937336889 0.2317915197 0.2764203377 -0.3286256115 0.2769792444 -0.3285950188 -0.1839213947 0.2253171152
415297510.0 -0.1914254237 0.2337012971 0.2725293528 -0.3317434221 0.2726648344 -0.3314058604 -0.1816658676 0.2270911264
420297480.0 -0.1893434746 0.2364819318 0.2689977753 -0.3345018215 0.2689005862 -0.3346435612 -0.1793654645 0.2293028493
425297450.0 -0.1867241469 0.2384491784 0.2655094085 -0.3373444224 0.2655664069 -0.3375204858 -0.1771084924 0.2314315828
430297420.0 -0.18404898 0.2402052087 0.2615800661 -0.3401530986 0.2615356765 -0.3401776075 -0.174817568 0.2330642228
435297390.0 -0.18197352 0.2424640772 0.2574761732 -0.3429958616 0.2574685256 -0.3431317103 -0.1719100697 0.2350700457
440297360.0 -0.1792079188 0.2444628594 0.2536407306 -0.3453391693 0.2540263618 -0.3459889197 -0.169541073 0.23688782
445297330.0 -0.1767554 0.2466744821 0.2500306196 -0.3486456955 0.2504181412 -0.3485120383 -0.1673148313 0.238397812
450297300.0 -0.1740877466 0.2483905293 0.2462759106 -0.3513292709 0.2463835842 -0.3518213573 -0.164686242 0.2403683285
455297270.0 -0.1716231344 0.2506325829 0.2423525556 -0.3540456738 0.2424069609 -0.3541344971 -0.162178205 0.2421110868
460297240.0 -0.1689850857 0.2524663078 0.2380985645 -0.3564628951 0.2384471288 -0.3565936798 -0.1595526611 0.2441664398
465297210.0 -0.1663971803 0.2543548123 0.2347149241 -0.3591822264 0.2347082403 -0.3592685496 -0.1567070385 0.2458381871
470297180.0 -0.1634480826 0.2561182361 0.2299354133 -0.3617161261 0.230420999 -0.3618352122 -0.1540269533 0.2477838878
475297150.0 -0.160754045 0.2577379545 0.2264882512 -0.3638802608 0.2265692732 -0.3637442934 -0.1514086207 0.2492671803
480297120.0 -0.1585121256 0.2602887191 0.222541644 -0.3670014379 0.2222881775 -0.3666026042 -0.1486627225 0.2513058907
485297090.0 -0.1554051713 0.2619062245 0.218675627 -0.3688725632 0.2187591037 -0.3685994543 -0.1460537632 0.2531061567
490297060.0 -0.1532304811 0.2636374157 0.2148572399 -0.3712600546 0.2146279025 -0.3712615312 -0.14366717 0.2548964894
495297030.0 -0.1502582269 0.2654807721 0.2104582545 -0.3736238079 0.2108224588 -0.3735049912 -0.1409152254 0.256757829
500297000.0 -0.1475936148 0.2671003906 0.2065359396 -0.3753866378 0.2064482152 -0.3754574633 -0.1381273324 0.2587333393
505296970.0 -0.1445634084 0.2689480904 0.2023924309 -0.3776784351 0.2020115568 -0.3780774431 -0.1355539067 0.2601205002
510296940.0 -0.1419091393 0.2707408778 0.1981436292 -0.3803230036 0.1981291117 -0.3803261064 -0.1322449498 0.261724675
515296910.0 -0.1386255674 0.27207895 0.1936620064 -0.3822105481 0.1938817517 -0.3819700786 -0.1297753673 0.2631205251
520296880.0 -0.1363862228 0.2737683035 0.189833573 -0.3846847867 0.1897317737 -0.3841073197 -0.1273022442 0.2646246565
525296850.0 -0.1330787235 0.2748610461 0.1852146423 -0.3862431009 0.1857765245 -0.386524828 -0.1243232035 0.2665794093
530296820.0 -0.1300493489 0.2765957263 0.1813146332 -0.3883381655 0.1811491162 -0.3880552192 -0.1215047683 0.2679125423
535296790.0 -0.1278383495 0.2783041769 0.1773762661 -0.3900155324 0.1771758919 -0.3896826913 -0.1191994886 0.2692389851
540296760.0 -0.1248153845 0.2800810074 0.1729176296 -0.3925380649 0.172613827 -0.3920254448 -0.116229549 0.2709831703
545296730.0 -0.1217474719 0.2812893779 0.168226352 -0.3937357977 0.1682562303 -0.3939454427 -0.1134053038 0.2721899821
550296700.0 -0.1184572427 0.2829946679 0.1640394901 -0.3959307173 0.164006853 -0.395890828 -0.1108172117 0.2740971901
555296670.0 -0.1159924127 0.2836052007 0.1596058961 -0.3973283011 0.1599879373 -0.397486896 -0.1079148158 0.275500476
560296640.0 -0.1126534723 0.2856160885 0.155247112 -0.3990913604 0.1554513469 -0.399148916 -0.1048409448 0.2765076121
565296610.0 -0.1098520854 0.2867382105 0.1507423776 -0.400861841 0.151237019 -0.4006484289 -0.1023056836 0.2774571948
570296580.0 -0.1068435922 0.2883289745 0.1465980609 -0.4026537409 0.1463950528 -0.4023816181 -0.0994776384 0.2791960874
575296550.0 -0.1040404133 0.2897025454 0.1423663413 -0.4043694976 0.1418777748 -0.4041801342 -0.0963269666 0.2802311075
580296520.0 -0.1006735571 0.2906746794 0.1377737492 -0.4055985709 0.1374829243 -0.4054016537 -0.0933761203 0.2812062238
585296490.0 -0.0979028933 0.2914243369 0.1336702641 -0.4065193296 0.1336486588 -0.4070560165 -0.0906737564 0.2825307138
590296460.0 -0.0948049206 0.2929216497 0.1290149468 -0.4082081454 0.1292287627 -0.4079558642 -0.0881058463 0.2836587905
595296430.0 -0.0913001955 0.2938990821 0.1239614721 -0.4098162527 0.124368183 -0.4093773458 -0.0850497047 0.2840149676
600296400.0 -0.0885687004 0.2952756225 0.1199524103 -0.4110872383 0.1197840745 -0.4106212033 -0.0819580676 0.2849664738
605296370.0 -0.0854889776 0.2963027565 0.115577251 -0.4117839213 0.1160344552 -0.4119992697 -0.0787855683 0.2864421069
610296340.0 -0.0823966459 0.2974364379 0.110488863 -0.413331654 0.111175608 -0.413098791 -0.0755519246 0.2870849823
615296310.0 -0.0788980351 0.2981361226 0.1062136116 -0.4142114286 0.1061707856 -0.4145212715 -0.0723722514 0.2877410718
620296280.0 -0.076200662 0.2986330118 0.1020061383 -0.4150254363 0.10217312 -0.4152436815 -0.0700568264 0.2889056074
625296250.0 -0.0731074534 0.3000012077 0.0978977462 -0.416486331 0.0973825599 -0.4165177656 -0.0661846391 0.2893571429
630296220.0 -0.0691612436 0.300941735 0.0922559484 -0.4175475816 0.0925037007 -0.4175829648 -0.063513094 0.2908232989
635296190.0 -0.067034324 0.3015988062 0.0886452712 -0.4183794364 0.0880464723 -0.4185323054 -0.0602070991 0.2914224244
640296160.0 -0.0637436639 0.3027539722 0.0839282261 -0.4189903456 0.0838185219 -0.4191440933 -0.0571497893 0.2918937317
645296130.0 -0.0604355545 0.3033653012 0.0792896566 -0.4199678461 0.0794517173 -0.420163178 -0.0539441454 0.2927730402
650296100.0 -0.0572061164 0.3041978766 0.0744084179 -0.4207426343 0.0747216825 -0.4210927298 -0.0506837244 0.2930106745
655296070.0 -0.0542882679 0.3051581894 0.0700582762 -0.4217553243 0.0703108861 -0.4214575328 -0.0477401151 0.2940056912
660296040.0 -0.0510794826 0.3050475103 0.0657109639 -0.4223915175 0.0655928421 -0.4223064229 -0.0440056992 0.2947738248
665296010.0 -0.047648931 0.3059160852 0.0608696365 -0.422837103 0.0609046579 -0.4229670488 -0.0412525502 0.2958359627
670295980.0 -0.0450873301 0.30712436 0.0563908296 -0.4233411829 0.0564296926 -0.4235253603 -0.0384033559 0.2961819173
675295950.0 -0.0416000333 0.3074300205 0.0517525541 -0.4239326131 0.0520837799 -0.4237358466 -0.035337398 0.2970355767
680295920.0 -0.0382335843 0.3079978699 0.0474918668 -0.4242765356 0.0469526611 -0.4249683558 -0.0320866428 0.2981327942
685295890.0 -0.034636898 0.3090503708 0.0421450066 -0.4246355694 0.0424258796 -0.4249688308 -0.028715011 0.2981294837
690295860.0 -0.0316062696 0.3090413759 0.0379981344 -0.4248018881 0.0380437404 -0.4257018126 -0.0259472924 0.2990323396
695295830.0 -0.0285502489 0.309380778 0.0337502403 -0.4258313262 0.0329853192 -0.4258219666 -0.0223984076 0.2994337404
700295800.0 -0.025166578 0.309596334 0.028445243 -0.425892434 0.0284987574 -0.4260222015 -0.0197064483 0.3001817849
705295770.0 -0.0219222322 0.3107018829 0.0240314007 -0.426256984 0.0244734468 -0.426484515 -0.0166477885 0.3006950183
710295740.0 -0.0188435578 0.3108149483 0.0198482698 -0.4268116111 0.0196246696 -0.426876847 -0.0133668466 0.3000532892
715295710.0 -0.0155645714 0.3109208391 0.0151893317 -0.4266992497 0.0147726065 -0.4267681459 -0.0099793295 0.3005227804
720295680.0 -0.0123263567 0.3114853097 0.0100723968 -0.4267173873 0.010413845 -0.4269965203 -0.0069059614 0.3012748048
725295650.0 -0.0090136919 0.3117331989 0.0056632878 -0.42683542 0.005701273 -0.4272986945 -0.0041717699 0.3018141679
730295620.0 -0.0056404062 0.312130064 0.0008999625 -0.4269043404 0.0011768235 -0.4268155754 -0.0014182956 0.3015289812
735295590.0 -0.0024841395 0.3120595539 -0.0035275868 -0.4268653157 -0.0037117815 -0.4267494441 0.0017583871 0.3020322346
740295560.0 0.0007979888 0.3123487008 -0.0078972717 -0.4266508033 -0.0079728896 -0.4268619005 0.0057420665 0.3021456531
745295530.0 0.004032843 0.3127466581 -0.0129894848 -0.4263997926 -0.0128542084 -0.4262174663 0.0084818934 0.3016162483
750295500.0 0.0075866429 0.3126374151 -0.0172615231 -0.4260713844 -0.0173381091 -0.4265420314 0.0115377358 0.3016328965
755295470.0 0.0108066215 0.3127838727 -0.0222689452 -0.4263817977 -0.0221179252 -0.4262557839 0.0146685506 0.3015460771
760295440.0 0.0138101066 0.3126684002 -0.0267345737 -0.4261471131 -0.0265759943 -0.4260576919 0.0178788351 0.3016444712
765295410.0 0.0171870699 0.3126759166 -0.031333979 -0.4254511551 -0.0314822697 -0.4257500278 0.0210081023 0.3017810302
770295380.0 0.0200728166 0.31256319 -0.0360198209 -0.4250688786 -0.0361022288 -0.4249385804 0.0240018102 0.3012568502
775295350.0 0.0230671213 0.3120899315 -0.0405005673 -0.4241683459 -0.0401705778 -0.4246117542 0.026950164 0.3012074769
780295320.0 0.0267160166 0.3122484502 -0.0454015191 -0.4241639804 -0.044646494 -0.4239573679 0.0302223562 0.3007316179
785295290.0 0.0298787015 0.3115904047 -0.0498191357 -0.4231363137 -0.0495700595 -0.4234541638 0.0338753896 0.3007683212
790295260.0 0.0334990088 0.311805063 -0.0536974503 -0.4229266123 -0.0538633082 -0.4225456252 0.0367978478 0.3006425165
795295230.0 0.0367020798 0.3113127375 -0.0587971821 -0.4219612071 -0.0583560332 -0.422221076 0.0403944097 0.300293195
800295200.0 0.0397669096 0.3112262791 -0.0637650427 -0.4210657315 -0.0630633626 -0.4211429589 0.043443402 0.2997781519
805295170.0 0.043221911 0.3106251423 -0.06790458 -0.420545643 -0.0679788026 -0.4207892578 0.0463114764 0.2994929373
810295140.0 0.0464263745 0.3102551812 -0.0723042641 -0.4194958422 -0.0722286249 -0.4200907463 0.0500952084 0.2991758379
815295110.0 0.0496499635 0.3101499784 -0.0771892058 -0.4187089993 -0.076613439 -0.4189866575 0.0529625879 0.2988434061
820295080.0 0.052561585 0.3100909346 -0.0813246419 -0.4179587542 -0.0811011668 -0.418257539 0.0562864662 0.2985098343
825295050.0 0.0565070872 0.3091219 -0.0859255707 -0.4169474827 -0.0860503516 -0.4173969787 0.0595433335 0.2982281129
830295020.0 0.0593272771 0.3089867344 -0.0905013663 -0.4161240489 -0.0904547017 -0.416186631 0.0631148061 0.2976089348
