!Created with skrf (http://scikit-rf.org).
# Hz S RI R 50.0 
!freq ReS11 ImS11 ReS21 ImS21 ReS12 ImS12 ReS22 ImS22
300000.0 -0.0476556736 -0.0415499229 -0.0006862888 0.0011315254 -7.12284e-05 0.0004432995 -0.7791342522 -0.1304128196
5299970.0 -0.04978956 0.0160846064 0.0001674653 0.000131916 0.0001562243 -7.04405e-05 -0.7851938531 -0.006872979
10299940.0 -0.0442288928 0.0327313149 4.03439e-05 0.0001343602 2.37364e-05 0.0001269386 -0.788365788 -0.0037529619
15299910.0 -0.0359960692 0.0469209453 9.58858e-05 3.91309e-05 -7.27997e-05 7.79335e-05 -0.7939169378 -0.0015636946
20299880.0 -0.0263941642 0.0587450006 0.0001008886 2.99581e-05 1.21672e-05 -2.6967e-06 -0.8002799964 0.0018910507
25299850.0 -0.0151906946 0.0682666383 -0.0001356184 1.70851e-05 2.9585e-06 8.87544e-05 -0.8063970623 0.0083733347
30299820.0 -0.004241545 0.0749945959 -0.0001110654 -0.0001080171 -0.0001020724 7.15978e-05 -0.8123257848 0.016134311
35299790.0 0.0071456733 0.0797919669 -0.0001006597 0.0001495253 -2.96694e-05 -4.51472e-05 -0.8181560622 0.02500027
40299760.0 0.0184503079 0.0829338393 -5.66813e-05 9.46362e-05 -7.18779e-05 -7.11523e-05 -0.8211407811 0.0345285908
45299730.0 0.0295130452 0.0843857689 4.1385e-06 0.000149207 -5.61343e-05 0.0001574425 -0.8251586627 0.0439172181
50299700.0 0.0391185232 0.0845212167 -9.95016e-05 8.09375e-05 0.0001466056 0.0001928285 -0.8279164384 0.0535835804
55299670.0 0.0485401999 0.083311744 0.0001982992 -0.0001703531 -2.46332e-05 -7.87107e-05 -0.8295999733 0.0642190225
60299640.0 0.0567338883 0.0821194323 -0.0002079302 9.01374e-05 -0.0001173841 8.50292e-05 -0.8304445939 0.0737189671
65299610.0 0.0646424426 0.0795518443 2.35595e-05 -5.20719e-05 -0.0001581288 -2.5431e-06 -0.8318745158 0.0835266027
70299580.0 0.0715905455 0.077057172 -4.29406e-05 0.0002981333 6.45633e-05 6.84667e-05 -0.8317154251 0.0943423939
75299550.0 0.078056914 0.0738985225 -2.81997e-05 9.973e-07 4.67919e-05 -1.04322e-05 -0.8320531536 0.1038239152
80299520.0 0.0837708496 0.0704652178 9.05369e-05 0.0002287726 -3.04346e-05 0.0002173604 -0.832126491 0.1135268823
85299490.0 0.088569967 0.0667290606 0.000212512 -3.60907e-05 0.0002123767 0.0001583154 -0.8313958991 0.1232239255
90299460.0 0.0932485506 0.0631666032 0.0001629673 3.5004e-06 5.5828e-06 6.61708e-05 -0.8306613786 0.1332556764
95299430.0 0.0976177769 0.0593439626 -0.0001357281 0.0001654369 -0.0001288855 -8.37793e-05 -0.829216657 0.1429206283
100299400.0 0.1010770012 0.0556634199 0.0004208532 -6.69726e-05 -3.84373e-05 3.53192e-05 -0.8283075111 0.1521587203
105299370.0 0.1045788152 0.0518367556 -0.0001160225 6.02175e-05 9.28564e-05 0.0002340328 -0.826873947 0.1608356867
110299340.0 0.1073672219 0.0481536697 1.04392e-05 0.0003226625 -7.98365e-05 0.0001958996 -0.8256292322 0.170745512
115299310.0 0.1102637484 0.044117518 -0.0001221018 6.46724e-05 0.0001708625 7.33231e-05 -0.8238315106 0.1800379437
120299280.0 0.1122676727 0.0403662706 6.28562e-05 0.0003762674 -8.75529e-05 1.53636e-05 -0.8225044751 0.188583018
125299250.0 0.1141942514 0.0365154866 0.0001277662 5.24771e-05 -2.14825e-05 0.0001718318 -0.8210502408 0.1977258851
130299220.0 0.1157442345 0.0331313894 -3.16664e-05 -6.05131e-05 9.87606e-05 -7.5472e-06 -0.8192712611 0.2064094877
135299190.0 0.1175931508 0.0300630168 2.1404e-05 0.000123084 0.0003560379 3.76766e-05 -0.8171064296 0.2159650593
140299160.0 0.1186296828 0.0259985705 0.0002377739 0.0002186317 0.0002091211 0.0002559847 -0.8149563955 0.2247780578
145299130.0 0.1200634247 0.022649355 0.0001012676 6.95425e-05 -1.23047e-05 0.0001207851 -0.8126799195 0.234121475
150299100.0 0.1209084824 0.0192400914 0.0001495206 0.0001733717 0.0001995898 9.35161e-05 -0.8108692043 0.2432117945
155299070.0 0.1215483385 0.0160646287 0.0001353331 -1.0715e-06 0.000103543 9.56831e-05 -0.8079730479 0.2515305665
160299040.0 0.1218585576 0.0131432647 0.0001733129 -0.0001020608 8.22795e-05 1.95177e-05 -0.8056249623 0.2606267399
165299010.0 0.1228561506 0.0098271672 0.000100053 -3.0493e-06 6.77955e-05 0.0001077112 -0.8028361647 0.2692408227
170298980.0 0.1229680522 0.0069038386 0.0001885704 0.0002733027 0.0001269043 3.51692e-05 -0.8001058153 0.2778248509
175298950.0 0.1235893034 0.003951472 1.3352e-05 2.27309e-05 -4.38449e-05 -0.0001349778 -0.7975474288 0.286396964
180298920.0 0.1239526505 0.0013976638 9.23841e-05 9.9137e-06 3.018e-07 -4.6709e-05 -0.7943924615 0.2949794097
185298890.0 0.1239904472 -0.0018424559 -0.0001244858 0.0001063017 -0.0001577967 -6.5182e-05 -0.791045008 0.3036581825
190298860.0 0.1242701838 -0.0043282701 -1.19836e-05 0.0001570355 7.7615e-06 -8.30862e-05 -0.7883559984 0.3121524809
195298830.0 0.1238752219 -0.0070722844 0.0001484473 0.0002504036 9.38304e-05 3.49048e-05 -0.784936797 0.3209057965
200298800.0 0.1241883392 -0.0097571756 -3.9416e-06 8.83622e-05 0.0002437717 0.0002599377 -0.782212698 0.3286748604
205298770.0 0.123680338 -0.0120755052 0.0001535328 0.0001265382 0.0001584349 4.35346e-05 -0.778052611 0.3370064277
210298740.0 0.1234191521 -0.0148035308 3.85196e-05 0.0002096881 0.0001629121 2.77169e-05 -0.7746630974 0.3456351275
215298710.0 0.1228700535 -0.0173743272 5.0249e-06 -1.07866e-05 3.03042e-05 0.0002007403 -0.7712525801 0.3535605633
220298680.0 0.1226255673 -0.0198628319 7.54877e-05 7.61396e-05 0.0001505921 0.0001163311 -0.7678002177 0.3616049328
225298650.0 0.1220833376 -0.0221618125 -8.52724e-05 0.000219849 6.59563e-05 0.0002889207 -0.7642008233 0.3701048876
230298620.0 0.1218386492 -0.0242858088 1.18449e-05 0.0002198772 0.0001332365 7.09953e-05 -0.7600957219 0.3781813823
235298590.0 0.1214512549 -0.0263448957 6.31059e-05 0.0002147144 -1.98575e-05 0.0002475993 -0.7555014487 0.386918155
240298560.0 0.120857913 -0.0289450302 0.0002783503 0.0001628363 0.0002462482 0.0001549191 -0.7517482653 0.3945354456
245298530.0 0.1202899733 -0.0310865287 4.11642e-05 0.000142992 0.0002124223 6.53686e-05 -0.7476176742 0.4023638384
250298500.0 0.1198386832 -0.0329698526 9.95493e-05 2.09616e-05 8.73612e-05 0.0001384146 -0.743146059 0.4098784962
255298470.0 0.1187297946 -0.0352681704 0.0001065677 5.73385e-05 -5.7046e-06 0.0001486398 -0.7384367825 0.4181515475
260298440.0 0.1182335417 -0.037286204 0.000203722 0.0002753422 0.0001146519 6.66985e-05 -0.7346728129 0.4259521895
265298410.0 0.1176955067 -0.0390043783 4.37271e-05 0.0001037637 -3.68842e-05 0.0001817096 -0.7300900343 0.4333150331
270298380.0 0.1170368756 -0.040769573 0.0001800803 -8.96199e-05 0.0001021305 7.84011e-05 -0.7257357 0.440750932
275298350.0 0.1159156167 -0.0429220964 0.0002896289 0.0001550758 8.16854e-05 9.37675e-05 -0.7212431646 0.4485179831
280298320.0 0.1155356729 -0.0449901528 8.18644e-05 8.021e-05 0.0001807191 1.14557e-05 -0.7159128902 0.4556693193
285298290.0 0.11488415 -0.0465950484 0.0002109582 0.0004431217 0.0001771983 0.0002400424 -0.7106309299 0.4640696344
290298260.0 0.1138982906 -0.0484029931 9.06738e-05 0.0002350636 5.81089e-05 0.0001007683 -0.706270609 0.471258024
295298230.0 0.1130189362 -0.0502214231 2.06259e-05 0.0002763477 0.0001360771 0.0002973738 -0.7017157147 0.4779029696
300298200.0 0.1123548151 -0.0519843135 -0.0001449169 0.0001189079 0.0001485262 5.64149e-05 -0.696684177 0.4855043872
305298170.0 0.1114238064 -0.0535496617 0.0001564998 0.0002409692 0.0003441792 0.0001886624 -0.6909314615 0.4931331621
310298140.0 0.110597055 -0.0554998048 0.0002213038 1.58446e-05 -0.0001257132 0.0001839204 -0.68657077 0.4998569954
315298110.0 0.1096875154 -0.0574059557 5.65792e-05 0.0003055853 0.0001990674 0.000112339 -0.6805810836 0.5071788107
320298080.0 0.108799433 -0.0593489031 2.69777e-05 -4.86081e-05 -0.000106338 2.41183e-05 -0.6749540032 0.5149027955
325298050.0 0.1079655285 -0.0608856034 0.0002389227 -7.09923e-05 3.90677e-05 0.0001151893 -0.6693243046 0.5213467018
330298020.0 0.1063853046 -0.0629736884 0.0001308351 9.47791e-05 0.0001507592 -3.65177e-05 -0.6646278655 0.5287624995
335297990.0 0.1049717504 -0.0642910279 7.71886e-05 -0.0001246978 0.0002829814 0.0002744716 -0.658821759 0.5358256184
340297960.0 0.1036196378 -0.0658019161 0.0001711419 1.45822e-05 0.0004314691 0.0002804275 -0.6530947001 0.5423878044
345297930.0 0.1023506604 -0.0671190477 0.0001027972 6.28265e-05 0.0001322867 0.0001845805 -0.6474782491 0.548825541
350297900.0 0.1012656661 -0.0683714368 0.0001563745 -6.39732e-05 0.000268545 2.54676e-05 -0.6418722514 0.5553106151
355297870.0 0.1001022389 -0.0697491466 0.0001254588 0.0002885241 0.0002643174 0.0002430081 -0.63649379 0.5612125876
360297840.0 0.099080473 -0.0710653751 0.0004411902 0.0001180458 7.78336e-05 0.0003550845 -0.6304021127 0.569210451
365297810.0 0.0975535739 -0.0719712035 0.0001033564 -2.23645e-05 0.0001375097 -2.64829e-05 -0.6236354361 0.575128315
370297780.0 0.0966500807 -0.0734447069 0.0001288833 6.91968e-05 -3.9201e-05 0.0002468665 -0.6181354097 0.5820744264
375297750.0 0.0953124408 -0.0747678649 3.28617e-05 -0.0001254811 2.22223e-05 -4.53952e-05 -0.6119455604 0.587354835
380297720.0 0.0942145063 -0.0760564817 0.0002837428 0.0001046169 0.0003138818 6.3974e-05 -0.606056909 0.5941086386
385297690.0 0.0928796212 -0.0767319913 0.0002133854 0.0002676278 9.9257e-06 0.0001001392 -0.5996106136 0.6003948405
390297660.0 0.0915866015 -0.0779959375 0.000315148 0.0001316226 0.0003295996 0.000447747 -0.5935795428 0.6069290465
395297630.0 0.0905358328 -0.0793462989 0.0003423891 -2.63771e-05 0.0001694579 9.02341e-05 -0.5871407267 0.6128211893
400297600.0 0.0893315762 -0.0805185815 0.0001805354 8.19334e-05 1.28792e-05 0.0002059722 -0.5810633644 0.6187389912
405297570.0 0.0876820332 -0.0814630179 0.0003081655 0.0002573384 0.0002848215 3.87282e-05 -0.5742938966 0.6243975108
410297540.0 0.0867298982 -0.0825119773 0.0002711173 0.0002029593 7.7432e-05 7.202e-05 -0.5680443978 0.6306986543
415297510.0 0.0856770269 -0.0839318735 0.0001997974 0.0001581861 0.0002116281 0.0001583069 -0.560889313 0.6361772954
420297480.0 0.0841829681 -0.0845967077 0.0001045489 0.0001155661 0.0004379473 4.85544e-05 -0.5543407111 0.6414489227
425297450.0 0.0830124111 -0.0856942782 0.0003459185 0.0003191229 5.49351e-05 1.59826e-05 -0.5480973152 0.6476969122
430297420.0 0.0816866474 -0.0869302433 0.000300424 0.0001724297 0.0002559348 0.0002084883 -0.541109569 0.652981392
435297390.0 0.0804929068 -0.0874046843 7.03733e-05 9.49848e-05 0.0001606907 8.33514e-05 -0.5344523959 0.6588388849
440297360.0 0.0789951024 -0.08874162 0.0002436962 5.98232e-05 2.22923e-05 0.000131023 -0.527824895 0.6636118247
445297330.0 0.0776543865 -0.089496792 0.0003364765 5.12361e-05 0.0001347653 6.36814e-05 -0.5206662147 0.6690930997
450297300.0 0.0761903694 -0.090333899 0.0002054864 8.8322e-05 0.0003819626 0.0002138929 -0.5136395282 0.6740960301
455297270.0 0.0748335603 -0.0910800679 0.0003002728 0.0001570753 0.0003550119 -3.374e-05 -0.50689704 0.6788013624
460297240.0 0.0735223459 -0.0920507446 0.0002054715 9.61314e-05 0.0002220366 0.0003012059 -0.5001562636 0.6844341792
465297210.0 0.0723152581 -0.0929036324 0.0001827588 -0.0001991924 0.0002827994 0.0001169411 -0.4924086559 0.689052134
470297180.0 0.070918197 -0.0937541148 -9.86718e-05 0.0001338968 0.0003040244 0.0001567361 -0.4852155229 0.6949309621
475297150.0 0.0693643423 -0.0948380358 0.0003948464 0.0001527268 6.70123e-05 0.0001460478 -0.4781513732 0.6987959826
480297120.0 0.0683136665 -0.0953999384 0.0004638985 0.0001385759 0.0001599285 0.0001896858 -0.4702833198 0.7037056124
485297090.0 0.0669049504 -0.095960288 0.000275722 1.05391e-05 0.0001513669 0.0002070386 -0.4637814692 0.7086363059
490297060.0 0.0653692079 -0.096265583 -4.47054e-05 7.0419e-05 0.0001284116 8.59418e-05 -0.4566928984 0.7130878384
495297030.0 0.0640129249 -0.0970254061 8.6428e-05 0.0002905204 0.0001659637 0.0003901717 -0.4489939337 0.7182404934
500297000.0 0.0627672076 -0.0980663201 0.000481889 -2.88186e-05 0.0003589992 0.0001414892 -0.4414283283 0.7227731297
505296970.0 0.0616390414 -0.0984862782 0.0001149002 0.0001680367 0.0003292361 0.0001193715 -0.4345226315 0.7269000799
510296940.0 0.0598259411 -0.0993097469 0.0005965981 3.911e-06 0.0003590163 -8.0637e-06 -0.4268179119 0.7312423916
515296910.0 0.0586099683 -0.0999820147 0.0003611094 0.0001403882 0.0002998864 -4.78359e-05 -0.4191628493 0.735086829
520296880.0 0.0571751921 -0.1005738568 9.8457e-05 0.0001852562 -3.53402e-05 0.000127136 -0.4117959858 0.7389460254
525296850.0 0.0558155466 -0.1012642816 0.0002863066 -0.000168745 0.0002407581 8.11762e-05 -0.4044816124 0.7441021582
530296820.0 0.0543297535 -0.1015492869 0.0004298346 4.38613e-05 0.0002072111 6.08401e-05 -0.3965817686 0.7475262332
535296790.0 0.0527657963 -0.1020484022 0.0001005387 0.0002779931 7.58783e-05 -2.57839e-05 -0.3893211763 0.7511447466
540296760.0 0.051157153 -0.1026461721 0.0002940382 3.30476e-05 0.0001786413 4.1001e-05 -0.3814763566 0.7557264665
545296730.0 0.0499507867 -0.103165136 0.00014497 0.0001587828 0.0004238915 9.26407e-05 -0.3739460797 0.7589778146
550296700.0 0.0487512113 -0.1035682549 0.0003241625 0.000207059 0.0003029247 -4.10955e-05 -0.3660699083 0.7627722782
555296670.0 0.0470378678 -0.1042034243 0.0004322369 0.0001319827 0.000356716 0.0002267781 -0.3583217192 0.7670491583
560296640.0 0.0460624062 -0.1043893909 0.000153375 7.42405e-05 0.0003126978 0.0001228356 -0.3500997234 0.7706747809
565296610.0 0.0444054418 -0.1045526633 0.0002415103 7.32146e-05 0.0003624136 0.0002168488 -0.3425991991 0.7737073302
570296580.0 0.042732101 -0.1048061971 0.0003261904 6.79446e-05 0.0003193279 0.0001339731 -0.335149128 0.7770059756
575296550.0 0.041501245 -0.1054473091 0.0003434009 0.0001922805 0.0003395855 -9.15594e-05 -0.3269385653 0.7802987913
580296520.0 0.0400323863 -0.1060289388 0.0003383761 -0.000272701 0.000321648 5.85518e-05 -0.3185537832 0.7835069117
585296490.0 0.0381934921 -0.1063819409 0.0004093217 0.0001605155 0.0004526702 0.0001950257 -0.3108730948 0.7870885359
590296460.0 0.0374345985 -0.1063189434 0.0002641147 0.0001828819 0.0004135626 -7.25466e-05 -0.3030501975 0.7900631597
595296430.0 0.035668843 -0.1066597237 0.000368663 -0.0001705531 0.0002775843 0.0001409894 -0.2950544815 0.7925238346
600296400.0 0.0340577667 -0.1070177104 0.0004162087 1.19597e-05 0.0003746969 0.000194843 -0.2869040117 0.7950720306
605296370.0 0.0324959891 -0.1070758927 0.0001183499 0.0001318844 0.000356821 0.0001720196 -0.2780051617 0.7988039287
610296340.0 0.0312904196 -0.1076451762 0.0003429209 -6.91728e-05 0.0002295465 7.93409e-05 -0.270695352 0.8013906701
615296310.0 0.0300331962 -0.1078095042 0.000355295 -0.0001527018 0.0003653412 6.59579e-05 -0.2619688279 0.8036874871
620296280.0 0.028281999 -0.1078400327 0.0002122024 -0.0001311289 0.0002619307 7.13287e-05 -0.2545969275 0.8064630696
625296250.0 0.0268265224 -0.1082366071 0.0006436495 0.0001081561 0.0004407991 6.88554e-05 -0.2454094326 0.8083853279
630296220.0 0.0256889536 -0.1085162216 0.0004904414 2.54328e-05 0.0002955797 -1.62987e-05 -0.2379419363 0.8112070288
635296190.0 0.0238308778 -0.1083909396 0.0003435316 0.0001291815 0.0003810945 0.0001225874 -0.2300786484 0.8132538647
640296160.0 0.0228553156 -0.1083847034 0.0004645997 6.57117e-05 0.0004292476 2.38723e-05 -0.2216471067 0.8157624348
645296130.0 0.0213310026 -0.1083720292 0.0004836047 0.0001032715 0.0002492469 -9.54308e-05 -0.2136957225 0.818270576
650296100.0 0.019737058 -0.1085818638 0.0004685194 0.00021189 0.0004819222 0.0002291261 -0.205628718 0.8196399763
655296070.0 0.0181768236 -0.1086735699 0.0002442422 1.23587e-05 0.0004167951 -0.0001277683 -0.196610366 0.8214650909
660296040.0 0.0166551587 -0.1084820136 0.0003628799 -0.0002503834 0.0004141607 -8.88713e-05 -0.1876746308 0.8235132255
665296010.0 0.0155182459 -0.1090234609 0.0003209352 -0.0001120674 0.0002097951 -5.03725e-05 -0.179670814 0.8257666027
670295980.0 0.0135889232 -0.1087560196 0.0003085941 0.0001179747 0.0005837027 0.0002258745 -0.1721173441 0.8270959178
675295950.0 0.0121752473 -0.1085042449 0.0004088546 -5.36071e-05 0.0002225802 5.83659e-05 -0.1643038663 0.8290147801
680295920.0 0.0108764109 -0.1086686673 0.0003991261 5.4601e-05 0.000315638 -7.20049e-05 -0.1554632596 0.831539565
685295890.0 0.0097747157 -0.1078751879 0.0002400869 -7.35961e-05 0.0003809731 -3.65684e-05 -0.1464567714 0.8318453052
690295860.0 0.0082001046 -0.1081645755 0.0003853999 -6.06339e-05 0.0003310354 6.13505e-05 -0.1391250644 0.833746342
695295830.0 0.0066095491 -0.1082013729 0.000525487 4.495e-07 0.0003335095 0.0001449027 -0.1296917388 0.8351967936
700295800.0 0.0051800052 -0.108437865 0.0006825984 2.47777e-05 0.0005125213 -5.4809e-06 -0.1222335119 0.8358507664
705295770.0 0.0037912058 -0.1076651114 0.0003709842 2.73868e-05 0.0003629253 -3.51283e-05 -0.1140443364 0.8383338702
710295740.0 0.0022680262 -0.1076288793 0.0004349905 -3.20229e-05 0.0003374964 0.0002897381 -0.1055144754 0.8386144258
715295710.0 0.0008315216 -0.1078753797 0.0004303584 -0.0001414034 0.0004212263 -0.0001034344 -0.0971927661 0.8389779736
720295680.0 -0.0006434365 -0.1075770675 0.0003225507 9.19119e-05 0.0004311824 -6.5484e-06 -0.0880838014 0.8404551383
725295650.0 -0.0020389537 -0.1071525452 0.0002835243 -4.6063e-05 0.0003975826 -7.58302e-05 -0.0800442264 0.8415506069
730295620.0 -0.0035146294 -0.107181174 0.0003030537 -0.0001444842 0.0003485332 -4.82507e-05 -0.0723787476 0.842125158
735295590.0 -0.00477366 -0.1065063611 0.0006098441 -0.0001238714 0.0003061923 -9.1924e-06 -0.0639906129 0.8424487058
740295560.0 -0.0065536688 -0.1060966276 0.0005579296 1.18911e-05 0.0003210709 -8.09279e-05 -0.0546066373 0.8437034033
745295530.0 -0.0076767436 -0.1060037202 0.0004988069 -7.83685e-05 0.0004663554 -9.03585e-05 -0.0463540398 0.8436039073
750295500.0 -0.0089226572 -0.1056843162 0.0003393658 1.05523e-05 0.0002505646 9.3282e-06 -0.0382292115 0.8443967671
755295470.0 -0.0104701977 -0.1052519289 0.0002645321 -0.0002087486 0.0005011091 -0.0001864541 -0.0297048136 0.8439163952
760295440.0 -0.0119946635 -0.1051902548 0.0003902346 -7.04422e-05 0.0002205943 1.82776e-05 -0.0212532966 0.8443110963
765295410.0 -0.0130827556 -0.1045258246 0.0003296781 -4.33447e-05 0.0004280737 2.443e-06 -0.0126897778 0.8452998076
770295380.0 -0.0146507451 -0.1045719994 0.0005467609 -0.000192121 0.0005601242 5.67859e-05 -0.0042149762 0.8448706658
775295350.0 -0.0162446022 -0.1042167919 0.0003944647 -0.0002300126 0.0002596869 -0.0001085294 0.0033518962 0.8445655465
780295320.0 -0.0172206482 -0.1034589549 0.0003784548 -0.0003086639 0.0004288844 -5.08825e-05 0.0119339417 0.8446689653
785295290.0 -0.0189867516 -0.1031270176 0.000393113 -0.0002430891 0.0005628069 -0.0001048613 0.0210315477 0.8442402472
790295260.0 -0.0198037001 -0.1026449254 0.0003521938 -0.0002769572 0.0003508333 -0.0002322039 0.0294771253 0.8445137251
795295230.0 -0.0214194177 -0.1019691051 0.0005479615 -0.0002732528 0.0002037747 -0.0001538796 0.0386418779 0.843221832
800295200.0 -0.0227625568 -0.1016715064 0.0001814535 -0.0002111821 0.0003724572 -4.80828e-05 0.0467055735 0.8434350685
805295170.0 -0.0241340362 -0.1012478988 0.0003183866 -9.91929e-05 0.0003038423 -7.12077e-05 0.0541891894 0.8430408118
810295140.0 -0.0249873063 -0.1010507858 0.0006252482 2.828e-05 0.0003237234 4.76451e-05 0.0630307998 0.8424492696
815295110.0 -0.0268305204 -0.1005805884 0.0002624947 -5.83429e-05 0.0002781828 -4.54435e-05 0.0714080748 0.8413207312
820295080.0 -0.027857728 -0.0995700226 0.0002825639 -0.0001204446 0.0004487558 -0.0001935795 0.0799282033 0.8409006749
825295050.0 -0.0290151588 -0.0990178776 0.0004780334 0.0002476067 0.0004904284 -5.40151e-05 0.0885913107 0.8403141551
830295020.0 -0.0303608188 -0.0985117379 0.0004744617 -0.0003748331 0.0005346621 3.99182e-05 0.0977495533 0.8393321708
835294990.0 -0.0315504255 -0.0978037166 0.0003506891 -5.65781e-05 0.0002655723 -1.1622e-05 0.1047441368 0.8385980231
840294960.0 -0.0329928101 -0.0968520316 0.0003239885 -0.0001374207 0.0005848781 -0.0002064331 0.1131944289 0.8371287338
845294930.0 -0.0342283613 -0.0965799702 0.0005962706 -7.69225e-05 0.0004849646 -4.48902e-05 0.1213013092 0.8358739525
850294900.0 -0.0353503873 -0.0957922157 0.0003865399 2.13941e-05 0.0005861934 -0.0001354304 0.1295440592 0.8345073448
