!Created with skrf (http://scikit-rf.org).
# Hz S RI R 50.0 
!freq ReS11 ImS11 ReS21 ImS21 ReS12 ImS12 ReS22 ImS22
300000.0 -0.3183048916 -0.1272526443 0.3743340328 0.0636707153 0.371902651 0.0642685577 -0.3178588607 -0.1277750492
5299970.0 -0.3249571492 0.0031437081 0.3779740846 0.0030365799 0.3786082276 0.003229515 -0.3256532473 0.0023319299
10299940.0 -0.3226944994 0.0141896239 0.3801009704 0.0030424687 0.3802152875 0.0031177028 -0.3233256805 0.0126815555
15299910.0 -0.3190733743 0.0224529938 0.3818883755 0.0029882032 0.3823123101 0.0026531978 -0.3207102308 0.0201072822
20299880.0 -0.3156263874 0.0287492373 0.3851992464 0.0018677698 0.3854309907 0.0018232945 -0.3182606574 0.0262780638
25299850.0 -0.3117234286 0.0344983354 0.3885315337 0.0007320466 0.388746765 0.0002219215 -0.3150043175 0.0314600918
30299820.0 -0.3082901402 0.0394260162 0.3921298734 -0.0020216277 0.3919998429 -0.0020218521 -0.3118935053 0.0357514789
35299790.0 -0.3045800503 0.0435610308 0.3949262788 -0.0049503351 0.39527529 -0.0049785603 -0.3090845488 0.0400338634
40299760.0 -0.301261792 0.0468650749 0.3982344922 -0.0085173818 0.3986226059 -0.0084558646 -0.3066761036 0.0431678791
45299730.0 -0.2982235711 0.0501077729 0.4011243813 -0.0124447465 0.4014142765 -0.0127387905 -0.3038168552 0.0467904058
50299700.0 -0.2949002502 0.05281611 0.403687361 -0.0172028211 0.4036346628 -0.0172877849 -0.3014880335 0.0497318466
55299670.0 -0.2923358903 0.055031261 0.4057658345 -0.0215342812 0.4062141721 -0.0220760818 -0.2994332117 0.0525340984
60299640.0 -0.2897391207 0.0578991003 0.4080791993 -0.0267031517 0.4079600804 -0.0267898839 -0.2974357805 0.0549430373
65299610.0 -0.2873997676 0.0601957505 0.4098262784 -0.0315389995 0.4098545672 -0.0315969503 -0.2953234637 0.0573584524
70299580.0 -0.2854431275 0.0620525461 0.4106340494 -0.0366555878 0.4110107147 -0.0369820095 -0.2936653679 0.0600170202
75299550.0 -0.2835807224 0.0640506613 0.411935542 -0.042385465 0.412114658 -0.042165314 -0.291890654 0.0625785847
80299520.0 -0.2817339799 0.0666525731 0.412869693 -0.0472950009 0.4130259614 -0.0471422003 -0.2905857671 0.0649324218
85299490.0 -0.2799398063 0.068459322 0.4134367633 -0.0526049326 0.4133264346 -0.052689573 -0.2890583646 0.0670432355
90299460.0 -0.2782741847 0.070772849 0.4135154502 -0.0577135334 0.4137264281 -0.0581654688 -0.2877359633 0.0697379653
95299430.0 -0.2768410702 0.072756673 0.4138945818 -0.0632323581 0.4142928732 -0.0631508237 -0.2864044687 0.0718581026
100299400.0 -0.2753693248 0.0748594173 0.4142640783 -0.068069665 0.4143012534 -0.0684505552 -0.2852751244 0.0744328999
105299370.0 -0.2740092649 0.076624541 0.4136401051 -0.0732444882 0.4142970088 -0.0733783014 -0.2839918381 0.0764945229
110299340.0 -0.2727692757 0.078770251 0.4138801959 -0.0780689579 0.4141916771 -0.0782800081 -0.2835640208 0.0786602859
115299310.0 -0.2717473292 0.0810988126 0.4136406669 -0.0832751667 0.4133352468 -0.0835648145 -0.2821389414 0.0812347398
120299280.0 -0.2703416851 0.0833206898 0.4131840577 -0.0889693989 0.4130832619 -0.0890640927 -0.2810472041 0.0834225603
125299250.0 -0.2693026031 0.0852322411 0.41276626 -0.093520945 0.4127963378 -0.0939101627 -0.2800295526 0.0857700634
130299220.0 -0.2682720287 0.0871854959 0.4116756668 -0.0988235135 0.4118765787 -0.0994707206 -0.2790485427 0.0881624029
135299190.0 -0.2673993068 0.0900896947 0.4111765647 -0.1040812773 0.4115787326 -0.1042339201 -0.2781289476 0.0907641612
140299160.0 -0.266179239 0.0923345569 0.410351642 -0.1092132798 0.4107151265 -0.108776853 -0.2775940699 0.0932244447
145299130.0 -0.2652252131 0.0947180824 0.4095683153 -0.1137674043 0.4093833879 -0.1142137547 -0.2766460677 0.0958831225
150299100.0 -0.2641490619 0.0969311573 0.4080671259 -0.118881909 0.4082591935 -0.1188479331 -0.2757444338 0.0983561749
155299070.0 -0.2632023487 0.0995659273 0.4067962992 -0.1237485318 0.4075378341 -0.1241020944 -0.2747476234 0.1010572412
160299040.0 -0.262198072 0.1022318804 0.4061964801 -0.1284433716 0.4060506276 -0.1287418891 -0.2738703551 0.1037030625
165299010.0 -0.2612263719 0.1041458099 0.405188991 -0.1334598461 0.4047358892 -0.133809733 -0.2727204474 0.105773107
170298980.0 -0.260376492 0.1067035071 0.4034813642 -0.1381210636 0.4037483514 -0.1384669527 -0.2721634039 0.1082366238
175298950.0 -0.2594099859 0.1091944424 0.4024657287 -0.1429782059 0.40277227 -0.1433900487 -0.2710811477 0.1116436342
180298920.0 -0.2580123961 0.1121427314 0.4006701929 -0.1483175281 0.4006571934 -0.148247515 -0.2700228208 0.1143065762
185298890.0 -0.2570507124 0.1142039789 0.3993242467 -0.1525535029 0.3989681045 -0.1526772976 -0.2689442447 0.1163165213
190298860.0 -0.2559470725 0.1171537708 0.397104746 -0.1570319279 0.3979198983 -0.1571183168 -0.2679210981 0.1191927115
195298830.0 -0.2548984945 0.1198144351 0.3962217158 -0.1615613281 0.3960966289 -0.1621232063 -0.2670019101 0.1219983611
200298800.0 -0.2535393737 0.1219898941 0.3944827618 -0.1668429961 0.3946905331 -0.16662814 -0.2657183668 0.1245457723
205298770.0 -0.2530026043 0.124735084 0.3920471273 -0.1709847804 0.3928221893 -0.1711713626 -0.2645416102 0.1273774685
210298740.0 -0.251311744 0.1275218657 0.3905065849 -0.175969854 0.3905045019 -0.1757494478 -0.263649639 0.1300113258
215298710.0 -0.2504833175 0.1299615983 0.3886238642 -0.1799122468 0.388467774 -0.1803840064 -0.2623794167 0.1326368795
220298680.0 -0.248871755 0.1326623454 0.3862079313 -0.1843542334 0.3865837428 -0.184846613 -0.2610785146 0.1354690598
225298650.0 -0.247700045 0.1351579385 0.3844141317 -0.1889090557 0.3848354251 -0.1885702684 -0.2597844063 0.1375512282
230298620.0 -0.2465348319 0.1381410621 0.3827300432 -0.1934871418 0.383188623 -0.1933774894 -0.2589494308 0.1406547534
235298590.0 -0.2453307632 0.1405693365 0.3806906564 -0.1980928464 0.3805187902 -0.1977334649 -0.2575175767 0.143300572
240298560.0 -0.2439952989 0.1431566991 0.3780997789 -0.2020481571 0.3782829047 -0.2019646736 -0.2561350118 0.1459973433
245298530.0 -0.2429949279 0.1455366039 0.3761461686 -0.2065012577 0.3762591385 -0.2064618412 -0.2546708202 0.1487364037
250298500.0 -0.2415120929 0.1482061513 0.3738884706 -0.2105583026 0.3740715726 -0.2106198479 -0.2534633864 0.1516658542
255298470.0 -0.2400490604 0.1510938071 0.3719149518 -0.2148062511 0.3721959684 -0.2153148259 -0.2520146547 0.1543810179
260298440.0 -0.2387726816 0.1533742506 0.3695922993 -0.2186130556 0.3692194674 -0.219071416 -0.2505505896 0.1568344283
265298410.0 -0.2374353038 0.1562356163 0.3668819664 -0.2236493713 0.3670513408 -0.2237450399 -0.2489516328 0.1593838809
270298380.0 -0.2358248145 0.1587738085 0.3644047004 -0.2275761792 0.3645314797 -0.2274928846 -0.247248213 0.1624822546
275298350.0 -0.2343937296 0.1616502472 0.361566113 -0.2313642061 0.3618112128 -0.2313880777 -0.2454433677 0.1650771394
280298320.0 -0.2328168682 0.1640948093 0.3593782119 -0.2353429839 0.3597916748 -0.2355848238 -0.2443421101 0.1674511478
285298290.0 -0.2314040096 0.166750749 0.356790413 -0.2396831009 0.3571355575 -0.2396626309 -0.2427080798 0.1707005892
290298260.0 -0.2300515243 0.1692907325 0.3546795448 -0.243490609 0.3543937658 -0.2437898123 -0.2410598253 0.172802252
295298230.0 -0.2286118955 0.1718085874 0.3515425852 -0.2478588704 0.351760186 -0.2480264412 -0.239346168 0.1754462901
300298200.0 -0.2266521598 0.1743459076 0.3490724334 -0.2517593208 0.3489231534 -0.2515425994 -0.2378108061 0.1780549668
305298170.0 -0.2252859535 0.1764386733 0.3463833785 -0.2553584159 0.3462099507 -0.2556953844 -0.2356062176 0.1801240025
310298140.0 -0.2231935217 0.1788178631 0.3431690979 -0.2596733187 0.3435033194 -0.2593040937 -0.2340561699 0.1830375089
315298110.0 -0.2219341041 0.1812530422 0.3405620822 -0.2635067478 0.3403611602 -0.2633393463 -0.2320365663 0.1853467542
320298080.0 -0.2199076934 0.1836409023 0.336831789 -0.2675917648 0.3378488691 -0.2674948082 -0.2305311522 0.1879882094
325298050.0 -0.2186890642 0.1854705205 0.3340988777 -0.2710211098 0.3348089328 -0.2712251014 -0.2284275177 0.1901895533
330298020.0 -0.2169341224 0.1885178756 0.3315170408 -0.2751451821 0.3317544811 -0.2748888465 -0.2271060056 0.1925999233
335297990.0 -0.2152420294 0.1909063057 0.3281762906 -0.2788203573 0.3284600487 -0.2786415366 -0.2251606571 0.1956073593
340297960.0 -0.2136231643 0.1931642394 0.3247857584 -0.2823662127 0.325055183 -0.2824314926 -0.2230911216 0.1982702691
345297930.0 -0.2120771786 0.1955299687 0.3221011956 -0.2859226436 0.3218498653 -0.2860527603 -0.2211036901 0.2004928506
350297900.0 -0.2099694704 0.1981856505 0.3188442282 -0.2888617964 0.3191251138 -0.2892381332 -0.2196235563 0.2028536572
355297870.0 -0.2082473011 0.2003636024 0.3156278914 -0.2928872805 0.3156187429 -0.2924453407 -0.2171748297 0.2053573493
360297840.0 -0.2061428136 0.2027083014 0.3120041947 -0.2962497126 0.3124053564 -0.2965188515 -0.2149090684 0.20787213
365297810.0 -0.2045902026 0.2051386603 0.3088295515 -0.2996459624 0.3092724174 -0.2998944967 -0.2133045367 0.2102568194
370297780.0 -0.2022723684 0.2073646718 0.305287659 -0.3033144229 0.3059443826 -0.3029646806 -0.2113111126 0.2130204272
375297750.0 -0.2003115113 0.2097265254 0.3021181191 -0.3065770047 0.3023552504 -0.3064292341 -0.2089930377 0.2150051903
380297720.0 -0.1985787019 0.2120910593 0.2991873118 -0.3099137785 0.298928528 -0.3098110247 -0.2064151623 0.2175403509
385297690.0 -0.1965756099 0.2143884913 0.295424157 -0.3130670166 0.29581045 -0.3133377736 -0.2048509081 0.219831406
390297660.0 -0.1944464276 0.2163225496 0.2920186364 -0.3158740183 0.2921991606 -0.3161352923 -0.2023775361 0.2218127626
395297630.0 -0.191617552 0.2185423922 0.2885008829 -0.3190506422 0.2889266452 -0.3192303361 -0.2000335935 0.224444168
400297600.0 -0.1902771067 0.2206155793 0.2848956839 -0.322591576 0.2854182395 -0.3226608306 -0.1978941253 0.2268952373
405297570.0 -0.1882499946 0.2222398736 0.2817348033 -0.3249976085 0.2815358219 -0.3258520755 -0.1949468418 0.2293893692
410297540.0 -0.185426773 0.2247084285 0.2777560955 -0.3286684565 0.2781889402 -0.3286393619 -0.192753808 0.2314764325
415297510.0 -0.1836001176 0.2266298977 0.2742730375 -0.3316340762 0.2747582055 -0.331951892 -0.1903478309 0.2335781039
420297480.0 -0.1809112089 0.2290087783 0.2702320196 -0.3346917474 0.2708352855 -0.3349820629 -0.1878353738 0.2358718346
425297450.0 -0.178619712 0.2307159748 0.2668977943 -0.3376365221 0.2667241457 -0.337762614 -0.1855187839 0.2375108287
430297420.0 -0.1763817956 0.232592041 0.2631990386 -0.3405283736 0.2633072012 -0.3401800512 -0.182742828 0.2396443998
435297390.0 -0.174099469 0.2347243425 0.2592150413 -0.343565709 0.2594080343 -0.3434076978 -0.1809403972 0.2420699059
440297360.0 -0.1716366557 0.2365911807 0.2553300288 -0.3464029315 0.2556052482 -0.346140245 -0.1784428854 0.2442255807
445297330.0 -0.1689940597 0.2380257324 0.2515260482 -0.3484630145 0.2519594609 -0.3489698877 -0.1753054659 0.2462796921
450297300.0 -0.1664977366 0.2402798341 0.2477785771 -0.3518641539 0.2481285482 -0.3515092184 -0.1726137952 0.2481070295
455297270.0 -0.164385215 0.2421561987 0.2441448126 -0.354193055 0.2445737292 -0.3545582191 -0.1704037469 0.2502604741
460297240.0 -0.1613779596 0.2439277529 0.2404292135 -0.3572342982 0.2404028278 -0.3572323578 -0.1677128518 0.2519865311
465297210.0 -0.1587842723 0.2456339312 0.2356129153 -0.3593126375 0.2359655975 -0.3597505874 -0.164874528 0.254422021
470297180.0 -0.156684983 0.2475305595 0.232053342 -0.3617583429 0.2324764436 -0.3621063893 -0.1622264004 0.2560283383
475297150.0 -0.1541089148 0.2493651767 0.228120448 -0.3643890802 0.2284549735 -0.3648285275 -0.1595950566 0.2579238854
480297120.0 -0.1509489155 0.2515835489 0.224290269 -0.3673970686 0.2243169677 -0.3671129864 -0.1568341122 0.2598355793
485297090.0 -0.1483969834 0.2527790673 0.2200277087 -0.3694246207 0.2199919357 -0.3692816367 -0.1544036701 0.2614853037
490297060.0 -0.1452772106 0.2544944042 0.2156055448 -0.3720346025 0.2158545151 -0.3721286048 -0.1512541014 0.2632065864
495297030.0 -0.1429032292 0.2560507726 0.211971985 -0.3742134329 0.2122058645 -0.3744428332 -0.1484539605 0.2650543739
500297000.0 -0.1405065197 0.2578080574 0.208019607 -0.3763806177 0.2075983424 -0.3764591652 -0.14585583 0.266547184
505296970.0 -0.1372309448 0.2597462037 0.2035609046 -0.3789663349 0.2036256473 -0.3787064302 -0.1430775577 0.2684859838
510296940.0 -0.1343515792 0.2609663228 0.1996345206 -0.3809679439 0.199783747 -0.3812968028 -0.1396604262 0.270443661
515296910.0 -0.1317275585 0.2626065112 0.1951411074 -0.3830196483 0.1949340313 -0.3829745541 -0.1372740033 0.2714645375
520296880.0 -0.1289503979 0.2640876755 0.1907237113 -0.3850458527 0.1910195059 -0.385087441 -0.1341014976 0.2734637531
525296850.0 -0.1259468059 0.2654973266 0.1864607778 -0.386844114 0.1866922275 -0.3869822572 -0.1312149466 0.2746122407
530296820.0 -0.1234841355 0.2672946273 0.1823594409 -0.389102326 0.1825840016 -0.3889933078 -0.128662683 0.2759222512
535296790.0 -0.1198876012 0.2685123918 0.1781542667 -0.390856136 0.1782803798 -0.3913016556 -0.1252528876 0.2779287899
540296760.0 -0.1171870519 0.2699935664 0.1736911236 -0.3931393074 0.1739288819 -0.3927229183 -0.1226869264 0.2789647319
545296730.0 -0.1144996864 0.2719527833 0.1696811662 -0.3943011099 0.1692534485 -0.3944550649 -0.1194261802 0.2806991917
550296700.0 -0.1112483525 0.273039865 0.1652321612 -0.3966598109 0.1650428328 -0.3968446657 -0.1163152077 0.2822644701
555296670.0 -0.1083214045 0.2742169877 0.160952518 -0.3985172289 0.1606873617 -0.3978891524 -0.1134912025 0.283021438
560296640.0 -0.1051878403 0.2755252276 0.1561065601 -0.4001874814 0.1566828221 -0.4001087709 -0.1106275883 0.285002153
565296610.0 -0.1025022173 0.2767549539 0.1524714759 -0.4016247514 0.1520582718 -0.4013399195 -0.1075974795 0.2862553034
570296580.0 -0.0995285651 0.2781010748 0.1475637502 -0.4031665559 0.1479544046 -0.4033395306 -0.1046294818 0.2873185379
575296550.0 -0.0962067926 0.2792841771 0.1432810732 -0.4047162013 0.1433333119 -0.4047404468 -0.1010099643 0.2885636632
580296520.0 -0.0936522223 0.2806243749 0.1389624446 -0.4059790938 0.1386731128 -0.4063835754 -0.0987420024 0.2896442666
585296490.0 -0.0902382163 0.2819018797 0.1347761819 -0.4075701525 0.1340550029 -0.4076569729 -0.0951629846 0.2911622136
590296460.0 -0.0867101592 0.2830521881 0.1300898853 -0.4093240076 0.1300367603 -0.4092625789 -0.0924580856 0.2919142702
595296430.0 -0.0840256691 0.2840792933 0.1250698729 -0.4104773136 0.1251217418 -0.4104057424 -0.0893487595 0.2930344336
600296400.0 -0.0804858013 0.2853233267 0.1202282917 -0.4117483 0.1205574533 -0.4116379962 -0.0861618689 0.2939630401
605296370.0 -0.0780291978 0.286330216 0.116742624 -0.4126421456 0.1160661051 -0.4132289267 -0.0830541607 0.2951421626
610296340.0 -0.0745076228 0.287673056 0.1119063522 -0.413608064 0.1119181439 -0.4140090718 -0.0799190422 0.2962944143
615296310.0 -0.0710559711 0.288141975 0.1072382066 -0.4153464132 0.1070557759 -0.4155835832 -0.0765720122 0.2973219301
620296280.0 -0.0685771329 0.2898896826 0.102713226 -0.4163786656 0.1026016794 -0.416256812 -0.0738245193 0.2984602234
625296250.0 -0.0657208318 0.290540265 0.0987037117 -0.4173980897 0.0980375335 -0.4176605579 -0.0708340339 0.2992081371
630296220.0 -0.0621550203 0.2915260112 0.0936898561 -0.4188219224 0.0934804351 -0.418420338 -0.0672879875 0.2999912643
635296190.0 -0.0592857186 0.2923756484 0.0895320902 -0.419124347 0.0889937559 -0.4191492364 -0.0641972826 0.3007519887
640296160.0 -0.0559837103 0.2931081377 0.0847200003 -0.4208190821 0.0845118695 -0.4204175383 -0.0610955264 0.3018089204
645296130.0 -0.0525681406 0.2942355201 0.0798514072 -0.4209850717 0.0799606278 -0.4209345089 -0.0583853633 0.3020622263
650296100.0 -0.0496242549 0.2948964383 0.0754195153 -0.4219093401 0.0750667443 -0.4223293442 -0.0543211278 0.3029694442
655296070.0 -0.0469103656 0.2956735395 0.0708658646 -0.4228023374 0.0703773532 -0.422550524 -0.0516159258 0.3036751653
660296040.0 -0.0436863556 0.2962368551 0.0665532116 -0.423327071 0.066171806 -0.4234093841 -0.0486278304 0.3042519363
665296010.0 -0.040610238 0.2971210815 0.0615854193 -0.423716926 0.0613583772 -0.4241385052 -0.0451292205 0.3051333273
670295980.0 -0.0373936267 0.2979864529 0.0568808803 -0.4244808722 0.0569425307 -0.4244329159 -0.0420578732 0.3055325297
675295950.0 -0.0341497078 0.298700287 0.0523472593 -0.4248865496 0.0524069988 -0.4250407136 -0.0387616338 0.3062400732
680295920.0 -0.0315870898 0.2993901663 0.0480635077 -0.4255635633 0.0476494199 -0.4256070348 -0.035335333 0.3066914716
685295890.0 -0.0278943658 0.3000740741 0.0429822066 -0.4261690151 0.0430447959 -0.4261391499 -0.0324298882 0.3075613227
690295860.0 -0.0247592799 0.3007320606 0.0384526777 -0.4265664841 0.0383889836 -0.4264289158 -0.0290004162 0.3077332044
695295830.0 -0.0215391071 0.3009275286 0.0342204696 -0.4268135874 0.0337812459 -0.4270097477 -0.0260901365 0.3084548605
700295800.0 -0.0186144229 0.3015685564 0.0297929975 -0.4269454414 0.0295657995 -0.4271587208 -0.0226675891 0.3084589141
705295770.0 -0.015544709 0.3022051123 0.0248220822 -0.428006841 0.0245156991 -0.427382197 -0.0193896298 0.309220422
710295740.0 -0.0125502147 0.3021406901 0.0204661553 -0.4275254772 0.0196031572 -0.4282798618 -0.0155669781 0.3096651923
715295710.0 -0.0090817536 0.3030517737 0.0155824094 -0.4279756672 0.0153228203 -0.4277704774 -0.01286369 0.3095719345
720295680.0 -0.0057921073 0.3032162188 0.0109804192 -0.4279135169 0.0105538146 -0.4282150326 -0.0095467608 0.3096724706
725295650.0 -0.0031824362 0.3035514796 0.0067431582 -0.4278119429 0.0061696832 -0.428358441 -0.0068677876 0.310726634
730295620.0 -0.0004104296 0.3038058087 0.0019158392 -0.4276547486 0.0017086106 -0.4278852887 -0.0033022663 0.3106661586
735295590.0 0.0029854231 0.3044000749 -0.0027811686 -0.4279164961 -0.0032363769 -0.4282007191 8.99331e-05 0.3106722024
740295560.0 0.005979974 0.304362312 -0.007437754 -0.4277076409 -0.0071036087 -0.4281577388 0.0034949615 0.3110358598
745295530.0 0.0091336002 0.3046764451 -0.0118746999 -0.4273687234 -0.0115326925 -0.4275198948 0.0060109442 0.3109714728
750295500.0 0.0120613074 0.3049006189 -0.0165428085 -0.4275379696 -0.0169845086 -0.4279449793 0.0096746518 0.3111020289
755295470.0 0.0149765343 0.3049137055 -0.0206204059 -0.4274702112 -0.0215435843 -0.4277363921 0.0132640693 0.3113599704
760295440.0 0.0183691342 0.3053926325 -0.0261465667 -0.4270856599 -0.0262798393 -0.4266350561 0.016290842 0.3109234645
765295410.0 0.0214928313 0.3049558074 -0.030487138 -0.4265653019 -0.0302827059 -0.4267150428 0.0195982541 0.3112708537
770295380.0 0.0242362693 0.3050855584 -0.0346026701 -0.4256171902 -0.035038782 -0.42670985 0.0225706263 0.3108886243
775295350.0 0.027405855 0.3050564735 -0.0396184914 -0.4259457568 -0.0394882357 -0.4259051389 0.026030857 0.3109618421
780295320.0 0.0307772506 0.3051405628 -0.0440436548 -0.4252532548 -0.0442235657 -0.4251066485 0.0295562626 0.3107391366
785295290.0 0.0336880196 0.304798403 -0.0489872058 -0.424618877 -0.0487383046 -0.4251702472 0.0323495709 0.3110429479
790295260.0 0.0365874575 0.3044154843 -0.0533107279 -0.4243815173 -0.0532921564 -0.4249350298 0.0356279472 0.3109912537
795295230.0 0.0396785057 0.3044281254 -0.0579052698 -0.4238610013 -0.0576979356 -0.4236502564 0.0390292686 0.3098306823
800295200.0 0.0425168033 0.3044506806 -0.0618891999 -0.4228314606 -0.0623477561 -0.4230177073 0.042111838 0.3098175831
805295170.0 0.0454934542 0.3040967375 -0.0668923711 -0.4221890959 -0.0670129432 -0.4226604897 0.0456919869 0.3095791597
810295140.0 0.0488764988 0.3038179824 -0.0712476261 -0.4213346435 -0.0718018698 -0.4214112701 0.0490418087 0.3091848241
815295110.0 0.0518133743 0.3032781933 -0.0756950742 -0.4204604773 -0.0758253152 -0.4212408684 0.0519465281 0.3087514131
820295080.0 0.0544518926 0.3029259582 -0.0800466921 -0.4197678573 -0.0801503554 -0.4202716431 0.054530191 0.3088858151
825295050.0 0.0576699945 0.3024361716 -0.0847410978 -0.4188433163 -0.0849630574 -0.4187584622 0.0585681271 0.3080993927
830295020.0 0.0609258141 0.3022164147 -0.0894786433 -0.4179195607 -0.0893009384 -0.4182971917 0.0616410444 0.3076370291
