!Created with skrf (http://scikit-rf.org).
# Hz S RI R 50.0 
!freq ReS11 ImS11 ReS21 ImS21 ReS12 ImS12 ReS22 ImS22
300000.0 -0.2404769293 -0.0935562942 0.4710555229 0.0614589768 0.469508986 0.0584909877 -0.2390434287 -0.0979683487
5299970.0 -0.24478013 0.0063602502 0.4748711198 0.0053094679 0.4749359282 0.0054182923 -0.2411983246 0.0072878183
10299940.0 -0.2416098221 0.0178735216 0.4764030491 0.0061813915 0.4768716882 0.0060956486 -0.237701545 0.0204241474
15299910.0 -0.2374801299 0.0267832148 0.4805886193 0.0073756703 0.480527188 0.0075452643 -0.2330197794 0.03005103
20299880.0 -0.2330807755 0.0337776337 0.4849130569 0.0087761262 0.4849611369 0.0079538581 -0.2279009704 0.0381004544
25299850.0 -0.2278713155 0.0403969018 0.49038626 0.0069983098 0.4901679138 0.0068585021 -0.221974889 0.0448258273
30299820.0 -0.2224165207 0.045273817 0.4957731706 0.0050869331 0.49551967 0.0049710196 -0.2161336639 0.0502214459
35299790.0 -0.217479424 0.0492108827 0.500877218 0.0012635202 0.5011343988 0.0017339028 -0.2107358264 0.0547099364
40299760.0 -0.2125713695 0.0524183434 0.5060558041 -0.0023403244 0.5060591138 -0.0021118526 -0.2053186394 0.0571949873
45299730.0 -0.2080091109 0.0548353335 0.5104283069 -0.0067077149 0.5108791979 -0.006919951 -0.2002391697 0.0603659309
50299700.0 -0.2038951885 0.0567182958 0.5150097451 -0.0123482326 0.5152642541 -0.0122230599 -0.1957999746 0.0624952235
55299670.0 -0.1997718297 0.0584962624 0.5186993992 -0.0190287436 0.5183958265 -0.0181257961 -0.1913509648 0.0641617314
60299640.0 -0.195949112 0.0599341093 0.5214281951 -0.0249760555 0.5219916644 -0.0244362955 -0.1872557323 0.0653680789
65299610.0 -0.1928185193 0.060981309 0.5248136951 -0.031108321 0.5248535016 -0.0312191251 -0.183694443 0.0666933338
70299580.0 -0.1900543861 0.0621473232 0.527425548 -0.0379828326 0.5270662149 -0.037300908 -0.1808073351 0.0675501958
75299550.0 -0.1871517635 0.0629552375 0.5289934691 -0.0443187668 0.5288621587 -0.0447982349 -0.1778864467 0.0681954742
80299520.0 -0.1846901145 0.0636976944 0.5311398663 -0.0516193711 0.5312853802 -0.0515798258 -0.1751085933 0.069182285
85299490.0 -0.1826177622 0.0638938334 0.53215375 -0.0582151648 0.5322562437 -0.0581649123 -0.1729565533 0.0696257616
90299460.0 -0.1802921866 0.0649144855 0.5325622048 -0.065566789 0.5336125714 -0.0650471714 -0.1702721492 0.0703412009
95299430.0 -0.1782024133 0.0652742539 0.534210391 -0.0719508064 0.5339563896 -0.072029524 -0.1681006228 0.0711651294
100299400.0 -0.176616917 0.0662174383 0.5339850037 -0.0788679573 0.5342992858 -0.0788271723 -0.1660100646 0.0712789369
105299370.0 -0.1749579657 0.0668430628 0.5346133045 -0.0860776381 0.5350359925 -0.0863378075 -0.1639255207 0.0728111725
110299340.0 -0.1731208466 0.0676395882 0.5349420908 -0.0925091922 0.5348318426 -0.0921561377 -0.1628016931 0.0731167036
115299310.0 -0.1718926608 0.0679741846 0.5351071549 -0.0993311105 0.5346252681 -0.0999998211 -0.1609121059 0.0738689217
120299280.0 -0.1706325147 0.0684855419 0.5345598192 -0.106267134 0.5343952407 -0.1064670592 -0.1597319044 0.0746973786
125299250.0 -0.1694798933 0.0692349058 0.5342591072 -0.1128915192 0.5344764623 -0.1124705716 -0.1582666669 0.0749785491
130299220.0 -0.1688470668 0.0701394947 0.5334126513 -0.1199633438 0.5339279991 -0.1197286423 -0.1571357393 0.0757858141
135299190.0 -0.1673596161 0.0711100824 0.532971638 -0.1262982059 0.5327106165 -0.1263492486 -0.1558853721 0.0767308799
140299160.0 -0.1666818172 0.0720440059 0.532013219 -0.1329480273 0.5322642369 -0.1331909011 -0.1543360689 0.0780534677
145299130.0 -0.1653259175 0.0727160067 0.5309955897 -0.1393339776 0.5309645338 -0.1396409442 -0.1536125157 0.0790797205
150299100.0 -0.1643081187 0.0740345686 0.5298434582 -0.1455066968 0.5299645542 -0.1454130464 -0.1522032775 0.0803200526
155299070.0 -0.1640643994 0.0749065954 0.5291461943 -0.1531879784 0.5287080864 -0.1524424293 -0.151159667 0.0812744267
160299040.0 -0.1626777477 0.0756699708 0.5272165305 -0.1589882164 0.5271550385 -0.1590280336 -0.1510513087 0.0823216047
165299010.0 -0.1619140639 0.0769720906 0.5260325024 -0.1656469786 0.5261193218 -0.1656326538 -0.1492414752 0.0835876786
170298980.0 -0.1615495284 0.0777564527 0.5240950443 -0.1716881865 0.5250325254 -0.1719695437 -0.1483339528 0.0850317582
175298950.0 -0.1608091343 0.0790226677 0.5229190889 -0.1785305595 0.5228305669 -0.1779001383 -0.1478726766 0.0862586206
180298920.0 -0.1600783777 0.0801034643 0.5212243266 -0.1843086984 0.5211156667 -0.1840440553 -0.1464622686 0.0872930445
185298890.0 -0.15917382 0.0809930808 0.51942372 -0.1906390979 0.5192122775 -0.1901964089 -0.1455058697 0.0888076443
190298860.0 -0.1584202622 0.0824244688 0.5175053274 -0.1966397521 0.5174379214 -0.1965396377 -0.1447771356 0.0896986862
195298830.0 -0.1577497565 0.0832495695 0.5150629154 -0.2025911216 0.5152028118 -0.2024380359 -0.1436978007 0.0911601371
200298800.0 -0.1567091564 0.084678952 0.5130248116 -0.2089495368 0.5133390814 -0.2092603953 -0.1431823459 0.0924712993
205298770.0 -0.1560403771 0.0858741765 0.5107048245 -0.21526746 0.510899536 -0.2147034713 -0.1423625537 0.093012444
210298740.0 -0.1554749942 0.087241794 0.5086653111 -0.2209631776 0.5087825297 -0.2204110105 -0.1408220641 0.0951459373
215298710.0 -0.1549958937 0.0885026525 0.5065192588 -0.2268273898 0.5064120781 -0.2268619783 -0.1405774186 0.0963888317
220298680.0 -0.1539822403 0.0890925379 0.5035585021 -0.2328114995 0.5037273063 -0.2328335849 -0.1397438497 0.0974845459
225298650.0 -0.1534010642 0.0907955714 0.501484381 -0.2390913225 0.5016185199 -0.2387947489 -0.1389134062 0.0988413128
230298620.0 -0.1526291511 0.092403619 0.4989393487 -0.2441120106 0.4994910151 -0.2442716689 -0.1382363592 0.1001813232
235298590.0 -0.1515798722 0.093856141 0.4959659456 -0.2504618178 0.4964793235 -0.2498081859 -0.137096786 0.1015297143
240298560.0 -0.1511003703 0.095166801 0.4936066921 -0.2558219683 0.4938236875 -0.2558428592 -0.1360682954 0.1033601094
245298530.0 -0.1503513739 0.0963511599 0.4913828209 -0.2614418853 0.4910911758 -0.2613852253 -0.1347603792 0.104010136
250298500.0 -0.1490853317 0.0977552598 0.4877155259 -0.2674944828 0.4876887353 -0.2668375285 -0.1339538632 0.1056413987
255298470.0 -0.1485151788 0.0985588228 0.4848129649 -0.272210823 0.4852260129 -0.2725096055 -0.1328335348 0.1067762701
260298440.0 -0.1479815082 0.0998771784 0.4820070709 -0.2783709522 0.4820923862 -0.2780886303 -0.1314125466 0.1083254855
265298410.0 -0.1467041066 0.1019331859 0.4791063118 -0.2837803949 0.4793443992 -0.2832967403 -0.1305813983 0.1098370169
270298380.0 -0.1459473976 0.102959707 0.476347296 -0.2889417803 0.476444769 -0.2892079203 -0.1295376184 0.1111173323
275298350.0 -0.1449748737 0.1044278741 0.473105518 -0.2949027919 0.4730018113 -0.2944619281 -0.1279454384 0.1124697094
280298320.0 -0.1437745625 0.1057685859 0.4700770153 -0.3000398658 0.4700065809 -0.2998029195 -0.1267670243 0.1138474479
285298290.0 -0.1431753893 0.1074097753 0.4666803685 -0.3052686863 0.4663239064 -0.305410192 -0.1256408055 0.1150373817
290298260.0 -0.1418836686 0.1084201189 0.4632830072 -0.3105250545 0.4633821536 -0.3108050991 -0.124448459 0.1167184599
295298230.0 -0.1408665878 0.1095796035 0.4602130168 -0.3160417345 0.459908664 -0.3154452898 -0.1227666594 0.1178565176
300298200.0 -0.1402113344 0.1110566504 0.4567686445 -0.3208169834 0.457131596 -0.3212538163 -0.1218593022 0.1190326855
305298170.0 -0.1388548769 0.1122218015 0.452617041 -0.3264511433 0.4529407196 -0.3259689737 -0.1198165331 0.12028503
310298140.0 -0.1380996874 0.1136056163 0.4496516118 -0.3315535946 0.4496204414 -0.3310907287 -0.1187295339 0.1215649237
315298110.0 -0.1371480548 0.1147144496 0.4461864719 -0.3365589898 0.4461336751 -0.336537441 -0.1175978979 0.1228681916
320298080.0 -0.1356894955 0.1158034104 0.4415265349 -0.3421750232 0.4421315546 -0.341541207 -0.1165992475 0.124291019
325298050.0 -0.1350502138 0.1172905538 0.4380561958 -0.3470980295 0.4381047911 -0.3470585672 -0.1151488565 0.1254885808
330298020.0 -0.1342708324 0.1183491804 0.4341572134 -0.3519860518 0.4346433373 -0.3517019985 -0.1140105305 0.1268602764
335297990.0 -0.1332113675 0.1194008072 0.4301646534 -0.3563578362 0.4300958486 -0.3567797938 -0.1134998168 0.1285713618
340297960.0 -0.1325329211 0.1210680458 0.4256650171 -0.3613886668 0.4257727544 -0.3616349672 -0.1113864157 0.1298699268
345297930.0 -0.1315778018 0.1228161106 0.4216936137 -0.3663867138 0.4219313196 -0.3660685284 -0.1107126309 0.1309596806
350297900.0 -0.1306046212 0.1236844805 0.4171885975 -0.3706452007 0.417622301 -0.3705943039 -0.1093839279 0.132774704
355297870.0 -0.1292580917 0.1257703434 0.4133592733 -0.3752856581 0.4136202789 -0.3749586604 -0.1082155131 0.1339156518
360297840.0 -0.1282394532 0.1265994611 0.4099454231 -0.379553251 0.4100055958 -0.3794702346 -0.1068840003 0.1352957453
365297810.0 -0.1271755754 0.1284035811 0.4049232988 -0.3844964848 0.4053952155 -0.3844130048 -0.1053872665 0.1366213682
370297780.0 -0.1258125452 0.1295865671 0.4007565888 -0.3886688451 0.4014113475 -0.3882980926 -0.1038077367 0.1380438335
375297750.0 -0.1245546857 0.1308861024 0.3967134793 -0.3930840034 0.397105646 -0.3927054107 -0.1024275735 0.1393785397
380297720.0 -0.1233679821 0.1323544085 0.392696565 -0.3976409193 0.3930224403 -0.3965933933 -0.101533593 0.1405540325
385297690.0 -0.1226039358 0.1335386942 0.3882131032 -0.4017287423 0.3879141301 -0.4015929205 -0.0995030167 0.1421365869
390297660.0 -0.1211406011 0.1349247765 0.3834758421 -0.4059146536 0.3837374184 -0.4056966539 -0.0985159562 0.1432138291
395297630.0 -0.1197846908 0.1364007381 0.3793337209 -0.4101161296 0.3792655361 -0.4100072739 -0.0960355357 0.14441985
400297600.0 -0.1184048707 0.1374496414 0.3743835989 -0.4144304927 0.3745992218 -0.4141707233 -0.0948390231 0.145662436
405297570.0 -0.1177783103 0.1389248083 0.3704485815 -0.4181406235 0.3699291828 -0.4181261585 -0.0935737121 0.1468082682
410297540.0 -0.1161393365 0.1401418995 0.3655891648 -0.422333617 0.3657439303 -0.4227176299 -0.0920857958 0.1483288667
415297510.0 -0.1143706491 0.1412555245 0.3603393122 -0.4268378227 0.3610780166 -0.4265318694 -0.0905463127 0.1493526885
420297480.0 -0.1135324813 0.1427024639 0.3562656311 -0.4305663521 0.3556895106 -0.4303840266 -0.0891084775 0.1502269424
425297450.0 -0.1118488788 0.1434758759 0.351381036 -0.4341885396 0.3519600052 -0.4341868334 -0.0880648697 0.1516124796
430297420.0 -0.1108047694 0.1446893309 0.3465019259 -0.4373065178 0.3470237773 -0.4377001311 -0.0860045362 0.1520795227
435297390.0 -0.1096118564 0.145869409 0.3418789308 -0.4416493795 0.3417142836 -0.4418809775 -0.0838429976 0.1537600721
440297360.0 -0.107991814 0.147480012 0.3367017678 -0.4453280621 0.3372458332 -0.4454146299 -0.082545561 0.1541799188
445297330.0 -0.106686349 0.1480993719 0.332470798 -0.4491184587 0.3324603006 -0.4487415291 -0.0807044856 0.1550123274
450297300.0 -0.105171721 0.1496410793 0.3272279516 -0.4525841986 0.3272472127 -0.4528360565 -0.0792180906 0.1562627023
455297270.0 -0.1036160667 0.1507612264 0.3218051632 -0.4563226589 0.3224391974 -0.4561887255 -0.0771254832 0.1571681609
460297240.0 -0.1024495315 0.1518569236 0.3170848776 -0.4596606227 0.3174407227 -0.4596229183 -0.0755219501 0.1582595499
465297210.0 -0.1006281391 0.1529884737 0.3122299099 -0.4631709292 0.3124005686 -0.4632868926 -0.0735422406 0.1590548111
470297180.0 -0.0995312554 0.1539404261 0.3068959277 -0.4661534753 0.3069278899 -0.4664586584 -0.0719143909 0.1604746536
475297150.0 -0.0977311983 0.154656733 0.3017404665 -0.469171277 0.3021532409 -0.4692143593 -0.0697971091 0.1609886186
480297120.0 -0.0964582818 0.1564960337 0.2970373024 -0.4729019676 0.2964265871 -0.4729671364 -0.0680132717 0.1620851965
485297090.0 -0.0951194095 0.1575240384 0.2918186815 -0.476138209 0.291936483 -0.4758440111 -0.0660041683 0.16291848
490297060.0 -0.0937706821 0.1584722252 0.2869426638 -0.4796525382 0.2866958524 -0.4791105163 -0.0641565247 0.1641823147
495297030.0 -0.0920235833 0.1594769828 0.2806581836 -0.4820789497 0.2818101253 -0.4821755107 -0.0626145825 0.1647921413
500297000.0 -0.0905677083 0.1605449353 0.2760009185 -0.4849184203 0.275731897 -0.4850176089 -0.0606138973 0.1663596857
505296970.0 -0.0888395884 0.1614084912 0.2705401758 -0.4882846736 0.2704671414 -0.4882861266 -0.0588887946 0.1666377672
510296940.0 -0.087349793 0.1624607045 0.265560418 -0.491431568 0.2652992757 -0.4913325468 -0.0567506069 0.1677091283
515296910.0 -0.0855117525 0.1633734017 0.2598399902 -0.493903933 0.2602348129 -0.4943874396 -0.0552586821 0.1686613096
520296880.0 -0.0842399753 0.1644468315 0.2545309981 -0.4973276742 0.2544525603 -0.4966955039 -0.0535149562 0.1690599609
525296850.0 -0.0822929441 0.1648910125 0.2487679008 -0.4993399225 0.2493854892 -0.4994518043 -0.0517533361 0.1700797649
530296820.0 -0.0807973534 0.1662459374 0.2434523845 -0.5023975554 0.2438344005 -0.5023674233 -0.0492614934 0.1709549253
535296790.0 -0.0796058833 0.1672616565 0.2386197101 -0.5042544811 0.2386409955 -0.504320626 -0.047980489 0.1713148827
540296760.0 -0.0780077596 0.1681518517 0.2327612932 -0.5074888788 0.2327180847 -0.5073568708 -0.0463808046 0.1723581388
545296730.0 -0.076182751 0.1689944719 0.2268820991 -0.5098298334 0.2272539069 -0.5099499398 -0.0445447439 0.1727567077
550296700.0 -0.07438261 0.170237771 0.2214467808 -0.5123745833 0.2222225796 -0.512245509 -0.0429771851 0.1738085502
555296670.0 -0.0727524989 0.1707961032 0.2159826002 -0.5145478789 0.2165079555 -0.5141271055 -0.0405975867 0.1743396451
560296640.0 -0.0709589625 0.1716339372 0.2102413612 -0.5167351875 0.2105829776 -0.5169409811 -0.0387024841 0.1748506773
565296610.0 -0.0699508428 0.1726565882 0.2046393421 -0.5190333741 0.2050065589 -0.5187791544 -0.0367758514 0.1751372928
570296580.0 -0.0682775788 0.1734286368 0.1994375467 -0.5216140358 0.198910819 -0.5215106374 -0.0349765486 0.1763973663
575296550.0 -0.0666096227 0.1745472224 0.1934265604 -0.5236511864 0.1933700621 -0.5234389445 -0.0329766004 0.1765249795
580296520.0 -0.064449747 0.175006542 0.1878313706 -0.525449791 0.1878905405 -0.5251780251 -0.030687736 0.1766183929
585296490.0 -0.0633475987 0.1753298532 0.1824614255 -0.5270370184 0.1823531081 -0.5277408001 -0.0291131518 0.1774427202
590296460.0 -0.0610515458 0.176360335 0.1766105603 -0.5288695052 0.1764711607 -0.5290604538 -0.0274833283 0.1781215682
595296430.0 -0.0594420095 0.1773397153 0.1701974582 -0.5316769547 0.1705027899 -0.5309166876 -0.0251026358 0.1778937097
600296400.0 -0.0579551849 0.1778091485 0.1647329244 -0.5328226497 0.1648094219 -0.5330270746 -0.0234443816 0.178638684
605296370.0 -0.056157193 0.1785139396 0.1590092042 -0.5347432764 0.1593483483 -0.5346464207 -0.0212932433 0.178579385
610296340.0 -0.0544280612 0.1790996728 0.1525794261 -0.5359318066 0.1532177348 -0.5364509918 -0.0193992492 0.1791226425
615296310.0 -0.0523058304 0.1797903145 0.1473403833 -0.5375740411 0.1472478903 -0.5382286207 -0.0171111283 0.1795670606
620296280.0 -0.050809863 0.1802592169 0.1416248481 -0.5393493007 0.1417061545 -0.5393496412 -0.0153479131 0.179930674
625296250.0 -0.0494061126 0.1807254989 0.1363382665 -0.5410186407 0.1359634617 -0.5413621098 -0.0127599096 0.1802111375
630296220.0 -0.046492861 0.1814356594 0.1288373132 -0.5421240797 0.129328961 -0.5419292263 -0.0109388649 0.1806022088
635296190.0 -0.0460693623 0.1818778522 0.1238735324 -0.5433706187 0.1240181022 -0.5437238949 -0.008864039 0.1808844207
640296160.0 -0.0441215058 0.1828732588 0.1183342264 -0.5445542853 0.1186608278 -0.5445464948 -0.0068386152 0.180901168
645296130.0 -0.0423673044 0.1833298708 0.1121697756 -0.5456437166 0.1126600924 -0.5458863099 -0.0047947628 0.1814874751
650296100.0 -0.0401698525 0.1838720626 0.1060977828 -0.5470374093 0.1064115178 -0.5471797488 -0.0025876342 0.18100588
655296070.0 -0.0387174195 0.1841289336 0.1003186195 -0.5480354827 0.1007999498 -0.5482408884 -0.0004303155 0.1817137699
660296040.0 -0.0372910342 0.184474281 0.0946480035 -0.5495133358 0.0946979354 -0.5492308132 0.0017929945 0.1817422139
665296010.0 -0.0347891895 0.1852618151 0.0882400166 -0.5500226577 0.0886496198 -0.5502389874 0.0038513643 0.182210225
670295980.0 -0.03385985 0.1858248357 0.0825331137 -0.5509870341 0.0828450951 -0.5509660102 0.0054009718 0.182325781
675295950.0 -0.0317699786 0.1864146193 0.0769511403 -0.5519515334 0.0769692089 -0.5515545349 0.0071680609 0.1825523728
680295920.0 -0.0298711095 0.1864854733 0.0707279381 -0.5522589394 0.0700388872 -0.5531571007 0.0092584557 0.1828998634
685295890.0 -0.0279734404 0.1878856828 0.0644387514 -0.5536591616 0.0644969275 -0.5534798318 0.0114692619 0.1827077004
690295860.0 -0.0258902709 0.1876241639 0.0588028957 -0.5534574115 0.0590007628 -0.5544340161 0.013408991 0.1836084519
695295830.0 -0.0244347643 0.1878394226 0.0532346365 -0.5540687669 0.0526600184 -0.5544278385 0.0157430574 0.1831272328
700295800.0 -0.0224308308 0.1883088958 0.0466012898 -0.5547329726 0.0466437251 -0.5550733903 0.0173453688 0.183615056
705295770.0 -0.0207630398 0.1890759963 0.040487631 -0.5553355405 0.041067036 -0.5555760498 0.0193215903 0.1833931221
710295740.0 -0.0189642517 0.1892256734 0.0349726773 -0.5566851117 0.0352734981 -0.5562697311 0.0214645788 0.182778257
715295710.0 -0.01718876 0.1895784725 0.0292944646 -0.5560973297 0.0289727139 -0.5562695325 0.0236972071 0.1829152822
720295680.0 -0.0153313038 0.1896092989 0.023003215 -0.556665338 0.0234493228 -0.556633837 0.0254274589 0.1832477912
725295650.0 -0.0130833122 0.1900518836 0.0164744205 -0.5566057942 0.017283627 -0.5566362621 0.0270680461 0.1830115316
730295620.0 -0.0112760947 0.1905969589 0.0107572718 -0.5565246462 0.0110402098 -0.5569920381 0.028970765 0.1826999535
735295590.0 -0.0095580237 0.1907277554 0.0049685372 -0.5568708406 0.004804405 -0.5569014172 0.0309657167 0.1823229619
740295560.0 -0.0080762886 0.1911373357 -0.0012371352 -0.5568429095 -0.0011962317 -0.5570887178 0.033645386 0.1827443595
745295530.0 -0.0058693485 0.1911546098 -0.0072858485 -0.5562553978 -0.0070328294 -0.5565910595 0.0351376162 0.1813603751
750295500.0 -0.0040187776 0.1916157568 -0.0133098092 -0.5562990715 -0.0130442863 -0.5568781694 0.0372381906 0.1815528671
755295470.0 -0.0021101432 0.1913247889 -0.0188526302 -0.5565470771 -0.0186400466 -0.5570019556 0.0393866183 0.1809806034
760295440.0 -0.0002292357 0.1916622888 -0.0248557502 -0.55631321 -0.0249686687 -0.5563280862 0.0412682275 0.1809020664
765295410.0 0.0015578194 0.1919482736 -0.0314807828 -0.5556363519 -0.0311474959 -0.5557215056 0.0435220859 0.1807020081
770295380.0 0.003190686 0.1917915241 -0.0377200481 -0.5553337804 -0.0373595654 -0.5553353813 0.0451533346 0.1801933137
775295350.0 0.0047362247 0.1916955566 -0.043548622 -0.5545723819 -0.0425239598 -0.5549432325 0.0465764411 0.179804083
780295320.0 0.0069007637 0.1919486345 -0.0495147671 -0.5539679283 -0.0483167565 -0.5542919824 0.0488887789 0.1791232055
785295290.0 0.0085103345 0.1917182374 -0.0551840333 -0.5531070547 -0.0547274494 -0.5537676929 0.0518237725 0.1787371693
790295260.0 0.0113486699 0.1922998834 -0.0609840815 -0.5529343604 -0.059716246 -0.5532113176 0.0533038239 0.1784451181
795295230.0 0.0123358453 0.1920295029 -0.0666456598 -0.5522235842 -0.0662617055 -0.5522942072 0.0556036236 0.1781064246
800295200.0 0.0140327824 0.1923435928 -0.0731007422 -0.5510805071 -0.072652123 -0.551825541 0.0576855778 0.1775312061
805295170.0 0.0162702114 0.191853982 -0.0786014635 -0.5505847982 -0.0787034764 -0.5509667486 0.0594364798 0.1773302006
810295140.0 0.0179985293 0.1915145567 -0.0845123215 -0.549336265 -0.0843885934 -0.5497899367 0.0618841176 0.1767207336
815295110.0 0.0201913713 0.1916384909 -0.0904412799 -0.5482837109 -0.0902651364 -0.5487562348 0.063420793 0.1763280191
820295080.0 0.0214612493 0.1923107367 -0.0963641998 -0.5481732484 -0.0958829981 -0.5477284365 0.0655102637 0.1756823192
825295050.0 0.0241281109 0.1919637853 -0.1022534161 -0.5464166731 -0.1021706612 -0.5465018432 0.067618722 0.1749444712
830295020.0 0.0254629461 0.1918484051 -0.1080705825 -0.5449156678 -0.1078924916 -0.5455684894 0.0703550145 0.1746728201
