!Created with skrf (http://scikit-rf.org).
# Hz S RI R 50.0 
!freq ReS11 ImS11 ReS21 ImS21 ReS12 ImS12 ReS22 ImS22
300000.0 -0.096208757 -0.0843415204 0.6217830034 0.0787932666 0.6246625976 0.0827297627 -0.0964267675 -0.0914206903
5299970.0 -0.1001783181 0.0128282236 0.6305660528 0.0106668761 0.6305749656 0.0110654889 -0.1019841399 0.012005192
10299940.0 -0.0953928275 0.0298798085 0.6343200965 0.0154129761 0.6343005496 0.0161360081 -0.0972028169 0.0288404316
15299910.0 -0.0884651071 0.0430956824 0.6405683992 0.0205413384 0.6400750177 0.0207159907 -0.0900881157 0.0421126905
20299880.0 -0.079414936 0.0542354628 0.6483726937 0.0242850504 0.6488274367 0.0244382662 -0.0820310669 0.0531607122
25299850.0 -0.0698088947 0.0628390134 0.6580842643 0.0248320508 0.6581409945 0.0251368576 -0.0724857936 0.0620109735
30299820.0 -0.0597935059 0.0692028072 0.6678539623 0.02489952 0.6677572076 0.0243365791 -0.0625390561 0.0689194123
35299790.0 -0.0494684817 0.0742208047 0.6772834589 0.0215838995 0.6772423264 0.022081343 -0.0524789465 0.0734571118
40299760.0 -0.0398040468 0.0769448598 0.686762911 0.0180316674 0.6866775697 0.0175013837 -0.0435558156 0.0771171134
45299730.0 -0.0304402525 0.0793031672 0.6954090123 0.0117571529 0.695610366 0.011822634 -0.0337991252 0.0791465689
50299700.0 -0.0216481163 0.0796065656 0.7037001711 0.0048758184 0.7034327563 0.0050404454 -0.025544635 0.0801284883
55299670.0 -0.0141525016 0.079875701 0.7105739748 -0.0028084013 0.7108967414 -0.0028244881 -0.0178813224 0.0800911459
60299640.0 -0.006568504 0.0785605695 0.7171217246 -0.0110065542 0.7172898277 -0.0110306904 -0.0104847176 0.0796781883
65299610.0 -0.0001850793 0.077970938 0.723388369 -0.0195012924 0.7237517975 -0.0199312557 -0.003394267 0.0785352267
70299580.0 0.0060901469 0.0759141848 0.728352376 -0.0291051387 0.7285995388 -0.0290872969 0.002471324 0.0771737448
75299550.0 0.0116421979 0.0742647114 0.7327010143 -0.0387128632 0.7328881565 -0.0390399279 0.0083331378 0.0757623456
80299520.0 0.0161997401 0.0719476932 0.7376135185 -0.0492391614 0.737594516 -0.0488128931 0.0133939202 0.0730072408
85299490.0 0.0209589951 0.0695767662 0.7402413885 -0.0592675379 0.7402796238 -0.0587358529 0.0174659101 0.0710067986
90299460.0 0.0245921588 0.0672263656 0.7434833256 -0.0680673212 0.7438161614 -0.0690071615 0.0223439542 0.0686644517
95299430.0 0.0281381347 0.0651903896 0.7457089568 -0.0795806417 0.7459792673 -0.0788155924 0.0254153721 0.0661675887
100299400.0 0.0314830458 0.0629224326 0.7473905862 -0.0891055243 0.7473078498 -0.0891638519 0.0284677985 0.0639399701
105299370.0 0.0345764438 0.060062706 0.7484500106 -0.0989758149 0.7488242098 -0.099121715 0.0318201257 0.0618261953
110299340.0 0.0371570779 0.0578471421 0.7492903421 -0.1089737645 0.7498597809 -0.1093642036 0.0347484095 0.0591526332
115299310.0 0.0397792606 0.0548406178 0.7511540592 -0.118783675 0.7510830021 -0.1189058147 0.0373201181 0.0560738927
120299280.0 0.0413662351 0.0525944645 0.7516167808 -0.1295844436 0.751633004 -0.129864222 0.0390126466 0.0543928291
125299250.0 0.0432190088 0.050310904 0.7513646908 -0.1389914001 0.7519008687 -0.1395398035 0.0412153092 0.05142426
130299220.0 0.0451917875 0.0478323046 0.7512539486 -0.1488815878 0.7518068072 -0.1492107228 0.0430754848 0.0493837442
135299190.0 0.0471838832 0.0452913775 0.7510933544 -0.1588868071 0.7508599298 -0.1589593533 0.0446825534 0.0473323516
140299160.0 0.0480455149 0.0443162063 0.7504715109 -0.1683766916 0.7508823003 -0.1687049215 0.0464438117 0.0454496501
145299130.0 0.0492655201 0.0418549907 0.7505076393 -0.178706997 0.7500630224 -0.1781406991 0.0470451441 0.0428689283
150299100.0 0.0507530218 0.039853063 0.7492689945 -0.1884296159 0.749205611 -0.1881460195 0.0483796038 0.0407998346
155299070.0 0.0513026251 0.0381876878 0.7474982849 -0.1977944811 0.7476631797 -0.1980923612 0.0492460445 0.0385848571
160299040.0 0.0524206355 0.0359413644 0.7461945368 -0.2068317975 0.746318543 -0.2074452172 0.0508902055 0.0374356014
165299010.0 0.0529124284 0.0342443993 0.7450459003 -0.2168671364 0.7449217944 -0.2169961941 0.0517370592 0.0347997533
170298980.0 0.0534363871 0.0326279301 0.7423604459 -0.2261471584 0.7427912261 -0.2264006159 0.0529650629 0.0328957625
175298950.0 0.0544215739 0.0305550502 0.7416549588 -0.2349526893 0.7412005447 -0.2352668496 0.0532848021 0.0309714194
180298920.0 0.0553676969 0.0292123718 0.7390374714 -0.2445344762 0.73889467 -0.244198626 0.0536202237 0.0298776739
185298890.0 0.056206339 0.0272210081 0.7366121002 -0.2536787704 0.7367761459 -0.2538038256 0.0543163956 0.0278759659
190298860.0 0.0563935937 0.0258779861 0.7346056409 -0.2633971925 0.7344933556 -0.262799108 0.0553156154 0.0261656361
195298830.0 0.0563346197 0.0239600487 0.7320402762 -0.271563482 0.7320552313 -0.2722539872 0.0559757942 0.0240251065
200298800.0 0.0572261657 0.0226351583 0.7299739571 -0.2799993968 0.7288176197 -0.2802647327 0.0562454764 0.0232175697
205298770.0 0.0571062151 0.0214321067 0.7266584213 -0.2894271141 0.726827699 -0.2897100554 0.056473041 0.0207389927
210298740.0 0.0571849557 0.0197668457 0.7235063319 -0.2985546396 0.7238315153 -0.2987219131 0.0569816253 0.0200089643
215298710.0 0.0577929448 0.0186400628 0.7206806115 -0.3069351157 0.7204526819 -0.3072461281 0.0567141042 0.018216971
220298680.0 0.0581964988 0.0171560303 0.7172420299 -0.3159971975 0.7172036036 -0.3157088454 0.0574975599 0.0172630383
225298650.0 0.0586892011 0.0161052106 0.7139776562 -0.3244032909 0.7137224065 -0.3243199271 0.0574880565 0.0158574661
230298620.0 0.058413502 0.0146189761 0.7108575631 -0.3330660825 0.7113020058 -0.3325609759 0.0581967917 0.0143184819
235298590.0 0.0584045816 0.0130467063 0.7072073025 -0.3409790528 0.7074894032 -0.3416361912 0.0581890579 0.0127717063
240298560.0 0.058311893 0.0122442168 0.7039842866 -0.3493003145 0.7039412253 -0.3493995342 0.0581628509 0.011911842
245298530.0 0.0588246111 0.0114340491 0.6996279741 -0.3577133283 0.6998041332 -0.3580246877 0.0583003818 0.0105148005
250298500.0 0.0583968198 0.0097128341 0.6960400471 -0.3654523815 0.696313852 -0.3654571801 0.0589140025 0.0086333142
255298470.0 0.0582461802 0.0088897019 0.6918408041 -0.3745687253 0.69257408 -0.3740815171 0.0587475886 0.0074010456
260298440.0 0.0583830329 0.0078852096 0.6880556994 -0.381997188 0.6883808201 -0.3825127024 0.0592549461 0.0068108821
265298410.0 0.059020144 0.0070747217 0.6838808841 -0.3907565143 0.684010023 -0.3908527753 0.0586201249 0.0054909234
270298380.0 0.0592818895 0.0055274759 0.6790695644 -0.3982247825 0.6802166396 -0.3984917758 0.0591955864 0.0049709917
275298350.0 0.0583043479 0.0046841838 0.6754390358 -0.4066993853 0.6762040521 -0.4066524924 0.0590231472 0.003514671
280298320.0 0.0586831424 0.0039786466 0.6709853761 -0.4137610349 0.6711579477 -0.4144842024 0.0593220781 0.0027153
285298290.0 0.0587264247 0.0030767462 0.6668107153 -0.4215711222 0.6663987681 -0.4218771759 0.0590920003 0.0016720245
290298260.0 0.0587669836 0.0016978912 0.6624496687 -0.4298439361 0.662536788 -0.4297847318 0.0595488803 0.0007413963
295298230.0 0.0588037738 0.0005188487 0.6576806902 -0.4373227088 0.6576599002 -0.4374014121 0.0598522194 -0.0004579914
300298200.0 0.0594106087 5.41438e-05 0.6532005562 -0.4452659419 0.6533693538 -0.4454027253 0.0594171122 -0.0014159812
305298170.0 0.0588951429 -0.0014533718 0.6483614875 -0.4530276809 0.6483879873 -0.4532171736 0.0598655118 -0.002111936
310298140.0 0.0597032973 -0.0024658748 0.6438931796 -0.4604563061 0.6437156223 -0.4606073887 0.0597035173 -0.0027568809
315298110.0 0.0587611905 -0.0032575855 0.6382865332 -0.467830801 0.6387175273 -0.4682654828 0.060084048 -0.0045379816
320298080.0 0.0586752703 -0.0044418829 0.6330979341 -0.4756855159 0.6336513638 -0.4754955123 0.0593167223 -0.0058452384
325298050.0 0.0581776384 -0.0057827683 0.6290431523 -0.483280855 0.6282337125 -0.4838202697 0.0591079887 -0.0072209893
330298020.0 0.0579243673 -0.006393398 0.6218796961 -0.4905000786 0.6216207251 -0.4909151561 0.0583341994 -0.0085760562
335297990.0 0.0576910418 -0.0078536132 0.6165366082 -0.4977144688 0.6163837664 -0.4980548811 0.0581059838 -0.0088642477
340297960.0 0.0565882375 -0.0083137636 0.610160039 -0.504739517 0.610853712 -0.5043742782 0.0571535541 -0.00953953
345297930.0 0.0559926844 -0.0085941913 0.6051215415 -0.5106703391 0.604728885 -0.5112892985 0.0576871094 -0.0107935914
350297900.0 0.056600605 -0.0094351059 0.5987460422 -0.5176980902 0.5993086358 -0.5178743791 0.0569125967 -0.0106573366
355297870.0 0.0560573296 -0.0101833572 0.5932664655 -0.5247173325 0.5933960843 -0.5251624899 0.056374421 -0.0113414345
360297840.0 0.0562877784 -0.0109253236 0.5876787303 -0.53189347 0.5874824084 -0.5314537297 0.056350875 -0.0115784064
365297810.0 0.0557466723 -0.0115718957 0.5812908275 -0.5376023045 0.5814767799 -0.537606794 0.0558211883 -0.0124663811
370297780.0 0.055838673 -0.0123395444 0.575418726 -0.5444316532 0.5753987627 -0.5450225007 0.0558565734 -0.0127329681
375297750.0 0.0550130991 -0.0124617785 0.5701601059 -0.5507068645 0.569395493 -0.5511576033 0.055696796 -0.0135344484
380297720.0 0.0551658455 -0.0138300826 0.5634296166 -0.5569411734 0.5633248702 -0.557107583 0.0554533661 -0.0143161193
385297690.0 0.055092693 -0.0141690669 0.5574918363 -0.5628878163 0.5570290565 -0.5631488247 0.0549294153 -0.0146164968
390297660.0 0.0541480362 -0.0147473918 0.5509054454 -0.5696838609 0.5513309639 -0.5699714208 0.054875684 -0.0157085035
395297630.0 0.0546463631 -0.0157614119 0.5447821209 -0.5754622411 0.5445978953 -0.5759263959 0.0544534093 -0.0157830658
400297600.0 0.0537714369 -0.0160355521 0.5383013262 -0.581889439 0.5394122235 -0.5820574136 0.0531216487 -0.0170555841
405297570.0 0.0540340107 -0.0165669395 0.5318902536 -0.5875663002 0.5323109798 -0.5877672479 0.0536921475 -0.0167737936
410297540.0 0.0536112662 -0.017601549 0.5254171915 -0.5932935971 0.5251670885 -0.5935547371 0.0531871446 -0.017934304
415297510.0 0.0532196968 -0.0173800752 0.5187462952 -0.5989765261 0.519363095 -0.5996929334 0.052592833 -0.017920987
420297480.0 0.0529770024 -0.0189494075 0.5124493106 -0.6057172692 0.5126223539 -0.6053978786 0.0529658104 -0.0192270877
425297450.0 0.0533379107 -0.0198142241 0.5055616461 -0.6110842831 0.5060469148 -0.6111181253 0.0522584374 -0.0189298531
430297420.0 0.0524850023 -0.0196567961 0.4991336643 -0.6171122752 0.4989761804 -0.6169067929 0.0517089563 -0.0203629636
435297390.0 0.0524681388 -0.0206417742 0.4920463272 -0.6216528706 0.4926157661 -0.6215934585 0.0512524872 -0.0201414819
440297360.0 0.0523741067 -0.0216011019 0.4853547718 -0.6273178053 0.4848985202 -0.6277173034 0.0511429071 -0.0214549996
445297330.0 0.0522687734 -0.0222168193 0.4780552458 -0.633520575 0.478177095 -0.6333397176 0.0507541854 -0.0218327078
450297300.0 0.0519741939 -0.0225211792 0.4712753104 -0.637889029 0.4718811818 -0.6387001339 0.0500583863 -0.0221375493
455297270.0 0.0509550438 -0.0232504267 0.4645047136 -0.6433268013 0.4649046196 -0.6436256141 0.0502604857 -0.0226826636
460297240.0 0.0506259061 -0.0239740662 0.4574400236 -0.648039145 0.4569988137 -0.6485721195 0.0493933826 -0.0228371019
465297210.0 0.050536687 -0.0249246502 0.4501486382 -0.6535673616 0.4507613282 -0.6538186317 0.0487567815 -0.02374948
470297180.0 0.049972435 -0.0254030199 0.4429204419 -0.6585783435 0.443401867 -0.6588781946 0.0476530471 -0.024230382
475297150.0 0.049381989 -0.0265391791 0.4350754174 -0.662741201 0.4360990509 -0.6628114052 0.0481968145 -0.024898273
480297120.0 0.0498986021 -0.0270614489 0.4282583119 -0.6683303922 0.4287416952 -0.6683435059 0.0478857033 -0.0245467455
485297090.0 0.0494710985 -0.0273189639 0.4213536043 -0.6734302887 0.4212785352 -0.673226886 0.0470052724 -0.0256300541
490297060.0 0.0489947728 -0.028304311 0.4135523135 -0.6775182812 0.4142320088 -0.6778570511 0.0469185377 -0.0257219031
495297030.0 0.0478514394 -0.0279925574 0.4056178774 -0.6824318403 0.4057062391 -0.6825773789 0.046417238 -0.026294544
500297000.0 0.0478543139 -0.0293452227 0.3992756679 -0.6865416443 0.3985569547 -0.6865938868 0.0453671976 -0.0267340533
505296970.0 0.047049295 -0.0296091718 0.390639426 -0.6905810458 0.3909193287 -0.6910298245 0.0448534675 -0.0271982126
510296940.0 0.046824849 -0.0299163413 0.3837166353 -0.6955540597 0.3833366774 -0.6953401165 0.0447459206 -0.0273585936
515296910.0 0.0460297183 -0.0304764282 0.3757994031 -0.6986209729 0.3761301478 -0.699539976 0.0439544677 -0.0279499027
520296880.0 0.045843916 -0.0314762783 0.3682439784 -0.7031687193 0.3683814065 -0.7035671183 0.0442359972 -0.0283255509
525296850.0 0.0454272524 -0.0322157258 0.3604752542 -0.7076916688 0.3602460809 -0.7080787622 0.0438755713 -0.0290016217
530296820.0 0.0450552589 -0.0324864686 0.3529576144 -0.7110448088 0.3528889179 -0.7116927533 0.0428769021 -0.0302053146
535296790.0 0.0442783429 -0.0331413576 0.3450293257 -0.7152125427 0.345668052 -0.7154659387 0.0427036416 -0.0304829329
540296760.0 0.0438940672 -0.0339065075 0.3371273439 -0.7192333044 0.3361822902 -0.7196077608 0.041389465 -0.0302792451
545296730.0 0.0434355916 -0.0335043544 0.3289940307 -0.7223855527 0.3294812322 -0.7230040805 0.0413872682 -0.0309044296
550296700.0 0.0424139907 -0.0345185219 0.3214887833 -0.7260931034 0.3221770574 -0.7269089406 0.0406873567 -0.0304490277
555296670.0 0.042774065 -0.0352534133 0.3132414584 -0.7302198331 0.3134582404 -0.7296827218 0.0403588391 -0.0311949027
560296640.0 0.0420678081 -0.035815388 0.3059773516 -0.7330000874 0.305317837 -0.7327831167 0.0395984673 -0.0315153456
565296610.0 0.0407765573 -0.0362751368 0.2972136771 -0.7367507002 0.2969434734 -0.7366496815 0.0390590445 -0.0324833944
570296580.0 0.0411004665 -0.0366795238 0.2892114726 -0.7393499517 0.2893794084 -0.7395553588 0.0386985867 -0.03184509
575296550.0 0.0402142251 -0.0360586372 0.2809921365 -0.7422446381 0.2813926785 -0.7427579553 0.038583076 -0.0325147377
580296520.0 0.0394842134 -0.037217001 0.2732063306 -0.745912429 0.2725520264 -0.7460473794 0.0373592674 -0.0334552726
585296490.0 0.0394965843 -0.0378110258 0.2653850073 -0.7487597062 0.2647463246 -0.7489478886 0.0368933983 -0.0337401366
590296460.0 0.0380656763 -0.0386720887 0.2564267547 -0.7521403122 0.2564933997 -0.7515294961 0.0368147649 -0.033413287
595296430.0 0.0374335462 -0.038495548 0.2488121073 -0.7545603354 0.2485971343 -0.7548194768 0.0362260535 -0.0341322519
600296400.0 0.0372415585 -0.0387186898 0.2406155423 -0.756908119 0.2407734887 -0.7570442159 0.0355516898 -0.0340920248
605296370.0 0.0367472019 -0.0386421378 0.2320750254 -0.7597076108 0.2317908373 -0.7599495216 0.035225375 -0.0351514897
610296340.0 0.0357345482 -0.0392970049 0.224019438 -0.7621522461 0.2238324688 -0.7622747376 0.0345219973 -0.0343951696
615296310.0 0.0353769234 -0.0395163265 0.2149995025 -0.7641680564 0.2151115599 -0.7650364849 0.0336986716 -0.0352581726
620296280.0 0.0347298065 -0.0400748135 0.2075060698 -0.7668327206 0.2073720471 -0.7669407565 0.0331205907 -0.0357300185
625296250.0 0.0346174177 -0.040414968 0.1981373329 -0.7692710966 0.1989685748 -0.7694406506 0.0330813068 -0.0353403811
630296220.0 0.0339466336 -0.0406482061 0.1898781975 -0.7714192487 0.1903635103 -0.771174705 0.0317964955 -0.0361806967
635296190.0 0.0331802988 -0.040800704 0.1818894159 -0.7723040534 0.1812198403 -0.7728327552 0.0315787313 -0.0365618566
640296160.0 0.0323422337 -0.0409505341 0.1733998673 -0.7749985161 0.1732239775 -0.7749697002 0.0315239802 -0.0366645054
645296130.0 0.0319391536 -0.0412307123 0.1650683827 -0.7768583995 0.1648332405 -0.7773285328 0.0296122624 -0.0373981685
650296100.0 0.0308948669 -0.040863748 0.1565963462 -0.7784026065 0.1570755219 -0.7782756131 0.0300325235 -0.0373442819
655296070.0 0.0306137057 -0.0418887097 0.1484060649 -0.7803816697 0.1479673581 -0.7802849388 0.029921332 -0.0370787668
660296040.0 0.0291546251 -0.0418682994 0.1396141896 -0.7814923965 0.1398200805 -0.7816594081 0.0287570804 -0.0379443121
665296010.0 0.0294299683 -0.0425296606 0.1312875339 -0.7832715171 0.1314117059 -0.7834308807 0.0279384263 -0.037420377
670295980.0 0.0291830773 -0.0423077344 0.1226996018 -0.7844013909 0.1225492446 -0.7844922737 0.0272543652 -0.0381848314
675295950.0 0.0285077439 -0.042180815 0.1137580567 -0.7859843702 0.1144051949 -0.7860505117 0.0268599705 -0.0378594012
680295920.0 0.0274729664 -0.0424701435 0.1051771886 -0.7872968347 0.1051915184 -0.7875800256 0.026457567 -0.0384989552
685295890.0 0.0266546054 -0.042884173 0.096923033 -0.7881619534 0.0965023984 -0.7880816748 0.0261165482 -0.0380672135
690295860.0 0.0265608135 -0.0433220876 0.0878760681 -0.7890017896 0.0877685234 -0.7887420867 0.0254882923 -0.038091441
695295830.0 0.0261732953 -0.0434811313 0.0780460707 -0.7900771603 0.0792178775 -0.7904890688 0.0241335609 -0.0387055053
700295800.0 0.0257459747 -0.0432913322 0.0706993408 -0.7909732697 0.0708957682 -0.7912981937 0.0235759193 -0.039300051
705295770.0 0.0246463062 -0.0435606707 0.0620407795 -0.7917688473 0.061992201 -0.7916740012 0.022993713 -0.0394224183
710295740.0 0.0240047682 -0.0432306427 0.0533825354 -0.7920799388 0.0532468867 -0.791975195 0.0217200872 -0.0390777128
715295710.0 0.0236133663 -0.043911908 0.0448655706 -0.7927414842 0.0453402886 -0.7929509122 0.0218858446 -0.0399015187
720295680.0 0.0227072856 -0.0444581132 0.0364238773 -0.7935610524 0.036369672 -0.7938896516 0.0216946922 -0.0393248938
725295650.0 0.0225257809 -0.0442477281 0.0271205621 -0.7930391453 0.0276144795 -0.7935666356 0.0209055132 -0.0390801494
730295620.0 0.0213280486 -0.0444746984 0.0188846052 -0.7937740979 0.0186711399 -0.7935779356 0.0202557997 -0.0402741002
735295590.0 0.0216107112 -0.0441559011 0.0108135063 -0.79318458 0.0107722403 -0.7940224512 0.0196078384 -0.0394533179
740295560.0 0.0200519202 -0.044264866 0.0017168276 -0.7934678725 0.0019171163 -0.7936754546 0.0195548114 -0.0401150709
745295530.0 0.0199395905 -0.0447827334 -0.0067349451 -0.7942719693 -0.0066829831 -0.794074818 0.018257144 -0.0396600455
750295500.0 0.0192235257 -0.0448499626 -0.0154468262 -0.793686852 -0.0148002473 -0.7937147669 0.0182028642 -0.040402711
755295470.0 0.0189097796 -0.0444719943 -0.0237671399 -0.7935255071 -0.0239381049 -0.7936701229 0.0167045182 -0.0401867947
760295440.0 0.0180844192 -0.0445002816 -0.033072232 -0.7930398368 -0.0329397673 -0.7936767815 0.0158448308 -0.0405529466
765295410.0 0.0170474637 -0.0450453573 -0.0405634247 -0.7922489919 -0.0407499793 -0.7932522377 0.0166245694 -0.0397054816
770295380.0 0.0169003486 -0.0447521314 -0.0498936367 -0.7919191148 -0.0499464731 -0.7924401816 0.0158729391 -0.0398450836
775295350.0 0.0161322319 -0.044622562 -0.0584994704 -0.7911377119 -0.0581850577 -0.7915683368 0.0149992134 -0.0409479512
780295320.0 0.0156294602 -0.0448904795 -0.0666948226 -0.791008536 -0.0666103382 -0.7910516118 0.014242347 -0.0398473749
785295290.0 0.0147650574 -0.044296077 -0.0752330416 -0.7892308947 -0.0759399456 -0.7905775901 0.012993593 -0.0406023338
790295260.0 0.0139177086 -0.0445761416 -0.0839358592 -0.7894410571 -0.0837885821 -0.789896445 0.0133249681 -0.0405386899
795295230.0 0.0132091684 -0.0446765139 -0.092406208 -0.7876988717 -0.0922320477 -0.7882368764 0.012200712 -0.0395622851
800295200.0 0.0129135327 -0.0445196367 -0.1017255604 -0.7876264612 -0.1017805053 -0.7877509512 0.0118292773 -0.0400877163
805295170.0 0.0118719193 -0.0448381089 -0.1096280721 -0.7855813389 -0.1098640285 -0.7860021363 0.0107749595 -0.0405157631
810295140.0 0.0114390461 -0.0446802836 -0.1181661337 -0.7850025525 -0.118402738 -0.7852732266 0.0107359296 -0.0400082605
815295110.0 0.0108786549 -0.0445721808 -0.1271713881 -0.7831467694 -0.1268108655 -0.7833999361 0.0094746182 -0.0404033253
820295080.0 0.0104393218 -0.0448074972 -0.1351963184 -0.7818277938 -0.1357833799 -0.7820130687 0.0088295487 -0.0398527144
825295050.0 0.0095601277 -0.0444958346 -0.1438781093 -0.7797148409 -0.1437032847 -0.7803070123 0.0089673591 -0.0393600958
830295020.0 0.0087888486 -0.0444305816 -0.1524614764 -0.7782603365 -0.1528096869 -0.7795111976 0.0079758313 -0.0401873647
