!Created with skrf (http://scikit-rf.org).
# Hz S RI R 50.0 
!freq ReS11 ImS11 ReS21 ImS21 ReS12 ImS12 ReS22 ImS22
300000.0 -0.0477798413 -0.0435906995 -0.0021195447 -0.0001938641 -0.0007738769 0.0018605752 -0.7740656542 -0.1361920426
5299970.0 -0.048657433 0.0153120651 6.04991e-05 0.0001432481 9.80674e-05 -5.32125e-05 -0.7846438117 -0.0070104872
10299940.0 -0.0429978437 0.0319900457 9.81971e-05 3.81863e-05 6.71375e-05 0.0001195183 -0.7879624217 -0.0035817259
15299910.0 -0.0350675165 0.0460361716 7.47808e-05 1.41477e-05 9.3867e-06 -0.0001512654 -0.7934624474 -0.00164342
20299880.0 -0.0253438819 0.0572529438 5.55947e-05 5.86191e-05 0.0001078835 7.7389e-06 -0.7997088622 0.0021526891
25299850.0 -0.0145025856 0.0667416144 8.2447e-06 -3.5523e-05 -0.0001089421 2.03752e-05 -0.8060764114 0.0086579117
30299820.0 -0.0035224852 0.0730783915 -0.0001251372 -8.75418e-05 1.25522e-05 5.97244e-05 -0.8120855447 0.0160724571
35299790.0 0.0077626475 0.0774218411 4.16481e-05 0.0002091635 -5.6789e-06 2.88158e-05 -0.8169887368 0.024977839
40299760.0 0.0191176343 0.0805474387 -0.0002272375 8.96641e-05 -8.37406e-05 6.72363e-05 -0.8209260078 0.0344919465
45299730.0 0.0297231759 0.081639528 3.21373e-05 4.0158e-06 -2.10971e-05 -0.0001180802 -0.8250574649 0.0437484538
50299700.0 0.0391609489 0.0817100755 0.0001005294 -0.0001093043 8.06492e-05 6.35162e-05 -0.8269328136 0.0538824491
55299670.0 0.048214917 0.080252164 6.62344e-05 -2.10741e-05 -0.0001572725 1.2984e-06 -0.8295270187 0.0645181785
60299640.0 0.056651422 0.0787924117 0.0001222762 8.64733e-05 -4.907e-05 3.0022e-05 -0.8304275094 0.0737526806
65299610.0 0.0641586406 0.0761400034 -5.2557e-05 -0.0001140684 6.00018e-05 -0.0001155092 -0.8318888231 0.0838148647
70299580.0 0.0709647184 0.0734612772 -1.50866e-05 8.59932e-05 0.0002218271 3.59159e-05 -0.83176271 0.0943324609
75299550.0 0.0772473225 0.0702643594 7.29072e-05 -9.112e-07 0.0001360484 0.0001202253 -0.8323819688 0.1042400734
80299520.0 0.0829825088 0.0666476088 7.8585e-06 -1.0995e-06 -1.80021e-05 6.33587e-05 -0.8321447236 0.1135580361
85299490.0 0.087487952 0.0625176675 -4.53177e-05 8.75676e-05 -6.1418e-06 6.30574e-05 -0.8314387259 0.1238320629
90299460.0 0.0922859374 0.0589859798 5.59047e-05 5.75136e-05 9.11243e-05 -7.93419e-05 -0.8308655728 0.1334296076
95299430.0 0.0963487826 0.0546123273 2.90505e-05 0.0001652967 0.0002089956 -1.93436e-05 -0.8293128689 0.1431231485
100299400.0 0.0997593388 0.0513399062 0.0002162579 0.0001581191 -1.87775e-05 3.45791e-05 -0.8282299234 0.1525997211
105299370.0 0.1031565684 0.0473215894 8.0665e-05 0.0001408915 0.0001202621 0.0001825972 -0.8272801681 0.1608641116
110299340.0 0.1059151878 0.0431280326 -2.88343e-05 -1.7811e-06 6.39734e-05 -2.2623e-05 -0.8257218203 0.170729384
115299310.0 0.1086247304 0.0394370491 -5.2234e-05 2.04905e-05 -0.0001544952 5.83593e-05 -0.823953861 0.1795343481
120299280.0 0.1102990231 0.0353224282 -3.0458e-06 3.52878e-05 0.0002751804 5.97072e-05 -0.8222390481 0.1887583566
125299250.0 0.1122126201 0.0313291842 8.14202e-05 -4.74168e-05 5.84157e-05 7.61043e-05 -0.8208747543 0.1983051477
130299220.0 0.1137714647 0.0277732396 0.0002436076 -0.000172868 -1.06872e-05 1.09172e-05 -0.818795386 0.2068115683
135299190.0 0.1150570204 0.0242524541 5.239e-06 -0.0001225699 0.0003201217 0.0001488523 -0.8162981294 0.2162818078
140299160.0 0.1162014359 0.0204581048 0.000430706 -7.27015e-05 -1.22075e-05 9.54159e-05 -0.8147563766 0.2247295353
145299130.0 0.1174675771 0.0171331526 2.60279e-05 -3.82639e-05 0.000126959 -1.91393e-05 -0.8123656831 0.2339553304
150299100.0 0.1185141321 0.0138928561 0.0001663147 -0.0001235447 -2.88027e-05 0.0001148555 -0.8105466242 0.2427339944
155299070.0 0.1187202062 0.0100443825 -0.0001914989 8.45772e-05 -0.0001675238 -5.50809e-05 -0.8074570101 0.2517560038
160299040.0 0.1195807053 0.0070754149 0.000328829 2.78177e-05 2.46059e-05 -8.05413e-05 -0.8049009375 0.2606610177
165299010.0 0.1198566622 0.0037322269 -8.66876e-05 0.0001296571 -5.21923e-05 -0.0001109421 -0.8026304755 0.2696003401
170298980.0 0.1197287988 0.0008935518 9.09319e-05 9.89781e-05 2.09973e-05 -0.0001322992 -0.7993920709 0.2781076734
175298950.0 0.1202616849 -0.0023683946 -2.8357e-06 0.0002894092 -4.58313e-05 6.06645e-05 -0.7966019868 0.286810566
180298920.0 0.1206576736 -0.0053395032 -0.000149206 0.0002687471 3.9721e-06 7.98618e-05 -0.7936794004 0.2950571672
185298890.0 0.1206289867 -0.0084715025 -6.6651e-05 0.0001136781 8.03874e-05 -4.41327e-05 -0.7899765476 0.3041795483
190298860.0 0.1207346579 -0.0110378393 0.000166123 2.31727e-05 -5.56741e-05 -0.0001170719 -0.7880418765 0.3123605484
195298830.0 0.1203024941 -0.0138892005 -3.13289e-05 -0.000143055 4.716e-07 -7.37002e-05 -0.7843742883 0.3207624896
200298800.0 0.1198407466 -0.0167130371 0.000151231 8.55049e-05 3.41781e-05 7.2011e-06 -0.7814890162 0.3294037542
205298770.0 0.119754517 -0.0191359669 4.67982e-05 2.14448e-05 0.0001383828 -1.92448e-05 -0.7778536741 0.3376963102
210298740.0 0.1192175132 -0.0216967842 -4.59267e-05 -6.91396e-05 8.0495e-05 0.0001083644 -0.7742502016 0.3459983057
215298710.0 0.1187040511 -0.0243716389 5.46827e-05 -3.3075e-05 4.94557e-05 9.77348e-05 -0.7708964983 0.3543090345
220298680.0 0.1179979644 -0.0272300305 5.599e-05 0.0001458284 9.4758e-05 0.0001654293 -0.768075197 0.3628260854
225298650.0 0.1174884126 -0.0293120241 8.54335e-05 0.0001404915 4.67309e-05 4.57641e-05 -0.7636407778 0.3700258703
230298620.0 0.1167513937 -0.0316315732 5.11178e-05 -9.69261e-05 -0.0001016712 -5.24953e-05 -0.7598600662 0.3784977212
235298590.0 0.1164850401 -0.03396407 3.38785e-05 0.0001599891 4.87847e-05 0.0001394271 -0.755625348 0.3870301679
240298560.0 0.1157833028 -0.0367331956 -2.72592e-05 0.0001092148 7.06408e-05 7.4948e-06 -0.7514722178 0.3952370981
245298530.0 0.1150588466 -0.0388242681 6.42991e-05 9.09873e-05 4.41725e-05 0.0001004711 -0.7475413545 0.4022634223
250298500.0 0.1142409279 -0.0407014806 9.2422e-06 0.0001268853 1.83853e-05 0.0001398933 -0.7434022157 0.4100020444
255298470.0 0.1130292976 -0.0432396394 -8.55674e-05 -7.65169e-05 0.0001512546 5.0991e-05 -0.73869296 0.418252238
260298440.0 0.1123715138 -0.0453245895 5.8448e-06 0.0001768163 -0.0001092447 2.70676e-05 -0.7348951564 0.426477688
265298410.0 0.111537235 -0.0471855719 0.0003166894 -0.0001309892 0.0001141199 -0.0001170746 -0.7303303631 0.4337740754
270298380.0 0.1106179474 -0.0491191419 -0.0001863328 -7.8669e-05 8.9298e-05 6.69886e-05 -0.7255330688 0.4412157438
275298350.0 0.109675673 -0.0512025577 0.0001337814 -0.0001326559 6.92685e-05 0.0001223051 -0.7210946068 0.4486625607
280298320.0 0.1091683068 -0.052979076 0.000160715 -9.9383e-06 7.9954e-06 9.99e-07 -0.7159954236 0.4559055792
285298290.0 0.1080662105 -0.054564523 -0.0001108569 -0.0001344827 0.0002085493 -7.01645e-05 -0.711265554 0.4634533059
290298260.0 0.1071003045 -0.0566597129 0.0001194741 0.0001456797 -6.36475e-05 0.0001613221 -0.706305424 0.470956328
295298230.0 0.1059357188 -0.0588533149 -5.5091e-06 1.99219e-05 -2.2821e-05 -0.0001272537 -0.7012471818 0.4780649659
300298200.0 0.1051116795 -0.0606036374 -0.0001091792 0.000204541 5.03681e-05 -0.0001524504 -0.696211431 0.4856112344
305298170.0 0.1040115629 -0.0624439086 0.0001127907 2.9163e-05 -3.53202e-05 0.0001731104 -0.6903442458 0.4932650484
310298140.0 0.1028212591 -0.0640635219 0.000280007 -5.00626e-05 1.58992e-05 -7.95122e-05 -0.6855897795 0.5001288807
315298110.0 0.1019723442 -0.0661591283 0.0001392003 -9.51821e-05 0.0001005974 -0.0001110488 -0.6802233854 0.5067144715
320298080.0 0.1008681531 -0.0682563801 0.0001602353 0.0002652794 -0.0001150285 3.36621e-05 -0.6748965832 0.5143639423
325298050.0 0.0992902875 -0.0695749072 7.84563e-05 0.0002361254 3.9167e-06 0.0001004634 -0.6691455932 0.5214204312
330298020.0 0.0983261188 -0.0716765631 6.09893e-05 0.0001655295 0.0002289556 0.0001556755 -0.6636738113 0.5284477593
335297990.0 0.0964835664 -0.0731621231 0.0003110306 8.49996e-05 -8.12636e-05 0.0001412313 -0.6586388761 0.5355545415
340297960.0 0.0948247229 -0.0746845984 -9.02124e-05 -2.87781e-05 -8.8509e-05 -8.85192e-05 -0.6525435197 0.5428677843
345297930.0 0.0932318907 -0.0760296905 -4.66226e-05 -1.93157e-05 -3.3296e-06 0.0002795098 -0.6471142461 0.5488466498
350297900.0 0.0921603212 -0.0774615348 -8.01256e-05 -0.0001997488 0.0001581385 0.0001577209 -0.6412134422 0.555490625
355297870.0 0.0910571643 -0.0787981531 6.25994e-05 0.0001629749 -2.95518e-05 -8.76995e-05 -0.6357578338 0.5621027322
360297840.0 0.089303568 -0.0801349501 5.19716e-05 -1.69928e-05 -5.11081e-05 7.21889e-05 -0.6296450513 0.5688521406
365297810.0 0.0878602022 -0.0813985647 0.0001708275 -9.1518e-06 -0.0001039359 1.06819e-05 -0.6229606793 0.575055504
370297780.0 0.0865664186 -0.0827239299 9.57033e-05 0.0002338927 0.0001194235 -4.36071e-05 -0.6172103662 0.5821494085
375297750.0 0.0853111374 -0.0838580086 1.32641e-05 -3.5457e-06 -1.40261e-05 -7.676e-07 -0.6117126183 0.5881587039
380297720.0 0.0836722086 -0.0850099165 0.0001872363 3.11889e-05 0.0001066131 5.44113e-05 -0.6059171609 0.5943599229
385297690.0 0.0821800907 -0.0862503479 4.55733e-05 -6.06502e-05 0.0002262973 3.8551e-06 -0.5993708956 0.600787606
390297660.0 0.0807993471 -0.0873697694 5.90514e-05 8.72582e-05 1.61589e-05 -6.6496e-05 -0.5932886003 0.6071245351
395297630.0 0.0795429526 -0.088543517 -0.0001431817 5.40831e-05 -1.9356e-05 4.70436e-05 -0.586203459 0.613515701
400297600.0 0.07788463 -0.0893423591 0.0001563436 -9.97114e-05 7.5961e-06 8.00742e-05 -0.5802288502 0.6187213345
405297570.0 0.0766674074 -0.0904047464 9.00392e-05 -0.0001971394 9.7087e-05 3.59663e-05 -0.5738064773 0.624848483
410297540.0 0.0752407247 -0.0916394117 7.82218e-05 4.09403e-05 6.21801e-05 5.35666e-05 -0.5675678371 0.6310349609
415297510.0 0.0737697551 -0.0930633664 7.40662e-05 0.0001046292 3.12135e-05 -5.40264e-05 -0.5612526715 0.6363146794
420297480.0 0.0721490673 -0.0939263951 -8.32492e-05 3.25559e-05 -3.55232e-05 -4.78965e-05 -0.5543542901 0.6425042919
425297450.0 0.0703667009 -0.0946733632 -9.82285e-05 0.000163759 9.4382e-06 -2.0327e-05 -0.547768222 0.6479236285
430297420.0 0.0691482732 -0.0958681286 7.38086e-05 2.39119e-05 0.0001526131 5.42432e-05 -0.5410822708 0.6526923416
435297390.0 0.067678431 -0.0965501211 -0.0002573036 7.21599e-05 7.86363e-05 3.97586e-05 -0.534296884 0.658554522
440297360.0 0.0660287114 -0.0975729516 0.0001781741 4.70852e-05 0.0001011241 1.11109e-05 -0.5276337307 0.6635760044
445297330.0 0.0643316026 -0.0990349655 3.56142e-05 -6.5283e-05 -0.0001057928 -9.43015e-05 -0.5205647106 0.6685614173
450297300.0 0.0631741476 -0.0995018344 0.0002127319 5.19382e-05 6.82025e-05 0.0001414949 -0.513218361 0.6740460237
455297270.0 0.0610861565 -0.1002991963 -9.36253e-05 -1.80534e-05 6.77024e-05 0.0001821655 -0.5063061712 0.6788179799
460297240.0 0.0596915816 -0.1012440253 4.30575e-05 -0.0001251141 -7.76005e-05 -5.99777e-05 -0.4997271933 0.6842387647
465297210.0 0.058317787 -0.1019115414 4.4942e-05 2.52778e-05 0.0002442253 0.0002161549 -0.4922007086 0.6888487978
470297180.0 0.0565617958 -0.1026146395 3.66207e-05 4.38532e-05 0.000151466 0.0001417806 -0.4847702157 0.6946407862
475297150.0 0.0551152444 -0.1037169427 7.79566e-05 0.0004288746 6.10318e-05 -3.20083e-05 -0.4776492038 0.6986294064
480297120.0 0.053452554 -0.1040149388 0.0002755231 8.07786e-05 -5.29414e-05 0.0001717784 -0.4702100627 0.7038902391
485297090.0 0.0521714462 -0.1046926666 0.0001698425 0.0001831431 0.0002503269 3.17747e-05 -0.4636332419 0.7082329101
490297060.0 0.0498683697 -0.1050765924 -5.8633e-05 0.00028252 0.0001536172 0.0001116929 -0.4561392676 0.7128059154
495297030.0 0.0484856741 -0.1059498367 -6.52876e-05 -2.4834e-06 0.0001027113 3.18668e-05 -0.4485145783 0.71775051
500297000.0 0.0469415245 -0.1066791806 -0.0001882954 -0.0002281257 0.0001770624 0.0001336322 -0.4406822482 0.7228486976
505296970.0 0.0457499854 -0.1071952786 8.4798e-05 3.8704e-05 0.0002334726 9.9593e-06 -0.4334770167 0.7263027786
510296940.0 0.0436735365 -0.107919667 0.0002217245 0.0001040032 0.0002133145 -8.98396e-05 -0.4258017657 0.7311116328
515296910.0 0.0424610746 -0.1082010412 8.3602e-06 8.66861e-05 8.4389e-06 -0.0002960481 -0.4186756359 0.7355065603
520296880.0 0.0403732368 -0.1087598374 0.0001305333 1.30103e-05 0.0002194154 7.18977e-05 -0.4111346627 0.7391754607
525296850.0 0.0388443758 -0.1096921675 0.0001085539 0.0001771809 -9.4757e-05 -6.42816e-05 -0.4038702281 0.7437158011
530296820.0 0.0373898572 -0.1096572122 6.48022e-05 -0.0002371851 -7.3366e-06 0.0001943764 -0.3964499683 0.7476843475
535296790.0 0.0355868659 -0.1102340193 -0.0001983776 -5.47949e-05 0.0002845809 8.11109e-05 -0.3891691541 0.7514292473
540296760.0 0.0337025683 -0.11070069 -0.0001271738 2.90412e-05 -0.0002341303 -2.32096e-05 -0.3812859574 0.755733896
545296730.0 0.0321394417 -0.1109376578 -0.0001739233 -0.0001806164 0.0001784114 5.25125e-05 -0.3733711066 0.7594636071
550296700.0 0.0308742105 -0.1112891473 0.0002063835 7.22314e-05 0.0002377502 -5.23964e-05 -0.3655017805 0.7634231214
555296670.0 0.0289543085 -0.1118406664 -2.454e-06 0.0001250194 0.0002260073 -5.53742e-05 -0.3576090752 0.7675337973
560296640.0 0.027574184 -0.1121091173 5.46852e-05 -0.0001211068 5.99842e-05 -5.88567e-05 -0.3500345473 0.7711623293
565296610.0 0.0257657421 -0.1120991134 8.63976e-05 -4.7248e-05 0.0001553123 7.22633e-05 -0.3416539779 0.7734590908
570296580.0 0.0238980967 -0.1125851484 -1.97994e-05 -8.64645e-05 0.0001289292 2.0555e-06 -0.3349987763 0.7778124889
575296550.0 0.0222755915 -0.112619378 0.0001614846 0.0001031807 0.0002092531 0.0001141072 -0.326851922 0.7808979645
580296520.0 0.0207111651 -0.1128569461 2.26909e-05 8.67464e-05 0.0001948504 6.05241e-05 -0.3182566442 0.783433894
585296490.0 0.0186762442 -0.1131606221 0.0001892737 0.0001326525 0.0001385446 -0.0002568475 -0.3103425207 0.7873749984
590296460.0 0.0175912632 -0.1132666298 8.58064e-05 3.65916e-05 0.0001242015 1.416e-06 -0.3027358858 0.790322657
595296430.0 0.0157751747 -0.1135166729 0.0002072554 0.0001053244 0.0002256877 7.51902e-05 -0.2946040921 0.7924432385
600296400.0 0.0136356056 -0.113695281 0.0001159655 2.66992e-05 0.0001954989 3.57122e-05 -0.2864021722 0.7958139808
605296370.0 0.0119180861 -0.1138193559 7.76001e-05 4.33679e-05 2.29616e-05 -3.93026e-05 -0.2780328493 0.7984183654
610296340.0 0.0104894816 -0.1138567404 0.0002350825 -6.90655e-05 7.17341e-05 -0.0001475608 -0.2704795834 0.8009141439
615296310.0 0.008974098 -0.1139447085 0.0003429707 0.0002350556 0.0001006916 5.30175e-05 -0.2613970907 0.8038391519
620296280.0 0.006927627 -0.1141645499 3.77514e-05 3.7139e-05 0.0001685014 -7.99165e-05 -0.254334908 0.8062283944
625296250.0 0.0053633899 -0.1141299553 0.0001820017 0.0001236533 0.0002681959 -7.29113e-05 -0.2453781712 0.8080476896
630296220.0 0.0039746562 -0.1142220002 8.2305e-05 -9.76919e-05 0.0001002729 -6.71884e-05 -0.2375943814 0.8110019396
635296190.0 0.002096374 -0.1141682806 0.0002460826 -0.0001691019 0.0001036639 0.000260449 -0.2294731246 0.8128270098
640296160.0 0.0004641238 -0.1141424904 0.000199267 -1.76006e-05 0.0001213235 0.0001388114 -0.2211837503 0.8157270493
645296130.0 -0.0010585965 -0.1137571738 8.51427e-05 8.14883e-05 0.0002511268 8.3095e-05 -0.2130651558 0.8178184724
650296100.0 -0.0027012609 -0.11363806 6.15054e-05 6.7493e-05 0.0001670828 0.0001917586 -0.2047698902 0.8184654473
655296070.0 -0.0046155349 -0.1136205779 -7.9244e-06 0.0001779698 3.72188e-05 -0.0001738424 -0.1961509798 0.8214393901
660296040.0 -0.0062440949 -0.1136032023 0.0002415132 0.0001484038 -5.90787e-05 -2.529e-05 -0.1878635044 0.8232451477
665296010.0 -0.0077580876 -0.1137985637 4.28727e-05 -0.0001204054 0.0001559967 7.63074e-05 -0.1789012812 0.8257977574
670295980.0 -0.0096465298 -0.1129649767 0.0002814328 -4.99169e-05 0.0001722522 -0.0001879523 -0.1714588095 0.8268006065
675295950.0 -0.0113661537 -0.1129210701 0.00022778 -0.0001408303 0.0002249464 0.0002101514 -0.16353879 0.8289238927
680295920.0 -0.0128783873 -0.112444489 0.0001600278 -0.0001502115 7.02049e-05 0.0001596514 -0.1547079367 0.8311245638
685295890.0 -0.0144261798 -0.1121764606 0.00012656 0.0001576182 -0.0001494937 -0.000117642 -0.1462714824 0.8321098225
690295860.0 -0.0162887596 -0.1119392542 -8.55126e-05 -1.1519e-05 -7.8885e-06 -5.05305e-05 -0.1380635056 0.8339503719
695295830.0 -0.017860728 -0.1113371529 -6.07452e-05 -7.01559e-05 4.54317e-05 -7.38125e-05 -0.1288400196 0.8346547722
700295800.0 -0.0195396029 -0.1113803316 0.0003100947 6.4956e-05 0.0001682275 2.4649e-06 -0.1218806381 0.8366033751
705295770.0 -0.0214389582 -0.1108450716 0.000248218 -0.0001293645 0.000127902 -0.0001013449 -0.1133799064 0.8378915513
710295740.0 -0.0226543999 -0.1105952061 3.17966e-05 6.95977e-05 4.11084e-05 -5.8928e-06 -0.104986873 0.8387084351
715295710.0 -0.0244808337 -0.1102037949 0.0003348238 -0.0001553399 0.0001244893 9.4731e-05 -0.0961302169 0.8391196619
720295680.0 -0.02615937 -0.1098825782 0.0002888295 -7.81477e-05 0.0001664883 1.4179e-05 -0.0878459169 0.8412032731
725295650.0 -0.0275238046 -0.1089481495 -2.13777e-05 -0.0002789104 3.43904e-05 0.0001423734 -0.0795970739 0.842021719
730295620.0 -0.0293727021 -0.1084749522 0.0002772708 -0.0002466454 -0.0002065887 3.36499e-05 -0.0721462916 0.8425101435
735295590.0 -0.0308509023 -0.1079879155 3.31567e-05 -3.67e-07 0.0001836944 -0.0001567904 -0.0635587946 0.8426754861
740295560.0 -0.0324186575 -0.1076836578 0.0002006593 8.09834e-05 8.56047e-05 -0.0001114097 -0.0536715899 0.8441048405
745295530.0 -0.0340997332 -0.1070096033 9.68524e-05 -0.0002198057 0.000166909 3.25295e-05 -0.0455849147 0.8439670246
750295500.0 -0.0356976826 -0.1064633707 0.0002243605 -0.0003793395 9.63846e-05 7.79084e-05 -0.0383154842 0.8442608405
755295470.0 -0.0373252658 -0.1060310825 2.23034e-05 0.0002063577 0.0001427816 4.93179e-05 -0.0292117136 0.8444327491
760295440.0 -0.0390204774 -0.1051927654 8.3461e-05 -0.0002931889 0.0002516927 -4.70628e-05 -0.0208461514 0.8444494422
765295410.0 -0.0404575973 -0.1045390702 4.29313e-05 -0.0001039181 0.0002754649 -4.93744e-05 -0.0121483176 0.844831053
770295380.0 -0.0419710637 -0.1044521906 0.0001728361 0.0001742771 0.000106039 -0.0001365054 -0.004476586 0.8448103192
775295350.0 -0.0438230478 -0.1034905393 8.98329e-05 6.56899e-05 2.57589e-05 2.52789e-05 0.0036412326 0.843991247
780295320.0 -0.0450186285 -0.1026148669 9.19263e-05 -0.0002365988 6.18003e-05 -1.47171e-05 0.0124713768 0.8440442674
785295290.0 -0.0467192772 -0.1023937261 0.0001252289 7.06074e-05 0.0001071398 -9.91214e-05 0.0210989711 0.8437756882
790295260.0 -0.048006456 -0.1012182548 0.0001481642 -0.0001084003 7.93708e-05 9.43608e-05 0.0298760835 0.8438517313
795295230.0 -0.0497932045 -0.1002741373 0.0004766806 -8.38433e-05 4.87751e-05 -1.42529e-05 0.0387481646 0.8430225432
800295200.0 -0.0513254501 -0.0995182532 0.0002471232 7.46665e-05 0.0001275723 -2.38191e-05 0.0468912761 0.8428705881
805295170.0 -0.0525729852 -0.0990949665 0.0003172747 2.87808e-05 0.000118116 -0.0001543652 0.0552952905 0.8431237435
810295140.0 -0.0539469146 -0.0982845333 -5.00461e-05 -6.6957e-05 0.000119027 1.60785e-05 0.0638723335 0.8417487962
815295110.0 -0.0556165713 -0.0976866296 4.86067e-05 4.4324e-06 3.82841e-05 -0.0001285527 0.0725430469 0.8407857388
820295080.0 -0.0569752954 -0.0963838002 3.9822e-06 8.84919e-05 8.1494e-05 -0.0001785813 0.08044579 0.8404127619
825295050.0 -0.0582855696 -0.095651853 2.11208e-05 -0.0001718471 -0.0001685879 0.0001377641 0.088527538 0.8393630231
830295020.0 -0.0600370961 -0.0948833191 5.27391e-05 0.0002386091 -0.0001490013 0.0001166241 0.0980528122 0.8384411416
835294990.0 -0.061179806 -0.0938036018 9.91138e-05 3.1232e-05 -2.41194e-05 0.0001261396 0.1051619505 0.8383068903
840294960.0 -0.0626349323 -0.0927056019 0.0002030305 8.80636e-05 0.0002213245 0.0001087357 0.1141105915 0.8362085281
845294930.0 -0.0640242814 -0.0918781877 0.0003990467 -0.0001829692 0.0002509516 -7.88148e-05 0.1218820209 0.8352762334
850294900.0 -0.0651945485 -0.0907994673 0.0002735531 8.7973e-06 6.2535e-05 0.0001122187 0.1298639753 0.8339049002
