!Created with skrf (http://scikit-rf.org).
# Hz S RI R 50.0 
!freq ReS11 ImS11 ReS21 ImS21 ReS12 ImS12 ReS22 ImS22
300000.0 -0.2423178348 -0.0848179421 0.4728519605 0.0550696719 0.4711495894 0.0522226366 -0.2402644173 -0.087008436
5299970.0 -0.2450988452 0.0066376089 0.4750151119 0.00476075 0.4752969713 0.0048414376 -0.241791448 0.0079958558
10299940.0 -0.2417072981 0.0177718171 0.4764557792 0.0060612613 0.4767425853 0.0061576173 -0.2381060216 0.0206646712
15299910.0 -0.2375065896 0.0269591327 0.4801603923 0.0071855983 0.4809960153 0.0070474538 -0.2333689224 0.0301669014
20299880.0 -0.2330971619 0.0338905366 0.4852648523 0.0083644946 0.4853832409 0.0081224887 -0.2283332485 0.0380001598
25299850.0 -0.2280141411 0.0402763209 0.4903871772 0.0073698207 0.4903107481 0.0073288416 -0.2222088193 0.044443487
30299820.0 -0.2225851394 0.0452022771 0.4954825753 0.0049222273 0.4955391542 0.0051659881 -0.2165278209 0.0500717786
35299790.0 -0.2174788772 0.0488961073 0.5007887529 0.0016361531 0.5008540769 0.0016274599 -0.2108272514 0.054470471
40299760.0 -0.2126875796 0.0523751465 0.5057031911 -0.0022792278 0.5060033765 -0.0022927277 -0.2053993521 0.0572061631
45299730.0 -0.2082027469 0.0549040899 0.5106530532 -0.0070616936 0.5106879413 -0.0069580422 -0.2004584084 0.0603590422
50299700.0 -0.20380908 0.0569368514 0.5151146865 -0.0125103416 0.5152223332 -0.0123952718 -0.1955638494 0.0622794048
55299670.0 -0.1999527527 0.0584380242 0.5187664075 -0.0187665763 0.5186574286 -0.0182293411 -0.1916362735 0.0639665347
60299640.0 -0.1961514833 0.0597967839 0.5216556341 -0.0247625831 0.5224229881 -0.0245814393 -0.1875703006 0.0651310905
65299610.0 -0.1927762554 0.0606955862 0.5246652782 -0.0312415613 0.5250681206 -0.0310364915 -0.1837888296 0.0662942925
70299580.0 -0.1897840806 0.0619360145 0.5272244622 -0.0377132366 0.5272265625 -0.0378072576 -0.180364699 0.0675595943
75299550.0 -0.1871312306 0.0629576059 0.5288741473 -0.0447619727 0.5290007655 -0.0442226891 -0.1778337787 0.0680974563
80299520.0 -0.1844943804 0.0635469857 0.5308476128 -0.0513540622 0.531114373 -0.0514385496 -0.1750680433 0.0692979977
85299490.0 -0.1824583732 0.0641424511 0.5321504927 -0.0585117104 0.5322339368 -0.0578143125 -0.1725860379 0.0693545752
90299460.0 -0.1800679675 0.0647943208 0.5328853735 -0.0650172888 0.5333715452 -0.0652872609 -0.1702551412 0.0708266878
95299430.0 -0.1780890029 0.0651727719 0.5338053444 -0.0720188124 0.534166358 -0.0722008215 -0.1679306999 0.0712041768
100299400.0 -0.1763052702 0.0661947172 0.5341887744 -0.0787836551 0.5343155944 -0.0791728578 -0.1657055752 0.0716410489
105299370.0 -0.1749687154 0.0667851289 0.5345753453 -0.0857698661 0.5354260324 -0.0861247868 -0.1639257115 0.0726712925
110299340.0 -0.173372178 0.0676889277 0.5349305467 -0.0923894045 0.5347254661 -0.0922186439 -0.1628946412 0.0730523399
115299310.0 -0.1718964852 0.0680527115 0.5348385985 -0.099734602 0.5349139382 -0.0994174405 -0.1613171202 0.0739952639
120299280.0 -0.1706499351 0.0685335763 0.534351542 -0.1063892311 0.5347784114 -0.1063371186 -0.1595111056 0.0746611013
125299250.0 -0.1695547276 0.0692458872 0.534250799 -0.1129978284 0.5343074206 -0.1129153742 -0.1586945432 0.0752435054
130299220.0 -0.1687260664 0.070248643 0.5330947486 -0.1196444512 0.5338308926 -0.1197152314 -0.157188024 0.0760390885
135299190.0 -0.167733687 0.0711587502 0.5329678464 -0.1263774894 0.532783247 -0.1262660825 -0.1559589922 0.07714384
140299160.0 -0.1666221009 0.0720322116 0.5322790877 -0.1330856567 0.5322205252 -0.1331289916 -0.1546465208 0.078635614
145299130.0 -0.1656319832 0.0729815691 0.531196357 -0.1397535616 0.5311373868 -0.139354495 -0.1536144775 0.079106549
150299100.0 -0.1645501379 0.0740745228 0.5301050734 -0.1459072929 0.5299055972 -0.145700459 -0.1528061293 0.0806378717
155299070.0 -0.1641863449 0.0746437755 0.5291139974 -0.1529456933 0.5287459014 -0.1528641859 -0.1514328893 0.0812876872
160299040.0 -0.1630146973 0.0759226196 0.5272309534 -0.1592315988 0.5271053567 -0.1591287148 -0.1509740304 0.0823322324
165299010.0 -0.1622257326 0.0768226224 0.5260542528 -0.1658290971 0.5259533184 -0.1658977118 -0.149748857 0.0838752002
170298980.0 -0.1616015271 0.077855618 0.5243734535 -0.1717318958 0.5246981797 -0.1718871499 -0.1487571965 0.0848248791
175298950.0 -0.1608199875 0.0790310686 0.5232444279 -0.1781044526 0.523127002 -0.177895431 -0.147980686 0.086132699
180298920.0 -0.160338859 0.0802107355 0.5211981363 -0.1843376424 0.5210726512 -0.1840884028 -0.1472571595 0.0872018656
185298890.0 -0.1588706683 0.0811318367 0.5194531183 -0.1906667304 0.5189268857 -0.1902479243 -0.1460453861 0.0885269003
190298860.0 -0.1584735674 0.0825717919 0.5172669634 -0.1968060631 0.5176330927 -0.1966240571 -0.1450445711 0.0894187835
195298830.0 -0.1579582816 0.0833635786 0.51555344 -0.2029145614 0.5158270244 -0.20264359 -0.1441361118 0.0909709193
200298800.0 -0.1569082112 0.0845985715 0.5134340338 -0.2090060189 0.5131176753 -0.2092392686 -0.1432594385 0.0922242442
205298770.0 -0.1561611442 0.0859726358 0.5106259093 -0.2155423346 0.5110532142 -0.2149559102 -0.1424551881 0.0931438685
210298740.0 -0.1555094529 0.0866952696 0.5087124996 -0.2204580706 0.5090987258 -0.2206978185 -0.1409956723 0.0952588383
215298710.0 -0.155015493 0.0884444838 0.5064541008 -0.2268555154 0.5062183189 -0.2270523115 -0.1405108957 0.0959327323
220298680.0 -0.1539993034 0.089160239 0.5036468583 -0.2326063419 0.5041600479 -0.2326172429 -0.1400611724 0.0974213464
225298650.0 -0.153530484 0.0907446067 0.5018061702 -0.2388050662 0.5017469139 -0.2385971886 -0.1389650593 0.0983072102
230298620.0 -0.1523901217 0.0922638827 0.4988364284 -0.2439817593 0.4995443533 -0.2443238472 -0.1378973195 0.0999326423
235298590.0 -0.151905811 0.0934632044 0.4964241339 -0.250187158 0.4964487053 -0.2497742345 -0.1366437419 0.1014057302
240298560.0 -0.1510217474 0.0949847577 0.49365134 -0.2561307298 0.4937801925 -0.2559097816 -0.13572193 0.1029797615
245298530.0 -0.1503635235 0.0963640979 0.4915037097 -0.2616836044 0.4907731849 -0.2614921026 -0.1346356649 0.1036228685
250298500.0 -0.1492413904 0.0975727946 0.4875693433 -0.2671876137 0.4881059754 -0.2667785218 -0.1337574105 0.1054944036
255298470.0 -0.1483972326 0.0985167953 0.4847578211 -0.2728024154 0.485171461 -0.2723422976 -0.1327299754 0.1068991879
260298440.0 -0.1482055426 0.0998831423 0.4820083284 -0.2784784563 0.4823945451 -0.2782337911 -0.1314099178 0.1084824845
265298410.0 -0.1467947026 0.1014660518 0.479017306 -0.2840051201 0.4794372845 -0.2839090261 -0.1304274297 0.1099548242
270298380.0 -0.1458975148 0.1028625089 0.4761791589 -0.2887716301 0.4763492337 -0.2889597623 -0.1294773169 0.1112708042
275298350.0 -0.1449928453 0.1042406556 0.4729683895 -0.2945910637 0.4732175743 -0.2945960867 -0.1281833591 0.1125360932
280298320.0 -0.1439570203 0.1057815588 0.4701361869 -0.3001114794 0.4697997059 -0.2998316322 -0.1268386584 0.1142297212
285298290.0 -0.142912033 0.1071370468 0.4665407408 -0.3054674892 0.4666223586 -0.3051268552 -0.1257181279 0.1153235241
290298260.0 -0.1418998107 0.1083756012 0.4632287221 -0.3101009739 0.4633701883 -0.3107675903 -0.1244706972 0.1170072527
295298230.0 -0.1408767197 0.1095762849 0.4602139253 -0.3161069347 0.4599400361 -0.3153693721 -0.1229154006 0.1180521999
300298200.0 -0.140340243 0.1111017844 0.4568432279 -0.3207755192 0.4571716578 -0.3211188195 -0.1218364143 0.1191019885
305298170.0 -0.1389636283 0.1121854457 0.4529943472 -0.3263716884 0.4529477988 -0.3264540051 -0.1199605367 0.1205628841
310298140.0 -0.138401602 0.1137173749 0.4498524316 -0.3317590693 0.4498185174 -0.3315334281 -0.1194206424 0.1220394915
315298110.0 -0.1371869006 0.1148217561 0.4457742255 -0.3366601469 0.4459688254 -0.3367617224 -0.1181224499 0.122854005
320298080.0 -0.1359326946 0.1159970992 0.4415975188 -0.3418963613 0.4424583524 -0.3416460545 -0.1168585197 0.1242780573
325298050.0 -0.135009593 0.117314739 0.4380443637 -0.3470138841 0.4381256395 -0.3468450861 -0.1159173752 0.1256568595
330298020.0 -0.1343659945 0.1184167034 0.4339871887 -0.3519523421 0.4345717573 -0.3518288248 -0.1146644716 0.1268112252
335297990.0 -0.1332714135 0.1196318991 0.430105622 -0.3563184075 0.4300551313 -0.356717437 -0.1137638142 0.1288142874
340297960.0 -0.1328233202 0.1214162922 0.4258754689 -0.3614799252 0.4257993183 -0.3613709922 -0.1121023409 0.1298491577
345297930.0 -0.1315478325 0.1229544905 0.4217873991 -0.3664830908 0.4215729223 -0.366005052 -0.1107578286 0.1306644765
350297900.0 -0.1306703956 0.1238471873 0.4174830314 -0.3708315847 0.4175757735 -0.3709680506 -0.1095828534 0.1327576716
355297870.0 -0.1292323255 0.1257089778 0.4135764659 -0.375182805 0.4137667304 -0.375432119 -0.1083464539 0.1338641494
360297840.0 -0.1282676137 0.1268802844 0.4099034508 -0.3797621587 0.4100229758 -0.3797254694 -0.1072007204 0.1355848811
365297810.0 -0.1273047657 0.1283769295 0.4049090306 -0.3844135882 0.4054940515 -0.384435162 -0.1056614371 0.1366286684
370297780.0 -0.1259173984 0.1293833064 0.4007774305 -0.3886072258 0.4010564559 -0.3883847803 -0.1040223672 0.1378420182
375297750.0 -0.124517956 0.1307087773 0.3962829137 -0.3931784021 0.3971911952 -0.3933118496 -0.1025376043 0.1387911576
380297720.0 -0.1235010807 0.1322225884 0.3925669211 -0.3974695773 0.3927382324 -0.3968926345 -0.1015104289 0.1404397468
385297690.0 -0.1225495671 0.1332841066 0.3881256225 -0.4016755261 0.3879701756 -0.4016515059 -0.0997381888 0.1417302755
390297660.0 -0.1209181239 0.1348616789 0.3836410239 -0.406150284 0.3839383666 -0.4057950386 -0.0985104006 0.1429635398
395297630.0 -0.1199493923 0.1362376722 0.3794312462 -0.4101401322 0.3795027451 -0.4099293075 -0.0961763333 0.1440256978
400297600.0 -0.1187681865 0.1373889189 0.3746681071 -0.4145610619 0.3747857694 -0.4143662225 -0.0949090565 0.145491121
405297570.0 -0.1174400298 0.1385326802 0.3702325656 -0.4179331572 0.3699961685 -0.4181518307 -0.0934882559 0.1464996251
410297540.0 -0.1158566641 0.1400980069 0.3654536651 -0.4225925708 0.3660262266 -0.4226118258 -0.0922237854 0.1482317581
415297510.0 -0.1145960611 0.1412004928 0.3606377408 -0.4267466007 0.3612443581 -0.4267443364 -0.0902514125 0.1491063198
420297480.0 -0.1132585099 0.1427016664 0.3560164188 -0.4305198116 0.3563434709 -0.4304904407 -0.0889480173 0.1501071782
425297450.0 -0.1120905548 0.1436587732 0.3519635748 -0.4343603852 0.3516353811 -0.4343059234 -0.0875432702 0.1517275079
430297420.0 -0.1108207272 0.1446743578 0.3469319282 -0.4373168388 0.3467879224 -0.4375879398 -0.0859843056 0.152398968
435297390.0 -0.1094456034 0.1461900876 0.3414343193 -0.4417061503 0.3417076163 -0.4419591223 -0.0835160422 0.1536002325
440297360.0 -0.1079991832 0.1474660651 0.3367332548 -0.4453847864 0.3371384753 -0.4453956362 -0.0823040888 0.1547052629
445297330.0 -0.1066925712 0.1480952171 0.3323408564 -0.4488086373 0.3323992568 -0.4487180538 -0.0804923934 0.155306234
450297300.0 -0.1049841157 0.149440943 0.3273015231 -0.4528045173 0.327345554 -0.4528907415 -0.0789266463 0.1564291457
455297270.0 -0.1038526869 0.1505183914 0.3221796795 -0.456215296 0.3223005652 -0.4564612638 -0.0770578487 0.157448091
460297240.0 -0.1027992089 0.1518669517 0.3174158373 -0.4600924139 0.3173238444 -0.4598124109 -0.0754496845 0.1585456213
465297210.0 -0.100721964 0.1529743855 0.3124917297 -0.4635661238 0.3121036029 -0.4637205883 -0.0735967931 0.1595241683
470297180.0 -0.0994108851 0.1539182808 0.3064797951 -0.466569159 0.307219399 -0.4666536364 -0.0718713185 0.1607300532
475297150.0 -0.0980129997 0.1550321217 0.3015520122 -0.469377365 0.3020917295 -0.4693032037 -0.0700306444 0.161008053
480297120.0 -0.0964526238 0.1564863616 0.2966869609 -0.4734449996 0.2968359231 -0.473343971 -0.068128525 0.1625276391
485297090.0 -0.095217932 0.1574520467 0.292180082 -0.4760255033 0.2920344316 -0.4757188916 -0.0664030052 0.1633678246
490297060.0 -0.0938799765 0.1587722677 0.2867709396 -0.4793443647 0.2866361088 -0.4789207479 -0.0645078719 0.1643859935
495297030.0 -0.0919947389 0.1597331806 0.2813618138 -0.4823100966 0.2819115523 -0.4821985437 -0.0631246026 0.1651440897
500297000.0 -0.0905016794 0.1607341692 0.2758107614 -0.4851546105 0.2759017073 -0.4851755441 -0.0608926237 0.1666221412
505296970.0 -0.0887635808 0.1614439559 0.270870761 -0.4881269528 0.2706844419 -0.488706279 -0.0592168278 0.1671662532
510296940.0 -0.0874886953 0.1625641681 0.2653635856 -0.4910667015 0.2651350104 -0.4913552639 -0.0571634159 0.1677979318
515296910.0 -0.0859511353 0.1635190905 0.2595928466 -0.4940336681 0.2599264486 -0.4937715846 -0.0555054 0.1684499341
520296880.0 -0.0844152347 0.1644478077 0.2544843791 -0.4969776808 0.2549119804 -0.4969374107 -0.0537320459 0.1691560964
525296850.0 -0.0824209821 0.1648478074 0.2488062587 -0.4996165745 0.2494947068 -0.4993911644 -0.052092965 0.1698296823
530296820.0 -0.0808419379 0.166124304 0.2436175092 -0.5021723409 0.2434799518 -0.5021011042 -0.0499370072 0.1705611705
535296790.0 -0.0794600011 0.1671927299 0.2383167535 -0.5045462423 0.2383776034 -0.5043987215 -0.0482121171 0.1709532141
540296760.0 -0.0781324947 0.1683068959 0.2328266061 -0.50763588 0.2326486515 -0.5075594488 -0.0466011352 0.1722061936
545296730.0 -0.0761940473 0.1690800922 0.2271946349 -0.5096501998 0.2270880818 -0.5098184182 -0.044424646 0.1728152378
550296700.0 -0.0742394669 0.1700774752 0.2211992112 -0.5123089708 0.2218954562 -0.5123781581 -0.042904182 0.1734391019
555296670.0 -0.0729341573 0.1706713324 0.2161422931 -0.5144022646 0.2162113534 -0.5145783537 -0.0406446178 0.1740976935
560296640.0 -0.0710126104 0.1718932176 0.2103992835 -0.5174028558 0.2107645641 -0.5168516859 -0.0387443166 0.1744353693
565296610.0 -0.0697871827 0.1723646075 0.204583981 -0.5192282725 0.2053082441 -0.519101943 -0.0369086224 0.1748434116
570296580.0 -0.0681017164 0.1730337214 0.1990371032 -0.521575839 0.198951112 -0.5213758341 -0.0350505349 0.1762776833
575296550.0 -0.0665827752 0.1742591706 0.1938225751 -0.5234353378 0.1935590495 -0.5236523513 -0.0326932429 0.1763263664
580296520.0 -0.0645928648 0.1751756544 0.1876134635 -0.5259451208 0.1883509287 -0.5253189822 -0.0309007716 0.1765502207
585296490.0 -0.0632539478 0.1750025472 0.1825051567 -0.5269402995 0.1824330388 -0.5273001053 -0.0288747491 0.1772069815
590296460.0 -0.0611393199 0.1763437243 0.1764512603 -0.5290870626 0.1767146914 -0.5291529316 -0.0274530481 0.1780847335
595296430.0 -0.059340479 0.1771329539 0.1700394621 -0.5313634068 0.1706229972 -0.5315248025 -0.0254204068 0.1779397075
600296400.0 -0.0580321965 0.1776102632 0.1649055091 -0.5327422869 0.1649766569 -0.5326930966 -0.0232898513 0.1783667688
605296370.0 -0.0564939111 0.1785494856 0.1589145179 -0.5346054738 0.1595068464 -0.5346815367 -0.0210123563 0.1790693521
610296340.0 -0.0545960683 0.1791328511 0.1530955872 -0.5363317614 0.1538333924 -0.5364006524 -0.0190654926 0.1792350996
615296310.0 -0.0525345169 0.1793993047 0.1472877743 -0.5374287738 0.1472197201 -0.5383043786 -0.0168336065 0.1795156121
620296280.0 -0.0509572495 0.1801913845 0.1414233662 -0.5392373013 0.1417658299 -0.5390853382 -0.0152115467 0.1801397529
625296250.0 -0.0492371803 0.1807399164 0.1361792792 -0.541282205 0.135709788 -0.5411704052 -0.0126578965 0.1803165195
630296220.0 -0.0467777163 0.1816958894 0.1293600674 -0.5422283635 0.1295179456 -0.5423578587 -0.0109870627 0.1807472321
635296190.0 -0.045948951 0.1820710416 0.1240151845 -0.5437401584 0.1238625187 -0.5438574087 -0.0088115227 0.1811635778
640296160.0 -0.044127209 0.1829173299 0.1179308597 -0.5448328527 0.1182700993 -0.5448662497 -0.0068499987 0.1811598034
645296130.0 -0.0421255037 0.1835848773 0.1120586499 -0.5454779302 0.1125004291 -0.5459674035 -0.0046342 0.1819164124
650296100.0 -0.0402333228 0.1840317789 0.1064973236 -0.546998481 0.1064367192 -0.5470566989 -0.0026585151 0.1814061254
655296070.0 -0.0387990625 0.1844397159 0.1003122112 -0.5482029587 0.1005945561 -0.5486845951 -0.0006435344 0.1820497156
660296040.0 -0.0371473662 0.1843685497 0.0945404021 -0.5492323217 0.0946826065 -0.5495097516 0.0016554332 0.1819546554
665296010.0 -0.0349282936 0.185090317 0.0883301981 -0.5502304766 0.0887219221 -0.5502714565 0.0034722908 0.1826644429
670295980.0 -0.033927347 0.1858965464 0.0824368265 -0.5514432804 0.0830058848 -0.5512019785 0.0052699102 0.1823723492
675295950.0 -0.0315692642 0.1862566598 0.076931833 -0.5515715957 0.0768430317 -0.5512879317 0.0067918532 0.1825951032
680295920.0 -0.0298629624 0.1866889862 0.0703623504 -0.5528893791 0.0703797835 -0.5532650935 0.0088492799 0.1831725105
685295890.0 -0.0279134587 0.1878411735 0.064593622 -0.5535801522 0.0648784683 -0.5536248203 0.0112760276 0.1828901412
690295860.0 -0.0261160278 0.1875933174 0.0588576783 -0.5538694552 0.058929121 -0.5543969071 0.0129949666 0.1832776504
695295830.0 -0.0244603984 0.1877927538 0.0532557666 -0.5543084723 0.0528879404 -0.5544391137 0.0151835075 0.182784363
700295800.0 -0.0226713822 0.1881750167 0.0466468329 -0.5547437107 0.046820609 -0.5549042363 0.016773364 0.1834685923
705295770.0 -0.0207531502 0.1890407297 0.0406158989 -0.5555082086 0.0412286812 -0.5555641424 0.0190236992 0.1830835222
710295740.0 -0.0185944413 0.1891450341 0.0349535944 -0.5561605949 0.0351580291 -0.5563846425 0.0209673065 0.1827370917
715295710.0 -0.0174670086 0.189108012 0.0292264308 -0.5562543863 0.0285353062 -0.556213071 0.0234859413 0.1827787105
720295680.0 -0.0152315535 0.1896018396 0.0224479541 -0.5565864234 0.0230220796 -0.5566423936 0.0256686464 0.1829040032
725295650.0 -0.0131846947 0.1901075223 0.0166670835 -0.5566003997 0.0170753402 -0.5569403229 0.0268620062 0.1830908764
730295620.0 -0.0113939245 0.1908474499 0.0104708372 -0.5566810094 0.0111212907 -0.5567962185 0.0288920131 0.1823102896
735295590.0 -0.0096534193 0.1907572775 0.0049217043 -0.5570498184 0.0046754196 -0.5569625894 0.0311087199 0.181943624
740295560.0 -0.0080279364 0.1908811403 -0.0010206268 -0.5563703911 -0.0009499809 -0.5564814553 0.0335625528 0.1822523677
745295530.0 -0.0062634898 0.19124932 -0.0073302638 -0.5565663548 -0.0071976302 -0.5569084385 0.0353161398 0.1817714333
750295500.0 -0.0041682185 0.1911853033 -0.0129146122 -0.5566880723 -0.0128055581 -0.5567424617 0.0373833726 0.1814380883
755295470.0 -0.0022483484 0.1913626932 -0.019025656 -0.5564237769 -0.019127065 -0.5566578754 0.0397821088 0.1808382874
760295440.0 -0.0009284777 0.1916474145 -0.0248537808 -0.5567244446 -0.0250102136 -0.5565467013 0.0413129264 0.1807727541
765295410.0 0.0012859541 0.1918994556 -0.0312613378 -0.555985006 -0.0311876265 -0.5561464539 0.0436755756 0.1805955766
770295380.0 0.0030574505 0.1917718912 -0.0372992377 -0.5555774405 -0.0370851948 -0.5554690828 0.0453642089 0.1800483435
775295350.0 0.0049177573 0.1914260375 -0.0430068934 -0.5546422923 -0.0429653842 -0.5549893533 0.0470024961 0.1802372498
780295320.0 0.007004474 0.192027617 -0.0492117587 -0.554185855 -0.0481661699 -0.5541871224 0.0492804511 0.1791457306
785295290.0 0.0082575648 0.1917502559 -0.054901078 -0.5536503765 -0.0545532372 -0.5539259041 0.051708236 0.1789941387
790295260.0 0.0110654861 0.1923024863 -0.0606313146 -0.5530653232 -0.0600995848 -0.5533381428 0.0538051995 0.1787093796
795295230.0 0.0127109946 0.1920351698 -0.0670289069 -0.5522456634 -0.0665441507 -0.5525597403 0.0558786176 0.1785719518
800295200.0 0.0142886402 0.1924457991 -0.0729743943 -0.5516359091 -0.0726076919 -0.5511765707 0.0575238355 0.1779108529
805295170.0 0.0163776334 0.1922236758 -0.0786320598 -0.5508643897 -0.0786655044 -0.5510414263 0.0595970736 0.1776207474
810295140.0 0.0180654056 0.1916764406 -0.084383901 -0.5495570079 -0.0846315803 -0.5501048841 0.0620350769 0.177205271
815295110.0 0.0199027769 0.1915898086 -0.0899643517 -0.548432026 -0.0901645099 -0.5489882104 0.0632690512 0.1766318655
820295080.0 0.0211642761 0.1923329628 -0.0959538974 -0.5473744211 -0.0960257517 -0.5479388607 0.0656693661 0.1760070384
825295050.0 0.024024162 0.1918843667 -0.1018405784 -0.5467218812 -0.1022931751 -0.5467604881 0.0676255781 0.1753169244
830295020.0 0.0256247758 0.1918915686 -0.1084063983 -0.5451617112 -0.107961087 -0.545329178 0.0701831465 0.1751373915
