!Created with skrf (http://scikit-rf.org).
# Hz S RI R 50.0 
!freq ReS11 ImS11 ReS21 ImS21 ReS12 ImS12 ReS22 ImS22
300000.0 -0.0952397137 -0.0942907428 0.6234797295 0.0883336048 0.6213893114 0.0893808271 -0.0965247085 -0.1015745145
5299970.0 -0.1016737616 0.0116367548 0.6300257445 0.0105257851 0.6308685581 0.01067743 -0.1017787668 0.0113915904
10299940.0 -0.0968806546 0.0288548701 0.6349253559 0.0160704355 0.6346060695 0.0165896435 -0.0964378405 0.0284589981
15299910.0 -0.0893737783 0.042504068 0.640521834 0.0210076738 0.6406361842 0.0211863423 -0.089940059 0.0416332676
20299880.0 -0.0804449691 0.0535045871 0.6488078541 0.0242372996 0.6490923435 0.0244394272 -0.0809187221 0.0528942678
25299850.0 -0.0702669082 0.0623853815 0.6581807549 0.0257913151 0.6583109674 0.0251431856 -0.0717754974 0.0619295778
30299820.0 -0.0610879547 0.0686807425 0.6683267552 0.0243913075 0.6684468274 0.0244750261 -0.0619999415 0.0683970313
35299790.0 -0.0504329778 0.0734088002 0.6769504146 0.0220009057 0.6774224969 0.0220195534 -0.0524230956 0.0737629487
40299760.0 -0.0411855926 0.0764025552 0.6871446153 0.0178800112 0.6870837154 0.0176652507 -0.0426860306 0.0767774327
45299730.0 -0.0319436931 0.0784184082 0.6959102047 0.0125460812 0.6961819773 0.0121257744 -0.0334843977 0.0790913973
50299700.0 -0.0229150012 0.078926094 0.7038765749 0.0050161354 0.7036532298 0.0049877819 -0.0246947611 0.0804312956
55299670.0 -0.0151834861 0.078953026 0.7110832322 -0.0021995601 0.7109421383 -0.0027001532 -0.0172259276 0.0804141275
60299640.0 -0.007757128 0.078527217 0.7183325608 -0.0106447753 0.7176327819 -0.0110642251 -0.0099658708 0.0796309679
65299610.0 -0.0014117641 0.0770381939 0.7239457086 -0.0197862117 0.7243360825 -0.0200755595 -0.0026544733 0.0785439194
70299580.0 0.0052954917 0.0751580243 0.7294267407 -0.029229323 0.7294137288 -0.0289713985 0.0028537373 0.0771939907
75299550.0 0.0103962979 0.0732891679 0.7332415043 -0.0389327524 0.7335117865 -0.0388536403 0.0084440578 0.0752708884
80299520.0 0.0154808881 0.0714972003 0.7380955116 -0.048352519 0.7380052013 -0.0486710912 0.0134675191 0.0736115137
85299490.0 0.0200186672 0.069270332 0.7411800705 -0.058505482 0.7412040684 -0.0586589218 0.0177276089 0.0707929512
90299460.0 0.0240277581 0.0668895724 0.7436351201 -0.0687929995 0.7437461636 -0.067962941 0.0223258586 0.0694772736
95299430.0 0.0280004129 0.0643501681 0.7461474331 -0.0787947674 0.74650376 -0.0793770835 0.0256903564 0.0665557225
100299400.0 0.0313888564 0.0616529073 0.747701429 -0.0888293009 0.7478784888 -0.0888332696 0.0288916163 0.0645711389
105299370.0 0.0342878168 0.0590668919 0.7490513951 -0.0989048482 0.7498267442 -0.0989078697 0.0327910302 0.0616411766
110299340.0 0.0373989827 0.0564839059 0.7508536208 -0.1087725994 0.7507492891 -0.1082165419 0.0346731752 0.059259716
115299310.0 0.0395335134 0.0543636378 0.7516223037 -0.1190859952 0.7514041858 -0.1183533184 0.0373026627 0.0573442851
120299280.0 0.0415460143 0.0520322013 0.7518456953 -0.1295839433 0.7518189269 -0.1293753244 0.0397127053 0.0545555668
125299250.0 0.0437869418 0.0496198128 0.7523169731 -0.1391927582 0.7521047274 -0.1386174676 0.0420359336 0.0527227392
130299220.0 0.0458877115 0.0470189889 0.7523145501 -0.1494421853 0.7517763168 -0.149521362 0.0435494204 0.0504428537
135299190.0 0.0468053566 0.0455148658 0.7522951511 -0.1583185694 0.7522857141 -0.1592225818 0.0453429182 0.0477330208
140299160.0 0.0486203105 0.0432869896 0.7518796093 -0.1690636996 0.7517834159 -0.1684657684 0.0461038481 0.0455785415
145299130.0 0.0491887221 0.0412422095 0.750685129 -0.1780939556 0.7512203732 -0.1783087599 0.0481364895 0.0434737191
150299100.0 0.0507091999 0.0392401943 0.7494503028 -0.1880015031 0.7495670297 -0.1876445151 0.0490082856 0.0418861503
155299070.0 0.052504023 0.0372215531 0.7477463033 -0.1975191324 0.7486635203 -0.197139012 0.0501482447 0.0396508806
160299040.0 0.0533438829 0.0354797463 0.7466907538 -0.2070960179 0.7466164071 -0.2068627376 0.0506094878 0.038087477
165299010.0 0.0541081803 0.0333825261 0.7456949407 -0.2163441938 0.7451584866 -0.216856785 0.0521562267 0.0357130228
170298980.0 0.0549827996 0.0320555597 0.7433994093 -0.2258516525 0.7434966573 -0.2262598866 0.0525097262 0.0339073973
175298950.0 0.0557805803 0.0303862792 0.7421118188 -0.2351847086 0.7419047917 -0.2355694589 0.0533617057 0.032381869
180298920.0 0.0562674664 0.0288668498 0.7399388649 -0.2444743834 0.7394206017 -0.2448002641 0.0539245007 0.0307284498
185298890.0 0.0568479442 0.0271808873 0.7377614281 -0.2535898941 0.7372031797 -0.2533833786 0.0551729148 0.0288934434
190298860.0 0.0578296506 0.0256509191 0.734270617 -0.2627259795 0.7350696393 -0.2627104204 0.0550866741 0.0271211156
195298830.0 0.0578354857 0.0242343912 0.7329457271 -0.2718008685 0.7327779153 -0.2716288722 0.0553888867 0.0258630039
200298800.0 0.0585216084 0.0225267424 0.7296637353 -0.2812568341 0.7298803938 -0.2810453214 0.0561501766 0.0240562355
205298770.0 0.0583347781 0.0206129007 0.7267995799 -0.289531064 0.7270944306 -0.2892104104 0.0566826696 0.0228278401
210298740.0 0.0589242031 0.0200437522 0.7241066081 -0.2983352119 0.7237359152 -0.2984672924 0.056212138 0.0204855033
215298710.0 0.0593616797 0.0187242102 0.7206085732 -0.3066183747 0.7211671804 -0.3070623014 0.0570834541 0.0199356874
220298680.0 0.0595582975 0.0177167839 0.7177817649 -0.3157641773 0.7176054591 -0.3159542576 0.0574566163 0.0179889149
225298650.0 0.0597233985 0.0162014861 0.7141772044 -0.3237978811 0.7143997257 -0.3236808627 0.0572231126 0.0163625653
230298620.0 0.060098814 0.0151183861 0.7112081265 -0.3329150885 0.7114501471 -0.3331939521 0.057241764 0.0151347242
235298590.0 0.0596787283 0.0136702347 0.7076067605 -0.3417922441 0.708083566 -0.3415713341 0.0576161362 0.0141246501
240298560.0 0.0602316246 0.0130401484 0.704428619 -0.3495202903 0.7042039092 -0.3496871866 0.0575758289 0.0128302311
245298530.0 0.0599554841 0.0112583692 0.7003313789 -0.3582595628 0.7004935936 -0.3580627027 0.0577466458 0.0116818786
250298500.0 0.0600479368 0.0102602702 0.6970277639 -0.3660221977 0.6965892013 -0.3660899209 0.057603919 0.010518397
255298470.0 0.0606307889 0.0098803119 0.6932720674 -0.3740255669 0.6932725495 -0.3743591521 0.0578859861 0.0098392067
260298440.0 0.0607867102 0.0082291239 0.6892060736 -0.3823536824 0.6889311294 -0.3824552315 0.0577412279 0.0075200487
265298410.0 0.0597735162 0.0074421942 0.6843061388 -0.3907943497 0.6844331354 -0.3910382496 0.0587027185 0.0066708237
270298380.0 0.0600886249 0.006334454 0.6805298769 -0.3991442684 0.68045927 -0.3982062158 0.0581996772 0.0058115901
275298350.0 0.0603826691 0.005689383 0.67558377 -0.4059185217 0.6756671668 -0.4058331849 0.0576308029 0.0048969679
280298320.0 0.0596845905 0.0044438487 0.6720644008 -0.4138303828 0.6726705849 -0.4142468417 0.0583450469 0.0038268755
285298290.0 0.059788301 0.0036059107 0.667203684 -0.4217077088 0.6674910141 -0.4215651021 0.0579388743 0.0027319926
290298260.0 0.0599396349 0.0028033574 0.6636205635 -0.4297467481 0.6634779584 -0.4299408514 0.0581158465 0.0014895185
295298230.0 0.0599486794 0.001695741 0.6583692029 -0.4375824591 0.6591247019 -0.4378190927 0.0577816518 0.0003726131
300298200.0 0.0601951522 0.0009534781 0.6536732552 -0.4449372012 0.6538046442 -0.444866119 0.0578023781 -0.0008515023
305298170.0 0.06003492 -0.0004864025 0.6496669755 -0.4531742269 0.6493975008 -0.453105113 0.0573596637 -0.0025078431
310298140.0 0.0602804229 -0.0016072237 0.6443636343 -0.4603597708 0.6446487281 -0.4607119965 0.0582502803 -0.0038622025
315298110.0 0.0597234402 -0.0030570326 0.6391976241 -0.4688581967 0.6391563105 -0.4685261763 0.0574888422 -0.0045982914
320298080.0 0.059504483 -0.0036698278 0.6334959155 -0.4758773651 0.6342974332 -0.4762997952 0.0571039074 -0.0059547872
325298050.0 0.0586813045 -0.0052817644 0.6279485073 -0.4832101512 0.6288257377 -0.4830850811 0.0570491818 -0.006844131
330298020.0 0.0571851426 -0.0058450023 0.622228643 -0.4910530244 0.6232074381 -0.4909519604 0.0559760768 -0.0080157156
335297990.0 0.057577376 -0.0064936484 0.6172639432 -0.4978190587 0.6173926676 -0.4977203959 0.0556535397 -0.0089367785
340297960.0 0.0570712815 -0.0074021356 0.6108558754 -0.5051471483 0.6107456559 -0.5051195732 0.0552091181 -0.0092188925
345297930.0 0.0562474173 -0.0083108167 0.6055357432 -0.511784933 0.6053203413 -0.5116833483 0.0550657242 -0.010686128
350297900.0 0.0557747413 -0.0088767311 0.6002611637 -0.5174589677 0.6004221628 -0.5180634826 0.0545390353 -0.0117320505
355297870.0 0.0555281443 -0.0097866792 0.5943761512 -0.5246096702 0.5942453652 -0.5241732673 0.0546616794 -0.0120832802
360297840.0 0.0554274937 -0.0102020152 0.588173404 -0.5310919109 0.5886393646 -0.5320262511 0.0533024882 -0.0123243923
365297810.0 0.0546823819 -0.0108920213 0.5821825916 -0.5384168644 0.5821549273 -0.5384036293 0.0527542992 -0.0134161911
370297780.0 0.0547612594 -0.0113011984 0.5762094502 -0.5450757977 0.57632275 -0.5446369725 0.052795514 -0.0142618425
375297750.0 0.0543053615 -0.0122331474 0.5703499943 -0.5507410412 0.5705154144 -0.5511268494 0.0528565015 -0.0148984238
380297720.0 0.0533299504 -0.0124830518 0.5650658816 -0.5576293989 0.5640187083 -0.5572977577 0.0522915337 -0.0152188098
385297690.0 0.0533262089 -0.0136471381 0.5581667075 -0.5636301489 0.5584394427 -0.5642142203 0.0522041952 -0.0155308093
390297660.0 0.0531422757 -0.0144363514 0.5519964934 -0.5695817476 0.5525750899 -0.5701321675 0.052069353 -0.0170222667
395297630.0 0.0529134698 -0.0149122019 0.546387278 -0.5753452519 0.5457200992 -0.5756759848 0.0514148054 -0.0172868238
400297600.0 0.0521612487 -0.0159066486 0.539889904 -0.5824979892 0.5394568729 -0.5821533464 0.0513362469 -0.0177062075
405297570.0 0.052026008 -0.0165980043 0.533228816 -0.5880433696 0.5333791617 -0.5878365112 0.0510326785 -0.0181392225
410297540.0 0.051516279 -0.016694583 0.5264872564 -0.5939560895 0.5267568073 -0.5936132329 0.0504875157 -0.0189268042
415297510.0 0.0508672593 -0.0175598209 0.5194076237 -0.5997083233 0.5205812866 -0.5998716289 0.0506927104 -0.0194384414
420297480.0 0.0505856372 -0.0182780179 0.5137777897 -0.6055475746 0.5139362549 -0.6054987602 0.0504297563 -0.0196951364
425297450.0 0.0508613147 -0.0190490638 0.5067062137 -0.6108308742 0.5066504605 -0.6112589465 0.0498364982 -0.0209753773
430297420.0 0.0500222881 -0.0192878138 0.5009014142 -0.6169721396 0.500893242 -0.6162231056 0.0497993781 -0.0211716697
435297390.0 0.0498998298 -0.0202838925 0.493190226 -0.6227212146 0.4935143172 -0.6228208104 0.0483576041 -0.0215425491
440297360.0 0.0497044068 -0.0210419828 0.4860464296 -0.6281595034 0.4861771033 -0.6276695512 0.0487167286 -0.0224132011
445297330.0 0.0493275075 -0.0217346855 0.4797897961 -0.6329585093 0.4794366918 -0.633145935 0.0482450504 -0.0224740324
450297300.0 0.0489810074 -0.0221228423 0.4727214495 -0.6382236135 0.4730376924 -0.6382833523 0.0479979646 -0.0229065888
455297270.0 0.0480397676 -0.0228799737 0.4661113181 -0.6433114142 0.4661006881 -0.6436208677 0.0474995834 -0.0237056646
460297240.0 0.0481412647 -0.0230369698 0.4590446243 -0.6496260852 0.4585698758 -0.6486362562 0.0472699997 -0.0242642681
465297210.0 0.0477534794 -0.0239417282 0.4511665375 -0.6540252767 0.4511425073 -0.6540761723 0.0473686135 -0.0243264065
470297180.0 0.0472572617 -0.0248814003 0.4444197273 -0.6586759113 0.4447100675 -0.6584243905 0.0469849163 -0.0254233384
475297150.0 0.0464335432 -0.024985718 0.4368042544 -0.6634265371 0.4370270285 -0.6642629266 0.0467489209 -0.0258060595
480297120.0 0.0463612417 -0.0251571471 0.4297559532 -0.6681421645 0.4295944809 -0.6685991695 0.0459985649 -0.02629362
485297090.0 0.0462812807 -0.026618383 0.4222587133 -0.6738060893 0.4221287956 -0.6730488086 0.0456490054 -0.0266410346
490297060.0 0.0462469476 -0.0264573583 0.4142493574 -0.6779117745 0.414625837 -0.6781867759 0.0449603429 -0.0272660097
495297030.0 0.0451375822 -0.0279664767 0.4072143239 -0.6828534559 0.4073226607 -0.6827706442 0.045476297 -0.0278702987
500297000.0 0.0448317238 -0.0275277916 0.399974981 -0.6864623784 0.4002877309 -0.6872345649 0.0446730783 -0.0281694752
505296970.0 0.0449438103 -0.0280856816 0.3925945864 -0.6918302655 0.3931184977 -0.6910002093 0.0441831304 -0.0295842918
510296940.0 0.0443316474 -0.0290304668 0.3848936587 -0.6965638843 0.3853159989 -0.6962966613 0.0443802436 -0.0293003808
515296910.0 0.0435839572 -0.0290248016 0.377078236 -0.7001438621 0.3766739846 -0.7001954675 0.0437011493 -0.0304202926
520296880.0 0.0437256219 -0.0294316567 0.3695741032 -0.7038702677 0.3695353914 -0.7038098969 0.0438502095 -0.029628289
525296850.0 0.0431588495 -0.0301921307 0.3617927892 -0.7079837797 0.3617851736 -0.7075971398 0.0435494271 -0.030954367
530296820.0 0.0425968376 -0.0310321679 0.3539767894 -0.7118290415 0.3537553639 -0.7120802945 0.0429049015 -0.0316661461
535296790.0 0.0429293609 -0.0310322002 0.3458900911 -0.7155240468 0.3463366565 -0.7157253054 0.0429436177 -0.0315996129
540296760.0 0.0418884778 -0.0312658176 0.3378321808 -0.7197244082 0.3383514391 -0.7194616267 0.0422150499 -0.0326611468
545296730.0 0.0409203795 -0.0317843993 0.3305742836 -0.7231926658 0.3301210968 -0.7223214317 0.0420150546 -0.0328752773
550296700.0 0.0414638867 -0.0322130511 0.3230477645 -0.7268753686 0.3220670442 -0.7268991373 0.0416563858 -0.0333512072
555296670.0 0.0405283336 -0.0324999158 0.3145678977 -0.7305937793 0.3144237009 -0.7305918678 0.0409581301 -0.0340840815
560296640.0 0.0410976797 -0.0330081792 0.3059465653 -0.7337598133 0.3068955353 -0.7341758195 0.0403791037 -0.0336923752
565296610.0 0.0396157034 -0.0333405825 0.2983710347 -0.7370904513 0.2985258523 -0.7363607171 0.0404539953 -0.0343621958
570296580.0 0.0393137283 -0.0338115275 0.2901603827 -0.7401090268 0.2897549781 -0.7407103627 0.0397089926 -0.0352604959
575296550.0 0.0388922743 -0.0341786722 0.2824567096 -0.7436881617 0.2821311604 -0.7434709453 0.0390603828 -0.0353793348
580296520.0 0.0387585044 -0.0343280228 0.2738473915 -0.7464682044 0.273793066 -0.7467566337 0.0384216796 -0.0357338848
585296490.0 0.0382359137 -0.0344515822 0.2666177761 -0.7497579596 0.265839763 -0.7493479173 0.0387436902 -0.0358187432
590296460.0 0.0383589616 -0.0351589919 0.2578567267 -0.7521873062 0.2581604551 -0.7524707191 0.0375455455 -0.0363170666
595296430.0 0.0377051141 -0.0351366038 0.2493478109 -0.7547294171 0.2488676981 -0.7553313692 0.0373147735 -0.0371375331
600296400.0 0.0375773035 -0.0356626377 0.2411003149 -0.7576643909 0.2409993675 -0.7576299413 0.037063064 -0.0374655735
605296370.0 0.0361015745 -0.0356986061 0.2333205295 -0.7602698569 0.2325101187 -0.7604482339 0.036203078 -0.0374952329
610296340.0 0.036490118 -0.0355633861 0.224328177 -0.7620925246 0.2244928181 -0.7624922671 0.0354649262 -0.037735258
615296310.0 0.0361198917 -0.0363149993 0.2159683967 -0.7656524697 0.2154475585 -0.7654791775 0.0355608712 -0.0380860285
620296280.0 0.0347520318 -0.0361256636 0.2073636243 -0.7675234343 0.2074149737 -0.7677281305 0.0345193547 -0.0383713969
625296250.0 0.0344948011 -0.0364205507 0.1990442097 -0.7698786522 0.1993617718 -0.7703189875 0.0333082187 -0.0386065983
630296220.0 0.0342040909 -0.0366614484 0.1904769924 -0.7724999495 0.1910473492 -0.7715348002 0.0333872323 -0.0390956939
635296190.0 0.0333234867 -0.036709211 0.1821133363 -0.7738231738 0.1821137176 -0.7736861562 0.0329535464 -0.0393116953
640296160.0 0.032953557 -0.0369606333 0.1737857764 -0.7762178756 0.1737552331 -0.7760154947 0.0322284095 -0.039974743
645296130.0 0.0329236872 -0.0366820967 0.1656553204 -0.777442976 0.1656267465 -0.7779149687 0.0312936441 -0.040617554
650296100.0 0.0321448285 -0.0373396344 0.1567978511 -0.7800410981 0.1569838893 -0.7799091778 0.0320923393 -0.0404289501
655296070.0 0.031466549 -0.0373336779 0.148030369 -0.7814401545 0.1485492064 -0.7807649568 0.0302445381 -0.0405894344
660296040.0 0.0310487115 -0.0374260057 0.1397530178 -0.7828883923 0.1398895633 -0.7831049459 0.0301073139 -0.0410841482
665296010.0 0.0306134425 -0.0377351674 0.1300447317 -0.7839085505 0.131047171 -0.7842224682 0.0295511521 -0.0412669734
670295980.0 0.030330731 -0.0375252453 0.1225592536 -0.786014608 0.1223590786 -0.7850340269 0.0284446495 -0.0417013382
675295950.0 0.0294185056 -0.0380239348 0.1137844167 -0.786571885 0.114181044 -0.7866547884 0.0280022383 -0.0414754434
680295920.0 0.0287771372 -0.0378265033 0.1056904912 -0.7881397725 0.1060195122 -0.7877907031 0.0279385271 -0.0422122803
685295890.0 0.0287477973 -0.0375563643 0.0965502095 -0.7892693224 0.0970275039 -0.7893584986 0.0271254366 -0.0418373195
690295860.0 0.0275389863 -0.0377838405 0.0881504036 -0.7901246788 0.0879909385 -0.790222401 0.0263511412 -0.0427339006
695295830.0 0.0270326266 -0.0384272443 0.0802591229 -0.7911663681 0.0799594268 -0.790938379 0.0256168139 -0.0422542467
700295800.0 0.0267730412 -0.0379611703 0.0712991608 -0.7915924668 0.0711959802 -0.7919680961 0.0249550015 -0.0421970422
705295770.0 0.0257183049 -0.0380991148 0.0624849821 -0.793184533 0.0625058707 -0.791999531 0.0245857988 -0.0422409545
710295740.0 0.0254483962 -0.0384528471 0.0537782369 -0.793869692 0.0541464327 -0.7931601608 0.0242061319 -0.0426254536
715295710.0 0.0247879908 -0.037917106 0.0453012658 -0.793778683 0.0454584574 -0.7935754947 0.0234449259 -0.0429970103
720295680.0 0.0246878068 -0.0380873269 0.0362299306 -0.7939732115 0.0369094326 -0.7946704582 0.0226542891 -0.0430773739
725295650.0 0.0231492801 -0.0380407155 0.0283835563 -0.7947132232 0.028078737 -0.7946795882 0.0215873012 -0.0425699465
730295620.0 0.0223338503 -0.0384739874 0.0190507009 -0.79373644 0.0197705431 -0.7936134346 0.0210961179 -0.0424049071
735295590.0 0.0227012453 -0.0382123122 0.010996622 -0.7951524378 0.0107342185 -0.7950497479 0.0202749868 -0.0434912726
740295560.0 0.0215677855 -0.03871871 0.0023890296 -0.7952625908 0.0026176368 -0.7951602636 0.0189997444 -0.0429150302
745295530.0 0.0208161167 -0.0383068786 -0.0061351207 -0.7938761023 -0.0054787346 -0.7948112656 0.0181022591 -0.0434678535
750295500.0 0.0200304559 -0.0382454363 -0.0145508615 -0.794574616 -0.0150773576 -0.7944756103 0.01773295 -0.0429047665
755295470.0 0.0194712934 -0.0382810475 -0.0232641639 -0.7950069087 -0.0233228199 -0.7946410487 0.0177582032 -0.0422883893
760295440.0 0.0187827257 -0.0375965709 -0.0329771806 -0.7938507391 -0.0319917001 -0.7936786127 0.0169479898 -0.0441269619
765295410.0 0.0186680411 -0.0381749547 -0.0411519894 -0.7936634041 -0.0400577902 -0.7937523118 0.0163638746 -0.0430499766
770295380.0 0.0177121193 -0.0377869343 -0.0492049287 -0.7925685257 -0.0491574711 -0.7935595901 0.0153793702 -0.0429573507
775295350.0 0.0172164345 -0.0380414424 -0.0579899752 -0.7925333851 -0.0576190501 -0.7918977184 0.0152319898 -0.0427724961
780295320.0 0.0163877245 -0.0377768181 -0.0663580839 -0.7914712474 -0.0662604943 -0.7919360547 0.0147989009 -0.0431901427
785295290.0 0.0156601091 -0.0379775674 -0.0751930621 -0.7913149312 -0.0750903742 -0.7908932937 0.0130152869 -0.0421231041
790295260.0 0.0154636166 -0.0382453062 -0.0833409056 -0.7900944905 -0.0833184261 -0.7901503929 0.0124536584 -0.0422100791
795295230.0 0.014724567 -0.0383110174 -0.0919171653 -0.7897667215 -0.0921128607 -0.7894371385 0.012308779 -0.0431914096
800295200.0 0.0136656676 -0.0378076484 -0.0998382086 -0.787869944 -0.100448274 -0.7882861984 0.0111184247 -0.0423618964
805295170.0 0.0129587744 -0.0376831407 -0.1091721718 -0.7874076885 -0.1087699619 -0.7871215758 0.0115179509 -0.0422711513
810295140.0 0.0130020666 -0.03779788 -0.117888535 -0.7852472555 -0.117621523 -0.7858474364 0.0102949412 -0.0423116254
815295110.0 0.0118464638 -0.037615774 -0.1261483774 -0.7846238464 -0.1254020451 -0.7850369436 0.0096430524 -0.0422405769
820295080.0 0.0115251884 -0.0375586939 -0.1338966662 -0.7824099373 -0.1340107714 -0.7834388965 0.0082245078 -0.0414645257
825295050.0 0.0104849942 -0.0375942454 -0.1429564816 -0.7814564193 -0.143216262 -0.7809996366 0.0086168122 -0.0411608901
830295020.0 0.0100259198 -0.037553946 -0.1513121968 -0.7801578182 -0.1515583941 -0.7802063828 0.0078798466 -0.0420451227
