!Created with skrf (http://scikit-rf.org).
# Hz S RI R 50.0 
!freq ReS11 ImS11 ReS21 ImS21 ReS12 ImS12 ReS22 ImS22
300000.0 -0.2406017712 -0.0822012186 0.4709742384 0.0546734493 0.4673725799 0.0523810793 -0.2402959978 -0.0939592298
5299970.0 -0.2444922218 0.0069441733 0.4737785393 0.0054225778 0.4735810091 0.0052892109 -0.2440402474 0.0072816129
10299940.0 -0.2408804351 0.01894234 0.4754239994 0.0060209577 0.4756622246 0.0064652033 -0.24104079 0.0202026005
15299910.0 -0.2368254028 0.0279966899 0.4792283348 0.0078861405 0.4796779583 0.0078053757 -0.2361804831 0.0297721626
20299880.0 -0.2319910605 0.0352851761 0.4838841987 0.0087713721 0.4837653262 0.0081505746 -0.2308080371 0.0372606928
25299850.0 -0.2270565691 0.0419712773 0.4894095799 0.0074232578 0.4889549348 0.0075924082 -0.2249098244 0.044021367
30299820.0 -0.2215075741 0.0470951291 0.4943817693 0.0053093986 0.4945306263 0.005387404 -0.2193060472 0.0489309965
35299790.0 -0.2164734702 0.0512995595 0.500100968 0.0019499416 0.4999803038 0.0021012962 -0.213709219 0.05319178
40299760.0 -0.2115078306 0.0550806269 0.5050624782 -0.0018340544 0.5054350386 -0.0015267575 -0.2082552526 0.0559963365
45299730.0 -0.2065908954 0.0575534922 0.5096441086 -0.0063810952 0.5100202602 -0.0062558131 -0.2032839883 0.0590025857
50299700.0 -0.2023491416 0.0599366953 0.5142541621 -0.0121101452 0.5141303313 -0.0115061026 -0.1983839204 0.0606378742
55299670.0 -0.1983521244 0.0616932085 0.518441399 -0.0180304531 0.5176024758 -0.017712122 -0.1942738526 0.0619451702
60299640.0 -0.1942236559 0.0633613859 0.5211092337 -0.024155488 0.5215334019 -0.024155062 -0.1904290838 0.0631032152
65299610.0 -0.1910112639 0.0648526495 0.5242541981 -0.0305655465 0.5243778303 -0.0303534494 -0.1871674553 0.0642948816
70299580.0 -0.187915278 0.0661896085 0.5265855412 -0.0373715223 0.5263363742 -0.0371523219 -0.1838281083 0.0648538863
75299550.0 -0.1848434072 0.0672540209 0.5284022516 -0.0441036743 0.528540932 -0.043819302 -0.1811709792 0.0653023659
80299520.0 -0.1824087289 0.0682206154 0.5308538157 -0.0512624032 0.5306679183 -0.0510580541 -0.1782540349 0.0660895009
85299490.0 -0.1799109723 0.0688566431 0.5315016883 -0.0575967908 0.5316932357 -0.0573400101 -0.1761000973 0.0662467873
90299460.0 -0.1778899691 0.069872577 0.5326470779 -0.0649605659 0.5329313602 -0.0647085407 -0.1735408203 0.0666995863
95299430.0 -0.1756879538 0.0702817317 0.5333894943 -0.0714735735 0.5334988308 -0.0718009397 -0.1716509334 0.0674293617
100299400.0 -0.1737585751 0.0715114091 0.5337331894 -0.0782183572 0.5337806193 -0.0785351813 -0.1693507223 0.0671886089
105299370.0 -0.1720095216 0.0726100141 0.5342256507 -0.0856226308 0.5344669803 -0.085475438 -0.1675283662 0.0681696823
110299340.0 -0.1705547206 0.0731907755 0.5345981881 -0.0921924088 0.5344054653 -0.091889153 -0.1665520721 0.0683612266
115299310.0 -0.1687384073 0.0742044 0.5345359027 -0.0991534834 0.5343709154 -0.0990697993 -0.1646903702 0.0689403236
120299280.0 -0.1671035179 0.0747419421 0.5341079868 -0.1056615527 0.5343845914 -0.1057940415 -0.1634497718 0.0694535596
125299250.0 -0.1662264219 0.0755210679 0.5338777589 -0.1121770828 0.5342095112 -0.1122873309 -0.1622203149 0.0697410248
130299220.0 -0.1652457432 0.0767072686 0.5331376093 -0.1192008717 0.5336233239 -0.1194324609 -0.161138526 0.0700628862
135299190.0 -0.1636048319 0.0780699914 0.5330481724 -0.1261579861 0.532916601 -0.1258280878 -0.1598496796 0.0709403013
140299160.0 -0.1627461898 0.0788741876 0.5320359105 -0.1329125696 0.5321563169 -0.1330393924 -0.1588448215 0.0723016627
145299130.0 -0.1612288529 0.079954702 0.5312395754 -0.1394294131 0.5308216386 -0.1388705939 -0.1579061357 0.0727856734
150299100.0 -0.1600490623 0.081125043 0.5300134867 -0.1454117604 0.5299711318 -0.1451798371 -0.1569461601 0.0740007568
155299070.0 -0.1596464223 0.0820615025 0.5292596547 -0.1528688682 0.5283761016 -0.1523168483 -0.1560569143 0.0749669928
160299040.0 -0.1583176437 0.0835116805 0.5273529798 -0.1590061748 0.5270838342 -0.1588998775 -0.155572015 0.0755800701
165299010.0 -0.1571784697 0.0845310219 0.5256682758 -0.1656030485 0.5260747705 -0.1653963295 -0.1543266286 0.0768879813
170298980.0 -0.1563366165 0.0857778346 0.5242377012 -0.1714836317 0.5243544976 -0.1716306309 -0.1534924067 0.0773989472
175298950.0 -0.1556468732 0.0871529844 0.5231403281 -0.1776807286 0.5223811717 -0.1774307273 -0.1529486714 0.0787155449
180298920.0 -0.1548024154 0.0884871659 0.5209564678 -0.1838349277 0.5210649793 -0.1838115862 -0.1520676357 0.0797509359
185298890.0 -0.1530982426 0.089518728 0.5188627005 -0.190427565 0.5188927377 -0.1904621859 -0.1515359853 0.0812220448
190298860.0 -0.1528375901 0.0909534937 0.517221267 -0.1965762954 0.517544165 -0.19623372 -0.1507764172 0.0818046457
195298830.0 -0.1521960013 0.0922801222 0.5154666635 -0.202520685 0.5155706791 -0.2026661556 -0.1497069177 0.0830914974
200298800.0 -0.1506113366 0.0937338582 0.5131303891 -0.2087990284 0.5133373161 -0.2086998746 -0.1494830259 0.0843866762
205298770.0 -0.1499676136 0.0950850942 0.5107270129 -0.2149534444 0.5108476064 -0.2147701565 -0.1486248791 0.0846990644
210298740.0 -0.1490141333 0.0962460123 0.5086821469 -0.2206241478 0.5087096988 -0.2202341279 -0.1479506821 0.086445026
215298710.0 -0.148379917 0.0978412137 0.5064823616 -0.2267906562 0.5062181511 -0.2267435268 -0.1474004339 0.0874703897
220298680.0 -0.1471769694 0.0990152195 0.5037331365 -0.2325605398 0.5039197572 -0.2324900711 -0.1466184514 0.0884538226
225298650.0 -0.1461387104 0.1006361768 0.5016820245 -0.2385349352 0.5016907154 -0.2383722017 -0.1463509414 0.0895459915
230298620.0 -0.145145408 0.1022021672 0.4992480738 -0.2439187685 0.4995137564 -0.2441371245 -0.1456560224 0.0908386141
235298590.0 -0.1443388352 0.1035903264 0.4964639838 -0.2500920007 0.4965239058 -0.2493986228 -0.1444047424 0.0922383168
240298560.0 -0.143168569 0.1051207654 0.4935336979 -0.2562611361 0.4934797225 -0.2559285665 -0.143952843 0.0934175312
245298530.0 -0.1424156527 0.1063314032 0.4913855401 -0.2614911941 0.4910305849 -0.2618317266 -0.1429167801 0.0943215278
250298500.0 -0.1406149997 0.1081745221 0.4875953938 -0.2672738128 0.487320535 -0.2668708917 -0.1424886209 0.0955774989
255298470.0 -0.1399815293 0.1090530038 0.4845677053 -0.2723996851 0.4848249458 -0.2725127795 -0.1411411538 0.0968424358
260298440.0 -0.139115694 0.1105639549 0.4817079834 -0.2783831496 0.4820507874 -0.2781419072 -0.140652319 0.0979563684
265298410.0 -0.1375316396 0.1126076287 0.4788605414 -0.2842114914 0.4795383793 -0.2835138699 -0.1396148834 0.0993315186
270298380.0 -0.1367019122 0.1138986302 0.4761214806 -0.2888296321 0.4761882585 -0.2891411287 -0.1389337114 0.1005893948
275298350.0 -0.1349609947 0.1152165923 0.4727548089 -0.2947674419 0.4734264324 -0.2945820193 -0.1380233353 0.1017354201
280298320.0 -0.1338583203 0.1167630454 0.4701268559 -0.3002024379 0.4697632328 -0.2998515798 -0.1368116799 0.1030704973
285298290.0 -0.1327713847 0.1183612265 0.4665604786 -0.3053872726 0.4665847397 -0.3055092051 -0.1359234581 0.1047069759
290298260.0 -0.1316158539 0.1198418104 0.4630598226 -0.3104061852 0.4633879994 -0.3107033049 -0.1348517052 0.1060602365
295298230.0 -0.1299370206 0.1208985747 0.4599395678 -0.3159657031 0.4599363931 -0.3157022835 -0.1335290169 0.1067278139
300298200.0 -0.1292515845 0.1223133623 0.4566612276 -0.320831557 0.4568153231 -0.3212324874 -0.1326344133 0.1077982738
305298170.0 -0.1276278465 0.123793811 0.4522605018 -0.3269483086 0.4530891618 -0.3264030899 -0.1313819496 0.1091225444
310298140.0 -0.1265043387 0.125219342 0.4494558564 -0.3316839679 0.4495459295 -0.3313342168 -0.1305340404 0.1104824857
315298110.0 -0.1252218515 0.1261851648 0.4454130415 -0.3366599609 0.44592718 -0.3365492225 -0.1295264162 0.1115071137
320298080.0 -0.1236620194 0.1277105166 0.4413017897 -0.3422319624 0.441850796 -0.341616975 -0.1287138808 0.1129360214
325298050.0 -0.122595365 0.1287518216 0.4379758291 -0.3470638549 0.4381237871 -0.3468323334 -0.1277906571 0.1138903705
330298020.0 -0.1214578118 0.1300923017 0.4338201635 -0.3517296054 0.4341994385 -0.351798268 -0.1271962439 0.1153220457
335297990.0 -0.1201583805 0.1311299337 0.4301009071 -0.3566045019 0.4297944762 -0.3570431632 -0.1265827832 0.1169776887
340297960.0 -0.1194445642 0.1330412993 0.4256059858 -0.3614486159 0.4255593696 -0.3613631341 -0.1250841731 0.1182301881
345297930.0 -0.1180566364 0.134636625 0.4216909516 -0.3662033959 0.4215786228 -0.3665811263 -0.1241683803 0.1192448673
350297900.0 -0.1167348099 0.1356223178 0.4172197575 -0.3713565104 0.4172206947 -0.3706780051 -0.1234792357 0.1211192381
355297870.0 -0.1148917359 0.1375977602 0.4128914984 -0.3756813179 0.4135672975 -0.3749873196 -0.1227589839 0.12200587
360297840.0 -0.1135357669 0.1389436132 0.4095018538 -0.3798531972 0.4098841815 -0.3797327789 -0.1214586776 0.1237578741
365297810.0 -0.1121769205 0.1404286961 0.4049716866 -0.384818344 0.405003772 -0.3844355739 -0.1202706607 0.1248653768
370297780.0 -0.1107748507 0.1413688842 0.4005357593 -0.3885302934 0.4008696532 -0.3886601085 -0.1191780224 0.1263063898
375297750.0 -0.1091624176 0.1428553599 0.3963098768 -0.393176361 0.3968828292 -0.393062318 -0.1179372502 0.12749077
380297720.0 -0.1077164119 0.1443008257 0.3920963762 -0.398003379 0.3922784067 -0.3968739183 -0.1174640396 0.1285372212
385297690.0 -0.10686657 0.14574002 0.3879566304 -0.4016762465 0.3876558592 -0.4019096373 -0.1156633109 0.1303793251
390297660.0 -0.1048416159 0.1470663072 0.3833798369 -0.4060817088 0.3830943545 -0.4057004433 -0.1148247647 0.1313184432
395297630.0 -0.1030020448 0.1481715801 0.3786248825 -0.4101822416 0.3788702694 -0.4104518062 -0.1130677844 0.1324510341
400297600.0 -0.1015720909 0.1496751392 0.3742198883 -0.4148830468 0.3744779751 -0.414652411 -0.1122481443 0.1338822865
405297570.0 -0.100594009 0.1509100025 0.3700112064 -0.4184798484 0.370021369 -0.4182451358 -0.1111955914 0.135008976
410297540.0 -0.0982603333 0.1519068637 0.3656163171 -0.4226792225 0.3657795521 -0.4225445236 -0.1098785248 0.1366094768
415297510.0 -0.0967252677 0.15328974 0.3604547765 -0.426660357 0.3606540667 -0.4266518974 -0.1085014244 0.1375405425
420297480.0 -0.0951686017 0.1547392037 0.3553576926 -0.4302446259 0.3556381925 -0.4307858384 -0.1075043349 0.1384523792
425297450.0 -0.0935859494 0.1554269188 0.3511946189 -0.4347512386 0.3514234013 -0.4344428598 -0.1062557198 0.1402259775
430297420.0 -0.0918776592 0.1566098751 0.3461201531 -0.4377763694 0.3462246679 -0.4377559808 -0.1052177561 0.1403638738
435297390.0 -0.0900462357 0.1580785213 0.3411692448 -0.442052357 0.3411027654 -0.4415705872 -0.1034118532 0.1419355423
440297360.0 -0.0882587211 0.1590971465 0.3364825316 -0.4452474305 0.3369102633 -0.4455131333 -0.102273257 0.1429019322
445297330.0 -0.0867584528 0.16012927 0.3320326202 -0.4494223857 0.3317373902 -0.4487820932 -0.100457507 0.1439029143
450297300.0 -0.0847884301 0.1612022698 0.3268810314 -0.452768361 0.3267936537 -0.4530174767 -0.0995640521 0.144904187
455297270.0 -0.0831100909 0.1622700511 0.3217543834 -0.4567072871 0.3221007854 -0.4564700906 -0.0982320472 0.1459692472
460297240.0 -0.0817160314 0.1631722413 0.3163679605 -0.4596846388 0.3167791827 -0.4594679241 -0.0967449001 0.1471220382
465297210.0 -0.0793647428 0.1644911171 0.3117853912 -0.4633822173 0.3116189618 -0.463917309 -0.0951717707 0.1479921107
470297180.0 -0.0777103199 0.1653417087 0.3064697486 -0.4664302019 0.3066734031 -0.4667751052 -0.0938634078 0.1492897795
475297150.0 -0.0760111185 0.166030295 0.3012154601 -0.4694786868 0.3015470716 -0.4694370092 -0.0919098364 0.1501066957
480297120.0 -0.074084688 0.1676117561 0.2960089372 -0.4736599654 0.2961210416 -0.4733246798 -0.090474231 0.1511538264
485297090.0 -0.0725596653 0.1684247755 0.291145403 -0.4763432744 0.2911969366 -0.4761055226 -0.0889954469 0.1523902576
490297060.0 -0.070922009 0.1690429754 0.286103722 -0.4795492472 0.2860895446 -0.4793591921 -0.0878594736 0.1534565656
495297030.0 -0.0689850078 0.1702740526 0.2805448275 -0.4824821959 0.2816663428 -0.4822972962 -0.0861538482 0.1544553436
500297000.0 -0.0667996629 0.1708914873 0.2753617434 -0.4850195387 0.2749892966 -0.4853554107 -0.0845158943 0.156102933
505296970.0 -0.0649752481 0.1715509022 0.2702196513 -0.4882206267 0.2697007874 -0.4882300566 -0.0830776136 0.1563962079
510296940.0 -0.0631107414 0.1725608673 0.2645373071 -0.4914038891 0.2649401818 -0.4914391084 -0.0815184434 0.1575805216
515296910.0 -0.0611756019 0.1735897395 0.2593369735 -0.494203698 0.2592849413 -0.4943791159 -0.0797882592 0.1584193795
520296880.0 -0.0593884986 0.174175463 0.254007452 -0.4972497647 0.2540348367 -0.4970218873 -0.0784124164 0.1596059375
525296850.0 -0.0570528214 0.1746514479 0.2480234354 -0.4994360835 0.2488907246 -0.4994440226 -0.0772404411 0.160522807
530296820.0 -0.0554776203 0.1758630228 0.2432010529 -0.5020888786 0.2433234743 -0.50230596 -0.0754111744 0.1615349697
535296790.0 -0.053744425 0.1766970941 0.2381195473 -0.504687315 0.2377133898 -0.504324861 -0.0742899948 0.1619934241
540296760.0 -0.0521094331 0.177632755 0.2322283124 -0.5078686651 0.2320630102 -0.5074595594 -0.0729180402 0.1634274891
545296730.0 -0.0499379761 0.1779985549 0.2258282206 -0.5098806572 0.2262866881 -0.5097094894 -0.0711819967 0.1639971457
550296700.0 -0.0474370904 0.1787711666 0.221032642 -0.5120894947 0.2211118753 -0.5123667068 -0.069962868 0.1650466536
555296670.0 -0.0460575702 0.1792591512 0.2158247944 -0.5146069371 0.2160504349 -0.5144859935 -0.0683834259 0.1659842095
560296640.0 -0.0432705087 0.1804140632 0.20965651 -0.5170410237 0.2098467507 -0.5172328216 -0.0663114014 0.166722312
565296610.0 -0.0419030614 0.1808064568 0.2039388166 -0.5193781066 0.2045653232 -0.5191172449 -0.065101397 0.1671784221
570296580.0 -0.0399751304 0.1815563639 0.1987971853 -0.5219354356 0.1982798714 -0.5214451081 -0.0637510427 0.1682643217
575296550.0 -0.0379110654 0.1824673134 0.1927634847 -0.5238127299 0.19283005 -0.5233482892 -0.0618231068 0.1690106082
580296520.0 -0.0358431741 0.1826678788 0.1870757647 -0.5257901192 0.1871657174 -0.5254661985 -0.0601557415 0.1695484302
585296490.0 -0.0338824756 0.1828519772 0.1814207058 -0.5270361469 0.1815883596 -0.5275797803 -0.0583647465 0.1704385401
590296460.0 -0.0317826992 0.1839160646 0.1757582433 -0.5291494323 0.1758897024 -0.5290633749 -0.0574348537 0.1710637395
595296430.0 -0.0297043794 0.1840748303 0.1694135259 -0.5317254312 0.1696611874 -0.53101445 -0.0553706886 0.1714104432
600296400.0 -0.0278588125 0.1846279877 0.163905817 -0.5329273218 0.164489918 -0.5323993403 -0.0539079384 0.1718964184
605296370.0 -0.026052608 0.1849258151 0.1583529576 -0.5346590292 0.1584693922 -0.5346936692 -0.0518737088 0.1730336087
610296340.0 -0.0237375685 0.1853272904 0.1522227582 -0.536279474 0.1527898097 -0.5363252416 -0.0503853962 0.173224299
615296310.0 -0.0213094648 0.1854718162 0.1464170392 -0.5375114679 0.1466229758 -0.5382834586 -0.0482863265 0.173993769
620296280.0 -0.0195932998 0.1859569197 0.1408679786 -0.5394058545 0.1410112946 -0.5390849107 -0.047092094 0.1746152506
625296250.0 -0.0179710755 0.1858565968 0.1356938104 -0.5409955113 0.1351354391 -0.5411534812 -0.0447745322 0.1751707169
630296220.0 -0.0148747116 0.1868001687 0.1285384495 -0.5423997284 0.1288952227 -0.5421466611 -0.0434135833 0.1756249058
635296190.0 -0.0137344524 0.1868883127 0.123066918 -0.5433963141 0.12352951 -0.5436570656 -0.0414901755 0.1765908311
640296160.0 -0.0116602994 0.1874044518 0.1174817285 -0.5447404359 0.1176814402 -0.5447470098 -0.0398183486 0.1770020747
645296130.0 -0.0094042909 0.1875369514 0.1112784907 -0.5458056896 0.1117755662 -0.5462089986 -0.0379147234 0.1776511361
650296100.0 -0.0071317877 0.187720735 0.1052593255 -0.5468692716 0.1056963101 -0.547225205 -0.0360077176 0.1776448072
655296070.0 -0.0056032943 0.1876919324 0.0997300473 -0.5481226699 0.0998109636 -0.5481107102 -0.034133318 0.1782922408
660296040.0 -0.0037454037 0.1877039684 0.0936788746 -0.5488472033 0.0936791483 -0.5493120744 -0.0322875807 0.1789426106
665296010.0 -0.0009553631 0.1879953429 0.0873340129 -0.5497787736 0.0878936112 -0.5504357708 -0.0304468392 0.1799320927
670295980.0 0.0001070508 0.1884794203 0.0817987886 -0.5507839245 0.0818768607 -0.5505517084 -0.0292359821 0.179847224
675295950.0 0.0026318967 0.1885905437 0.0758163341 -0.5514309576 0.0758257761 -0.5513110138 -0.0278899477 0.1805968524
680295920.0 0.0047603413 0.1884166 0.0699209905 -0.5522074293 0.0691263218 -0.5528463074 -0.0257143136 0.1815431898
685295890.0 0.0070323215 0.1892518481 0.0636668154 -0.5533702089 0.0638328824 -0.5537927601 -0.0238267572 0.1819360039
690295860.0 0.0089528538 0.1888501131 0.0579936595 -0.5533931622 0.0577797079 -0.5542246435 -0.022362053 0.1829063632
695295830.0 0.0110456424 0.1887239369 0.052395072 -0.5541640996 0.0517172722 -0.5542815162 -0.0205496198 0.1825906022
700295800.0 0.013391161 0.1884599873 0.0460450126 -0.5547753017 0.0457959265 -0.5544494714 -0.0190689568 0.183289568
705295770.0 0.0150560335 0.1893914652 0.0400373956 -0.5556739993 0.0403692475 -0.5555342932 -0.0171288796 0.1832909823
710295740.0 0.0175242249 0.1890595027 0.0339928214 -0.5559915377 0.0345024304 -0.5560334348 -0.0154054547 0.1834349668
715295710.0 0.0191148385 0.1887796868 0.0286062372 -0.5559553583 0.0279953116 -0.5561591686 -0.0135547294 0.1841428991
720295680.0 0.0214495568 0.18876068 0.0223498739 -0.5565920613 0.0222638167 -0.5563381642 -0.0117537016 0.1845768037
725295650.0 0.0236948316 0.1885840355 0.0159904655 -0.5559769907 0.0163790664 -0.556681521 -0.0102264741 0.1849182529
730295620.0 0.0262266639 0.1889848642 0.0097840649 -0.5566196801 0.0103415164 -0.5567091146 -0.0085618421 0.1848593583
735295590.0 0.0276355246 0.1886920928 0.00442773 -0.5568083867 0.0038422755 -0.5566722954 -0.0068217034 0.1849581656
740295560.0 0.0296153276 0.1885171888 -0.0022607995 -0.5562718189 -0.0019471572 -0.55668139 -0.0044650696 0.185282212
745295530.0 0.0317864652 0.1885809252 -0.0078611319 -0.5557584955 -0.0080852708 -0.5563173221 -0.0029345084 0.1850790236
750295500.0 0.0341703142 0.188364108 -0.0137826599 -0.5563275891 -0.0137826021 -0.5564644601 -0.0012584712 0.1854829634
755295470.0 0.0362126918 0.1874552478 -0.0198642451 -0.5560933316 -0.0195410999 -0.5562973124 0.0009830013 0.185448826
760295440.0 0.0380829931 0.1876012861 -0.0259302906 -0.5562005954 -0.0260317599 -0.5559397608 0.0026795956 0.1854317531
765295410.0 0.0400648727 0.1873258046 -0.032189053 -0.5556009725 -0.0320532205 -0.5560779063 0.004368479 0.1860033332
770295380.0 0.0419909412 0.1867210496 -0.0384550486 -0.5553262792 -0.0376207232 -0.5548799016 0.005742296 0.185931726
775295350.0 0.0437842027 0.1859600807 -0.0442481291 -0.5540908811 -0.0433153088 -0.5543669374 0.0073730908 0.185962532
780295320.0 0.0460455086 0.1860190762 -0.0499904481 -0.5538531811 -0.0492579936 -0.5537829155 0.0093328391 0.1855570241
785295290.0 0.0479364235 0.1852113419 -0.0563750697 -0.553246492 -0.0555572152 -0.5532064485 0.0117123183 0.1859088667
790295260.0 0.0505406845 0.185405704 -0.0615382264 -0.5529668201 -0.0611009343 -0.5529031786 0.0133436806 0.1861944242
795295230.0 0.0523125653 0.1846536394 -0.0681464587 -0.5520993631 -0.0671120054 -0.5522476845 0.0154853291 0.1863288365
800295200.0 0.0540185491 0.1846016362 -0.0742712309 -0.5507070849 -0.0734511912 -0.550992943 0.0172129159 0.1862365214
805295170.0 0.0562386451 0.1838926694 -0.0796831729 -0.5501382834 -0.0794720597 -0.5509035011 0.0188305518 0.1861220821
810295140.0 0.0583473613 0.1829961659 -0.0853185921 -0.5490729981 -0.0853109211 -0.5495145858 0.0210305246 0.1862804224
815295110.0 0.0603897012 0.1826019532 -0.0916399728 -0.5482921257 -0.0910462359 -0.5483930338 0.0223507549 0.1862266631
820295080.0 0.0617361743 0.1825251196 -0.0974115321 -0.5472462643 -0.0967263329 -0.5469077759 0.024591249 0.1859848837
825295050.0 0.064785377 0.181729151 -0.1028286392 -0.546164386 -0.1028677968 -0.5461769099 0.0268000328 0.1858997375
830295020.0 0.0663248483 0.1811894382 -0.109009043 -0.5448214025 -0.1089580852 -0.5449976208 0.0289107495 0.1858158939
