!Created with skrf (http://scikit-rf.org).
# Hz S RI R 50.0 
!freq ReS11 ImS11 ReS21 ImS21 ReS12 ImS12 ReS22 ImS22
300000.0 -0.1011714717 -0.0705988503 0.6297224391 0.0658773889 0.6248120476 0.0657907529 -0.1022459659 -0.0769833803
5299970.0 -0.1022879425 0.012672208 0.6307626269 0.0105337901 0.6305171835 0.01051019 -0.1010847141 0.0131128181
10299940.0 -0.0972183942 0.0293705235 0.633978173 0.0150738016 0.6339957595 0.0155834252 -0.0956585746 0.0303577044
15299910.0 -0.090085658 0.0423239124 0.6404738992 0.0204113509 0.6407764758 0.0206200235 -0.0886354856 0.0434241565
20299880.0 -0.0819874071 0.0533114368 0.6486613409 0.024046147 0.6488121977 0.0243833361 -0.0800572638 0.0544438744
25299850.0 -0.0725686239 0.0623761232 0.6579117945 0.0252159013 0.657543529 0.0257610299 -0.0700038977 0.0633954589
30299820.0 -0.0622088777 0.0687155122 0.6676400151 0.0245545306 0.6669619837 0.0246823995 -0.059908516 0.0699634157
35299790.0 -0.052443633 0.0739167978 0.6772532741 0.0214159986 0.6773474935 0.0218598514 -0.0499107453 0.0749222714
40299760.0 -0.0432147053 0.0772638029 0.6862869976 0.0172523663 0.6863962288 0.0172654506 -0.0403268099 0.0774962311
45299730.0 -0.0339778125 0.0793850249 0.6952468914 0.0117356655 0.6952717821 0.0121274328 -0.0312959299 0.0797745291
50299700.0 -0.0258613078 0.0803197553 0.703676287 0.0050969487 0.7035263305 0.0056386578 -0.0226523711 0.0803990617
55299670.0 -0.0175603538 0.0802614389 0.7107292186 -0.0033810439 0.7103744302 -0.0027490814 -0.0147133126 0.080476575
60299640.0 -0.0098834838 0.0800736817 0.7171319833 -0.011241289 0.7176517334 -0.0105191386 -0.0077506237 0.079653925
65299610.0 -0.0036863292 0.0787998594 0.7229211727 -0.0196783348 0.7236123858 -0.0194049402 -0.0013033271 0.0787313036
70299580.0 0.0025819867 0.0777687574 0.7287036575 -0.0294204033 0.7287289203 -0.0293000732 0.0049701976 0.0765787018
75299550.0 0.0081780177 0.0760101057 0.7328094958 -0.0384753576 0.7326657677 -0.0391751804 0.0100825111 0.0748043311
80299520.0 0.013105111 0.073611398 0.7373398039 -0.0491413198 0.7375754904 -0.0486979498 0.0148936886 0.0728435791
85299490.0 0.0177662521 0.071330831 0.7404254469 -0.0581980652 0.7406433499 -0.0583407228 0.0194420888 0.0701157433
90299460.0 0.0216939642 0.0692818155 0.742678057 -0.0686694243 0.7430673743 -0.0687426875 0.0235823251 0.0682136069
95299430.0 0.0260274622 0.0664002831 0.7457018945 -0.0789167104 0.7457847047 -0.078910274 0.0274437682 0.065600096
100299400.0 0.0289953529 0.0646625002 0.7468074619 -0.0888329953 0.7469367423 -0.0892847391 0.0311595913 0.0626267013
105299370.0 0.0323268226 0.0620292824 0.7487217546 -0.0996716702 0.7490152618 -0.0990240828 0.0340891233 0.0608823492
110299340.0 0.0349571291 0.0596309091 0.7496629529 -0.1091916831 0.7497600479 -0.1090984076 0.0360444578 0.057972159
115299310.0 0.0374728438 0.0574401089 0.7506533697 -0.1191490699 0.7505033801 -0.1190228842 0.0390026615 0.0552743826
120299280.0 0.0399087269 0.0546169748 0.7511856594 -0.1290553688 0.7513895972 -0.1294511669 0.041399104 0.0531227296
125299250.0 0.0417898121 0.0523162129 0.7514157741 -0.1386537126 0.7518926038 -0.138674465 0.0429557264 0.0502137458
130299220.0 0.0435049245 0.0505431038 0.7513019522 -0.149077724 0.7515092391 -0.1491801149 0.0448959989 0.0481130834
135299190.0 0.0452199171 0.0482223942 0.7514514276 -0.1583764014 0.7509401597 -0.1583229076 0.0464706059 0.0462997358
140299160.0 0.046957099 0.0463022186 0.7508617453 -0.1685678791 0.7504561425 -0.1682127324 0.0479913772 0.0445010115
145299130.0 0.0482980449 0.0439919913 0.7498312007 -0.1783063746 0.7500491668 -0.1782761923 0.0495388581 0.042059573
150299100.0 0.0496795473 0.0421665541 0.7486898859 -0.1871698632 0.7489777922 -0.1876329754 0.0506357204 0.0401992565
155299070.0 0.0505232123 0.0398159749 0.7482303515 -0.1984190224 0.7471080854 -0.197765547 0.0515959602 0.03856486
160299040.0 0.0519033804 0.0381491113 0.7465273333 -0.2069409088 0.7455762565 -0.2071485332 0.0520532499 0.0366008288
165299010.0 0.0524896571 0.0365064399 0.744569708 -0.2173146122 0.7446947002 -0.2168692128 0.0534678083 0.0348839255
170298980.0 0.053438851 0.0340848288 0.7429884791 -0.2263260818 0.7431811371 -0.2257790452 0.05427847 0.0331300402
175298950.0 0.0536451074 0.0323417496 0.7419634367 -0.2353006432 0.7407713834 -0.2352206018 0.0547570463 0.0314567003
180298920.0 0.0543358386 0.0308693807 0.7390031034 -0.2445798842 0.7391670997 -0.2443785286 0.0554699722 0.0300470363
185298890.0 0.0556743639 0.0288535778 0.7362524264 -0.2535237094 0.7363621246 -0.2529797181 0.0558523272 0.0285664357
190298860.0 0.0555944407 0.0273342519 0.7345318397 -0.2632120793 0.7347945443 -0.2629681537 0.0563705341 0.0262568816
195298830.0 0.0561435718 0.0254869352 0.7319142131 -0.2720226253 0.7321337521 -0.271416988 0.0572356178 0.0249609375
200298800.0 0.0566009098 0.0241845123 0.7290072924 -0.2808685561 0.7290717771 -0.2811488068 0.0567896206 0.0238073988
205298770.0 0.056938775 0.0228852424 0.7258872901 -0.2904149817 0.7259631993 -0.2895824502 0.0573951993 0.0213630421
210298740.0 0.0572100822 0.0211362317 0.722929436 -0.2980147357 0.7232842422 -0.2978747025 0.0578496617 0.0211692324
215298710.0 0.0572573638 0.0196794695 0.7201605048 -0.307188521 0.7201364525 -0.3074825095 0.0577077121 0.019781382
220298680.0 0.0575979442 0.0178321815 0.7165419567 -0.315965414 0.7169227241 -0.315778372 0.0575661373 0.018195363
225298650.0 0.0578963823 0.0166152124 0.713931397 -0.3249817546 0.7140568898 -0.3242714476 0.0575241822 0.0163852066
230298620.0 0.057870661 0.0158765225 0.7109756851 -0.3328329923 0.7108975795 -0.3329323853 0.0576687437 0.0150101019
235298590.0 0.0579733443 0.0146634839 0.706588742 -0.3411421036 0.7069300143 -0.3408189959 0.0575150247 0.0141215392
240298560.0 0.058024479 0.0135183095 0.7033830223 -0.3497227952 0.7035334361 -0.349531094 0.0578670265 0.0129412324
245298530.0 0.0578689917 0.0122319927 0.7003555435 -0.3576977788 0.6996194704 -0.3583224223 0.0582884525 0.0111180612
250298500.0 0.0586921808 0.0110542469 0.695023849 -0.3663574608 0.6950648811 -0.3659417097 0.0579162977 0.0103169808
255298470.0 0.0583141334 0.0093008584 0.6914394882 -0.3742981566 0.6922438371 -0.3742151547 0.0581389932 0.0089078615
260298440.0 0.0581544839 0.0081557656 0.6877827068 -0.3829241946 0.6881925748 -0.3821384217 0.0587167198 0.0078261734
265298410.0 0.0589061211 0.0078103602 0.6839733198 -0.3912082444 0.6843939706 -0.3904970897 0.0582936858 0.0068947439
270298380.0 0.0585968587 0.0064232938 0.6797713259 -0.3980104939 0.6793906629 -0.3984403366 0.058118779 0.0057523128
275298350.0 0.0591368793 0.0053484343 0.6756510635 -0.4069592941 0.6758004726 -0.4066221342 0.0587760856 0.0043266132
280298320.0 0.058894265 0.0046865978 0.6713972143 -0.4139165411 0.671188605 -0.4142789277 0.0586133706 0.003668477
285298290.0 0.0587666126 0.0029250517 0.6670088281 -0.4218129791 0.6668534402 -0.4222511805 0.058575451 0.0022212531
290298260.0 0.0590270572 0.0022584923 0.6622660503 -0.4297612267 0.6621611983 -0.4298000917 0.0588237153 0.0019650652
295298230.0 0.0588544532 0.0009490925 0.6578640525 -0.4369898375 0.6576973714 -0.437446389 0.0593329806 0.0002072707
300298200.0 0.0583546122 -0.0002274444 0.6532297491 -0.4449104658 0.6529462435 -0.4457274391 0.0586127399 -0.0007560195
305298170.0 0.058828206 -0.0012214183 0.6477359863 -0.4534360739 0.6477019637 -0.4528627103 0.0596550336 -0.002247527
310298140.0 0.0584768297 -0.0023720529 0.6431003742 -0.4610119967 0.6434781484 -0.4606791301 0.0592456547 -0.0028859116
315298110.0 0.0583752429 -0.0041381326 0.6382041682 -0.4683073133 0.6383988756 -0.4680208756 0.0588036906 -0.0043883546
320298080.0 0.0584965709 -0.004849559 0.6323787199 -0.4765133094 0.63322322 -0.4754991936 0.0588703417 -0.004843608
325298050.0 0.057910246 -0.0059605003 0.6272516016 -0.4832400769 0.6279630752 -0.4826890751 0.0582138051 -0.006217306
330298020.0 0.0572779517 -0.0068979527 0.6218318168 -0.4907151067 0.6219632602 -0.4906572609 0.0575275406 -0.0074974557
335297990.0 0.0571916491 -0.0086411382 0.6159624217 -0.4974608251 0.6156206693 -0.4978199812 0.0567418287 -0.0076489983
340297960.0 0.0559720347 -0.0088583222 0.6102711329 -0.5044682169 0.6094235364 -0.5049065034 0.0569322399 -0.0086131995
345297930.0 0.0557018865 -0.0091725877 0.6043419559 -0.5119614048 0.6044003269 -0.5114403943 0.0565019091 -0.0096184141
350297900.0 0.0554294056 -0.0108692295 0.5975816775 -0.518947419 0.5982278385 -0.5181069139 0.0557812201 -0.0097467798
355297870.0 0.0550169027 -0.0105333594 0.5920959432 -0.5247015198 0.5929740747 -0.5250007638 0.0552761791 -0.0107026476
360297840.0 0.0545510913 -0.0113363581 0.587732417 -0.5316257283 0.5873884382 -0.5311374278 0.0548775407 -0.011096024
365297810.0 0.0541288493 -0.0121013787 0.5805833993 -0.5386963346 0.5813697223 -0.5381578737 0.054956441 -0.0116743726
370297780.0 0.0543698488 -0.0131050084 0.5745160727 -0.5449413203 0.575682984 -0.5441017764 0.0543424109 -0.0123314202
375297750.0 0.0539203763 -0.0136775023 0.5689488702 -0.5512505433 0.5696255294 -0.5507775103 0.0543026082 -0.012818802
380297720.0 0.0536134814 -0.014011202 0.5631043669 -0.5580309789 0.5634574212 -0.5564018334 0.0532107951 -0.0137865009
385297690.0 0.0531019052 -0.0150247001 0.5562982538 -0.5635817366 0.5564190647 -0.5632252376 0.0535951745 -0.0142205857
390297660.0 0.0529301516 -0.0151945054 0.5506628552 -0.5700659007 0.550560101 -0.5692090585 0.0527952984 -0.0153664109
395297630.0 0.0524032172 -0.0158388966 0.5442410565 -0.5760712034 0.5442886102 -0.5760819433 0.0532022019 -0.0154350595
400297600.0 0.0519107017 -0.0167255233 0.5373640606 -0.5827074228 0.5379478446 -0.5821242129 0.0524843995 -0.0163651894
405297570.0 0.0516350773 -0.0175645528 0.5315495114 -0.5881491235 0.5314244004 -0.5876099854 0.0518333768 -0.0167516091
410297540.0 0.0516625337 -0.0179647258 0.5250509571 -0.5939083212 0.5253350424 -0.5936329346 0.0515692108 -0.0171096009
415297510.0 0.0513982993 -0.0185649792 0.5180615695 -0.6001023052 0.519084442 -0.5995760086 0.0512167248 -0.0179974293
420297480.0 0.0508711528 -0.0189575544 0.5112427832 -0.6053609467 0.5115784054 -0.6054970466 0.0505657925 -0.0189749223
425297450.0 0.0503697594 -0.0204307392 0.5054163199 -0.611331395 0.5054638569 -0.6109884913 0.049706984 -0.0189927323
430297420.0 0.050156145 -0.0207811319 0.4984467767 -0.6161719274 0.4982540491 -0.6163052914 0.0496996696 -0.0201057781
435297390.0 0.0493572698 -0.0210447357 0.4909981765 -0.6224786176 0.4909519639 -0.6221471214 0.0501775526 -0.0205039316
440297360.0 0.0494539396 -0.0215194539 0.4844014553 -0.6274797304 0.4848521925 -0.6277127202 0.0490008539 -0.021156589
445297330.0 0.0489239926 -0.0228309377 0.4782034677 -0.6325188403 0.4780944338 -0.6327515238 0.0491380801 -0.0223719546
450297300.0 0.0489585749 -0.0230261687 0.4705952564 -0.6381504765 0.4707329898 -0.6383921209 0.0485433578 -0.0229554321
455297270.0 0.0484264456 -0.0234420106 0.4634463109 -0.6432320513 0.4640934538 -0.6434309376 0.0484218413 -0.0230926173
460297240.0 0.0478451633 -0.0240711362 0.4561033339 -0.6482232673 0.456533569 -0.6485835172 0.0477751041 -0.0236949002
465297210.0 0.0476728996 -0.024725268 0.4496339044 -0.6540492821 0.4493902048 -0.6540509149 0.0477306642 -0.024573195
470297180.0 0.0471545136 -0.025608693 0.4418182184 -0.6584908688 0.4424199798 -0.6584673221 0.0472113791 -0.0246959858
475297150.0 0.0469671299 -0.0262938966 0.4349301426 -0.662863087 0.4351201106 -0.6630353174 0.0472847009 -0.0258383115
480297120.0 0.0463142935 -0.0262328552 0.4271767522 -0.6683755902 0.4274157524 -0.6685066563 0.0468905286 -0.0259716834
485297090.0 0.0456245548 -0.0268008046 0.4203063971 -0.6726794663 0.4206491363 -0.6726686885 0.0464904911 -0.0267235233
490297060.0 0.0451424534 -0.0278150412 0.4133625657 -0.6782853943 0.4131443574 -0.6770251005 0.0460643606 -0.0264389291
495297030.0 0.0446861027 -0.0279243693 0.4050418601 -0.6821175448 0.4060955989 -0.6818308047 0.0451273708 -0.0274493443
500297000.0 0.0443068298 -0.0286660985 0.3973042623 -0.6863841288 0.3976660271 -0.6854836383 0.0448682306 -0.0272999689
505296970.0 0.0440188292 -0.0291781374 0.3904445163 -0.6909244289 0.3904984119 -0.6907951609 0.0447781738 -0.0282756491
510296940.0 0.0434114885 -0.029474513 0.3824052752 -0.6950080225 0.3823800337 -0.6950459026 0.0443542731 -0.0283983758
515296910.0 0.0426629808 -0.0295179793 0.3748918268 -0.6994688901 0.3752830845 -0.6990169705 0.0439345505 -0.0286315187
520296880.0 0.0423677882 -0.0303380612 0.3673528654 -0.7039138824 0.367842754 -0.7030485692 0.0432663058 -0.029245357
525296850.0 0.0421338044 -0.0313082127 0.3594086536 -0.7069104032 0.3601045542 -0.7069810863 0.0424961694 -0.0295078071
530296820.0 0.0414470628 -0.0312357408 0.3517828947 -0.7116620605 0.3519599243 -0.7114721131 0.042658994 -0.0301939712
535296790.0 0.0406046984 -0.0314435521 0.3438448418 -0.7151213917 0.3446557947 -0.7146976513 0.0422269675 -0.0311857448
540296760.0 0.040115134 -0.0317128854 0.3361865254 -0.7196257162 0.3359230513 -0.7187613406 0.0407662972 -0.0304130445
545296730.0 0.0398834585 -0.0323343087 0.3278170306 -0.7224865865 0.3281686805 -0.7223476454 0.0404180487 -0.031598188
550296700.0 0.03987335 -0.0327084684 0.3203850054 -0.7260136539 0.3202287916 -0.7266640955 0.0401548315 -0.0314579554
555296670.0 0.0389367373 -0.033038935 0.3122535599 -0.7293600203 0.3130459756 -0.7293861836 0.0393776252 -0.0318825556
560296640.0 0.0385485771 -0.0329902073 0.3040185802 -0.7333318601 0.3047982777 -0.7332976174 0.0391692908 -0.0324437351
565296610.0 0.0375992026 -0.0338532134 0.2960112961 -0.7361643801 0.2969990862 -0.7361875246 0.0382071317 -0.0331935358
570296580.0 0.0372963283 -0.0338916528 0.2882223976 -0.7399417314 0.2877495604 -0.7392297811 0.0375652899 -0.0329091048
575296550.0 0.0364030331 -0.0340548685 0.2803569091 -0.7425637769 0.2799658349 -0.7426571371 0.0376932694 -0.0336739209
580296520.0 0.0362643563 -0.0345721826 0.2717182965 -0.745802611 0.2720115541 -0.7456183839 0.0367993459 -0.0340117549
585296490.0 0.035387644 -0.0356164751 0.2638705596 -0.7485466088 0.2642461774 -0.7483255277 0.0363939575 -0.0342759481
590296460.0 0.0357363541 -0.0355276345 0.2556666635 -0.7504162848 0.2559979842 -0.7510466484 0.034997858 -0.0345341354
595296430.0 0.0352270908 -0.0356489256 0.2468414203 -0.7546088911 0.247532654 -0.7539928764 0.0352792328 -0.0353416806
600296400.0 0.0341511621 -0.0362084383 0.2392904216 -0.7566622158 0.239404382 -0.7562661011 0.0343129743 -0.0352872328
605296370.0 0.0336901511 -0.0365498047 0.2304599841 -0.7593068117 0.231188298 -0.759265039 0.0337239644 -0.0358299068
610296340.0 0.033334588 -0.0366776606 0.2220588688 -0.7612956783 0.2226554554 -0.7613797167 0.0336578798 -0.036353658
615296310.0 0.0328226084 -0.0375655994 0.2142080252 -0.7636872886 0.214575816 -0.7643087047 0.033628245 -0.0362773502
620296280.0 0.0324608755 -0.0378229778 0.2062492037 -0.766206787 0.2056988421 -0.7660454734 0.0321725494 -0.036927817
625296250.0 0.0312276062 -0.0388382469 0.1983839764 -0.7690987936 0.1978044147 -0.7689984508 0.0327928844 -0.0371844079
630296220.0 0.0317720324 -0.0381828368 0.1889718002 -0.7709630063 0.1888419737 -0.7703053927 0.0317067075 -0.0372972864
635296190.0 0.0297541549 -0.0392274344 0.1804786965 -0.7726986349 0.180971029 -0.7723829561 0.0314565667 -0.037408868
640296160.0 0.0296422435 -0.0391347936 0.1722699444 -0.7745478183 0.1726778282 -0.7745911015 0.0307142262 -0.0378560212
645296130.0 0.0292483521 -0.0390297642 0.1633548433 -0.7761214416 0.1640891717 -0.7767093193 0.0301517061 -0.0379395368
650296100.0 0.0288586113 -0.0394476109 0.1549224059 -0.7778536714 0.1556304841 -0.7786193608 0.0304107411 -0.0391091353
655296070.0 0.027537189 -0.0398738361 0.1464106637 -0.7794864304 0.1471057162 -0.7798604398 0.0295385251 -0.0385371152
660296040.0 0.0268721546 -0.0404643296 0.1382615835 -0.7820229807 0.1384679187 -0.7814159941 0.0290119587 -0.0387730996
665296010.0 0.0270772884 -0.0403904251 0.1291045174 -0.7827606986 0.129781647 -0.7826177336 0.0283477417 -0.0385791673
670295980.0 0.0250866445 -0.0401972211 0.1211560509 -0.78427816 0.1212509386 -0.7841180135 0.0273675825 -0.0392141131
675295950.0 0.0251622533 -0.040413719 0.1129121549 -0.7854422918 0.1129269861 -0.7845379467 0.0263173602 -0.0392466139
680295920.0 0.0241878844 -0.0411415858 0.103833049 -0.7865055003 0.1035770365 -0.7867574984 0.0264260888 -0.0385432202
685295890.0 0.0240313779 -0.0403569459 0.0951955089 -0.7875690225 0.0954349478 -0.7877683986 0.0255564369 -0.0390740025
690295860.0 0.0238152462 -0.0405046168 0.086841635 -0.7883414436 0.0872619715 -0.7889429221 0.0247557287 -0.0385293168
695295830.0 0.0229946751 -0.0410450537 0.0787978646 -0.7891951023 0.0779862388 -0.7894758898 0.0243413314 -0.0388035251
700295800.0 0.0224934495 -0.0415927779 0.0695901069 -0.7902715949 0.0692803486 -0.7898563567 0.0239117381 -0.0385416941
705295770.0 0.021612762 -0.0407460148 0.0609558985 -0.7905819924 0.0611748036 -0.7911392565 0.0230506378 -0.0392596357
710295740.0 0.0212089214 -0.0410514852 0.0531627937 -0.7922834868 0.0529291021 -0.79221893 0.0230131952 -0.0399340937
715295710.0 0.0197729987 -0.0415474403 0.0440531058 -0.7920623108 0.0436687893 -0.7923221668 0.0221410247 -0.0395239375
720295680.0 0.0198450676 -0.0416817976 0.0353457935 -0.7926198221 0.0355516455 -0.7922718868 0.0215974903 -0.0388111764
725295650.0 0.0193228264 -0.0415273371 0.0269294116 -0.7927613444 0.026534647 -0.7931170071 0.0202981645 -0.0392754799
730295620.0 0.019074761 -0.0409875929 0.0178661311 -0.7926374585 0.0183023156 -0.7929554219 0.0195594641 -0.0399349727
735295590.0 0.0182604571 -0.0413863804 0.00940665 -0.7933115807 0.0098868892 -0.7933989835 0.0189424884 -0.0402243256
740295560.0 0.0171030223 -0.0415678752 0.0008080283 -0.792835246 0.0007803792 -0.7934942925 0.0188926857 -0.0397823501
745295530.0 0.0168831037 -0.0413076124 -0.0078403609 -0.792679438 -0.0078890673 -0.7929499513 0.0182380008 -0.0404914515
750295500.0 0.0162801333 -0.0416959354 -0.0163843998 -0.7929739699 -0.0161598913 -0.793291305 0.0175277536 -0.0403602491
755295470.0 0.015803245 -0.0420366428 -0.0245964883 -0.7927923887 -0.0249180339 -0.7927863256 0.0173804982 -0.0405323964
760295440.0 0.0148679686 -0.0416046465 -0.0335448423 -0.7932424355 -0.0334017154 -0.7926057111 0.0165467878 -0.0405936367
765295410.0 0.0143075008 -0.0419260469 -0.0425829029 -0.7919018831 -0.0426886698 -0.7927419443 0.0162257038 -0.0404171775
770295380.0 0.0136580555 -0.0421608292 -0.0515928198 -0.7919249823 -0.0508534756 -0.7912014489 0.0152869267 -0.0410062983
775295350.0 0.0127504451 -0.0427970704 -0.0597253177 -0.7906910228 -0.0592435749 -0.7909624999 0.0138616746 -0.040547534
780295320.0 0.0125827689 -0.0420798629 -0.0687877674 -0.7896166791 -0.0674307931 -0.7905075507 0.01348781 -0.0416226517
785295290.0 0.0118746604 -0.0427887854 -0.0773088075 -0.7885400427 -0.0760698641 -0.7889146083 0.013821536 -0.0406571209
790295260.0 0.0116332737 -0.0415389174 -0.0845736024 -0.7884819384 -0.0843776493 -0.7881517762 0.0129201025 -0.0408905848
795295230.0 0.0109165952 -0.04218116 -0.0938111163 -0.7868829934 -0.0930817171 -0.7874756712 0.0126968443 -0.0404734035
800295200.0 0.0098662268 -0.0417471062 -0.1030658701 -0.7863898497 -0.1021316593 -0.7866830298 0.0118803463 -0.0410899885
805295170.0 0.009286506 -0.042244455 -0.1113040575 -0.785173693 -0.1110587772 -0.7850259754 0.011146399 -0.0405918426
810295140.0 0.0084218369 -0.0427610044 -0.1189159477 -0.7833628541 -0.1188490126 -0.7841526118 0.0112464113 -0.0403173742
815295110.0 0.0082009914 -0.0426133738 -0.1278181288 -0.7821125942 -0.1278662401 -0.7819847067 0.0100576655 -0.0405441276
820295080.0 0.0067821596 -0.041503393 -0.1364265884 -0.7803282348 -0.135875121 -0.7810484396 0.0096456076 -0.0405640098
825295050.0 0.0073450139 -0.041791017 -0.1442352291 -0.7789826693 -0.144396661 -0.7790232506 0.0094157184 -0.0402130152
830295020.0 0.0065591288 -0.0418472191 -0.1534298995 -0.7775384313 -0.1530569136 -0.7777838401 0.0094975613 -0.0402285147
