!Created with skrf (http://scikit-rf.org).
# Hz S RI R 50.0 
!freq ReS11 ImS11 ReS21 ImS21 ReS12 ImS12 ReS22 ImS22
300000.0 -0.1005687237 -0.0665503655 0.6300668239 0.0627021893 0.6238873106 0.0620504232 -0.1008467833 -0.0727859068
5299970.0 -0.1021846718 0.0132609657 0.6307029944 0.0099133035 0.6308042969 0.0102191201 -0.1007228083 0.013188808
10299940.0 -0.0972922059 0.0292527376 0.6338324476 0.0151873346 0.6342851155 0.0154267829 -0.0958277217 0.0305077338
15299910.0 -0.0901960565 0.0425705929 0.6405840011 0.0202612657 0.6405332345 0.0206509052 -0.0885739357 0.0436831061
20299880.0 -0.0816314222 0.0531681035 0.6483356161 0.0241138867 0.6485582774 0.0240619965 -0.0798851237 0.0546553042
25299850.0 -0.0722369135 0.062195505 0.6574565414 0.0251991085 0.6576686022 0.0257075142 -0.0698552455 0.0632729843
30299820.0 -0.0620587359 0.0688192517 0.6675690767 0.0243439566 0.6673503886 0.024377412 -0.0597271078 0.0701511788
35299790.0 -0.0524695183 0.0734705376 0.6770247227 0.0215630772 0.6769224525 0.0214633255 -0.0500266458 0.0748858211
40299760.0 -0.0433280815 0.0772137706 0.6860718714 0.0173132609 0.6862103347 0.017646903 -0.0403626752 0.0770570086
45299730.0 -0.0342359645 0.0793603863 0.694843876 0.011913113 0.6953248801 0.0119150181 -0.031236666 0.0795654195
50299700.0 -0.0256037981 0.0801608936 0.7039599409 0.0051047507 0.7031453261 0.0053608263 -0.0227889232 0.0804953663
55299670.0 -0.0177003011 0.0805492348 0.7112612143 -0.0033643531 0.7107042976 -0.0026659672 -0.0148867994 0.0804386173
60299640.0 -0.0098506778 0.080010141 0.717442522 -0.0116569198 0.7176738798 -0.0107579229 -0.0079004438 0.0795094872
65299610.0 -0.0037972469 0.0788819488 0.7232028605 -0.0200821737 0.7232066482 -0.0196715892 -0.0010876724 0.0783970397
70299580.0 0.0026598258 0.0776750982 0.7291772031 -0.029467827 0.7286485119 -0.0291654292 0.004785526 0.0767385979
75299550.0 0.0079082993 0.0758245732 0.7327244548 -0.0388031178 0.7324163998 -0.0388067982 0.0102700446 0.0748906224
80299520.0 0.0132292681 0.0736012644 0.737060702 -0.0492359434 0.7372810917 -0.0491080624 0.0153494513 0.0727076547
85299490.0 0.0176741422 0.0714460041 0.7402860898 -0.0583370437 0.7402166666 -0.0583032132 0.0196522688 0.0699079418
90299460.0 0.0217993863 0.0689176066 0.7421826258 -0.0691003702 0.7433324699 -0.0686165237 0.0236246171 0.0678524773
95299430.0 0.0256524419 0.0664054793 0.74599886 -0.0789719459 0.7456784478 -0.0796314349 0.027493439 0.0654488798
100299400.0 0.0288149293 0.064527007 0.7467967506 -0.0888724734 0.7466011188 -0.088945644 0.0310918088 0.0624614998
105299370.0 0.0322085716 0.0619007482 0.7485565678 -0.0995076085 0.7493611023 -0.0997309538 0.0339983069 0.0607456294
110299340.0 0.0347982227 0.0597211998 0.7498554777 -0.1092689728 0.7498114108 -0.1095502691 0.0361377048 0.0579694721
115299310.0 0.0372866832 0.0572358584 0.7506347878 -0.1195587026 0.7511277804 -0.1194272862 0.0388136945 0.0556143063
120299280.0 0.0396896491 0.0545309865 0.751196692 -0.1293208617 0.7515099626 -0.1296589173 0.0414307545 0.0531179408
125299250.0 0.042148928 0.0523116751 0.751977451 -0.1391234779 0.7517209141 -0.1389158905 0.0430727024 0.0503691325
130299220.0 0.0436571668 0.0502564355 0.750945381 -0.1493849331 0.7516924585 -0.1491571037 0.0450537274 0.0480042646
135299190.0 0.0451158184 0.0483364131 0.7513050114 -0.1594479147 0.750939887 -0.1583935694 0.0467130419 0.0462332841
140299160.0 0.0466893175 0.0461256736 0.7506351374 -0.1692158509 0.750735681 -0.1688172957 0.0478620524 0.0445577645
145299130.0 0.0480006335 0.0437503315 0.750192624 -0.1787011721 0.7500066715 -0.1786263246 0.0493098722 0.0422848817
150299100.0 0.0496740674 0.0422973143 0.7490057365 -0.1874068308 0.7488057716 -0.1877663031 0.0505777595 0.0403660903
155299070.0 0.050246804 0.0398142573 0.747826251 -0.1986491289 0.747475316 -0.1980705187 0.0519424062 0.0380877884
160299040.0 0.0519028926 0.0379388939 0.7461879971 -0.2077415841 0.7454205707 -0.2073882392 0.0518232925 0.0361655414
165299010.0 0.0524280369 0.0365492184 0.7443865672 -0.217191828 0.744864757 -0.2171748621 0.0532206704 0.0348685225
170298980.0 0.0532762521 0.0340040498 0.7429964354 -0.2264506007 0.7427155583 -0.2266426526 0.0541592416 0.0329811131
175298950.0 0.0536887186 0.0320106759 0.7414683164 -0.2356748419 0.7406713989 -0.2351830387 0.0547615761 0.0313639534
180298920.0 0.0542866461 0.0306126569 0.7389641516 -0.2447257663 0.7387648384 -0.2445721007 0.0554462961 0.0296777265
185298890.0 0.0556610655 0.0287215876 0.7364212038 -0.2535403095 0.7361477671 -0.2537581423 0.05574681 0.0284071258
190298860.0 0.0555084903 0.0271614634 0.7338986097 -0.2634498919 0.7345200164 -0.2631084024 0.0562874577 0.0262614449
195298830.0 0.0562334468 0.0252106497 0.7316679633 -0.2718430002 0.732066789 -0.2717204928 0.0569441354 0.0250407827
200298800.0 0.0564620199 0.0239499427 0.728782546 -0.2813558019 0.7287901079 -0.2811082614 0.0567907392 0.0237610434
205298770.0 0.0569059265 0.0228239961 0.7259316282 -0.2898001278 0.7261158149 -0.2900857853 0.0574563347 0.0212311112
210298740.0 0.0572049208 0.021052235 0.7234391726 -0.2983497919 0.7231075251 -0.2978180746 0.0579455672 0.0212799322
215298710.0 0.057127679 0.0196031402 0.7203884313 -0.3080131207 0.7200912502 -0.3074595132 0.0576302482 0.0197735076
220298680.0 0.0575271477 0.0177357411 0.7167299066 -0.3161858487 0.7167404798 -0.3158814253 0.0576103453 0.017888593
225298650.0 0.0578383441 0.0163632827 0.7139844553 -0.3249873175 0.7138157341 -0.3246656087 0.0573853665 0.0164519275
230298620.0 0.0577800545 0.0156013042 0.7107287376 -0.3327924451 0.7110940992 -0.3333135791 0.0575692573 0.0152703898
235298590.0 0.0579744079 0.0144944185 0.7067117181 -0.3415713809 0.7065547731 -0.3412608523 0.0576663023 0.0137809687
240298560.0 0.058161482 0.0134848177 0.703708062 -0.3496727296 0.7032018675 -0.3502953544 0.057671456 0.0130970235
245298530.0 0.0578198596 0.0120328651 0.6997223557 -0.3581447381 0.6996312248 -0.3587892738 0.0581671781 0.0109205585
250298500.0 0.0587925003 0.0112041011 0.6950745871 -0.3663434931 0.6955269432 -0.3659448107 0.0577001984 0.0102090503
255298470.0 0.0583715561 0.0093706485 0.6913137979 -0.3749071034 0.6913752336 -0.3738663414 0.0581873257 0.008983919
260298440.0 0.057873355 0.00802809 0.6876311101 -0.3829527531 0.6876938937 -0.38259172 0.0585369482 0.0079779161
265298410.0 0.0590091484 0.0075223849 0.6836385444 -0.3910090921 0.684033288 -0.3905542613 0.0582772918 0.0067300007
270298380.0 0.0584635727 0.00632921 0.6792797191 -0.3982766214 0.6794920947 -0.3985640334 0.0579681357 0.0055919653
275298350.0 0.0590408896 0.0051887798 0.6755722293 -0.4066791163 0.6758352369 -0.4070267312 0.0583910571 0.0043615172
280298320.0 0.0586920895 0.0044770027 0.6710695698 -0.4149553592 0.6712106934 -0.4145753704 0.0586396897 0.0034007034
285298290.0 0.0586052637 0.0030541093 0.6666602612 -0.4223481802 0.6659723968 -0.4226423501 0.0585550614 0.0023488955
290298260.0 0.0590082593 0.0021765521 0.6617975564 -0.4298125676 0.6619866915 -0.4298172123 0.0587786368 0.0016278499
295298230.0 0.0590600488 0.0006146481 0.6575061435 -0.4375567128 0.6577053292 -0.437403389 0.0593775328 0.0002209478
300298200.0 0.0584202011 -0.0002981264 0.6533281734 -0.4449170284 0.6529625903 -0.4459619433 0.0584575618 -0.0011688064
305298170.0 0.0588772855 -0.0013519842 0.6474474665 -0.4536182151 0.6477665572 -0.4531189339 0.0595476854 -0.002134169
310298140.0 0.0582166497 -0.0024549516 0.6429622982 -0.4608231938 0.6433370871 -0.4605988528 0.0592651916 -0.0030505673
315298110.0 0.0584790705 -0.0041281175 0.6378150567 -0.4684703581 0.6382149074 -0.468681659 0.058802661 -0.0044032969
320298080.0 0.0584874204 -0.0047279159 0.6323293089 -0.4761848657 0.6325093045 -0.4761807985 0.0585008466 -0.0052562469
325298050.0 0.0577458146 -0.006120644 0.6269728453 -0.4838830866 0.6270993436 -0.4831056276 0.057827724 -0.0062336606
330298020.0 0.057200517 -0.0074723415 0.6208079671 -0.4908524079 0.6214278837 -0.491020244 0.0573709529 -0.0078632557
335297990.0 0.0571767119 -0.0085511387 0.6160284176 -0.4973837419 0.615578526 -0.4978228458 0.0565728814 -0.0079088796
340297960.0 0.0559787398 -0.0091921527 0.6097555737 -0.5047375628 0.6091607818 -0.5049993043 0.0567767854 -0.008653289
345297930.0 0.0559056713 -0.0091417112 0.604020925 -0.5119907924 0.6039031906 -0.511796173 0.0565758141 -0.009901622
350297900.0 0.0550101816 -0.0108473379 0.5975522704 -0.5186629359 0.597924693 -0.5187455712 0.0555457543 -0.0097422339
355297870.0 0.054872009 -0.0105891533 0.5917595963 -0.5250514949 0.5924447644 -0.5252385821 0.0550400925 -0.0108712454
360297840.0 0.0546608905 -0.011550192 0.5875329229 -0.5319828753 0.587301602 -0.5317018975 0.0549079855 -0.0111859281
365297810.0 0.0542036358 -0.0119540286 0.5807424009 -0.5382877032 0.5812980616 -0.538560061 0.0546016228 -0.0118529956
370297780.0 0.0543138747 -0.0132876063 0.5746840121 -0.5445619399 0.5747505218 -0.5442635849 0.053992049 -0.0125174895
375297750.0 0.0538501133 -0.0138505433 0.5687847649 -0.5512158448 0.5695375504 -0.5513120453 0.0542556706 -0.0129241132
380297720.0 0.0534837887 -0.014274223 0.5626741935 -0.5577678542 0.5625512136 -0.5572643748 0.0530274554 -0.0141660438
385297690.0 0.052882256 -0.0153242302 0.5562735169 -0.5636882702 0.5563421923 -0.5633782991 0.0532897297 -0.0141949521
390297660.0 0.0526974565 -0.0153402391 0.5505551976 -0.5700835513 0.549928269 -0.5697451841 0.0525182212 -0.0152733157
395297630.0 0.0523026972 -0.0160974191 0.5439821593 -0.5761839289 0.5439621251 -0.5762224339 0.053096565 -0.0156215973
400297600.0 0.0517776953 -0.017022045 0.5369721504 -0.5828233825 0.5372756462 -0.5827732464 0.0522710681 -0.0160501862
405297570.0 0.0510990622 -0.0176032288 0.5311704799 -0.5877560294 0.5312920586 -0.5876558519 0.051672481 -0.0169031986
410297540.0 0.0512615949 -0.0183335823 0.5248005091 -0.5944550859 0.5251326067 -0.5939917754 0.051309633 -0.0171537349
415297510.0 0.0512749576 -0.0189203685 0.5177498834 -0.5999864418 0.5183726854 -0.6000427002 0.0510006707 -0.0180726562
420297480.0 0.0510116986 -0.0188857086 0.5114523283 -0.605228647 0.5112519182 -0.6058051624 0.0505095126 -0.018978016
425297450.0 0.0502599002 -0.0205985033 0.5046697808 -0.6113164213 0.5053733135 -0.6113501808 0.0493680719 -0.0190036061
430297420.0 0.0499266911 -0.0208560597 0.4978396913 -0.6165396973 0.4976580565 -0.61661568 0.0495339416 -0.0199966795
435297390.0 0.0493990116 -0.0212602501 0.4906892568 -0.6222891787 0.4909862018 -0.6225981738 0.0501081833 -0.020728823
440297360.0 0.049313015 -0.0217405333 0.4842491207 -0.6274909102 0.4841870397 -0.6280306606 0.0488045803 -0.0214724285
445297330.0 0.0486145385 -0.0229996988 0.4777550926 -0.6333584361 0.4779189786 -0.6328896495 0.0488773913 -0.0222768721
450297300.0 0.048779692 -0.0230669436 0.4710651278 -0.6384377456 0.4704148278 -0.6385940556 0.0482651532 -0.0229121253
455297270.0 0.0483394766 -0.0237344257 0.4629292328 -0.6436288129 0.4637476004 -0.643921376 0.0481215849 -0.0231804092
460297240.0 0.047692273 -0.0243449911 0.4559109809 -0.6486219751 0.4564300191 -0.6488435906 0.0475909318 -0.0234921568
465297210.0 0.0472598399 -0.024855275 0.4489486752 -0.6536687744 0.449212845 -0.6543166277 0.0475286524 -0.024558594
470297180.0 0.047095769 -0.0257009446 0.441370125 -0.6590885906 0.4417286574 -0.6591131825 0.0470371538 -0.0249725745
475297150.0 0.0467649162 -0.0265796495 0.4346797832 -0.663004067 0.4347216829 -0.6634947547 0.0472164299 -0.0258299637
480297120.0 0.0462299713 -0.0262164245 0.4271884152 -0.6688928057 0.4269348754 -0.6686876253 0.0468975648 -0.026032818
485297090.0 0.0454484619 -0.026996473 0.4199376288 -0.6726849807 0.4199281685 -0.6729538011 0.046545703 -0.0269502221
490297060.0 0.0446734723 -0.0276602291 0.4131138525 -0.6780476732 0.4127353325 -0.6776052588 0.0459972261 -0.0267798882
495297030.0 0.0444308703 -0.0281157084 0.4047804744 -0.6822039015 0.4057040045 -0.6821425827 0.0451077971 -0.0278073853
500297000.0 0.0440999486 -0.0289581255 0.3971553876 -0.686195536 0.3968782133 -0.6860711944 0.0448331812 -0.0273082333
505296970.0 0.0437903157 -0.0291945364 0.389698284 -0.6907714413 0.3896768795 -0.6911468192 0.0446221285 -0.0281021172
510296940.0 0.0433134318 -0.0294544923 0.3820809266 -0.6952828858 0.3823143067 -0.6956098014 0.0443033205 -0.0283198042
515296910.0 0.0422833414 -0.0297827397 0.3740073102 -0.6997596025 0.3749795752 -0.6991858361 0.0438014683 -0.0287763101
520296880.0 0.0420515232 -0.0305293615 0.3670545655 -0.7041905677 0.3669256148 -0.7033185447 0.0434309276 -0.0296721141
525296850.0 0.0417186651 -0.0315265909 0.3588591804 -0.707143706 0.3596448096 -0.7073126879 0.0425761472 -0.030002484
530296820.0 0.0415849647 -0.0310726185 0.3512605617 -0.7118681282 0.3515749519 -0.7110842759 0.0424671386 -0.0303746196
535296790.0 0.0402737888 -0.0319014048 0.3438062284 -0.7155679043 0.343801473 -0.7146188864 0.041874437 -0.0311915044
540296760.0 0.0400556162 -0.0322315177 0.3358967456 -0.7194369364 0.3356193552 -0.7190715071 0.0405817164 -0.0305580141
545296730.0 0.0395690026 -0.0328208568 0.32759107 -0.7224127614 0.327590534 -0.7224721644 0.040438105 -0.0311834956
550296700.0 0.0395906378 -0.0326425037 0.319978786 -0.7259839752 0.3199181474 -0.7266844876 0.0394484368 -0.0314773703
555296670.0 0.0386422719 -0.0332308255 0.3121437428 -0.7295512018 0.3123712405 -0.7295245565 0.0395424147 -0.0317729268
560296640.0 0.0384452956 -0.0331820662 0.3038039327 -0.7332824093 0.3041242653 -0.7334154751 0.0388354106 -0.0326603071
565296610.0 0.0373083071 -0.0340092773 0.295621565 -0.7363982464 0.2961807307 -0.7361309407 0.0379813611 -0.0329505885
570296580.0 0.0369401366 -0.0338455943 0.2879023244 -0.740078409 0.2873989659 -0.7395895872 0.0376574958 -0.0326886815
575296550.0 0.0362642777 -0.0343248549 0.2797365736 -0.7433898949 0.2795408027 -0.7427251829 0.0373876814 -0.0336025653
580296520.0 0.0361095317 -0.034633037 0.271355045 -0.7458624985 0.2714039936 -0.7455978318 0.0366465625 -0.033885475
585296490.0 0.0354209776 -0.03596871 0.2635103457 -0.7485033378 0.2636301345 -0.7486264636 0.0361714941 -0.0342828862
590296460.0 0.03548831 -0.0356891391 0.2552804906 -0.7506735485 0.2551702553 -0.751675165 0.0347560135 -0.0344210461
595296430.0 0.034851818 -0.0357566723 0.2467374825 -0.7547123769 0.2468594397 -0.7540416553 0.0350052187 -0.0352883339
600296400.0 0.0338030222 -0.0363406971 0.2392149728 -0.7568418305 0.238542694 -0.7560200039 0.0344389274 -0.0354372107
605296370.0 0.0334050385 -0.0368610432 0.230438252 -0.7593222988 0.2310668766 -0.7595203226 0.0336804444 -0.0359127571
610296340.0 0.0329802771 -0.0370528998 0.2215000527 -0.7620397608 0.2230265803 -0.7617456812 0.0336092941 -0.0363002057
615296310.0 0.0327088549 -0.0378304007 0.2138335992 -0.7640340037 0.2137724827 -0.7645168754 0.0329752691 -0.0362737356
620296280.0 0.0322383572 -0.0380336947 0.2053711861 -0.7664915289 0.2050281525 -0.76656504 0.0321765456 -0.0367825784
625296250.0 0.0311591483 -0.0387532801 0.197804268 -0.7689050296 0.1973536362 -0.7691244136 0.0327403168 -0.0370344568
630296220.0 0.0317788477 -0.0384139079 0.1881726472 -0.7708874725 0.1882245935 -0.7702884179 0.0314773581 -0.0370048221
635296190.0 0.0295901083 -0.0391741029 0.1800303133 -0.7729064008 0.1800292144 -0.7729225245 0.0309921994 -0.0374472289
640296160.0 0.029359752 -0.03905289 0.1718529225 -0.7741616847 0.1722917183 -0.7750875322 0.0305109448 -0.0380174757
645296130.0 0.0290294758 -0.0392662635 0.1632986612 -0.7762980881 0.1635033248 -0.776543135 0.0302358868 -0.0379353545
650296100.0 0.0284315392 -0.0396822122 0.1548549335 -0.7780651355 0.1554416081 -0.7782940832 0.0299904132 -0.0389728732
655296070.0 0.0271887291 -0.0402249514 0.1461228854 -0.7802228797 0.1466556964 -0.779879807 0.0290764734 -0.0386495661
660296040.0 0.0262670348 -0.0406032372 0.1379913421 -0.7814306747 0.1383104515 -0.7816466928 0.029070938 -0.0388457869
665296010.0 0.0267662281 -0.0404580115 0.1285817797 -0.7826689068 0.1292781263 -0.7827660197 0.0283414541 -0.0383323005
670295980.0 0.0247834725 -0.0405229938 0.1205711858 -0.7842417907 0.1205901145 -0.7837933672 0.0270870118 -0.0390312871
675295950.0 0.0248542458 -0.0403865056 0.1124900299 -0.7855541868 0.1123863901 -0.7849442782 0.0263709058 -0.0394973046
680295920.0 0.0238210417 -0.0412305338 0.1034668642 -0.7863837395 0.1029089304 -0.7869480098 0.0260834516 -0.0387193926
685295890.0 0.0236560698 -0.0405411289 0.0948635895 -0.7872423163 0.0948477714 -0.7877432547 0.0254795027 -0.0391794287
690295860.0 0.0236193918 -0.0409617605 0.0863314973 -0.7880265671 0.0862866132 -0.7889479149 0.0247961615 -0.0384737176
695295830.0 0.0230227295 -0.0413064496 0.0785150999 -0.7892983569 0.0773404347 -0.7893258891 0.0240948954 -0.0387853594
700295800.0 0.0220930072 -0.0416328718 0.0695119144 -0.790282533 0.0687643607 -0.7892469804 0.0234116512 -0.0383873241
705295770.0 0.0213154013 -0.0407642609 0.0603386432 -0.7908083638 0.0610462263 -0.7907843734 0.0228382827 -0.0388182002
710295740.0 0.0211661879 -0.0413551248 0.0520920572 -0.7919239903 0.0523570104 -0.7922174677 0.022820651 -0.0395687918
715295710.0 0.0196940382 -0.0418358268 0.0436354575 -0.7923170897 0.0431412768 -0.7921200014 0.022365279 -0.0395562812
720295680.0 0.0196447536 -0.0416250134 0.035181465 -0.7924007394 0.0352692449 -0.7924188771 0.0213341231 -0.0387623867
725295650.0 0.0189848762 -0.0417027978 0.0260160873 -0.7931739999 0.02583984 -0.7931265357 0.0201634248 -0.0393682452
730295620.0 0.0188190036 -0.0414686782 0.0174587613 -0.7932615558 0.0169812765 -0.7932090748 0.0196914757 -0.0399270075
735295590.0 0.017836329 -0.041684235 0.0094380707 -0.7934314289 0.0089941034 -0.7933151693 0.0189285926 -0.0400814012
740295560.0 0.0171702079 -0.0418058567 0.0004189237 -0.7924053283 0.0003984694 -0.7930639632 0.0189509538 -0.0396478411
745295530.0 0.0166555719 -0.0414457858 -0.0085818229 -0.792656522 -0.0085687927 -0.7931499751 0.0180957927 -0.0403781349
750295500.0 0.0161226283 -0.0418115201 -0.0166508533 -0.7927523991 -0.0167034138 -0.793132791 0.0174535554 -0.040321292
755295470.0 0.0156961927 -0.0423327714 -0.0250718726 -0.7930549636 -0.0251076118 -0.7929622621 0.0175156986 -0.0404440736
760295440.0 0.0148285237 -0.0419105161 -0.0341695629 -0.792629563 -0.0339088344 -0.7926681289 0.016397821 -0.04023989
765295410.0 0.0141442252 -0.0421592607 -0.0429172942 -0.7916115022 -0.0433837622 -0.7921370716 0.015909091 -0.0405416991
770295380.0 0.0133665236 -0.0423782694 -0.0519062416 -0.7916519835 -0.0514381291 -0.7909200093 0.0149790029 -0.0407780737
775295350.0 0.0126803913 -0.0429744335 -0.0609502134 -0.7902144735 -0.0600335549 -0.790494464 0.0136922892 -0.0403743922
780295320.0 0.0121719438 -0.0423719037 -0.0689734123 -0.7892286583 -0.0679576804 -0.7897204969 0.0135205247 -0.0412964673
785295290.0 0.0112849438 -0.0430264343 -0.0778336778 -0.7893563312 -0.0772520449 -0.7890192962 0.0136805367 -0.0405760729
790295260.0 0.0115917875 -0.0418476465 -0.0854921497 -0.7883106221 -0.0845538717 -0.7884150932 0.0127576647 -0.0409412999
795295230.0 0.01043045 -0.0425201413 -0.0943088439 -0.7871868316 -0.0936527075 -0.7874616457 0.012515856 -0.0403793196
800295200.0 0.009380665 -0.0420084413 -0.1035989271 -0.7859890364 -0.1030772347 -0.7860992734 0.0113026253 -0.0407103343
805295170.0 0.0088574684 -0.042266029 -0.1115556384 -0.7847052527 -0.1114528476 -0.7847429431 0.0111618483 -0.0403944192
810295140.0 0.0080031328 -0.0429444419 -0.1194903979 -0.7829060071 -0.1201079604 -0.7836485782 0.011089008 -0.0405648212
815295110.0 0.0078711631 -0.0428909434 -0.1285704625 -0.7813660074 -0.1283649056 -0.7820986937 0.0097731258 -0.0404568159
820295080.0 0.0065622377 -0.0417957278 -0.1367326887 -0.7807593704 -0.1365629191 -0.7802825789 0.0094739936 -0.0403849579
825295050.0 0.0068789387 -0.0420051751 -0.1446994097 -0.7787880408 -0.1455282873 -0.7794545284 0.009283166 -0.0403434502
830295020.0 0.0061248364 -0.0419201184 -0.1537423504 -0.7774246163 -0.1537092538 -0.7772419549 0.0095419397 -0.0400111327
