!Created with skrf (http://scikit-rf.org).
# Hz S RI R 50.0 
!freq ReS11 ImS11 ReS21 ImS21 ReS12 ImS12 ReS22 ImS22
300000.0 -0.2330094495 -0.1316258347 0.466358531 0.0880271523 0.4679065652 0.0863007464 -0.2342485151 -0.1317832053
5299970.0 -0.2416417293 0.0054743553 0.4746127322 0.0057686319 0.4754085599 0.0056808775 -0.2443891012 0.0047861029
10299940.0 -0.2389153064 0.0188655587 0.4775583624 0.0069681796 0.4773556454 0.0072253998 -0.2408345852 0.0172784205
15299910.0 -0.2338992108 0.0287082168 0.4805084738 0.0081281866 0.480876731 0.0084031736 -0.2368342883 0.026397616
20299880.0 -0.2286604109 0.0370355697 0.4849282903 0.0079666523 0.4856463518 0.0082876354 -0.2321482089 0.0337569731
25299850.0 -0.2224188895 0.0436480957 0.4906238069 0.0077981845 0.4907630747 0.0071485823 -0.2268744443 0.040038821
30299820.0 -0.2171745474 0.0487345843 0.4961777266 0.0051575975 0.4962660646 0.0048849602 -0.2217709267 0.0449486744
35299790.0 -0.2111390335 0.0528578027 0.5011652925 0.001859053 0.5010690966 0.0020976628 -0.2170692219 0.0492127174
40299760.0 -0.2059676979 0.0560644411 0.5063640833 -0.002314293 0.5065841591 -0.0022077778 -0.2119520054 0.0518985194
45299730.0 -0.2008775821 0.0588273088 0.5111814486 -0.0064651291 0.5110958624 -0.0070403985 -0.2067380802 0.0548778294
50299700.0 -0.1958125148 0.060755063 0.5148937556 -0.0126444212 0.5154411025 -0.0124359591 -0.2025659165 0.0568570849
55299670.0 -0.1919274757 0.0625601721 0.5192876005 -0.0180165409 0.5187520082 -0.018273612 -0.1991784309 0.0584987889
60299640.0 -0.1879869372 0.0640454665 0.522567262 -0.0245832324 0.5225355889 -0.0247359483 -0.1952298651 0.0598452295
65299610.0 -0.1839418602 0.0650520755 0.5250959877 -0.0307148465 0.5257219783 -0.0309097272 -0.1917641211 0.0610292307
70299580.0 -0.1805777938 0.0657943489 0.5274761842 -0.0371513531 0.5279094256 -0.037495286 -0.1891543768 0.0619500996
75299550.0 -0.1779716418 0.0669134556 0.5296673322 -0.0446513917 0.5298165817 -0.0446327522 -0.186483197 0.062863692
80299520.0 -0.1753136153 0.0677427173 0.5314870121 -0.0510457775 0.5316368099 -0.0513385042 -0.1839340954 0.0637019709
85299490.0 -0.1724977937 0.0681035239 0.5328205265 -0.0581584129 0.532978247 -0.0581818196 -0.1817138644 0.0642576275
90299460.0 -0.170172306 0.0690032265 0.5335672179 -0.0650030644 0.533371688 -0.0649051874 -0.1792756746 0.0649615037
95299430.0 -0.1681495125 0.069614714 0.53463883 -0.0720748375 0.5348080595 -0.0724492477 -0.1774293498 0.0656984474
100299400.0 -0.165964374 0.0701873256 0.5348955206 -0.0786939763 0.535009674 -0.0789339917 -0.1756803046 0.0664665668
105299370.0 -0.1642497475 0.0709677666 0.535406382 -0.0858340049 0.5357598836 -0.0854754421 -0.1738910502 0.0668175487
110299340.0 -0.1621440466 0.0712892627 0.5352136213 -0.092153617 0.5357196907 -0.0920666011 -0.1727759511 0.0672491808
115299310.0 -0.1608502166 0.0724283064 0.5353509739 -0.0990460628 0.5352994609 -0.0993558366 -0.1713076434 0.0684432582
120299280.0 -0.15938151 0.0731931494 0.53539104 -0.1065281792 0.5351458863 -0.106572102 -0.1698545892 0.0684579428
125299250.0 -0.1581695759 0.0740331194 0.5347394712 -0.112651584 0.5348355372 -0.1128697246 -0.1687716659 0.0696610961
130299220.0 -0.1568043814 0.0745167734 0.5345875357 -0.1194807153 0.5343665859 -0.120211325 -0.1678171552 0.0704840629
135299190.0 -0.1556463704 0.0760527895 0.5339489838 -0.1260257523 0.53377501 -0.126715214 -0.1666884608 0.0709335485
140299160.0 -0.1543053777 0.0769665813 0.5330225181 -0.1327301149 0.5326916874 -0.133188964 -0.1660570184 0.0718529144
145299130.0 -0.1536319922 0.0777252975 0.5322081899 -0.1390264253 0.5318617996 -0.1393593051 -0.1649453787 0.0727894212
150299100.0 -0.1520168066 0.0787794848 0.530647134 -0.1459080881 0.5308616028 -0.1463858558 -0.1640272732 0.0741901857
155299070.0 -0.150965921 0.0800111173 0.5291522105 -0.1526118326 0.5298328749 -0.1526501511 -0.1631456952 0.0749743907
160299040.0 -0.1500674397 0.081333037 0.5284629986 -0.1590623254 0.5280411203 -0.1592733948 -0.1628010632 0.0759257373
165299010.0 -0.149005385 0.0822048466 0.5268776742 -0.1653083131 0.5268462148 -0.1654106657 -0.1616389725 0.0767525477
170298980.0 -0.1479845196 0.08332271 0.5249638621 -0.1716699784 0.525401841 -0.1717732824 -0.1610723953 0.0778331141
175298950.0 -0.1467453862 0.0843257495 0.5233689382 -0.1777075 0.5235989089 -0.1785523594 -0.1602528667 0.079022804
180298920.0 -0.1460034219 0.0861061797 0.5220279534 -0.1846885478 0.521797991 -0.184622501 -0.1593998318 0.079948906
185298890.0 -0.1450805674 0.0871820682 0.5203446565 -0.1904782055 0.5199391488 -0.1904775589 -0.1584850226 0.0812856952
190298860.0 -0.1439103969 0.0886632117 0.5174669993 -0.196340394 0.5184070368 -0.1965794404 -0.1575678567 0.0822540964
195298830.0 -0.1431269012 0.0900459724 0.5166003541 -0.2027306841 0.5164106705 -0.2028162981 -0.1573542489 0.0835804461
200298800.0 -0.1415934387 0.0911287299 0.5140603528 -0.2091969428 0.5143253493 -0.2095865817 -0.1562034647 0.0847236773
205298770.0 -0.1415104047 0.0925572815 0.5119558489 -0.2149675723 0.5119416811 -0.2146969031 -0.1554897316 0.0859465349
210298740.0 -0.1404423164 0.0939454168 0.5098187709 -0.2206723613 0.5092449052 -0.220881476 -0.1552812886 0.0870655924
215298710.0 -0.1392987424 0.0954133512 0.5067412157 -0.2267766717 0.5068517949 -0.2268548544 -0.1541484361 0.0882741887
220298680.0 -0.1381804871 0.0967328132 0.5046433538 -0.2324677289 0.5045603765 -0.2329061975 -0.153268072 0.0895625774
225298650.0 -0.1372397676 0.0983348323 0.501957105 -0.2385101457 0.5022948557 -0.2379852727 -0.1528180515 0.0906084906
230298620.0 -0.1361731174 0.0999875977 0.4996059571 -0.2444213624 0.4998847982 -0.2448239444 -0.1519864316 0.0918653507
235298590.0 -0.1354357361 0.1014501311 0.4973881527 -0.2504497858 0.4975195902 -0.2500598288 -0.1511415602 0.0934049021
240298560.0 -0.1341780753 0.1027989757 0.494340191 -0.255749767 0.4945301856 -0.255716944 -0.150599035 0.0942998324
245298530.0 -0.133370746 0.1040685366 0.4917604589 -0.2618667376 0.4916627243 -0.2615445432 -0.149784837 0.0960156568
250298500.0 -0.1325086918 0.1053378055 0.4891771147 -0.2672405061 0.4890270963 -0.2668923653 -0.1490757431 0.0973128336
255298470.0 -0.1311833283 0.1072161348 0.4865260378 -0.2724313164 0.4864567909 -0.2728957831 -0.1480478815 0.0988360853
260298440.0 -0.1301963309 0.1083911976 0.482926053 -0.2777252918 0.4834499204 -0.277849675 -0.1475414569 0.099923343
265298410.0 -0.1294679021 0.1102497866 0.4799887647 -0.2841617208 0.480019197 -0.2838275424 -0.1458408527 0.1011351136
270298380.0 -0.1283218884 0.1109978813 0.4771359395 -0.2891222439 0.476839003 -0.2892650806 -0.1451878939 0.102789349
275298350.0 -0.1269222996 0.1129453405 0.4733057255 -0.2941335394 0.4737729687 -0.2944347302 -0.1445311469 0.1042134646
280298320.0 -0.1260797071 0.1141814735 0.4707399194 -0.2993075531 0.4705563454 -0.2996211397 -0.1433562838 0.1051204821
285298290.0 -0.1249856564 0.1159280695 0.4671127986 -0.305028553 0.4676412378 -0.3047626138 -0.1432055278 0.106875547
290298260.0 -0.1235828537 0.1174153131 0.4646314101 -0.3102715573 0.4642195702 -0.310777065 -0.1418401833 0.1083616438
295298230.0 -0.1228016677 0.1185635921 0.4608925502 -0.3160683701 0.46083914 -0.3164936548 -0.1406973586 0.1094115548
300298200.0 -0.121206558 0.1202784658 0.4574192519 -0.3212118364 0.4576688526 -0.320877312 -0.1398359563 0.11099417
305298170.0 -0.1201032757 0.1209399758 0.4540113206 -0.3266524388 0.4543290206 -0.3264831388 -0.1387231274 0.1116386133
310298140.0 -0.1186082718 0.1223189959 0.4505971663 -0.3313941189 0.4504821032 -0.3311261511 -0.1374060343 0.1128112918
315298110.0 -0.1177672177 0.1235729773 0.4472385038 -0.3372581382 0.4468839132 -0.3367393583 -0.1365971166 0.1141106192
320298080.0 -0.1165680403 0.1252044681 0.4427492536 -0.3416988848 0.443734824 -0.3421073608 -0.1358925903 0.1152607616
325298050.0 -0.115669746 0.1258418481 0.4392689389 -0.3462283723 0.439593407 -0.3469543226 -0.1346137596 0.1164886703
330298020.0 -0.1147600886 0.1275406721 0.4355707275 -0.351866867 0.4355911427 -0.3519916009 -0.1339900544 0.1178779312
335297990.0 -0.1134818728 0.1290616182 0.4315313606 -0.3560234212 0.4313815284 -0.3567777729 -0.1330866111 0.1193207319
340297960.0 -0.1124159056 0.1303814294 0.4267730891 -0.3615149312 0.4273801397 -0.3617886667 -0.1318054312 0.1207876425
345297930.0 -0.1112055151 0.1315007547 0.4231775606 -0.3661485595 0.4232417128 -0.3662649973 -0.1309137235 0.1220413456
350297900.0 -0.1101380205 0.1328485314 0.4193715694 -0.3700513967 0.4191021029 -0.3705889963 -0.1298999401 0.1229795818
355297870.0 -0.1087306406 0.134245351 0.4151386633 -0.3750005375 0.4150049155 -0.3750535715 -0.1286152627 0.124743946
360297840.0 -0.1072832864 0.1359212318 0.4108222006 -0.3800764506 0.411295609 -0.3802122042 -0.1278680654 0.1261738186
365297810.0 -0.1064866477 0.1370845921 0.4066136365 -0.3842538794 0.4066699091 -0.3843212769 -0.1271093536 0.1273311586
370297780.0 -0.1048115298 0.138043855 0.4019521175 -0.388620424 0.4024300973 -0.3888910483 -0.1255946151 0.1288292368
375297750.0 -0.1034466676 0.1396418617 0.3985294001 -0.3933833329 0.3984229497 -0.3931439537 -0.1245945067 0.1298500388
380297720.0 -0.1022559856 0.1411387528 0.394380201 -0.3980425241 0.393847714 -0.3976888131 -0.123427304 0.1316245772
385297690.0 -0.1009594169 0.1422297382 0.3894161968 -0.4020696757 0.3894749151 -0.4023883722 -0.1218861104 0.1331006493
390297660.0 -0.0991095305 0.1431870585 0.3846995324 -0.4056468184 0.385061852 -0.4061359007 -0.1205701538 0.1338764187
395297630.0 -0.097433271 0.1445313884 0.381188775 -0.4098980786 0.3805109279 -0.4100001114 -0.119310731 0.1351242798
400297600.0 -0.0963244146 0.1456196483 0.376107838 -0.4143191526 0.3764334126 -0.4141797287 -0.118051343 0.1370219071
405297570.0 -0.0947816933 0.1469185428 0.3716335926 -0.418168547 0.3716265469 -0.4184905849 -0.1165740033 0.1380910335
410297540.0 -0.0930566569 0.1483568549 0.3671036851 -0.4228713201 0.3670151712 -0.4223415061 -0.1153724544 0.1395183324
415297510.0 -0.0917681162 0.1494968232 0.3619147989 -0.4270032718 0.3627311042 -0.4266216592 -0.1144030369 0.1405886184
420297480.0 -0.0904067673 0.1498613651 0.3578130896 -0.4304627747 0.3579019853 -0.4303234914 -0.1124470786 0.1422300351
425297450.0 -0.0883245135 0.1513234074 0.3531843396 -0.4345990384 0.3527560779 -0.4343787315 -0.1114396553 0.1429878029
430297420.0 -0.0872194724 0.1525367621 0.3488718574 -0.4383116254 0.348343658 -0.4378633327 -0.109482194 0.144397612
435297390.0 -0.085350276 0.1534850768 0.3433624551 -0.4422414425 0.3432446018 -0.441805882 -0.1090506666 0.1461469972
440297360.0 -0.083345608 0.1542733812 0.3385646641 -0.4458228844 0.3382698312 -0.4458797953 -0.107297987 0.1470534931
445297330.0 -0.0816462079 0.1551034395 0.3333830415 -0.449055546 0.3337854394 -0.4497354811 -0.1058776932 0.1479990419
450297300.0 -0.0799754172 0.1563544367 0.3286234819 -0.4528926878 0.3290378177 -0.4531063704 -0.104449185 0.1493629146
455297270.0 -0.0788444722 0.1571667102 0.3239265882 -0.4565487173 0.3240233511 -0.4564496517 -0.1026902887 0.1502324875
460297240.0 -0.0766647504 0.1585015183 0.3189308448 -0.4607104501 0.3190107625 -0.4603101382 -0.1017571826 0.1516332862
465297210.0 -0.0750554008 0.1591596948 0.3137565021 -0.463567302 0.3133245696 -0.4638493429 -0.0996764314 0.1531114038
470297180.0 -0.0732636734 0.1600884891 0.3084240286 -0.4664869276 0.3089015835 -0.4668719295 -0.0981644948 0.1536285594
475297150.0 -0.0712490417 0.1612280743 0.3031964434 -0.4702117959 0.3038282034 -0.4703427492 -0.0968875974 0.1548963761
480297120.0 -0.0692839063 0.1623596166 0.2984579155 -0.4737901104 0.2983457912 -0.4734654929 -0.0954679557 0.1562479947
485297090.0 -0.0681561692 0.1626897231 0.2933120587 -0.4770729284 0.2931672378 -0.4766532992 -0.0939330543 0.1571718901
490297060.0 -0.0654297412 0.1639595771 0.2873159714 -0.4800712464 0.2877226141 -0.4798530036 -0.0921821433 0.157982873
495297030.0 -0.064092111 0.1643543643 0.2829281161 -0.4828909014 0.2827792092 -0.4832435124 -0.0904157842 0.1589985824
500297000.0 -0.0621165747 0.1653546262 0.2772705387 -0.4858995997 0.2775948811 -0.4863390345 -0.0892747333 0.1603151586
505296970.0 -0.0597328845 0.1660692194 0.2723609804 -0.4891016958 0.2721666857 -0.4887091181 -0.0874581946 0.1606567065
510296940.0 -0.0582048149 0.1669547484 0.2668813811 -0.4926436122 0.2671382547 -0.4925637522 -0.0855523695 0.1622604582
515296910.0 -0.0563132594 0.1679513868 0.261082894 -0.4952203494 0.2610742211 -0.4948482681 -0.0842776535 0.1625500248
520296880.0 -0.0542661251 0.1685726881 0.2559419011 -0.4974464465 0.2557657721 -0.4973693857 -0.0825516983 0.1642640696
525296850.0 -0.0523135587 0.1692293614 0.2503923207 -0.5005895418 0.2500199928 -0.5001876026 -0.0807964608 0.1649953041
530296820.0 -0.0507855637 0.170013427 0.2449153804 -0.5030401685 0.2449639647 -0.5027335075 -0.079359729 0.1653240866
535296790.0 -0.048004444 0.1707104503 0.2395813102 -0.5052036415 0.2398297828 -0.5057053479 -0.0773276404 0.1669138246
540296760.0 -0.046178848 0.1714935531 0.2333658364 -0.5082115449 0.2337202438 -0.5080297617 -0.0760275276 0.167235663
545296730.0 -0.0449647552 0.1724224782 0.2285753196 -0.5104091368 0.2282948897 -0.5100105902 -0.0740917169 0.1683702662
550296700.0 -0.0419740877 0.172852108 0.2228225341 -0.5134005626 0.2227186233 -0.5132384651 -0.0724619998 0.169220429
555296670.0 -0.0404108652 0.1735117926 0.2171721035 -0.5158274489 0.2173331889 -0.5151763788 -0.0709280579 0.1696828715
560296640.0 -0.0380083716 0.1740567019 0.2115963999 -0.5175202809 0.2117325851 -0.5177936949 -0.0691385718 0.1710399774
565296610.0 -0.0366256705 0.1746716362 0.2061438515 -0.5202479972 0.206039521 -0.5196039737 -0.0676253065 0.171735228
570296580.0 -0.0345298271 0.1754131996 0.2002371914 -0.5222741101 0.2005585879 -0.5220529699 -0.065843618 0.1722395593
575296550.0 -0.0321721062 0.1755687781 0.1948155378 -0.5242265996 0.1947435028 -0.5241114707 -0.0642192124 0.1729865593
580296520.0 -0.0300765521 0.1765767384 0.1891579811 -0.5264715537 0.1888873587 -0.5266138846 -0.0625800115 0.1739134861
585296490.0 -0.028140404 0.1770249422 0.1836527107 -0.5281737873 0.1830170976 -0.5282750126 -0.0601112834 0.1750309744
590296460.0 -0.0254039473 0.1774810478 0.1771252091 -0.5302632496 0.1772586116 -0.5303209148 -0.0590738343 0.1752537473
595296430.0 -0.0238608821 0.1781131909 0.1714508985 -0.5323062355 0.1712209357 -0.5321692842 -0.0571458269 0.1759369281
600296400.0 -0.0213045207 0.178486198 0.1654381318 -0.533622551 0.1656725616 -0.5338725676 -0.0553210232 0.1764020328
605296370.0 -0.0199124289 0.1788141565 0.1603945333 -0.5355691647 0.159704416 -0.5357118762 -0.0534713507 0.1774771728
610296340.0 -0.0176308213 0.1796792085 0.1543613873 -0.5368501422 0.1543553666 -0.5372528589 -0.0520235784 0.1781515153
615296310.0 -0.0150359209 0.1800886792 0.1483913394 -0.5389863982 0.1479959492 -0.5388076114 -0.0500824082 0.1786648744
620296280.0 -0.0135973696 0.18076911 0.1424329909 -0.5407756043 0.1423620989 -0.5403915695 -0.048690849 0.1795583977
625296250.0 -0.0115932976 0.180900492 0.1365955492 -0.5420322702 0.1365540843 -0.5418954216 -0.0470065375 0.1798409811
630296220.0 -0.0094790545 0.1811774209 0.1305995363 -0.5432331388 0.1307813527 -0.5428744653 -0.0448082059 0.1806087651
635296190.0 -0.0077092624 0.1817257078 0.125355337 -0.5444117723 0.1249603316 -0.5445866036 -0.0432884544 0.1809314919
640296160.0 -0.0053178041 0.1821086044 0.1193027734 -0.5460841504 0.1191333995 -0.5460158275 -0.0418145098 0.1816711409
645296130.0 -0.0028227933 0.1827396203 0.1130038542 -0.5471078888 0.1129794092 -0.5465692375 -0.0398526153 0.1817993967
650296100.0 -0.0012626526 0.1828420942 0.1073315983 -0.5486777786 0.1066123431 -0.5484472286 -0.0371737642 0.1827100355
655296070.0 0.0009795143 0.1828711375 0.1008224878 -0.549584129 0.1012086941 -0.548931471 -0.0362006929 0.1832720426
660296040.0 0.0029831188 0.1833429885 0.0950345386 -0.5505382683 0.0950916198 -0.5507168806 -0.0345368362 0.1834697859
665296010.0 0.0050038651 0.1832485991 0.0890641073 -0.5511980316 0.0888754268 -0.5513366537 -0.0323032428 0.1839903989
670295980.0 0.0071436539 0.1837004415 0.0832788495 -0.5524703912 0.0830476196 -0.5518670115 -0.0313367137 0.1846106182
675295950.0 0.0094760352 0.1837910383 0.0767972775 -0.5529511852 0.0776518199 -0.5531854219 -0.0289856766 0.1850550397
680295920.0 0.0106928051 0.1842788918 0.0715798255 -0.5535715427 0.0714008119 -0.5535116974 -0.0270503704 0.1852005844
685295890.0 0.0130767103 0.184306717 0.0652991845 -0.5544770489 0.0653798349 -0.5546473079 -0.0250837708 0.1860783567
690295860.0 0.0149854715 0.1845832714 0.0595429194 -0.5552905294 0.0589783282 -0.5550778904 -0.023498987 0.1861648308
695295830.0 0.0172865701 0.1846986886 0.0537041327 -0.5561572881 0.0531638367 -0.5557256122 -0.0216969621 0.1868910647
700295800.0 0.0192071738 0.1847397118 0.0480905934 -0.556095002 0.0475744557 -0.5562942876 -0.019792675 0.186926919
705295770.0 0.0211219433 0.1847279621 0.0412184259 -0.5571011965 0.0413339541 -0.5565457074 -0.0178480502 0.1876055116
710295740.0 0.0231598351 0.184606273 0.0356867678 -0.5571325464 0.0350937188 -0.5575266613 -0.0160088423 0.1875511043
715295710.0 0.0255961617 0.1850126018 0.0297527176 -0.5575018737 0.0297280524 -0.5574057905 -0.014408576 0.1876240238
720295680.0 0.0276311021 0.1848307867 0.0237780416 -0.557804311 0.0231990357 -0.5577705333 -0.0126886256 0.1882323198
725295650.0 0.0289229911 0.1850798581 0.0180039557 -0.5579541385 0.0175049895 -0.5579181416 -0.0112826921 0.1889009802
730295620.0 0.030463117 0.1847022934 0.0118104699 -0.5576651357 0.0116314879 -0.5578476609 -0.0094575852 0.1893848735
735295590.0 0.0332244301 0.1848373381 0.0055266852 -0.5582787951 0.0051879173 -0.5581134428 -0.0072658461 0.188927799
740295560.0 0.0347019019 0.1841755761 -0.0002806129 -0.5579788656 -0.0002632865 -0.5584058298 -0.0057771119 0.1895612727
745295530.0 0.0369635946 0.1843755906 -0.0065017263 -0.557437292 -0.0056203691 -0.5579438813 -0.0041465555 0.1896748446
750295500.0 0.0385083247 0.184182803 -0.0119584837 -0.557623862 -0.0127980879 -0.5580745577 -0.0021426586 0.1900377591
755295470.0 0.0406567518 0.1839337327 -0.017999381 -0.5580456267 -0.0181777381 -0.5580382421 0.0001556233 0.1903793879
760295440.0 0.042500434 0.1843110653 -0.0246189903 -0.5574157449 -0.0242067808 -0.5572193017 0.0018520421 0.1893874198
765295410.0 0.0445921437 0.1835340861 -0.0303624104 -0.5571109563 -0.03034441 -0.5573098016 0.003684828 0.1903306152
770295380.0 0.0465376862 0.1836603734 -0.0360100528 -0.5567051025 -0.0361899199 -0.5571956931 0.0051051382 0.1905189669
775295350.0 0.0485450978 0.1831329311 -0.0420531539 -0.5562900229 -0.0423612923 -0.5558865765 0.0075122473 0.1906783895
780295320.0 0.0504271317 0.1831219334 -0.0480959218 -0.5553244105 -0.0483035251 -0.5556527855 0.0096357044 0.1906942762
785295290.0 0.0522931934 0.1821109169 -0.0535972124 -0.5550419431 -0.0538154053 -0.5554857573 0.0104988807 0.1910331526
790295260.0 0.0543184063 0.1818686316 -0.0594940098 -0.5547313002 -0.0600690694 -0.5548396827 0.0125330327 0.1912662411
795295230.0 0.0559500886 0.1816548652 -0.065749174 -0.5544503303 -0.0660840945 -0.5541053566 0.0145032633 0.1904025658
800295200.0 0.0576117908 0.1814460633 -0.0715137044 -0.5528089317 -0.0721212115 -0.5534504861 0.0160601525 0.1909052297
805295170.0 0.0596460522 0.1807943306 -0.0779118533 -0.5524255041 -0.0777360844 -0.5523359713 0.0188469628 0.1907762557
810295140.0 0.0619274235 0.1806347747 -0.083708967 -0.5512001084 -0.0839003155 -0.5514575991 0.0204516277 0.1909362147
815295110.0 0.063462239 0.1800082537 -0.0895228841 -0.5503735354 -0.0892788971 -0.5508074637 0.0218649351 0.1906324141
820295080.0 0.0655736567 0.1795571499 -0.0948737591 -0.5493016656 -0.0951492186 -0.5496444881 0.0231881047 0.1911884609
825295050.0 0.0668972026 0.1788866924 -0.1011617024 -0.5487669994 -0.1011815173 -0.5482882811 0.0261419745 0.1910906666
830295020.0 0.0690339035 0.1782435855 -0.1072737478 -0.5474820793 -0.1071828833 -0.5474395136 0.0276495519 0.190498135
