!Created with skrf (http://scikit-rf.org).
# Hz S RI R 50.0 
!freq ReS11 ImS11 ReS21 ImS21 ReS12 ImS12 ReS22 ImS22
300000.0 -0.3208853943 -0.1083044815 0.3734811427 0.0523405555 0.3749907736 0.0562457069 -0.3190331879 -0.1144458278
5299970.0 -0.3234564456 0.00492444 0.3788970893 0.0026314609 0.3786596074 0.0032271538 -0.3260279421 0.0030109003
10299940.0 -0.3208905431 0.0155187405 0.3797355184 0.0024134687 0.3796834462 0.002532356 -0.3240454555 0.0126298717
15299910.0 -0.3180901647 0.0233979638 0.3819066238 0.0021612012 0.3818849075 0.0023280184 -0.3213640428 0.0198393655
20299880.0 -0.3143807846 0.030199237 0.3853679762 0.0016872678 0.3852732182 0.0016343191 -0.3186964582 0.0262599797
25299850.0 -0.3107174884 0.0357261682 0.3885258324 5.29906e-05 0.3881745773 0.0002008751 -0.3157263423 0.0307654246
30299820.0 -0.3064188171 0.0402453784 0.3919169975 -0.0022152265 0.3915805531 -0.0023499809 -0.3128497414 0.0353603414
35299790.0 -0.3029892045 0.0450208824 0.3950362312 -0.00547427 0.3952670958 -0.0052834973 -0.3098432788 0.0394474121
40299760.0 -0.2995963795 0.0480008767 0.3983578966 -0.0085291513 0.3983158176 -0.0088547853 -0.3071623102 0.0433044845
45299730.0 -0.2965278478 0.0513770304 0.40136139 -0.0127157189 0.4010320278 -0.0127853191 -0.3046259163 0.0460237394
50299700.0 -0.2933952857 0.0540166526 0.4035162114 -0.0172410959 0.4039051344 -0.0172289766 -0.3019230949 0.0492122592
55299670.0 -0.2904629001 0.0571184817 0.4052844265 -0.0223551109 0.4059487258 -0.0219916335 -0.3003421231 0.0520431917
60299640.0 -0.2881976882 0.0590969534 0.4076278768 -0.0272177614 0.4074717069 -0.0272415101 -0.2979322261 0.0545412016
65299610.0 -0.2860015346 0.0615457459 0.4095686058 -0.0316047082 0.4096914164 -0.0316958044 -0.2963153411 0.0571718401
70299580.0 -0.2837949792 0.0636982567 0.4102955055 -0.0366588543 0.4105668471 -0.0368712795 -0.294724541 0.0596550859
75299550.0 -0.2817685744 0.0661716927 0.4114995825 -0.04226402 0.4116865526 -0.0422600216 -0.2930636019 0.0623212408
80299520.0 -0.2803275061 0.0681683503 0.412733747 -0.0475098601 0.4126904521 -0.0473598348 -0.2915349913 0.0637414892
85299490.0 -0.2785444405 0.0698707208 0.4132604274 -0.0526837879 0.4130612123 -0.0526450086 -0.2903610547 0.0664989601
90299460.0 -0.2770515447 0.0722336755 0.4136979262 -0.0577492041 0.413802566 -0.0577973877 -0.2888129778 0.06863006
95299430.0 -0.2755561692 0.0741412838 0.4139087616 -0.0634674097 0.4141407737 -0.0633725236 -0.287701837 0.0713139923
100299400.0 -0.2744729489 0.0763718345 0.4135595704 -0.0683208735 0.4137082904 -0.0684663684 -0.2864646454 0.0734163066
105299370.0 -0.2727193348 0.0783868594 0.4133026928 -0.0732321257 0.4136299832 -0.0737254602 -0.2853665051 0.0753717241
110299340.0 -0.2718467017 0.080536189 0.4133584197 -0.0784804265 0.4138189164 -0.0789348579 -0.2845223737 0.0781300521
115299310.0 -0.2707906693 0.0822619488 0.4128912802 -0.0833612659 0.4132951904 -0.083644373 -0.2833154711 0.080088268
120299280.0 -0.2697564322 0.0848594377 0.4129644463 -0.0890543857 0.4130632103 -0.0890074713 -0.2824682723 0.0824890542
125299250.0 -0.2689686173 0.0869452686 0.4124385587 -0.0940965251 0.4127372269 -0.0938950496 -0.2814698193 0.0846684472
130299220.0 -0.2675266984 0.0891706834 0.4113205801 -0.0986249792 0.4116003298 -0.0991128155 -0.280571619 0.0876331934
135299190.0 -0.266737408 0.0911340821 0.4109379852 -0.1037004804 0.4107567341 -0.1042381709 -0.2798915171 0.0898667325
140299160.0 -0.2656254305 0.0938594645 0.4101063566 -0.1091549478 0.4102412067 -0.108977012 -0.2784251252 0.0921468896
145299130.0 -0.2648368135 0.0959668814 0.4093298039 -0.1141448758 0.4089980503 -0.1137546918 -0.277806503 0.0945443764
150299100.0 -0.2638741062 0.0983357216 0.4080258256 -0.1194400727 0.4080333464 -0.1187901193 -0.2768667516 0.0969343906
155299070.0 -0.2630875924 0.100900591 0.4072071076 -0.1241933674 0.4072531864 -0.1241608179 -0.2762821527 0.0994416448
160299040.0 -0.2618668561 0.1030766568 0.4056814718 -0.1285431132 0.4061385 -0.1287673139 -0.2754111454 0.1020370906
165299010.0 -0.261017907 0.1054358501 0.4045945065 -0.1334192755 0.4046034032 -0.1337022217 -0.2740595419 0.1046200023
170298980.0 -0.2604275924 0.1077969227 0.4029020584 -0.1382320512 0.4031894452 -0.1384721297 -0.2733184287 0.1070600659
175298950.0 -0.2588428486 0.1105056013 0.4021675459 -0.1431083281 0.4023192691 -0.1431780043 -0.2724612409 0.1097836318
180298920.0 -0.2580406286 0.1124185503 0.4006221912 -0.1478009087 0.4004826595 -0.1480295416 -0.2710252561 0.1124700302
185298890.0 -0.2569007364 0.1153352242 0.3986305027 -0.1526630021 0.3990307719 -0.1526901094 -0.2703187061 0.1149324725
190298860.0 -0.2558245136 0.1177884396 0.3973939499 -0.1576335597 0.3974181077 -0.1575852776 -0.2688901729 0.1175877226
195298830.0 -0.2545730191 0.1199859061 0.3956300561 -0.1616677945 0.3959245484 -0.1621550922 -0.2679526347 0.1199212024
200298800.0 -0.2535301359 0.1228167532 0.3943678667 -0.1660449547 0.3940219104 -0.1664957354 -0.2664223092 0.1229074276
205298770.0 -0.2525140134 0.1251719174 0.3924032173 -0.1708864552 0.3923309206 -0.1711614228 -0.2656019492 0.1254483344
210298740.0 -0.2516750718 0.1276696394 0.3906931436 -0.1755755394 0.3905239766 -0.1761536194 -0.2646750498 0.1282545835
215298710.0 -0.2504171337 0.1304047207 0.3885233478 -0.1800918188 0.3886963773 -0.1800028489 -0.2636770101 0.130635156
220298680.0 -0.249275565 0.1329833499 0.3865176003 -0.1848766846 0.3864788088 -0.1847189921 -0.2621233185 0.1336811346
225298650.0 -0.2477761881 0.1354895499 0.3842232216 -0.1888185958 0.3842261531 -0.1889741634 -0.2612133441 0.1365734126
230298620.0 -0.2464875672 0.1383581885 0.382677018 -0.1934877226 0.3828674237 -0.1934654641 -0.2593875146 0.1387742393
235298590.0 -0.2454972288 0.1406629985 0.3801510851 -0.19797393 0.3806523648 -0.198109275 -0.2582392817 0.1412918832
240298560.0 -0.244121592 0.1434262618 0.378607339 -0.2017977847 0.3784916645 -0.2019884744 -0.2570206792 0.1442650438
245298530.0 -0.242549993 0.1457349543 0.3756558875 -0.2068960064 0.3759193043 -0.2066147569 -0.2557042853 0.1471086272
250298500.0 -0.2414193507 0.1482440761 0.3735582099 -0.2102810636 0.373951566 -0.2103918127 -0.2538764635 0.1498590138
255298470.0 -0.2401540909 0.1510757187 0.3714939639 -0.2154016378 0.3713154408 -0.2149219381 -0.2523593773 0.1524940272
260298440.0 -0.2387343284 0.1530958489 0.3690440994 -0.2189068575 0.3691128249 -0.2189987103 -0.2507025737 0.1549225364
265298410.0 -0.2369313241 0.156130695 0.366423512 -0.2234791153 0.3664346024 -0.2235830947 -0.249644199 0.1574244999
270298380.0 -0.2352505367 0.1585670155 0.3635574395 -0.2272817578 0.3644579483 -0.2275346598 -0.2478580088 0.1604344669
275298350.0 -0.234254103 0.1612916818 0.3616733131 -0.2317717204 0.3619122564 -0.232002765 -0.2461670585 0.1630221098
280298320.0 -0.2327453626 0.163765267 0.3590810327 -0.2356006734 0.3587897126 -0.236051067 -0.2448143924 0.1657228508
285298290.0 -0.2307731106 0.1664413403 0.3560975811 -0.2395998401 0.3565889269 -0.2399212494 -0.2432276481 0.168403145
290298260.0 -0.2294108227 0.1688177865 0.3539051446 -0.243784616 0.3541606273 -0.2440220928 -0.2412204191 0.1713158122
295298230.0 -0.2274585017 0.1714545669 0.3512573147 -0.2477297952 0.3509494479 -0.2481000131 -0.2393220714 0.1739853893
300298200.0 -0.2258304578 0.1735310109 0.3485177087 -0.2517943475 0.3486949328 -0.252048999 -0.2377996867 0.1766517266
305298170.0 -0.2237201944 0.1760714221 0.345914678 -0.2557618268 0.3460773177 -0.2561083075 -0.2355572021 0.1791285104
310298140.0 -0.2221684351 0.1785360364 0.3429501191 -0.2597992937 0.3430475783 -0.2601102854 -0.2341777613 0.1822092293
315298110.0 -0.2205090883 0.1807765838 0.3399382695 -0.2634175226 0.3402382099 -0.2637968293 -0.2319403583 0.1842541285
320298080.0 -0.218523329 0.1834435114 0.3369495509 -0.2677780285 0.3373002326 -0.2679315616 -0.2302277613 0.1870536452
325298050.0 -0.2168536246 0.1856514324 0.333702358 -0.2715257852 0.3343070983 -0.271767838 -0.2283528719 0.1895076783
330298020.0 -0.2154373604 0.1879807386 0.3305981549 -0.2752741348 0.3309285142 -0.27534454 -0.226535722 0.1917949833
335297990.0 -0.2134298869 0.1902353519 0.3277517746 -0.27910557 0.3279616015 -0.2789899537 -0.2244926977 0.1943533805
340297960.0 -0.2117367318 0.192472171 0.3242970942 -0.2826289005 0.3246960654 -0.2825601529 -0.2228374138 0.1971324029
345297930.0 -0.2098661898 0.1951512968 0.3211391761 -0.2858967593 0.3206983022 -0.2858369834 -0.2208369939 0.1994004621
350297900.0 -0.2075669906 0.1979623314 0.3179588304 -0.2894764716 0.318136097 -0.2898344293 -0.2186779241 0.202226781
355297870.0 -0.2060097934 0.1998846495 0.3146068353 -0.2929714895 0.3147967661 -0.2931386386 -0.2167350418 0.2048807061
360297840.0 -0.203883206 0.2024158336 0.3115694082 -0.2965703749 0.3113296033 -0.2967788385 -0.2147014942 0.2074116277
365297810.0 -0.2016168627 0.2045413023 0.3080593916 -0.3001168115 0.3079976287 -0.2999655872 -0.2124366929 0.2099130453
370297780.0 -0.1994893325 0.2068667932 0.304626555 -0.3033607054 0.3047998294 -0.3036602437 -0.2102365966 0.2123785533
375297750.0 -0.1977928591 0.209506762 0.3019980813 -0.307190198 0.3014196491 -0.3069502809 -0.2081812636 0.2148723729
380297720.0 -0.1956383347 0.2115495504 0.2983946731 -0.3100510201 0.2981694613 -0.3099110254 -0.2061294878 0.2176149631
385297690.0 -0.1932779072 0.2135705781 0.2947162188 -0.3126882803 0.2943895706 -0.3134348297 -0.20369073 0.2202242214
390297660.0 -0.1910061058 0.2157646627 0.2906030651 -0.3166120932 0.2907809048 -0.3169716509 -0.2012775982 0.2218807413
395297630.0 -0.1885764746 0.2182232316 0.2877238935 -0.3199786231 0.2873717861 -0.3195025696 -0.199061602 0.224602407
400297600.0 -0.1865596801 0.2203597719 0.2843305693 -0.3228515934 0.2844831441 -0.3228318886 -0.1974772831 0.2264652714
405297570.0 -0.1841363956 0.2224995414 0.2804598628 -0.3255863983 0.2806537072 -0.3261193469 -0.1949377597 0.2291748856
410297540.0 -0.1816485751 0.2243544648 0.2765678155 -0.3288726363 0.2765969573 -0.3287977468 -0.1921507429 0.2314303141
415297510.0 -0.1794745369 0.2268579004 0.273158276 -0.3319078165 0.2733574185 -0.3319377897 -0.1902229211 0.2342847608
420297480.0 -0.1771007047 0.2283333982 0.2693627296 -0.3350346093 0.2694013605 -0.3348438509 -0.1872741186 0.2357783729
425297450.0 -0.1744753283 0.2304979245 0.2655533335 -0.3377880973 0.2659474374 -0.3376589776 -0.1848448811 0.2383687137
430297420.0 -0.1724723181 0.2326768341 0.2620675908 -0.3409055063 0.2623105209 -0.3405475957 -0.1824374838 0.2399613218
435297390.0 -0.1699771096 0.23490907 0.2584884326 -0.3436768928 0.2586219065 -0.3433144001 -0.1802142008 0.2429884084
440297360.0 -0.1672966046 0.2366671101 0.2544657338 -0.3464652329 0.2542302536 -0.3462860116 -0.1780117107 0.2441815679
445297330.0 -0.1648375408 0.2384937576 0.2503623644 -0.349288928 0.2504548404 -0.3488257847 -0.1753618879 0.2467637337
450297300.0 -0.1621727341 0.2402275849 0.2465270457 -0.3515021166 0.2466734496 -0.3514560989 -0.1726767135 0.2486280203
455297270.0 -0.1598995588 0.2422809569 0.2431089289 -0.3546354845 0.2430232359 -0.354140835 -0.1698469444 0.2507888701
460297240.0 -0.1576663803 0.2441955306 0.2390449033 -0.3569271659 0.2383390835 -0.3570199609 -0.1671601199 0.25316802
465297210.0 -0.1548110669 0.2457798822 0.2349827677 -0.3596019055 0.2350303343 -0.3597374883 -0.1652201544 0.2548422756
470297180.0 -0.1521335378 0.2473102635 0.2311898564 -0.3616503474 0.2311208438 -0.362047826 -0.1627566656 0.2566316182
475297150.0 -0.1496002224 0.2493085552 0.226876684 -0.3642654387 0.2271183504 -0.3639201435 -0.1595924167 0.2584571328
480297120.0 -0.1471433856 0.2511322968 0.2229025352 -0.3670095982 0.2233339648 -0.3664340586 -0.1571929448 0.2607913074
485297090.0 -0.1440937098 0.2527764433 0.218863941 -0.369269345 0.218957264 -0.3692472432 -0.1546500423 0.2622305153
490297060.0 -0.1416253872 0.2541449213 0.2149135941 -0.3713305988 0.2149344166 -0.3716922751 -0.1521452335 0.2642678082
495297030.0 -0.1392620543 0.2561328558 0.2107314661 -0.3738942989 0.210299764 -0.3738812729 -0.1489996335 0.2657152821
500297000.0 -0.1359939577 0.2575684029 0.206105744 -0.3760494401 0.2065252162 -0.37598195 -0.1463897775 0.2676567096
505296970.0 -0.1336050002 0.2589532467 0.2022820644 -0.3777199861 0.2022031237 -0.3780229301 -0.1439948352 0.2693405615
510296940.0 -0.1307571798 0.2610386283 0.1980786061 -0.380740298 0.198364345 -0.3805515603 -0.1406846883 0.2714164589
515296910.0 -0.1282371598 0.2625304627 0.1939645309 -0.3825706323 0.1945490788 -0.3823260236 -0.1383065088 0.2728398606
520296880.0 -0.1253758859 0.2638117029 0.1899198134 -0.3846967698 0.1902392061 -0.3845748595 -0.1353560997 0.2744064386
525296850.0 -0.1225554392 0.2655041785 0.1856793618 -0.3865879117 0.1857171837 -0.3863636576 -0.1320706656 0.2761088089
530296820.0 -0.1199712115 0.2666321747 0.1814839787 -0.3878595343 0.1814369205 -0.3882334842 -0.13006512 0.2775553764
535296790.0 -0.1170283273 0.2681495233 0.1771726093 -0.3902030991 0.1774171751 -0.3901441968 -0.1271115113 0.2790254511
540296760.0 -0.1142462598 0.2692326783 0.1729293168 -0.3922128271 0.1731289085 -0.3923726321 -0.1243184427 0.2808153479
545296730.0 -0.1112552814 0.2707065132 0.1682832201 -0.3936446445 0.168717442 -0.3938782646 -0.1214116574 0.2817398419
550296700.0 -0.1088558668 0.2722558982 0.1643163445 -0.3957726337 0.1648118133 -0.3960880617 -0.1184736687 0.2839918573
555296670.0 -0.105490249 0.2734569768 0.1601706698 -0.3973594917 0.1604477597 -0.3973363692 -0.1156150512 0.2848771049
560296640.0 -0.1027461651 0.2745637678 0.155724886 -0.3991296579 0.1560901886 -0.3991544064 -0.1121686823 0.2863759217
565296610.0 -0.1001156234 0.2760218369 0.1513630565 -0.4008365193 0.151380465 -0.4007355125 -0.1098278817 0.2873525823
570296580.0 -0.0971430499 0.2770353488 0.1466702198 -0.4025633179 0.1474807814 -0.4025228325 -0.1067752827 0.2893422277
575296550.0 -0.0941215361 0.2784366506 0.142507929 -0.4037342842 0.1427450577 -0.4038702308 -0.1036756373 0.2902955399
580296520.0 -0.0911190636 0.2795912752 0.1385186499 -0.4056133705 0.1379905404 -0.4053131156 -0.1004532005 0.2913387814
585296490.0 -0.088168055 0.2802790089 0.1338260123 -0.4068395189 0.1338994303 -0.4068964238 -0.0978428558 0.2924026132
590296460.0 -0.0853483038 0.2812477961 0.1293032022 -0.4078823758 0.1295040282 -0.4083335645 -0.0943440716 0.2938926661
595296430.0 -0.0821804031 0.2827287283 0.1250185823 -0.4094844618 0.1247003651 -0.4102263714 -0.0914864957 0.2948377343
600296400.0 -0.0792955887 0.2833921462 0.1203747004 -0.4109266514 0.120739625 -0.4108945267 -0.0884873611 0.2960730975
605296370.0 -0.0762977734 0.2847340702 0.1157983109 -0.412309029 0.1159918747 -0.4119054458 -0.0855136285 0.2973443046
610296340.0 -0.0735047509 0.2856783194 0.1116851342 -0.4133449283 0.1115765178 -0.4136917098 -0.0824039193 0.2985984645
615296310.0 -0.0702986731 0.2866033375 0.1068527225 -0.4144127506 0.1070033253 -0.4143482105 -0.0793361321 0.2991873326
620296280.0 -0.0671260822 0.2873347643 0.1024506847 -0.4153723928 0.1025822015 -0.4157566152 -0.0764878635 0.3001832474
625296250.0 -0.0643200018 0.2883835205 0.097675568 -0.4170443524 0.0977273158 -0.4169953951 -0.0730242151 0.3010542474
630296220.0 -0.0611254446 0.2891703765 0.0932788129 -0.4177423264 0.0938578832 -0.4178085785 -0.0700303871 0.3022806565
635296190.0 -0.0580284671 0.2899806065 0.0885319601 -0.4183572776 0.0887338195 -0.4183957915 -0.0668102751 0.302938205
640296160.0 -0.0547611992 0.2902835157 0.0841395284 -0.4192517248 0.0843175025 -0.4195924218 -0.0634964666 0.3034775737
645296130.0 -0.052135789 0.2912366534 0.0797124858 -0.4204658742 0.0800920433 -0.4203759634 -0.0610371803 0.3043066733
650296100.0 -0.0488441895 0.2922556604 0.0755067662 -0.420956776 0.0755178174 -0.421007707 -0.0576729896 0.3054672575
655296070.0 -0.045946317 0.2925872726 0.0704625558 -0.421586233 0.0704991541 -0.4219209211 -0.0537948144 0.3060997423
660296040.0 -0.0430863286 0.2935956419 0.0665420501 -0.4223371013 0.0662567421 -0.4225495032 -0.0509873273 0.3066270882
665296010.0 -0.0396028337 0.293901199 0.0615221662 -0.4230252672 0.0618436777 -0.4230692508 -0.0481492193 0.3075390151
670295980.0 -0.0361366116 0.2947349586 0.0569246043 -0.4238552051 0.0572101521 -0.4237933955 -0.0452400795 0.3079722867
675295950.0 -0.0332202962 0.2950380275 0.0522542771 -0.4242808052 0.0524869248 -0.4245737328 -0.0415733865 0.3088010589
680295920.0 -0.0305333707 0.2960160862 0.0479822161 -0.4250143733 0.0477974631 -0.4247035743 -0.038382801 0.3093270923
685295890.0 -0.0272520571 0.2959720131 0.0434308804 -0.4253686419 0.0430557889 -0.4257830571 -0.0352531167 0.3099320021
690295860.0 -0.0236723621 0.2966420738 0.0384000849 -0.4255012893 0.0385611148 -0.4255531656 -0.0320776167 0.3107235374
695295830.0 -0.0204912076 0.2966076036 0.0332361385 -0.4257544758 0.0340098531 -0.4259841609 -0.0290991331 0.3110182718
700295800.0 -0.0175151806 0.2971183143 0.0289823926 -0.4266721376 0.0292824021 -0.4264783783 -0.0255452957 0.3109434801
705295770.0 -0.0142200262 0.2979594484 0.0247179391 -0.4268013378 0.0248313083 -0.4269087963 -0.0230499442 0.3118943493
710295740.0 -0.0112138754 0.2981547941 0.0199201558 -0.4267142358 0.0202779231 -0.4267432683 -0.0197339383 0.3125250034
715295710.0 -0.0081878631 0.298245189 0.0151781631 -0.4269518686 0.0158121419 -0.4268968267 -0.0164088189 0.3124463934
720295680.0 -0.0051872942 0.2984156163 0.0105031059 -0.4271181113 0.0110534154 -0.4276378622 -0.0129048761 0.3131597754
725295650.0 -0.0015848684 0.2987662478 0.0058210493 -0.4270164526 0.0061832902 -0.4269704638 -0.0094066763 0.3133077802
730295620.0 0.0015063288 0.2986398626 0.0010417939 -0.4268731266 0.0014556424 -0.4273002425 -0.0061015928 0.3131007687
735295590.0 0.004507174 0.2987171118 -0.0029483602 -0.4271300752 -0.0028977381 -0.4271995134 -0.0026371846 0.3136124336
740295560.0 0.0079223015 0.2991331035 -0.0077499418 -0.4263801779 -0.0076741675 -0.4270102603 0.0003292041 0.3133280337
745295530.0 0.0106741601 0.298709347 -0.0123729736 -0.4264367503 -0.0121954731 -0.4271241923 0.0034292932 0.31400576
750295500.0 0.0139050004 0.2989901862 -0.0168135306 -0.4264887654 -0.0169214819 -0.4262393752 0.0066852311 0.3132412561
755295470.0 0.017454914 0.2991808288 -0.0216642514 -0.4263435306 -0.0211857309 -0.4266363158 0.0098327766 0.3140196756
760295440.0 0.0204698351 0.2991002969 -0.0261692634 -0.4260457012 -0.0259085855 -0.4257951029 0.0129882772 0.313994557
765295410.0 0.023442051 0.298704208 -0.0305980437 -0.4254575345 -0.0305868657 -0.4258516565 0.0169457655 0.3139817732
770295380.0 0.0268500832 0.2986977263 -0.0355465191 -0.4251650181 -0.0351926001 -0.4255031024 0.0197498146 0.3141722607
775295350.0 0.0299684078 0.2989545331 -0.0399024108 -0.4245129706 -0.0395257524 -0.4247474684 0.0226871178 0.3135624717
780295320.0 0.0332194862 0.2981496678 -0.0443692428 -0.4241592854 -0.0443994989 -0.4245301 0.026132833 0.3142428664
785295290.0 0.0363144992 0.298877612 -0.0489848331 -0.4235418326 -0.0491081682 -0.4238667664 0.0289331383 0.3139911541
790295260.0 0.0394249408 0.2981816829 -0.0535945147 -0.4231530556 -0.0536059728 -0.4234908003 0.032746438 0.3132067973
795295230.0 0.0422371821 0.2980947144 -0.0578989462 -0.4222704206 -0.0577945758 -0.4230138123 0.0357955418 0.3135809178
800295200.0 0.0457586635 0.2977415946 -0.0629492108 -0.4218698252 -0.0628996418 -0.4221904535 0.0391100386 0.3130739192
805295170.0 0.0488215932 0.2972978888 -0.0670445605 -0.4206304538 -0.06721835 -0.4208397604 0.0418772955 0.312427949
810295140.0 0.0519882621 0.2967479761 -0.0718348115 -0.4202957181 -0.071559131 -0.4208126523 0.0456722877 0.3128466493
815295110.0 0.0549310208 0.2965250024 -0.0763541737 -0.4193582311 -0.0764880569 -0.4193667723 0.0485289059 0.3122656783
820295080.0 0.05826627 0.2954611646 -0.0807861123 -0.4186425334 -0.0807392361 -0.4187387219 0.0516956807 0.3117004306
825295050.0 0.0615280051 0.2953915875 -0.0850378409 -0.4172649628 -0.0850712976 -0.417692678 0.0551162527 0.3115267323
830295020.0 0.064678701 0.295124221 -0.089800279 -0.4167743115 -0.0900500248 -0.4167799098 0.0580827946 0.3109023655
