!Created with skrf (http://scikit-rf.org).
# Hz S RI R 50.0 
!freq ReS11 ImS11 ReS21 ImS21 ReS12 ImS12 ReS22 ImS22
300000.0 -0.7721206802 -0.1323680904 0.0003491819 0.0015977576 -0.000639463 -0.0004343909 0.8593362324 -0.0026780013
5299970.0 -0.7852830831 -0.0072781522 -0.0001298963 -1.25567e-05 2.47318e-05 -4.08376e-05 0.8596066556 -0.0099365151
10299940.0 -0.7879022185 -0.0046379876 -9.4679e-05 -0.0001229593 -1.2888e-06 1.03352e-05 0.8585960523 -0.0182748803
15299910.0 -0.7935538713 -0.0027758087 2.02837e-05 -0.0001820727 0.0001990302 7.40061e-05 0.8576436168 -0.0269472896
20299880.0 -0.7999995739 0.0014388961 3.21183e-05 0.0001035616 4.44577e-05 -1.37592e-05 0.8571292689 -0.0359864512
25299850.0 -0.8064873865 0.0075582818 -2.00427e-05 0.0001531104 -0.0002340052 4.55657e-05 0.8564118224 -0.043609726
30299820.0 -0.8125483539 0.0151101904 -6.3287e-05 -7.61777e-05 2.60219e-05 0.0001376905 0.8560137986 -0.0524954129
35299790.0 -0.8172331202 0.0245390903 -0.0001219849 2.30971e-05 6.52875e-05 1.76101e-05 0.8545742943 -0.0596055393
40299760.0 -0.820906754 0.0341545003 0.0001896646 -0.0001832728 -1.04402e-05 0.0001319091 0.8534928555 -0.0675418588
45299730.0 -0.8244137437 0.0427547951 0.0001198834 -0.0001433444 3.94327e-05 -6.77565e-05 0.8526549617 -0.0765831074
50299700.0 -0.8272090199 0.0531349087 1.8143e-05 -7.5715e-06 -8.209e-07 0.0001738983 0.8515616839 -0.0842008823
55299670.0 -0.8292773906 0.0630064768 -9.22993e-05 -0.0004032975 1.0939e-05 -0.000154051 0.8508817927 -0.0927685817
60299640.0 -0.8303349671 0.0730820747 -0.0002029395 0.0002331144 -9.7747e-06 -2.13311e-05 0.8492515901 -0.1008277216
65299610.0 -0.8310655697 0.083181814 -0.0001448656 0.0002517752 4.0178e-05 -6.2296e-05 0.8486035719 -0.1090358687
70299580.0 -0.8315835786 0.0931990058 -0.0001544834 -0.0001025949 0.0001116651 -0.0001412461 0.8475055066 -0.1171242391
75299550.0 -0.8317861341 0.1034248474 -0.0002290857 -0.0002085388 0.0001080803 5.25467e-05 0.8463460292 -0.125812219
80299520.0 -0.8317647377 0.1134464278 -9.74469e-05 -0.0002449739 7.38878e-05 0.0001226305 0.8450735485 -0.1334000024
85299490.0 -0.8309628369 0.1226229313 -3.12045e-05 0.0003047764 0.000205328 -0.0002290095 0.843959775 -0.1420403434
90299460.0 -0.8297314918 0.1323395612 -3.78343e-05 -0.0001074609 -3.89691e-05 -2.40338e-05 0.8422420927 -0.149451549
95299430.0 -0.8289583906 0.1409117501 -3.12019e-05 -0.000113805 7.51228e-05 5.37327e-05 0.8405173384 -0.1581437229
100299400.0 -0.8281630738 0.1503978119 0.0001189437 3.67227e-05 9.41479e-05 3.98412e-05 0.8384702224 -0.1666736561
105299370.0 -0.8270409813 0.1601857447 1.73679e-05 -2.23327e-05 4.2702e-05 3.27157e-05 0.837533648 -0.1745610143
110299340.0 -0.8253542232 0.1698631091 0.0002519492 -0.0002663911 -5.45783e-05 0.0003313382 0.8357910856 -0.1821760662
115299310.0 -0.8238524367 0.1785646932 0.0002286127 -0.0001315504 1.20775e-05 0.0001157204 0.8340253858 -0.1908623325
120299280.0 -0.8219682724 0.1869772322 0.0001800536 -9.55545e-05 3.80447e-05 -6.0576e-05 0.8326556197 -0.1991319285
125299250.0 -0.8206221514 0.1956133671 -4.88526e-05 1.93444e-05 -0.0001389613 0.000141738 0.8301029041 -0.206699495
130299220.0 -0.8186614029 0.2053056733 9.20066e-05 -0.0001477889 -0.0001067889 0.0001056228 0.8291597347 -0.2149410865
135299190.0 -0.8169918735 0.213564212 0.000193954 0.0002274521 4.0606e-05 6.82658e-05 0.8268012407 -0.2226089694
140299160.0 -0.8146914072 0.2232122916 -4.47272e-05 0.0001833118 0.0001604679 -1.76229e-05 0.8242317248 -0.2304455785
145299130.0 -0.8125565394 0.2323213533 -6.57745e-05 1.6132e-06 8.5749e-06 -0.0001174908 0.8218135954 -0.2387693512
150299100.0 -0.8100096222 0.2408758697 -0.0002558269 9.83675e-05 7.28708e-05 -5.99937e-05 0.8199621839 -0.246651134
155299070.0 -0.8075510963 0.2492904566 0.0002596102 -5.40893e-05 4.70385e-05 6.81386e-05 0.8172041903 -0.2547465991
160299040.0 -0.8047485312 0.2577194943 7.36572e-05 -3.56604e-05 -0.0001667556 5.48701e-05 0.814808088 -0.2621525709
165299010.0 -0.8028665178 0.2666395723 -1.13293e-05 -5.06756e-05 1.10456e-05 1.44203e-05 0.8118382555 -0.2701541329
170298980.0 -0.8000366743 0.2748216991 1.26277e-05 -0.0001326165 -5.12888e-05 3.5098e-06 0.8094114991 -0.277846916
175298950.0 -0.7969657881 0.2836439183 -0.0001632479 -8.31868e-05 0.0001396087 7.12593e-05 0.80696612 -0.2855860886
180298920.0 -0.7946255691 0.2931103988 -4.6924e-05 -0.0001485236 4.58208e-05 -2.43652e-05 0.8040892348 -0.293649065
185298890.0 -0.7909894851 0.3006675771 -8.14474e-05 -0.000157176 -1.35239e-05 -0.0002062986 0.8004238401 -0.3016194367
190298860.0 -0.7885288939 0.3090185685 -3.41688e-05 -4.98681e-05 6.95148e-05 -2.18421e-05 0.7973294142 -0.3088969084
195298830.0 -0.7852587087 0.3180573795 -8.34692e-05 7.75213e-05 3.77507e-05 -2.02534e-05 0.7949259032 -0.3162433224
200298800.0 -0.7812226161 0.3258349318 1.13027e-05 0.000141917 6.78431e-05 0.0002104266 0.7912644808 -0.3244767614
205298770.0 -0.7787107175 0.3347072477 -0.0001880318 0.000251285 -9.64526e-05 8.29727e-05 0.7882354222 -0.3320893954
210298740.0 -0.7746420607 0.3423500745 6.69686e-05 -0.000314381 4.1546e-05 -7.59369e-05 0.7842132661 -0.3387977731
215298710.0 -0.7718211812 0.3504955648 -8.72531e-05 -0.0001019302 -0.0001357777 0.0001469427 0.7815987776 -0.347055121
220298680.0 -0.7674120993 0.3585667362 -0.0001367179 0.0002230644 3.07609e-05 2.4602e-05 0.7776002284 -0.3541640181
225298650.0 -0.7644360873 0.3664214963 0.0001476374 0.0002275493 2.58789e-05 9.154e-05 0.7738431449 -0.3620345034
230298620.0 -0.7606371436 0.3749202886 0.0001301533 0.000218675 0.0001290341 -4.04401e-05 0.7710049624 -0.3695976949
235298590.0 -0.7564026156 0.3827838069 2.09279e-05 -0.0001883692 0.000140412 -0.0002115946 0.7663594653 -0.376784034
240298560.0 -0.7528703544 0.3910193035 -0.0001092631 8.50661e-05 6.25746e-05 -4.15926e-05 0.763266239 -0.3846306993
245298530.0 -0.7487692251 0.3986041065 -0.0002531504 -0.000211824 -6.51584e-05 5.85462e-05 0.7596251964 -0.3921812984
250298500.0 -0.7439769081 0.4064323494 2.3448e-06 -9.70184e-05 0.0002296417 -6.0825e-06 0.7553106794 -0.3989561453
255298470.0 -0.7394224337 0.4134531138 -0.0003428812 2.14551e-05 3.00011e-05 3.0928e-06 0.751847835 -0.4069030565
260298440.0 -0.7354196651 0.4217797865 0.000134089 -6.95353e-05 -6.85268e-05 -5.88672e-05 0.7477700983 -0.413380653
265298410.0 -0.7314587251 0.4295452707 -0.0004122236 -8.7077e-06 -6.5419e-06 -5.31832e-05 0.74397893 -0.4210131624
270298380.0 -0.7271831286 0.4369409384 1.26383e-05 -9.98033e-05 9.19003e-05 -9.13382e-05 0.7397720107 -0.4279563517
275298350.0 -0.7220138189 0.4442617043 9.08726e-05 5.75041e-05 -0.0001462316 -4.82993e-05 0.7358545902 -0.4355985291
280298320.0 -0.7174535296 0.4526862939 -0.0001845551 2.40952e-05 -7.57334e-05 0.0001585016 0.7321652258 -0.4427024524
285298290.0 -0.7126391687 0.4601268364 5.75139e-05 6.87497e-05 -2.32326e-05 -3.87948e-05 0.7280746557 -0.4500656905
290298260.0 -0.7080313687 0.4674917671 -5.57014e-05 -7.96409e-05 4.4987e-05 8.92661e-05 0.7239961436 -0.4570167713
295298230.0 -0.7027319236 0.4741508871 6.72108e-05 -0.0001211339 -0.0001696486 8.60623e-05 0.7198308686 -0.4635548331
300298200.0 -0.6980250375 0.4814945732 7.66062e-05 -9.94426e-05 -8.00559e-05 -8.67507e-05 0.7155161088 -0.4711982245
305298170.0 -0.692688148 0.4883429332 -9.80116e-05 8.52559e-05 2.30858e-05 -0.0001058978 0.7113101759 -0.4793449267
310298140.0 -0.6879015864 0.4957998009 -0.0001894891 -1.72991e-05 -1.21758e-05 -0.0002176232 0.7067452804 -0.4867439788
315298110.0 -0.6829033627 0.5032640913 -2.89271e-05 0.0001852114 -5.04249e-05 3.66564e-05 0.700818953 -0.4940485452
320298080.0 -0.677454848 0.5098744733 -3.10357e-05 1.80224e-05 5.33053e-05 -3.3029e-06 0.6958321793 -0.501601583
325298050.0 -0.6720779832 0.5170823573 -6.88944e-05 -9.11047e-05 -4.34144e-05 -4.64455e-05 0.6905189041 -0.5081835344
330298020.0 -0.6660704324 0.5235326937 -0.0001130472 -7.74882e-05 0.0001057021 0.0001709647 0.6842215074 -0.51507195
335297990.0 -0.6612576691 0.530518474 6.81756e-05 -0.000182078 -7.607e-07 2.83267e-05 0.6788906991 -0.5206658269
340297960.0 -0.6560328622 0.5376320561 -5.91093e-05 0.0001635925 -0.0001027408 -0.0001019723 0.6737959383 -0.5272105669
345297930.0 -0.650002556 0.5440460047 0.0001866963 -9.08977e-05 8.64481e-05 -0.0001299678 0.6676396763 -0.533945272
350297900.0 -0.6447432369 0.55080754 -0.0001934149 0.0001181248 -8.16093e-05 8.30232e-05 0.661937747 -0.5390550479
355297870.0 -0.6378793337 0.5580543259 -4.01663e-05 6.28034e-05 -0.0002652847 -7.3201e-05 0.6568336727 -0.5456811828
360297840.0 -0.6322653875 0.5637389345 -6.49186e-05 0.0001345662 -0.0001304947 0.000216112 0.6518547908 -0.5525146231
365297810.0 -0.6272140564 0.5701365445 7.61141e-05 -0.0001065377 -3.38368e-05 0.0001613816 0.6463337585 -0.5580960634
370297780.0 -0.6210002229 0.576373045 -9.35678e-05 6.02012e-05 -0.0001105305 3.74412e-05 0.6406357138 -0.5637598251
375297750.0 -0.6147010226 0.5832813851 9.7107e-06 -1.4634e-06 0.0001055075 7.9297e-06 0.6348211222 -0.5703283001
380297720.0 -0.608894297 0.5889236914 8.1353e-05 0.0001250604 -3.51261e-05 1.0481e-05 0.6288269306 -0.5762563399
385297690.0 -0.6032085039 0.5946905638 -8.64433e-05 0.0001559747 -2.49168e-05 2.64496e-05 0.6233111704 -0.5820915234
390297660.0 -0.5971498949 0.601315919 -0.0002000644 2.09978e-05 -3.02207e-05 -0.0001725153 0.6174049766 -0.5879551154
395297630.0 -0.5906991499 0.6078998099 0.0001147073 -0.0002577393 -2.6117e-05 5.7733e-05 0.6112765999 -0.5941104628
400297600.0 -0.5841426027 0.6138271662 0.0001271553 -0.0001389197 -0.0001719374 -1.92789e-05 0.6057557967 -0.5994142918
405297570.0 -0.5781017242 0.6192168124 -1.85613e-05 6.87414e-05 0.0001041135 -3.85998e-05 0.5995849625 -0.6057034625
410297540.0 -0.5716500551 0.6247064766 -6.25212e-05 -7.89119e-05 0.0002702491 0.0001856987 0.5939004556 -0.6112755559
415297510.0 -0.5648399375 0.6311101629 0.0001259219 -0.000380578 0.0002186643 -0.0001059133 0.5875741341 -0.6168914197
420297480.0 -0.558903645 0.6372667036 -4.14e-05 3.74886e-05 -0.0001509801 0.0002128925 0.5822268849 -0.6226122291
425297450.0 -0.5515776511 0.6424324511 0.0002517014 0.0002633169 7.89503e-05 5.48796e-05 0.575754035 -0.6281496309
430297420.0 -0.5457269142 0.6483988665 0.000285919 -0.0002330041 7.58672e-05 6.23559e-05 0.5688222002 -0.6342523981
435297390.0 -0.5387346708 0.653025744 5.032e-07 0.0002933155 0.0002257256 0.0002230643 0.5629098675 -0.6395743899
440297360.0 -0.5321679652 0.6588593088 0.0001506308 -0.0001496773 -0.0001916018 -3.98372e-05 0.5564367334 -0.6449989853
445297330.0 -0.5250514859 0.664125906 -2.32937e-05 4.02316e-05 0.0001924483 -2.986e-07 0.5506962638 -0.6507884159
450297300.0 -0.5183821943 0.6690220223 -5.88695e-05 1.93273e-05 5.6885e-06 -4.5255e-06 0.5436905684 -0.6554898863
455297270.0 -0.511068129 0.6740987068 0.0002491566 7.04984e-05 -0.0001355241 8.5975e-05 0.5373747897 -0.6612211787
460297240.0 -0.5052640823 0.6793540279 6.726e-07 5.3609e-05 3.19414e-05 7.1908e-06 0.5314707152 -0.6659524645
465297210.0 -0.497926331 0.6850550141 -8.7099e-05 -4.42446e-05 -7.0213e-05 -3.19435e-05 0.5247778822 -0.6708933048
470297180.0 -0.4907915687 0.6895109206 8.88677e-05 -9.787e-07 0.0001136667 -6.82171e-05 0.5183055702 -0.6763183235
475297150.0 -0.4836636572 0.6945493024 3.2652e-05 7.80467e-05 1.6582e-06 -9.59834e-05 0.5115529164 -0.681089178
480297120.0 -0.4764881707 0.6991607594 -2.50782e-05 -7.2187e-05 0.0001316857 -4.1229e-06 0.5049700355 -0.6856904506
485297090.0 -0.4693866977 0.703843468 -7.07616e-05 8.51156e-05 -2.21645e-05 -0.0002446982 0.4985253265 -0.6908258703
490297060.0 -0.4627485119 0.7086273941 5.75916e-05 0.0001924618 1.53393e-05 5.22001e-05 0.4910755001 -0.6960846156
495297030.0 -0.4552724186 0.7130994053 0.0001283707 -0.0001734662 1.71925e-05 6.80901e-05 0.4844899583 -0.7002138585
500297000.0 -0.4480547692 0.7178337294 2.12031e-05 0.0001125288 1.72507e-05 9.73963e-05 0.4775846503 -0.7048932071
505296970.0 -0.4401824392 0.7219518773 0.0001061232 -0.000184511 1.12242e-05 9.0151e-05 0.4704199455 -0.7089732882
510296940.0 -0.433407554 0.7264439409 1.17633e-05 0.000109301 -3.2903e-05 -0.0001679719 0.4632590681 -0.7139778375
515296910.0 -0.4249558266 0.7300019435 -0.0001841212 -0.0001837881 -9.4988e-05 -0.0001790793 0.456406365 -0.7180140861
520296880.0 -0.4186083077 0.7354995118 -2.35897e-05 -2.81564e-05 -7.57104e-05 9.2161e-05 0.4487250421 -0.7229828643
525296850.0 -0.4106371198 0.7388754518 -2.512e-05 -0.0002340983 -0.0002005259 -0.0001916714 0.4419559288 -0.7261884361
530296820.0 -0.4031756016 0.7436758042 0.0001001587 2.90697e-05 0.0001431447 0.0001406276 0.4349084297 -0.7306971079
535296790.0 -0.395914126 0.7468449398 -6.5999e-05 0.0002826334 1.20232e-05 -9.06725e-05 0.4272799257 -0.7350556169
540296760.0 -0.3881018926 0.7509847274 0.0003359494 -8.73812e-05 -7.94162e-05 -4.18501e-05 0.4199265671 -0.7389434309
545296730.0 -0.3808806749 0.7552308942 -2.16331e-05 9.95125e-05 -2.07459e-05 -8.72806e-05 0.4131479983 -0.7428394905
550296700.0 -0.3732364061 0.7586632728 0.0001215006 -4.58907e-05 -5.58384e-05 -0.0002376194 0.4056511188 -0.7473982077
555296670.0 -0.3655480276 0.7613592867 0.0001869748 3.70455e-05 -6.20603e-05 -8.1983e-06 0.3981006558 -0.7505570123
560296640.0 -0.357462036 0.7661246593 4.76892e-05 0.0001782129 -0.0001895145 6.38049e-05 0.3903854185 -0.7540230305
565296610.0 -0.3497811567 0.7694371404 0.0001369637 8.55516e-05 1.67225e-05 4.58469e-05 0.3831984542 -0.7578581894
570296580.0 -0.3426425676 0.7722967281 -0.0001184012 -7.8576e-05 3.036e-05 -7.3997e-05 0.3753352613 -0.7617638176
575296550.0 -0.3348376833 0.7769023881 6.13869e-05 -0.0001664688 5.60768e-05 -9.92632e-05 0.3677959357 -0.7650811732
580296520.0 -0.3264142682 0.7795585923 -8.57268e-05 0.0001842029 2.96344e-05 -8.52669e-05 0.3601733394 -0.769181452
585296490.0 -0.3189147591 0.7817891791 2.40047e-05 -3.54044e-05 -0.0002236167 6.14143e-05 0.352792623 -0.7725256711
590296460.0 -0.3108382316 0.7853155055 -3.09826e-05 -0.0001435777 3.8579e-06 -6.05578e-05 0.3445216553 -0.7748556529
595296430.0 -0.3029001307 0.7881958554 -6.3075e-06 0.0001235586 -0.0001232374 0.0001595379 0.3368447928 -0.7785453464
600296400.0 -0.2947510071 0.7918845665 -7.99645e-05 -8.6318e-06 -4.55708e-05 -0.0001728761 0.330027636 -0.7823204271
605296370.0 -0.2875525567 0.7946019305 -1.8735e-05 -2.15751e-05 0.000147879 -6.86411e-05 0.3218117782 -0.7853010915
610296340.0 -0.279686131 0.7970454029 0.0001353158 -0.000146172 6.70093e-05 -0.000166505 0.3142781581 -0.7879365957
615296310.0 -0.2709667978 0.800131866 6.35122e-05 1.05597e-05 8.52322e-05 -2.87025e-05 0.3069153836 -0.7911376349
620296280.0 -0.2630045915 0.8016826209 1.71254e-05 0.0001113064 -6.97838e-05 -7.64159e-05 0.2989906293 -0.7944186831
625296250.0 -0.255020985 0.8053471629 -2.61704e-05 -4.78211e-05 -0.0002032049 0.0001541654 0.2916131941 -0.7972330485
630296220.0 -0.2464431809 0.8074664093 -9.67167e-05 -9.43412e-05 3.81748e-05 -0.0001477169 0.2828963338 -0.7996466215
635296190.0 -0.2387980707 0.8106425581 3.26732e-05 -2.29905e-05 0.0001343406 -9.12819e-05 0.276064706 -0.8025016794
640296160.0 -0.2312176926 0.812439636 0.000175596 -3.94647e-05 -2.96585e-05 0.0001614112 0.2668744823 -0.804884741
645296130.0 -0.2230743733 0.8152100976 -0.0001216437 -6.42518e-05 5.09231e-05 2.3671e-06 0.2594464753 -0.8080261457
650296100.0 -0.2149416014 0.8162350074 1.38726e-05 8.5672e-06 4.25352e-05 0.0001221764 0.2518584343 -0.8109355715
655296070.0 -0.2062132693 0.8191517882 -6.10298e-05 -4.23533e-05 0.0002094157 0.000141411 0.244138707 -0.8120992921
660296040.0 -0.1979577815 0.8206708894 -1.82567e-05 -3.0791e-06 0.0002392497 -0.0002038985 0.2363071009 -0.8148387133
665296010.0 -0.1900271295 0.8215617534 0.0001151626 -0.0001198076 0.00010074 -0.0001650521 0.2272157621 -0.8167154131
670295980.0 -0.182135098 0.8244809581 2.77021e-05 -4.85165e-05 6.62908e-05 7.42774e-05 0.2189517757 -0.8189022843
675295950.0 -0.1738318823 0.8260951384 1.81804e-05 2.7171e-05 -3.59797e-05 0.0001550412 0.2111817331 -0.8203538086
680295920.0 -0.1651295795 0.828000169 7.73596e-05 0.0001995778 -8.1934e-06 7.63411e-05 0.2034242881 -0.8220973456
685295890.0 -0.1570559308 0.8299754906 0.0001159348 -0.0001146087 -0.0001296899 -0.0001553434 0.1951950131 -0.8242229483
690295860.0 -0.1488836828 0.831091104 -6.07129e-05 8.03441e-05 3.79692e-05 -0.0001049297 0.186523497 -0.8253350687
695295830.0 -0.140983033 0.8317758027 6.63809e-05 0.0002478185 -0.00010726 0.000157031 0.1786917534 -0.827083538
700295800.0 -0.1319213849 0.8339152822 8.26068e-05 0.000135256 8.18421e-05 -0.0001044502 0.1702893611 -0.8290951035
705295770.0 -0.1242269522 0.8353223885 2.42884e-05 0.0001206449 -0.000173513 -1.32405e-05 0.1617310737 -0.8294769865
710295740.0 -0.1159442762 0.8361223213 -6.05546e-05 7.7067e-06 0.0002300221 0.0001480815 0.1539089068 -0.8309521032
715295710.0 -0.1082688393 0.8371784642 -0.0003964133 -5.44725e-05 9.95184e-05 -0.0002628524 0.1459517407 -0.833091297
720295680.0 -0.0992801921 0.8387370392 -3.70028e-05 0.0005058945 -0.0002543431 -0.0001796841 0.1375993731 -0.8341776635
725295650.0 -0.0910458273 0.8402399784 9.55765e-05 0.0001417898 -0.0001404475 -0.0001057388 0.1288241637 -0.8348151005
730295620.0 -0.082253503 0.8405950934 -9.75952e-05 -0.0002090915 4.11683e-05 -5.8034e-05 0.1202009329 -0.8369414791
735295590.0 -0.0744834347 0.8416273416 -3.59279e-05 5.78136e-05 -5.9594e-05 -2.98563e-05 0.1122153333 -0.838159309
740295560.0 -0.0660995608 0.8424251463 -4.9421e-06 -0.0002267898 0.0001500544 -6.3708e-06 0.1042873394 -0.8382502203
745295530.0 -0.0571784213 0.8429337993 7.61375e-05 -0.0002173161 6.4958e-06 -0.0001222783 0.0960114573 -0.8394932116
750295500.0 -0.0492167152 0.8426443345 0.0002101358 -3.84366e-05 0.0001791182 -0.0002496941 0.0871690034 -0.8403571128
755295470.0 -0.04114733 0.8436026486 1.07548e-05 0.0001418116 0.000105032 0.0001055983 0.0791443652 -0.8418760775
760295440.0 -0.0327941558 0.8432581874 0.0001742138 0.0001910147 -6.06164e-05 1.50819e-05 0.0712738519 -0.8419080221
765295410.0 -0.0245198437 0.8437731613 0.00018525 -3.5071e-06 -4.57933e-05 -1.09886e-05 0.0627223091 -0.8424171552
770295380.0 -0.0160848169 0.8439394793 0.0001733158 0.0001818235 -7.68322e-05 -2.15722e-05 0.0535600247 -0.8430496474
775295350.0 -0.0076409447 0.8440358582 3.53841e-05 -1.93876e-05 -0.0001617593 4.53867e-05 0.0450050163 -0.8429555317
780295320.0 0.0005459284 0.8443903327 3.99147e-05 0.000156449 4.04222e-05 -1.02582e-05 0.0374046301 -0.843521251
785295290.0 0.0087609759 0.8433701653 0.0001100093 3.75714e-05 0.0002682864 1.47385e-05 0.0296791723 -0.8435938616
790295260.0 0.018074216 0.8440101531 -0.0001594143 1.28783e-05 3.17228e-05 -7.881e-07 0.0215552085 -0.8442788113
795295230.0 0.0254020856 0.8438830718 0.0001543244 -0.0002130244 4.02172e-05 -3.15135e-05 0.0128585806 -0.8439835637
800295200.0 0.0340446483 0.8432777593 -0.0001015334 -0.0001866027 0.0001840641 7.41916e-05 0.0041810818 -0.8436248723
805295170.0 0.0426058102 0.8431253145 -0.0001780005 4.15346e-05 -1.12381e-05 -7.9449e-06 -0.0046722105 -0.8430274028
810295140.0 0.0505178978 0.8424293137 -0.0001347469 1.21201e-05 -0.0002335017 3.03266e-05 -0.0120297086 -0.8439186621
815295110.0 0.0590382874 0.8419785571 -0.0001057956 8.60039e-05 -5.93549e-05 9.38624e-05 -0.020354728 -0.8432286247
820295080.0 0.0667804767 0.8413083302 -5.03512e-05 0.0002601256 -0.0001777549 0.0001391208 -0.0290564012 -0.8427949269
825295050.0 0.0762361452 0.8405393129 7.77848e-05 1.96412e-05 -9.81238e-05 4.82518e-05 -0.0367341059 -0.8423525906
830295020.0 0.0838729516 0.8398616643 1.3908e-06 -5.50321e-05 8.88588e-05 -6.72085e-05 -0.0455815382 -0.8416687227
835294990.0 0.0922734185 0.8390155252 0.0001999581 -0.0001720007 8.46659e-05 2.51e-08 -0.0542534927 -0.8411184023
840294960.0 0.0999470123 0.8383832105 -0.0001400642 -6.6026e-05 5.73976e-05 0.0001014279 -0.0622266239 -0.8406087029
845294930.0 0.1087984579 0.8368617487 0.000223851 0.0001874345 -0.0001180478 7.13505e-05 -0.070766327 -0.839184755
850294900.0 0.1165321408 0.8357862914 -4.69976e-05 -1.2768e-06 -2.9565e-05 5.78273e-05 -0.0791869949 -0.8384799966
