!Created with skrf (http://scikit-rf.org).
# Hz S RI R 50.0 
!freq ReS11 ImS11 ReS21 ImS21 ReS12 ImS12 ReS22 ImS22
300000.0 -0.0436560725 -0.0583226756 -0.00077374 -0.000900312 -0.0005107626 0.0009215654 -0.7616486369 -0.1699598741
5299970.0 -0.0448732977 0.0155628003 -3.68144e-05 3.74049e-05 -0.0001766202 0.0003481046 -0.7847198331 -0.0085118236
10299940.0 -0.0391400889 0.0333436536 -0.0001722034 -3.5418e-05 2.16837e-05 -0.0001471775 -0.7883123532 -0.0050630416
15299910.0 -0.0307289822 0.0481825192 0.0001834219 0.0001627339 -1.69746e-05 6.2372e-05 -0.7933139569 -0.0031208409
20299880.0 -0.0203635643 0.059985104 7.98372e-05 -0.0001774934 0.0001149515 -1.98104e-05 -0.8004501856 0.00153326
25299850.0 -0.0089628428 0.0694663699 -0.0001063606 -2.45152e-05 -3.52008e-05 -5.44922e-05 -0.8064553689 0.0072971463
30299820.0 0.0024814314 0.0757359378 0.0001125589 6.12468e-05 2.45977e-05 8.72128e-05 -0.8124137602 0.0148015232
35299790.0 0.0145175593 0.0806911099 -0.0001012895 2.28897e-05 -3.61502e-05 -2.69906e-05 -0.8179333371 0.0238679209
40299760.0 0.0258398547 0.0835314382 -0.0002344549 2.96838e-05 -0.0001656249 2.11328e-05 -0.8217358984 0.0333051888
45299730.0 0.0364343269 0.0853192747 1.76864e-05 2.86164e-05 0.0001574481 -7.79042e-05 -0.8250856954 0.042172659
50299700.0 0.0467520227 0.0849660006 -4.2827e-06 0.0001047045 -5.74377e-05 0.0001113423 -0.8276693918 0.0526092168
55299670.0 0.0557299216 0.0841412978 2.75659e-05 -7.2648e-06 -5.89372e-05 -5.10318e-05 -0.8294953715 0.0628744375
60299640.0 0.0644801733 0.0820547877 -0.0003034871 9.50723e-05 -4.99149e-05 -8.12608e-05 -0.8310155823 0.0732016071
65299610.0 0.0720045801 0.0800079995 -0.0001001121 0.0002931714 5.19446e-05 3.47192e-05 -0.8312296837 0.0832073984
70299580.0 0.0792323969 0.0768900971 -0.0002297313 2.36763e-05 -4.58493e-05 3.70304e-05 -0.8321424021 0.092813299
75299550.0 0.0858582512 0.0735136772 7.80677e-05 5.39544e-05 2.22198e-05 9.51088e-05 -0.8323871403 0.1019896207
80299520.0 0.0911250175 0.0704725916 1.42527e-05 7.22431e-05 1.91732e-05 0.0001445778 -0.8317212633 0.1120724796
85299490.0 0.0963919081 0.0662314858 -0.0001713214 3.12468e-05 -6.4944e-06 -7.0707e-06 -0.8319380333 0.1221693765
90299460.0 0.1010810575 0.06276007 -0.000120827 5.40389e-05 8.96269e-05 0.0001247628 -0.8306922677 0.1315373496
95299430.0 0.1049837089 0.0589689675 6.76983e-05 -7.64674e-05 -2.09593e-05 1.0528e-06 -0.829941557 0.1413811119
100299400.0 0.108524827 0.0549452148 -9.9295e-06 5.5458e-05 -6.40018e-05 -2.61691e-05 -0.8288023348 0.1498888705
105299370.0 0.1117912819 0.0511053235 -2.97287e-05 8.8042e-06 0.0001529005 0.0002455036 -0.8275401067 0.1591801366
110299340.0 0.1144923135 0.0472895377 6.69803e-05 0.0001174956 6.85802e-05 -8.20847e-05 -0.8264482759 0.1683822775
115299310.0 0.1169964695 0.0430646825 0.0001450259 3.29992e-05 -8.55375e-05 -4.09808e-05 -0.8247898855 0.1770076864
120299280.0 0.1192088697 0.0397588592 5.62652e-05 -4.81372e-05 4.57222e-05 0.0001700338 -0.8235602348 0.1858902676
125299250.0 0.1211334562 0.0354805119 0.0002157002 -8.46209e-05 -0.0001581921 7.68184e-05 -0.8216661766 0.1954256795
130299220.0 0.1230423193 0.03239487 0.0001111453 4.60834e-05 0.0001515842 1.3446e-05 -0.8198673593 0.2042916192
135299190.0 0.1246235739 0.0282196603 4.42008e-05 -0.0001375868 3.42504e-05 0.0001938168 -0.8180154716 0.2125483628
140299160.0 0.1260940861 0.0251244339 0.0001060871 0.0001920796 5.83683e-05 -1.49818e-05 -0.815600046 0.2215839009
145299130.0 0.1269667442 0.0213812395 4.45914e-05 6.33e-05 7.89819e-05 -1.17245e-05 -0.8140710643 0.2299822287
150299100.0 0.1280698025 0.0180679354 6.27788e-05 3.95653e-05 7.31457e-05 0.0002875442 -0.8116237683 0.2383677596
155299070.0 0.1287915572 0.0151488346 0.0001832382 0.0001357182 0.0001803291 7.99461e-05 -0.8098729104 0.2472934469
160299040.0 0.1293180908 0.0118013649 3.99121e-05 -6.7067e-06 -2.83773e-05 8.76878e-05 -0.8072816195 0.2568064577
165299010.0 0.1296775698 0.00845267 -0.0001615426 8.08004e-05 -7.42922e-05 7.10466e-05 -0.8040796631 0.2650335035
170298980.0 0.1301639166 0.0052062233 -9.3221e-06 0.0001086286 0.0001566933 7.27289e-05 -0.8019014576 0.2735294497
175298950.0 0.130649866 0.0027252105 0.0001019515 0.0001530746 6.67287e-05 -6.05666e-05 -0.7987870262 0.282242824
180298920.0 0.1307581965 -0.000622875 7.06931e-05 0.000204015 -1.73795e-05 0.0001401796 -0.7958732871 0.2907816666
185298890.0 0.1308812104 -0.0033223142 0.0003950968 9.7801e-06 2.70711e-05 7.32853e-05 -0.7931274472 0.2985098704
190298860.0 0.1309140816 -0.0061983565 -5.91838e-05 9.80901e-05 0.0001196899 8.67057e-05 -0.7892409122 0.3073671765
195298830.0 0.1312135998 -0.0089568973 -9.59772e-05 0.0001074689 2.49389e-05 0.0001689316 -0.7870114043 0.3151560607
200298800.0 0.1309125817 -0.0115022521 -9.8966e-05 -4.31748e-05 0.0001229767 0.0001560998 -0.7830793482 0.3240961791
205298770.0 0.1305800667 -0.0142110851 -4.28949e-05 1.97557e-05 4.9825e-05 8.21536e-05 -0.7801315723 0.3323270096
210298740.0 0.1304364909 -0.0165130149 1.2496e-05 7.76299e-05 0.0002366583 0.0001112773 -0.7766840626 0.3402933707
215298710.0 0.1302095584 -0.0191491545 7.36774e-05 0.0004016598 3.17496e-05 8.59942e-05 -0.7732274602 0.3483343026
220298680.0 0.1298791382 -0.0212972565 -2.92e-06 4.75239e-05 2.89035e-05 8.69969e-05 -0.7693593296 0.3567035763
225298650.0 0.1295615055 -0.0239622823 -2.06802e-05 -4.30298e-05 5.81081e-05 2.54824e-05 -0.7659739171 0.3649731397
230298620.0 0.1290317015 -0.0263508481 -0.0002553807 -4.05708e-05 0.0001107847 0.0002023942 -0.7617899013 0.372261982
235298590.0 0.1282353092 -0.0285907095 -0.0001811327 0.0001325356 -8.08292e-05 0.0003517512 -0.7577205843 0.3803609382
240298560.0 0.1278970384 -0.0306104407 0.000111951 8.86808e-05 7.21987e-05 3.20252e-05 -0.7540136497 0.3882232591
245298530.0 0.1274069214 -0.033133702 6.87129e-05 -8.61598e-05 0.0001745229 2.62232e-05 -0.7499483739 0.3965540041
250298500.0 0.1265790313 -0.0353148919 5.60863e-05 1.70871e-05 9.31174e-05 0.0002297652 -0.74556615 0.404771677
255298470.0 0.1261099517 -0.0372155277 0.0001899697 -1.407e-05 0.0002550369 0.000243954 -0.7411597375 0.4120536202
260298440.0 0.1255976539 -0.0390389545 -0.0001828974 0.0001680146 9.47362e-05 0.0001300196 -0.7367418805 0.4199832763
265298410.0 0.1247183941 -0.0409901842 0.0001781412 -0.0001432516 0.0001725291 0.0003492514 -0.7325260401 0.4275144035
270298380.0 0.124147841 -0.0430827403 0.0001422014 -0.0002233215 0.0002577484 0.0002300688 -0.7276098596 0.4350283909
275298350.0 0.12326842 -0.0450874951 0.0002493851 0.0001089717 0.0001489242 3.89309e-05 -0.7228032407 0.4431747277
280298320.0 0.1229301798 -0.0470761873 0.0001823616 6.77154e-05 0.000221565 0.0001878504 -0.7184091213 0.450185038
285298290.0 0.1218406509 -0.0486799386 1.6481e-06 1.26851e-05 7.323e-05 0.0002271982 -0.7135438436 0.457524612
290298260.0 0.1212026179 -0.0505978443 0.000354023 0.0002116202 9.82807e-05 4.88376e-05 -0.7088292256 0.4658122695
295298230.0 0.1203885062 -0.0527900265 -0.0001711967 0.0001234818 -9.61637e-05 0.0001271127 -0.7039889818 0.4734147837
300298200.0 0.1196561979 -0.0546503843 3.74523e-05 -0.000108314 0.0001168776 7.96276e-05 -0.6982950665 0.4801999627
305298170.0 0.1191297281 -0.0562519048 0.0001157238 0.0001407022 3.40747e-05 0.0001660078 -0.6931606111 0.4875823414
310298140.0 0.1177520528 -0.0584105151 0.0003983727 -2.67157e-05 0.0003170389 8.04521e-05 -0.6890339965 0.494774916
315298110.0 0.1166643469 -0.0601978172 0.0002400799 -6.03784e-05 0.0001246986 -0.0001156935 -0.6832347299 0.5017739631
320298080.0 0.1157459519 -0.0619943419 0.0003118791 -2.23303e-05 7.20481e-05 -1.54844e-05 -0.6774948813 0.5096769378
325298050.0 0.1145688142 -0.0638450098 -0.0001717328 1.16597e-05 0.0002144426 0.0002722149 -0.6718933431 0.5159991677
330298020.0 0.1131633214 -0.0654852303 0.0002741781 0.0002417349 0.000123802 9.30336e-05 -0.6665655586 0.5232449477
335297990.0 0.1119774235 -0.0669882998 5.63337e-05 0.0001980352 0.0001043704 -4.98496e-05 -0.6607563043 0.5302450252
340297960.0 0.1106039604 -0.0683620669 0.0003107017 -5.868e-05 0.0001647074 0.0003000441 -0.6552248182 0.5370769822
345297930.0 0.109422641 -0.0697383592 0.0002572976 -0.000128356 0.0002784227 -3.1215e-05 -0.6494611015 0.5440070917
350297900.0 0.1085854449 -0.0710358516 0.0001697629 8.00935e-05 8.77693e-05 -0.0001732505 -0.6437567189 0.5513756876
355297870.0 0.1070891813 -0.0723607015 0.0003654604 5.36514e-05 0.0004257874 1.58791e-05 -0.6380463811 0.5570338205
360297840.0 0.1061283596 -0.0738412299 0.0003470777 0.0002255571 0.0002163167 -3.52e-08 -0.6321543332 0.5633720191
365297810.0 0.1048893566 -0.0752838296 0.0001462135 0.0002259122 0.0003501366 0.0002561073 -0.6265733855 0.5708176442
370297780.0 0.1035815974 -0.0762321803 0.0002654777 0.000192255 2.51545e-05 3.79046e-05 -0.6205272998 0.5765521642
375297750.0 0.1026643902 -0.0773332352 0.0002938212 0.0002079531 0.000150544 6.10578e-05 -0.6139872466 0.5831421045
380297720.0 0.1018231983 -0.0790738783 0.0002850899 -5.4976e-05 2.44249e-05 9.38147e-05 -0.6077506251 0.5905445943
385297690.0 0.1001561775 -0.0800627305 0.0002327574 7.01697e-05 8.18597e-05 0.0001160241 -0.6018766041 0.5958024609
390297660.0 0.099011876 -0.0813489129 7.82457e-05 6.46761e-05 9.33292e-05 0.0003348279 -0.5951941552 0.6013918367
395297630.0 0.0980301702 -0.0827198638 0.0002994729 0.0003264898 0.0001821965 -2.69518e-05 -0.5890414145 0.608345844
400297600.0 0.0964210441 -0.0835770165 3.28302e-05 9.86644e-05 0.0002469394 1.01575e-05 -0.5833786651 0.6144973589
405297570.0 0.0956185215 -0.0849188924 0.0001737906 0.0001398232 4.33694e-05 0.0001555284 -0.5772724703 0.6200589636
410297540.0 0.0942503374 -0.0859919962 0.0001226062 0.0001294453 8.53697e-05 -2.83708e-05 -0.5700704048 0.6255370259
415297510.0 0.0929278627 -0.0870868806 0.0004185988 0.0001566407 0.0001333201 1.62996e-05 -0.5637379345 0.6319233392
420297480.0 0.0915430701 -0.0883335794 0.0002664477 0.000115352 0.0002724198 0.0001667676 -0.556626707 0.6366584441
425297450.0 0.090506931 -0.0891081466 0.0002528811 2.64289e-05 8.73132e-05 0.0001139168 -0.5502339444 0.6431508709
430297420.0 0.0891461467 -0.0902725189 0.0004085696 7.82227e-05 0.0003609243 0.0001225507 -0.54411125 0.6484705906
435297390.0 0.0880600387 -0.0911714111 0.0003279446 0.0001029839 0.0001932612 7.78646e-05 -0.5366716963 0.6535750365
440297360.0 0.0867875085 -0.0923087741 0.0001870997 -7.56013e-05 0.0002702523 0.0001674183 -0.530179033 0.6588926156
445297330.0 0.0852172902 -0.0931268359 0.0002050347 -3.09231e-05 -2.48221e-05 -3.0619e-06 -0.5237812314 0.6641852556
450297300.0 0.0838143318 -0.0941881336 0.0002315846 0.0002232315 0.0002117994 2.19413e-05 -0.5173826172 0.6695426308
455297270.0 0.0825169422 -0.0949218494 0.0001523501 0.0001414908 0.0002019073 2.14372e-05 -0.5103532629 0.6750832591
460297240.0 0.0813020319 -0.0958211631 0.0002563502 4.16262e-05 9.51944e-05 8.05094e-05 -0.5027280963 0.6805833327
465297210.0 0.0799284988 -0.0967655827 0.0001284867 0.0002169217 0.0003243732 7.00412e-05 -0.4959166012 0.6850047227
470297180.0 0.078592831 -0.0976787225 9.0537e-05 -2.93696e-05 0.0001004935 8.12228e-05 -0.4894517373 0.6893605328
475297150.0 0.0771839346 -0.0983928892 5.64624e-05 9.33383e-05 0.0002485287 5.36178e-05 -0.4818898746 0.6944227585
480297120.0 0.0758207904 -0.0994933391 0.0002372294 4.01477e-05 0.0002711392 -9.23943e-05 -0.4751833443 0.6997799833
485297090.0 0.0746566535 -0.1000070989 0.0001780636 -4.90753e-05 0.0002609279 9.55584e-05 -0.4681216976 0.7037297562
490297060.0 0.0733610945 -0.100771034 0.0003581558 6.89035e-05 0.0002325674 0.0002696368 -0.4609430247 0.7086563021
495297030.0 0.0719138319 -0.1017151997 0.0003214472 0.0001062629 0.0003977737 0.0001205837 -0.4532302942 0.7125603797
500297000.0 0.0704193686 -0.1023990563 0.0002034863 0.0001671521 0.0004582404 0.000200392 -0.446272133 0.7177648831
505296970.0 0.0688228197 -0.1030317177 0.0002928048 9.49136e-05 0.0002681599 0.0001790381 -0.4399553759 0.7216229597
510296940.0 0.0678768979 -0.1037081041 0.0003171857 0.0001904916 0.0003637494 6.67114e-05 -0.4322810851 0.7266126594
515296910.0 0.0659954239 -0.1043817867 0.0001230411 5.21696e-05 0.0002943762 0.0001191364 -0.4247486775 0.7309880766
520296880.0 0.0648138702 -0.1050896416 0.0003537982 7.16331e-05 0.000279088 -6.61471e-05 -0.4173162222 0.734434843
525296850.0 0.0633288275 -0.105677076 9.36752e-05 2.56449e-05 0.0002371971 8.09742e-05 -0.4097813731 0.7392553487
530296820.0 0.0619489333 -0.1063822018 0.000115392 0.0001406968 8.57493e-05 4.2016e-05 -0.4029918069 0.7427818381
535296790.0 0.060689505 -0.1067052487 0.0003860809 5.74368e-05 0.0003154505 0.0002330157 -0.3957334423 0.7464019305
540296760.0 0.0590380244 -0.1076721074 0.0002152867 -5.07517e-05 0.0003775277 7.40546e-05 -0.3878030438 0.7505564345
545296730.0 0.0577196269 -0.1080706942 0.0002838777 0.0001987372 0.000298449 0.0002549994 -0.3804399087 0.7541662341
550296700.0 0.056073284 -0.1084401008 0.0001613239 5.393e-06 0.0004061383 -1.72363e-05 -0.3732447512 0.7577239952
555296670.0 0.0547809558 -0.1089739201 0.0002068772 0.0002169047 0.0003222825 -2.29691e-05 -0.3650757723 0.76148616
560296640.0 0.0533586837 -0.1097006212 0.0004401949 3.19382e-05 -8.9952e-06 -6.32177e-05 -0.3574960828 0.7651952509
565296610.0 0.0519165445 -0.1098082223 0.0005297511 3.28949e-05 0.0002969293 0.0001459677 -0.3498474626 0.768774812
570296580.0 0.0504836651 -0.110650026 0.0001360131 3.51175e-05 0.0003690494 8.16878e-05 -0.3429852349 0.7721838665
575296550.0 0.0493126143 -0.1106889546 4.83401e-05 0.0001914648 0.0003506374 0.0001112263 -0.3348045139 0.7757662085
580296520.0 0.0477873158 -0.1113880381 0.0001182734 0.0001136002 0.0006077346 -1.51331e-05 -0.3273608187 0.7791290462
585296490.0 0.0461281143 -0.1117946484 0.0002605195 -1.13054e-05 0.0001937974 0.0001323134 -0.3196697381 0.7815266594
590296460.0 0.0445964226 -0.1120355773 0.0004226675 0.000312653 0.0002864233 8.54468e-05 -0.3114191536 0.7846528952
595296430.0 0.0434192806 -0.1123187197 0.0002530019 5.87827e-05 0.0004316056 -6.4884e-06 -0.3037457684 0.7878694782
600296400.0 0.0418985846 -0.1126475736 7.29577e-05 -0.000134087 0.0002150388 9.60336e-05 -0.2958104403 0.7908696162
605296370.0 0.0404091997 -0.1130208827 0.0003063205 0.0001043806 0.0005008458 -2.35803e-05 -0.2886208003 0.7940651181
610296340.0 0.0389993986 -0.1133889756 -1.32693e-05 -7.30076e-05 0.0002326473 0.0002438861 -0.2802564457 0.7970090514
615296310.0 0.0371904 -0.113549135 0.000327113 0.0001915554 0.0002821981 0.0001213533 -0.2726851127 0.7994986471
620296280.0 0.0360741252 -0.1139419217 0.0003641442 -0.0001180195 0.0003720441 -0.0002105703 -0.2646496396 0.8018919165
625296250.0 0.0345522258 -0.1142165708 0.0004058055 -0.0001665058 0.0004128238 -3.4479e-05 -0.2568748837 0.8041694357
630296220.0 0.0331054055 -0.1143116911 0.0003326154 4.9006e-06 0.000465214 0.0001902416 -0.2480894862 0.8070871937
635296190.0 0.0316489076 -0.1148034694 0.0004657726 2.14702e-05 0.000280868 -8.75163e-05 -0.2406116632 0.8091859934
640296160.0 0.0302271225 -0.1147320656 0.0001046889 0.00013695 0.0002621727 0.0001473798 -0.2323915994 0.8117384903
645296130.0 0.0287117048 -0.1147036667 0.0002465471 0.00018105 0.0001046884 0.0001332676 -0.224924468 0.8135679035
650296100.0 0.0271158145 -0.1147528445 0.0001928716 5.40483e-05 0.0003075028 9.80982e-05 -0.2164984279 0.816731627
655296070.0 0.0259436075 -0.1149731224 0.0002570076 -4.3311e-06 0.0001285139 -0.0001824741 -0.2083193871 0.8180031532
660296040.0 0.0239206723 -0.1148604166 0.0003147502 -5.1127e-06 0.0001735647 -4.69606e-05 -0.2004987323 0.8198333667
665296010.0 0.0229732798 -0.1152695505 0.0002948846 0.000139297 0.0004641595 2.74304e-05 -0.1925400435 0.8222552814
670295980.0 0.0215616523 -0.1153597625 0.0002803315 0.0001110357 0.0002549065 2.3569e-06 -0.1845967459 0.8239748466
675295950.0 0.0200131407 -0.1153559687 0.000133712 -0.0001386237 4.84743e-05 -0.0001318528 -0.1759588659 0.8258458665
680295920.0 0.0185168505 -0.114869634 0.0003777218 4.9285e-05 0.000372704 -1.59645e-05 -0.1679732505 0.8275011915
685295890.0 0.0169661844 -0.1150908763 0.000274565 -0.0001775029 0.0003653052 -2.22848e-05 -0.1596496363 0.8290358924
690295860.0 0.0158732145 -0.1152699909 0.0004535367 4.9011e-05 0.000290342 -3.48308e-05 -0.151884968 0.8305519439
695295830.0 0.0144549581 -0.1153869775 0.0003391881 -0.0003148859 0.000273676 -0.0001084072 -0.1432070291 0.8323752317
700295800.0 0.0129894968 -0.1150824951 0.0005860403 0.0002758385 0.0004896844 -1.5348e-06 -0.1349527484 0.8328950255
705295770.0 0.0115666275 -0.1150318692 0.0003955788 -8.99377e-05 0.0004139901 -5.47178e-05 -0.1272505789 0.8351351996
710295740.0 0.0099891793 -0.1150542826 0.0003179868 0.0003374688 0.0001700125 -0.0001080965 -0.1192812809 0.8365065909
715295710.0 0.008358477 -0.1146877336 0.0004249361 -0.0001054599 0.0005417565 -8.07694e-05 -0.1108998566 0.8376498947
720295680.0 0.0069517308 -0.1148873425 0.0005266867 0.0001322531 0.0003474341 -6.28625e-05 -0.102061577 0.8381781864
725295650.0 0.005613955 -0.114531186 0.0001850774 0.0001141683 0.0003994027 -3.69021e-05 -0.0939233769 0.839558417
730295620.0 0.0041690143 -0.1146226107 0.000415753 -2.36195e-05 0.0004695524 -0.0001414849 -0.0855064533 0.8398657199
735295590.0 0.0028992503 -0.1144811338 0.0004847528 5.12645e-05 0.0003778285 -4.5757e-06 -0.0768580607 0.8410471904
740295560.0 0.0012926646 -0.1140807538 0.000363835 1.19316e-05 0.0003845817 -3.96696e-05 -0.068945011 0.8409996107
745295530.0 -0.000212864 -0.1137923109 0.0004227385 1.48773e-05 0.0004868307 -0.0001670303 -0.0607981975 0.8418878082
750295500.0 -0.0015414776 -0.1137114573 0.0005544137 2.0915e-06 0.000355633 -0.0001097363 -0.0521668981 0.8423882006
755295470.0 -0.0027331635 -0.1132208807 0.000434329 -0.0001354578 0.0004661089 7.0591e-05 -0.0443338749 0.8433359734
760295440.0 -0.0042403764 -0.1131466001 0.0002907838 -6.61659e-05 0.0002336031 -3.73508e-05 -0.036119032 0.8438713875
765295410.0 -0.0057764047 -0.112767664 0.0003929842 -0.0001317618 0.0003524146 -2.38997e-05 -0.0272226168 0.8443303202
770295380.0 -0.007054743 -0.1124934456 0.0004906979 4.66906e-05 0.0003167159 -0.0001034425 -0.0187322561 0.8440722885
775295350.0 -0.0085366849 -0.1119252962 0.0003957134 -0.0001758909 0.0004024954 -0.000157671 -0.0111839937 0.8442643911
780295320.0 -0.0100755322 -0.1120090028 0.0004548914 -8.66407e-05 0.0003182135 -8.96117e-05 -0.0026010744 0.8446824284
785295290.0 -0.0112308604 -0.1115413263 0.0002245296 -0.0001818084 0.0001884991 -0.0003327714 0.0051737382 0.8444208991
790295260.0 -0.0127636926 -0.1108818328 0.0008096462 0.0001101337 0.0003908734 -0.0002103997 0.0147101988 0.8441686503
795295230.0 -0.0140339807 -0.1102809016 0.0004464225 -0.0001821656 0.0004746167 -1.9679e-05 0.0224317893 0.8445184938
800295200.0 -0.0153292634 -0.1100247674 0.0005200226 -0.0002458257 0.0004816052 -0.0001251247 0.0307904842 0.8435342271
805295170.0 -0.0163955274 -0.1098883396 0.0006282572 2.38814e-05 0.0004324947 -0.0002359441 0.0387187567 0.8426258823
810295140.0 -0.018099961 -0.1094805264 0.0003445545 -0.0002139037 0.0004160781 -8.24802e-05 0.0472957895 0.84361474
815295110.0 -0.0195292232 -0.1087991395 0.0005209681 -0.0001502349 0.0005357801 -0.0001243627 0.0554375222 0.8430225592
820295080.0 -0.0208229562 -0.108366104 0.000330288 7.84458e-05 0.0002140859 -0.0001909576 0.0636231893 0.8417404523
825295050.0 -0.021847957 -0.108049348 0.0003101619 -0.000145184 0.0004936554 -3.80512e-05 0.0720155814 0.8416843978
830295020.0 -0.0230599304 -0.1073285802 0.000414354 8.48625e-05 0.000372119 -3.07511e-05 0.0794248448 0.8402792293
835294990.0 -0.0247191702 -0.1068184544 0.0002027329 -0.0003323953 0.0002624704 7.99871e-05 0.0884081836 0.8395383076
840294960.0 -0.0260309936 -0.1065261844 0.0005103384 -0.0002485838 0.0002959831 -0.0001993025 0.0962233396 0.8390370022
845294930.0 -0.0274809541 -0.105665365 0.0003131817 -9.95034e-05 0.0003865514 -0.000184059 0.104865473 0.837089569
850294900.0 -0.0284142449 -0.1053029817 0.0005111358 -0.0001168578 0.000482455 -0.0001016246 0.1123490414 0.8366780854
