!Created with skrf (http://scikit-rf.org).
# Hz S RI R 50.0 
!freq ReS11 ImS11 ReS21 ImS21 ReS12 ImS12 ReS22 ImS22
300000.0 -0.3250367552 -0.0807824062 0.3774990303 0.0440097476 0.3740700221 0.0401352624 -0.3211209733 -0.0989391773
5299970.0 -0.326236512 0.004685686 0.3782380607 0.002434529 0.3784209084 0.002448222 -0.3238145195 0.0048500331
10299940.0 -0.3242112545 0.0134295819 0.3796324208 0.0017074117 0.3795603396 0.0021979171 -0.3213372209 0.0159183963
15299910.0 -0.3214948904 0.020320763 0.3818300911 0.0020906226 0.381890162 0.0020241605 -0.3182071189 0.0238671356
20299880.0 -0.3186826032 0.0262929643 0.3850437566 0.0017822023 0.3850113238 0.0014383945 -0.3147441352 0.0306762233
25299850.0 -0.3157793701 0.0316329433 0.3880213285 3.06331e-05 0.3881741051 0.0003793189 -0.3106512104 0.0358603677
30299820.0 -0.312822872 0.0360502906 0.3915470755 -0.0021710105 0.3913180556 -0.0023450334 -0.3068940891 0.0410219723
35299790.0 -0.3098909257 0.0400137562 0.3947368686 -0.0055949425 0.3947986468 -0.005651816 -0.3034701581 0.0452140505
40299760.0 -0.3072488086 0.0436935902 0.3978401643 -0.0090141764 0.3981181365 -0.0089787758 -0.3001204454 0.0485910344
45299730.0 -0.3045996147 0.0464738352 0.4005969544 -0.0128580448 0.4007631646 -0.0126996614 -0.2971287745 0.0518089794
50299700.0 -0.3023738466 0.0494691789 0.4031824312 -0.0174048177 0.4033371255 -0.017130972 -0.2942092577 0.0546131277
55299670.0 -0.3002069943 0.0520561206 0.4056650794 -0.0223285709 0.4055753336 -0.0221996442 -0.2915117735 0.0572012934
60299640.0 -0.2980607575 0.0551380881 0.4075118211 -0.0272957466 0.4077285101 -0.0269515413 -0.2891918114 0.0595233491
65299610.0 -0.2961059999 0.0572713994 0.4091570027 -0.0321399756 0.4091654232 -0.0319985562 -0.2872987846 0.0616337788
70299580.0 -0.2945843833 0.0600687981 0.4105868213 -0.037290792 0.4105099216 -0.0371334258 -0.285295899 0.0639689055
75299550.0 -0.2929176997 0.0625438658 0.4113290513 -0.0424294114 0.4112618947 -0.0424818548 -0.2831009555 0.0660977829
80299520.0 -0.2915474673 0.0649035249 0.412268734 -0.0474650674 0.412111497 -0.047534418 -0.2812158523 0.0683862836
85299490.0 -0.2902517004 0.0669855358 0.4129531341 -0.0521816455 0.4127862706 -0.0525913427 -0.2799123052 0.0699513439
90299460.0 -0.2888024156 0.0692887974 0.4131460548 -0.0579061751 0.4136420439 -0.0580836397 -0.2783085697 0.0724297193
95299430.0 -0.2872733977 0.0716873382 0.4134521385 -0.0634055073 0.4134973676 -0.063350944 -0.2764834548 0.0744627365
100299400.0 -0.2862211153 0.0743417747 0.4132384599 -0.0686545028 0.4133248553 -0.0684462388 -0.2754431731 0.0759678916
105299370.0 -0.2854301993 0.076372754 0.4133838331 -0.0739241473 0.4134078485 -0.0738839129 -0.2737966973 0.078163618
110299340.0 -0.284074457 0.0788868495 0.4132123573 -0.0784887929 0.4131557331 -0.0788233321 -0.272988994 0.0805578698
115299310.0 -0.2828833686 0.0810373702 0.4128016291 -0.0841210419 0.4130910722 -0.0842503156 -0.2717949579 0.0824442533
120299280.0 -0.2817948006 0.0829525575 0.4122395955 -0.0888482055 0.4125079446 -0.0890936372 -0.2704030512 0.0845621601
125299250.0 -0.2810537866 0.0856175578 0.4117714609 -0.0940899715 0.4120098691 -0.0939961322 -0.2695360953 0.0864099083
130299220.0 -0.2803061904 0.0884722182 0.4111049094 -0.099151135 0.4112573494 -0.0992190049 -0.2682924162 0.0887728828
135299190.0 -0.2794911039 0.0910204878 0.4108813723 -0.104320995 0.4106082327 -0.1039671019 -0.267093061 0.0908282209
140299160.0 -0.278500129 0.0931521107 0.409746064 -0.1094533136 0.4098519054 -0.1093766619 -0.2660944689 0.0938654126
145299130.0 -0.277522201 0.0958361397 0.4087528985 -0.1143581502 0.4086367808 -0.1138920188 -0.2652221201 0.0955621255
150299100.0 -0.276364563 0.098234277 0.4076397342 -0.1186539597 0.4076671859 -0.1184609719 -0.2641833241 0.0982751858
155299070.0 -0.2757785698 0.1007571819 0.4068968391 -0.1243092394 0.4065245062 -0.1241159041 -0.2630921697 0.1008657399
160299040.0 -0.2745887061 0.1035155496 0.4055757292 -0.1289891226 0.4050570603 -0.1289757168 -0.2626204089 0.1030502479
165299010.0 -0.2736437762 0.106127956 0.4043356324 -0.1337705355 0.4042080236 -0.1338826529 -0.2612427212 0.1056086158
170298980.0 -0.2729123935 0.1085618852 0.4028324872 -0.1384469251 0.4026335853 -0.1384414011 -0.2602794297 0.1081303641
175298950.0 -0.2716845145 0.1115192828 0.4015194694 -0.1429767112 0.4012885007 -0.1432375437 -0.2593457073 0.110767175
180298920.0 -0.2708974382 0.1141757555 0.4000689573 -0.147822662 0.3997842774 -0.1478473841 -0.25839426 0.113423093
185298890.0 -0.2694256548 0.1163810476 0.3982694352 -0.1527169199 0.3981597411 -0.1526916237 -0.257109735 0.1159674894
190298860.0 -0.2686755705 0.1193351721 0.3968705886 -0.1575908725 0.3969372736 -0.1570873398 -0.2561053331 0.1180798401
195298830.0 -0.2677451776 0.1217999846 0.3951203338 -0.1621747844 0.3950607433 -0.1620690499 -0.2549145122 0.1210890852
200298800.0 -0.2663621704 0.1244713247 0.3935592502 -0.1668833396 0.3932043489 -0.1669002927 -0.2544312383 0.1235206037
205298770.0 -0.2654613408 0.1274980776 0.3912880152 -0.1715638963 0.3915234012 -0.1711451286 -0.2531941869 0.125543064
210298740.0 -0.2646197786 0.1298256664 0.3896398256 -0.175322038 0.3896762445 -0.1756378841 -0.2517733538 0.1286810581
215298710.0 -0.263422614 0.1325288754 0.3879528582 -0.1803040217 0.3876554189 -0.1804178428 -0.2509335071 0.131239311
220298680.0 -0.2622300671 0.1352515145 0.3855446148 -0.1847799973 0.3858231322 -0.1847945803 -0.2503331917 0.1333703283
225298650.0 -0.2609920042 0.1378833793 0.3839546929 -0.1896185219 0.3839822585 -0.1893600653 -0.2486960637 0.1361797622
230298620.0 -0.2597686398 0.1407020974 0.3818520896 -0.1934715337 0.3824717546 -0.1934965345 -0.2478834981 0.1383588681
235298590.0 -0.2582117511 0.1437526516 0.3797652766 -0.1979664966 0.380139845 -0.1977754509 -0.246390961 0.1413734156
240298560.0 -0.2570550636 0.1465494099 0.3777934642 -0.2025610085 0.3777437535 -0.2025300153 -0.2448732486 0.1440839192
245298530.0 -0.2557787595 0.1491251672 0.3755883068 -0.206989137 0.3755765687 -0.2069319591 -0.2439489525 0.1460589143
250298500.0 -0.2540087118 0.1520776589 0.3728024705 -0.2113708745 0.3727902314 -0.2108750786 -0.243044535 0.1489783897
255298470.0 -0.2529961426 0.1541050305 0.3703318059 -0.2147597495 0.3704839523 -0.2149930784 -0.2412520274 0.1509634981
260298440.0 -0.2516854001 0.1568542761 0.368178187 -0.2199158185 0.3682549862 -0.2196478919 -0.2396171633 0.1537007502
265298410.0 -0.249877167 0.1598919726 0.3658316441 -0.223688943 0.3661115981 -0.2235047129 -0.2384096304 0.1561415993
270298380.0 -0.2485888597 0.1622423081 0.3637150563 -0.2273597705 0.363758516 -0.2277013384 -0.236950588 0.1587983692
275298350.0 -0.2465875468 0.1651866597 0.3607514431 -0.2317149034 0.3607206936 -0.2316469588 -0.2353579407 0.1613927649
280298320.0 -0.2449200811 0.1679315963 0.3586178888 -0.2361953264 0.3581556063 -0.2358015552 -0.2334761104 0.1635331741
285298290.0 -0.2435749434 0.1708056492 0.355713525 -0.2399498761 0.3556016199 -0.2401296456 -0.2319713275 0.1659858754
290298260.0 -0.2418204596 0.1734124656 0.3529524436 -0.2438929756 0.3532612083 -0.2442902413 -0.2301991931 0.1686742385
295298230.0 -0.2400885484 0.1755499854 0.3503872282 -0.2477533366 0.3505152103 -0.2477730204 -0.2281903949 0.1708217552
300298200.0 -0.2383641417 0.1783320975 0.3478811769 -0.2515784888 0.3478405478 -0.2520738914 -0.2267549196 0.1732144096
305298170.0 -0.2364030385 0.180497176 0.3447270948 -0.2558591789 0.3446516232 -0.2558565175 -0.2244279949 0.175869796
310298140.0 -0.2350817071 0.1836060112 0.3422219684 -0.2598997388 0.3422707827 -0.2597558309 -0.223249614 0.1778463495
315298110.0 -0.2331747948 0.1857358103 0.3396328979 -0.2633781963 0.3394380606 -0.2636444095 -0.2212131998 0.1802023634
320298080.0 -0.2311438039 0.1884576344 0.3362446921 -0.2680417624 0.3366763987 -0.267663054 -0.2194503644 0.1830235449
325298050.0 -0.2294836567 0.1907106232 0.3334078198 -0.2717400749 0.3331329637 -0.2715163549 -0.2177646169 0.1850377792
330298020.0 -0.2273061402 0.1929963699 0.3298762271 -0.2751296554 0.3303917857 -0.2750432635 -0.2160274496 0.1877512306
335297990.0 -0.2254653271 0.1955380306 0.326829842 -0.2786014986 0.327118884 -0.278687151 -0.214621268 0.1905104744
340297960.0 -0.2238855828 0.1982247102 0.3234906275 -0.2824030394 0.3235962758 -0.2825628284 -0.2119957203 0.1929438493
345297930.0 -0.2219249854 0.2007278465 0.3202040923 -0.286083511 0.3203597846 -0.2861656687 -0.2103822713 0.1949832481
350297900.0 -0.2201832668 0.2031240788 0.3170789455 -0.2893514063 0.3170647183 -0.2895198729 -0.2087681282 0.1979945468
355297870.0 -0.2179843804 0.2060391676 0.3138815632 -0.293359632 0.3140539627 -0.2928897998 -0.2070754735 0.1999661756
360297840.0 -0.2159004181 0.2081852971 0.3112102881 -0.2961533606 0.3113751676 -0.2962461242 -0.2049294029 0.2028798706
365297810.0 -0.2140912741 0.2110623609 0.307611475 -0.3000401821 0.3076413442 -0.3000033181 -0.2026861492 0.2047449923
370297780.0 -0.211729006 0.2130079337 0.3039897347 -0.3028235618 0.3044396571 -0.3030109566 -0.200437455 0.207240749
375297750.0 -0.209350747 0.2154025829 0.3008495004 -0.3062147532 0.3009722399 -0.3067113698 -0.1985805061 0.209617768
380297720.0 -0.2072837929 0.2178038702 0.2972366896 -0.3097108413 0.2970014144 -0.3095304536 -0.1968317043 0.2117596162
385297690.0 -0.2055246007 0.2200579877 0.2940096724 -0.3129149469 0.2934781856 -0.3131925125 -0.1941651345 0.2143140871
390297660.0 -0.2029711349 0.2226032753 0.290292746 -0.316156223 0.2903956155 -0.3160477651 -0.1924667699 0.2165489578
395297630.0 -0.2005052191 0.2253848182 0.2868398501 -0.3196951328 0.2867819319 -0.3195435871 -0.1899326115 0.219095628
400297600.0 -0.1985514527 0.2273852042 0.2832499207 -0.3227481448 0.2834407067 -0.3224726562 -0.1882237156 0.2208419542
405297570.0 -0.1963087177 0.2292196174 0.2798439325 -0.3253826126 0.2801839333 -0.3252404458 -0.1864160921 0.2229164679
410297540.0 -0.1936973045 0.2317463787 0.2760470287 -0.3287252047 0.2765121386 -0.3288261439 -0.1839759827 0.2253420186
415297510.0 -0.1910337878 0.2337820814 0.2724115505 -0.3322000692 0.272746703 -0.331891781 -0.1818900461 0.2271471928
420297480.0 -0.1894748364 0.2365854466 0.2688255325 -0.3346734249 0.2685662514 -0.3348677908 -0.1791675378 0.2293280208
425297450.0 -0.1865363038 0.2382713373 0.2654334291 -0.337485241 0.2656376413 -0.337724834 -0.1769370186 0.2313823061
430297420.0 -0.1839255898 0.2402559356 0.2614386908 -0.34017608 0.2614054907 -0.3402720262 -0.1747418566 0.2332608106
435297390.0 -0.1817994711 0.2423574131 0.2575431139 -0.3431746869 0.2571136226 -0.3432653711 -0.171791092 0.2347239447
440297360.0 -0.1789540058 0.244662772 0.253911075 -0.3459967479 0.2538381927 -0.3461372359 -0.1698860498 0.2372656769
445297330.0 -0.1765664478 0.2466441819 0.2503076323 -0.3486454205 0.2498976913 -0.3484398992 -0.167061023 0.2383845519
450297300.0 -0.1738693206 0.2483993152 0.2460572874 -0.3515772059 0.2462073368 -0.3516211765 -0.1649351875 0.2402216543
455297270.0 -0.1714959941 0.2504228648 0.2420939536 -0.3541031595 0.2422146794 -0.3543113548 -0.1621791591 0.2421620761
460297240.0 -0.1691866512 0.2523161881 0.2382495297 -0.356490518 0.2383253335 -0.3569166814 -0.1595028371 0.2445234565
465297210.0 -0.1661865917 0.2544478573 0.2342665315 -0.3592369275 0.2345290633 -0.3594991693 -0.1568864243 0.245968556
470297180.0 -0.1632767875 0.2563214563 0.2299971041 -0.3617784604 0.2302954324 -0.3620455412 -0.1543254845 0.2480378388
475297150.0 -0.1607435498 0.2577489328 0.2261232298 -0.3638766664 0.2266018022 -0.3640743467 -0.151447003 0.249373938
480297120.0 -0.1582976882 0.260086052 0.2224606514 -0.3669051421 0.2223068509 -0.3668981219 -0.1485830072 0.2513200473
485297090.0 -0.1553742102 0.2618095898 0.2184338611 -0.3690928747 0.2184148184 -0.3685727443 -0.1460223578 0.2528539145
490297060.0 -0.153318478 0.2637027427 0.2144699546 -0.3714072118 0.2145004173 -0.371286346 -0.1433172819 0.2547868282
495297030.0 -0.1499084834 0.2653695067 0.2098219169 -0.3737199857 0.2107552291 -0.3736580481 -0.1410601861 0.2565878896
500297000.0 -0.1470850617 0.2670361097 0.2058059195 -0.3757491139 0.2057754613 -0.3754950188 -0.1379834907 0.2586731738
505296970.0 -0.1445042522 0.2685812728 0.2018451475 -0.3777189452 0.2017630647 -0.3779441822 -0.135282371 0.2597733684
510296940.0 -0.1416924603 0.2701577033 0.1977129207 -0.3800895778 0.1974688843 -0.3802568261 -0.13238641 0.2617072629
515296910.0 -0.1387621096 0.2721076609 0.1935001311 -0.382675381 0.1934513731 -0.3823114515 -0.1298167288 0.2632333766
520296880.0 -0.1361186669 0.2735240878 0.189561938 -0.3846448922 0.1894911474 -0.384014317 -0.127335266 0.2647360107
525296850.0 -0.1331191257 0.2748348599 0.1848833396 -0.3860531114 0.1855550266 -0.3864706363 -0.124438673 0.2665434449
530296820.0 -0.1300615206 0.2765439015 0.1811903619 -0.3883953916 0.1807994893 -0.3884537028 -0.1212805483 0.2679453274
535296790.0 -0.1275859523 0.278062283 0.1766267915 -0.3902862775 0.1766740063 -0.3901847877 -0.1190730539 0.2692582635
540296760.0 -0.1244600751 0.2797346228 0.1726275015 -0.3924626844 0.1722956136 -0.3921722753 -0.1160489649 0.2707737746
545296730.0 -0.1214382054 0.2810257915 0.16784673 -0.3937516685 0.16808914 -0.394077347 -0.1137714827 0.2722950387
550296700.0 -0.1186244872 0.2825502931 0.1638056559 -0.3958746451 0.1639385814 -0.3960986334 -0.1109033326 0.2734767729
555296670.0 -0.1155028223 0.2837403217 0.1595678219 -0.3975595912 0.1595929834 -0.3975765216 -0.1079303235 0.2753693106
560296640.0 -0.1126196156 0.2855867978 0.1549780467 -0.3994836595 0.1552085748 -0.3990955419 -0.1047184947 0.2763035873
565296610.0 -0.1097251868 0.28682022 0.1505248853 -0.4012672805 0.1507329961 -0.4009450658 -0.1020360468 0.2774683107
570296580.0 -0.1071504291 0.2881671707 0.1463956381 -0.403096332 0.145815753 -0.4022986279 -0.0993652205 0.2789702157
575296550.0 -0.1037983926 0.2893736347 0.1418779436 -0.4042968436 0.1416006487 -0.4041039101 -0.0965163885 0.2802244934
580296520.0 -0.1005132899 0.2906288358 0.1374392617 -0.4058146255 0.1374858909 -0.4057649032 -0.0932223229 0.2810964294
585296490.0 -0.0975911377 0.2914906342 0.1330555163 -0.4066175871 0.1333324978 -0.4070980772 -0.0904969721 0.2828721139
590296460.0 -0.0944623614 0.2926916245 0.128704914 -0.4077821085 0.1287068001 -0.4083057047 -0.0877092003 0.2834638036
595296430.0 -0.0912692016 0.2939170701 0.1240648506 -0.4096420055 0.1240343929 -0.4094490764 -0.0846167502 0.2839249802
600296400.0 -0.0885742931 0.2952163402 0.1197467498 -0.4111248615 0.1197817447 -0.4106642635 -0.0823007458 0.2851580291
605296370.0 -0.0857791351 0.2960762231 0.1152064136 -0.4119106133 0.1152973942 -0.4124547095 -0.0786490452 0.2864826994
610296340.0 -0.0820510623 0.2970077099 0.1103601015 -0.4129103804 0.1105801606 -0.4130838605 -0.0754086606 0.2872649896
615296310.0 -0.0788855106 0.2977160418 0.105971285 -0.4140178771 0.1057559995 -0.4146774885 -0.0725491976 0.2880272713
620296280.0 -0.0759117465 0.2986813202 0.1016983076 -0.4154743878 0.1016994989 -0.4152988204 -0.0699455656 0.2888711997
625296250.0 -0.0730640998 0.2994842377 0.0976352755 -0.416687262 0.096976888 -0.4168754404 -0.0662719275 0.2896080387
630296220.0 -0.0692751602 0.3005132571 0.0918981184 -0.4177152487 0.0922332106 -0.4175753351 -0.0633453654 0.290931252
635296190.0 -0.0671432802 0.3018243642 0.0882484038 -0.418203289 0.0876704735 -0.4185102045 -0.0601622002 0.2915237715
640296160.0 -0.0636699462 0.302401784 0.0837678756 -0.4196460711 0.0835766608 -0.4195050463 -0.0569614369 0.2919161375
645296130.0 -0.0601374124 0.303431758 0.0789669733 -0.4203498482 0.0791078976 -0.4202034912 -0.0538952717 0.29300121
650296100.0 -0.0571124997 0.3041278792 0.0745354079 -0.4211923163 0.0745178438 -0.4210376697 -0.0508053451 0.293137759
655296070.0 -0.0539774501 0.3046634305 0.0699094061 -0.421836766 0.0697011414 -0.421664496 -0.0475253439 0.2942430169
660296040.0 -0.0510506187 0.3052202846 0.0653831295 -0.4220812158 0.0651820986 -0.4221628814 -0.0443692481 0.294514369
665296010.0 -0.0475994692 0.3055728638 0.06046689 -0.422669347 0.0606169361 -0.4228024685 -0.0409422844 0.2956109115
670295980.0 -0.0449936211 0.3068090356 0.0559874522 -0.4237937411 0.0558392703 -0.4235260037 -0.0383018623 0.2962834203
675295950.0 -0.0415601547 0.3072327005 0.0517556919 -0.4241318477 0.0514867989 -0.4236217094 -0.0352852937 0.2969404514
680295920.0 -0.038082345 0.3075543726 0.0469286315 -0.4240971605 0.0463141392 -0.4251455951 -0.0316801213 0.297872296
685295890.0 -0.0346828943 0.3086893719 0.0422299098 -0.4250418428 0.0420242722 -0.4249100024 -0.0289976719 0.2978886662
690295860.0 -0.0311299406 0.3088519127 0.037534745 -0.4251483656 0.0378744662 -0.4257663364 -0.0256071744 0.2990028642
695295830.0 -0.028521597 0.3092727947 0.0331184891 -0.4255778334 0.0327957918 -0.4260031793 -0.022240674 0.2993416993
700295800.0 -0.0248957014 0.3095736107 0.0281022238 -0.4259334121 0.027967599 -0.4261177834 -0.0196266105 0.2999986952
705295770.0 -0.0222502236 0.3103075779 0.0237571563 -0.4262399067 0.0238253331 -0.4265819939 -0.0164352714 0.3002851373
710295740.0 -0.0184662199 0.3106775975 0.0192625205 -0.4269401903 0.0193774053 -0.4268576504 -0.0134665996 0.3000453997
715295710.0 -0.0154585494 0.3107767038 0.0147948695 -0.4267847329 0.0144390394 -0.4269191884 -0.0100274739 0.3006437553
720295680.0 -0.0121991593 0.3111399608 0.0100724635 -0.4268867449 0.0099179516 -0.4267391558 -0.0069046879 0.3010565094
725295650.0 -0.0086904614 0.311501451 0.0054148046 -0.4268053965 0.0051908277 -0.4270188546 -0.003800724 0.3017580243
730295620.0 -0.0053333853 0.3119103197 0.0004099371 -0.4265969038 0.0007166707 -0.4270707599 -0.0012132068 0.3017658646
735295590.0 -0.0020426404 0.3118504671 -0.0037854651 -0.4266606509 -0.0038915451 -0.4267401596 0.0020537419 0.3016422219
740295560.0 0.000585608 0.3124475365 -0.0084658962 -0.4269827005 -0.0085894058 -0.4268897746 0.0057976306 0.3021319885
745295530.0 0.0042620215 0.3121371897 -0.0135064216 -0.426005008 -0.0135681454 -0.4264385577 0.0089366293 0.3016946061
750295500.0 0.0078570975 0.3122706207 -0.0179035549 -0.4259384428 -0.017768263 -0.4263937661 0.0117136351 0.301795685
755295470.0 0.0106803303 0.312146907 -0.0222415404 -0.4261040451 -0.0224015811 -0.426180013 0.0150971408 0.3013305526
760295440.0 0.0137213504 0.3123497583 -0.0268805946 -0.4262218829 -0.0274408726 -0.426031494 0.017852802 0.301480583
765295410.0 0.0170506795 0.312368012 -0.0315777567 -0.4255246671 -0.0318990383 -0.4256516665 0.0211825869 0.3018572872
770295380.0 0.0204531406 0.3121164299 -0.0364721867 -0.4248962384 -0.0365477248 -0.4248675191 0.0243866296 0.3013571687
775295350.0 0.0234957866 0.3117921745 -0.041104901 -0.4240911751 -0.0407104784 -0.4246368434 0.0268291716 0.3013117678
780295320.0 0.0268096395 0.3118140393 -0.0454534994 -0.4235352287 -0.0451677822 -0.4238652073 0.0302706798 0.3009466604
785295290.0 0.0300628155 0.3112729387 -0.05033503 -0.4232035188 -0.0499760773 -0.4237655595 0.033958257 0.3006476477
790295260.0 0.0335454273 0.3115665193 -0.0540323435 -0.4227173888 -0.0539085161 -0.4227840234 0.0371618763 0.3006348278
795295230.0 0.0365998008 0.3111262223 -0.0591134038 -0.4220555137 -0.0588213119 -0.4220673858 0.0405920535 0.3002436334
800295200.0 0.039770821 0.3110108285 -0.0638889058 -0.4213564562 -0.0636505387 -0.4213744916 0.0434952705 0.2999357035
805295170.0 0.0434110847 0.3106045292 -0.0685924696 -0.4206650403 -0.0682860383 -0.4209372685 0.0466074543 0.2998304273
810295140.0 0.0464573831 0.3102686519 -0.072511679 -0.4199682425 -0.0729584257 -0.4198315405 0.0500499829 0.2990936628
815295110.0 0.0497131678 0.3096053246 -0.0772799304 -0.4186144163 -0.0774620495 -0.419009225 0.0529329302 0.299026619
820295080.0 0.0527101112 0.3096299621 -0.0813440649 -0.4179428735 -0.0815220172 -0.418096998 0.0562625558 0.2985781236
825295050.0 0.0566253287 0.3089509002 -0.0860711479 -0.4172706163 -0.0863053846 -0.4169645899 0.0596003086 0.2979856673
830295020.0 0.059357042 0.3084455778 -0.0906450325 -0.4158345838 -0.0907287423 -0.4162249606 0.0635970861 0.297505498
