!Created with skrf (http://scikit-rf.org).
# Hz S RI R 50.0 
!freq ReS11 ImS11 ReS21 ImS21 ReS12 ImS12 ReS22 ImS22
300000.0 -0.7740034717 -0.1891904933 -0.0009733423 0.0004921933 -0.0013754517 0.0009721196 -0.0454456484 -0.0832728196
5299970.0 -0.7864992117 -0.0096007635 0.000219098 0.000231881 -2.13013e-05 -0.0001857605 -0.048577002 0.0141044084
10299940.0 -0.7894013803 -0.0059872354 -8.22057e-05 -0.0001703298 -4.89152e-05 0.000267773 -0.0428371662 0.0322909706
15299910.0 -0.7945868475 -0.003523752 -0.0001508471 0.0001223392 1.58207e-05 8.98284e-05 -0.0346423175 0.0464144614
20299880.0 -0.8011085775 0.0008388871 -0.0001913319 0.0001158469 -3.02683e-05 -6.7436e-06 -0.0251674555 0.0585675264
25299850.0 -0.8078453578 0.0066483728 -4.6002e-05 0.0001282554 -8.02374e-05 2.57765e-05 -0.0142292459 0.067587187
30299820.0 -0.8139466161 0.0139466917 0.0001192456 0.0001818792 -0.0001192245 -0.0001284958 -0.0028445256 0.0744887462
35299790.0 -0.8187724418 0.0227183459 7.34791e-05 2.64209e-05 1.5756e-06 8.80176e-05 0.0087601347 0.0794728177
40299760.0 -0.8235723763 0.0319907649 0.0001605707 0.0001615222 -9.38196e-05 0.0001459799 0.0200356005 0.0824642288
45299730.0 -0.8266064463 0.0420195651 -3.12659e-05 8.16142e-05 1.95289e-05 -2.816e-07 0.030587188 0.0839708132
50299700.0 -0.8291810965 0.0516143911 4.70561e-05 -8.11379e-05 3.53099e-05 0.0001491643 0.0406234542 0.084608735
55299670.0 -0.831348447 0.0616641978 0.0001635711 5.81208e-05 -2.78445e-05 -4.26544e-05 0.0497227127 0.0833937293
60299640.0 -0.8323815988 0.0720666024 6.8219e-05 -0.000200896 -0.0002299316 2.33026e-05 0.0581933038 0.081647246
65299610.0 -0.8337030308 0.081911163 -0.0001632631 0.0001648925 1.34613e-05 0.0001183777 0.0660193463 0.0795493524
70299580.0 -0.8334599748 0.0919938265 0.0002780081 0.0004209873 -0.0001030792 -3.57884e-05 0.0727001575 0.0768782626
75299550.0 -0.833732057 0.1018128585 -5.70328e-05 0.0001241793 4.66975e-05 -7.73945e-05 0.0791883696 0.0734854931
80299520.0 -0.8340785251 0.1123242429 0.0001144222 -1.10088e-05 6.2604e-06 9.543e-05 0.0847504062 0.0704739829
85299490.0 -0.8323124459 0.1216266338 7.8848e-06 -1.40466e-05 3.18511e-05 2.38733e-05 0.0901329204 0.066768239
90299460.0 -0.8321949065 0.1316967897 0.0001264241 7.00464e-05 -1.1266e-06 -4.62592e-05 0.0948673379 0.0630775602
95299430.0 -0.8316225445 0.1404985313 -1.93158e-05 1.68434e-05 4.15999e-05 3.54e-08 0.0988335208 0.0592417904
100299400.0 -0.8306784296 0.1497977116 -6.50548e-05 0.0001015345 -1.6861e-06 -9.2519e-05 0.1025712226 0.0555162372
105299370.0 -0.8288470331 0.1592236211 0.000131699 -0.0001572837 0.0001047455 2.9667e-06 0.1058363752 0.0514560313
110299340.0 -0.8279319906 0.1687349729 0.000122422 2.73401e-05 -3.58805e-05 0.0002260502 0.1085210923 0.0477505456
115299310.0 -0.8263624428 0.177753185 0.0001719451 -4.03026e-05 3.82389e-05 -8.56486e-05 0.1109405739 0.0438559164
120299280.0 -0.8249069464 0.1867767312 0.0001501547 5.61454e-05 5.62189e-05 0.0001330337 0.1133897671 0.0401532871
125299250.0 -0.8224655186 0.1955593681 -0.0001470706 0.000166972 0.0001518222 7.07445e-05 0.1156126318 0.0366193313
130299220.0 -0.8208875361 0.2054181065 -1.72478e-05 -1.9767e-06 9.88548e-05 2.40812e-05 0.1174490382 0.0328910335
135299190.0 -0.8185120553 0.2143017636 0.0001224057 7.83608e-05 -0.0001433127 -0.0001791528 0.1185260502 0.0291759504
140299160.0 -0.8174346463 0.2233397338 -6.8419e-05 0.000169316 5.83303e-05 0.0001631928 0.1199242881 0.0259029341
145299130.0 -0.8146488213 0.2324820112 -3.66381e-05 6.23046e-05 0.0001577845 7.82825e-05 0.1210529584 0.022727002
150299100.0 -0.812314363 0.2409526234 0.0001821938 2.87168e-05 0.0001333069 0.0002114969 0.1219897639 0.0192370945
155299070.0 -0.8100983057 0.2501923143 0.0001760211 -5.48812e-05 0.0001681654 4.65546e-05 0.1228151524 0.0159201792
160299040.0 -0.8075758785 0.2591883479 -0.0001027869 5.39713e-05 0.0001640031 1.69253e-05 0.1235354486 0.0125926397
165299010.0 -0.8047790147 0.2678622897 0.0001106366 0.0002800933 2.91484e-05 0.0002109029 0.1240874162 0.0094376387
170298980.0 -0.801424063 0.2765350561 0.0001130554 0.0001381382 9.21765e-05 -1.08622e-05 0.1243019447 0.0064571349
175298950.0 -0.7988193328 0.2845954293 6.7053e-05 0.0001166212 -5.31354e-05 0.0001130307 0.1250044718 0.0038357386
180298920.0 -0.7961262518 0.2934712286 0.000241197 9.35136e-05 -8.97776e-05 0.0002475028 0.1251812521 0.0005564518
185298890.0 -0.7925499269 0.3025932755 5.35122e-05 0.000162625 0.0001889704 8.34569e-05 0.125107661 -0.0022983173
190298860.0 -0.7899254073 0.3116026771 0.0001343341 0.0002026419 0.000231883 6.961e-07 0.1255813283 -0.0046524376
195298830.0 -0.7866311307 0.319136796 0.000136933 0.0001468698 0.0002737948 1.07443e-05 0.1249613901 -0.0075509038
200298800.0 -0.7830469976 0.3278570979 0.0001213294 4.26569e-05 -1.80855e-05 0.0001775933 0.1253673576 -0.0102790532
205298770.0 -0.7795341011 0.3363317756 0.0001473898 -2.14691e-05 9.48258e-05 0.0001568909 0.1248540039 -0.0128145514
210298740.0 -0.7761460647 0.3447713949 0.0001603261 6.47623e-05 -9.8299e-06 0.0001443076 0.1247229565 -0.0156198022
215298710.0 -0.7719819364 0.353283976 -1.18947e-05 9.49794e-05 0.0002190161 0.0001677437 0.1243340502 -0.0179825282
220298680.0 -0.7685658471 0.361239605 8.06768e-05 0.0002177697 -0.0001040048 0.0001358918 0.1238868478 -0.0200949344
225298650.0 -0.764841539 0.3695044354 0.0002498705 7.03969e-05 0.0003106774 4.41219e-05 0.1235033531 -0.0225805317
230298620.0 -0.760827982 0.3776675247 0.0001100058 0.0001027572 -0.000168433 0.0003483483 0.1231487788 -0.0247630626
235298590.0 -0.7572924856 0.3858595687 5.84159e-05 4.52693e-05 2.43983e-05 9.2386e-05 0.122648657 -0.0268930778
240298560.0 -0.7529625846 0.3932975972 0.0001053994 0.0001399991 0.0002410817 3.5414e-06 0.1221129138 -0.0294213055
245298530.0 -0.7488551391 0.4016779092 0.0001577325 0.0001638952 9.4334e-06 0.0001565714 0.1213967719 -0.0317307023
250298500.0 -0.7452834187 0.409281019 -0.0001656775 1.31328e-05 -5.1094e-06 6.0594e-06 0.1208369095 -0.0334462003
255298470.0 -0.7409569071 0.4176108209 9.97082e-05 0.0001063103 -7.70379e-05 -0.0001772838 0.1202791094 -0.0359678525
260298440.0 -0.7365409501 0.4254167585 6.19222e-05 0.0002456259 7.7442e-05 0.0001139229 0.1191756841 -0.037729817
265298410.0 -0.7316888249 0.4328643137 8.29397e-05 4.34837e-05 4.8181e-05 -8.4947e-06 0.1189671058 -0.0400417293
270298380.0 -0.7270158502 0.4404849336 8.15185e-05 -3.24516e-05 -3.38142e-05 0.0002334468 0.1182925697 -0.0419138782
275298350.0 -0.7230495606 0.4478629959 0.0001051959 -5.70296e-05 0.000142432 0.0001207389 0.1175544467 -0.0434469204
280298320.0 -0.7181886437 0.4555610478 0.000259552 0.0001076528 3.27811e-05 0.000156454 0.1165315349 -0.0455439697
285298290.0 -0.7138757189 0.4631010012 -9.5961e-06 -1.23574e-05 0.0001610046 0.0003426836 0.1159314877 -0.0472420627
290298260.0 -0.7087557196 0.4709925511 0.0001854488 -6.2438e-05 0.0001890288 0.0002443446 0.114831039 -0.0490874343
295298230.0 -0.7041018096 0.4780755177 0.0002111958 -2.20333e-05 0.0001009983 0.0001261404 0.1141376224 -0.0506507876
300298200.0 -0.6995953361 0.4853167551 0.0003380682 1.80234e-05 0.0001383354 7.30028e-05 0.1134681154 -0.0526456658
305298170.0 -0.6947114255 0.4924497052 0.000186967 1.47952e-05 0.0002292349 0.0001615286 0.1124742882 -0.0543999014
310298140.0 -0.6891177936 0.4998100066 6.90624e-05 -0.0001811111 0.0002705157 1.61123e-05 0.1115859629 -0.0558067937
315298110.0 -0.68453194 0.5069727848 0.0002043448 0.0001768495 0.000138675 0.0002154637 0.1106648173 -0.0579884135
320298080.0 -0.6788696821 0.5145318271 0.0001031857 0.0003439321 0.0001271723 2.53075e-05 0.1095338472 -0.0594377615
325298050.0 -0.673530769 0.5209431544 0.0001726768 0.000108041 8.98318e-05 0.0001515284 0.1087736311 -0.0615372463
330298020.0 -0.6679821258 0.5276587017 0.0002306191 0.0001057355 8.58258e-05 0.000126217 0.107349918 -0.0633505679
335297990.0 -0.6627744824 0.5344075368 0.0003794031 0.0002265836 7.67153e-05 0.0002771309 0.1061702863 -0.0651321591
340297960.0 -0.6579120788 0.5416793233 0.0001725302 -4.0039e-06 0.0002042194 0.0002501406 0.1048918098 -0.0663292139
345297930.0 -0.6519236868 0.5482875199 0.0002523741 0.0003148394 0.000414994 0.0001129402 0.1038021406 -0.0677457433
350297900.0 -0.6463586192 0.5547776084 0.0001044412 0.0001587062 0.0001125165 0.000162267 0.1022040703 -0.0695560741
355297870.0 -0.6409665201 0.5613230538 0.0001973131 0.000205157 4.25679e-05 0.0001364058 0.1012180802 -0.070472169
360297840.0 -0.6349662758 0.5683632393 -0.0001508128 2.85738e-05 8.04959e-05 0.0001335259 0.0999232549 -0.0717541104
365297810.0 -0.6292723817 0.5751627027 0.0001176263 -4.96374e-05 0.0002615891 0.0001499524 0.0987587259 -0.0730008271
370297780.0 -0.6229519344 0.5805890257 0.0004004306 0.0001694852 0.0001865393 0.0002638405 0.0973513022 -0.0742396669
375297750.0 -0.6176994512 0.5871562311 -3.14329e-05 0.000217107 0.0001815329 4.70763e-05 0.0961839629 -0.0754857782
380297720.0 -0.6120920036 0.5938836895 0.0001908514 1.02811e-05 0.0001930145 2.30849e-05 0.0950849709 -0.0767364372
385297690.0 -0.6056034415 0.5994642347 -5.32156e-05 -8.4807e-05 0.0001677817 1.42379e-05 0.0938785657 -0.0777401646
390297660.0 -0.5988738759 0.6058407817 0.0001738237 0.000154153 0.0001746019 6.84529e-05 0.0927731221 -0.079015032
395297630.0 -0.5931018302 0.6120975268 0.0003089521 -2.11819e-05 0.0002171217 -2.44516e-05 0.0912577137 -0.080252616
400297600.0 -0.586689504 0.6180427748 0.0005360157 -8.54166e-05 0.0003412826 0.0002027492 0.0903304663 -0.0810566107
405297570.0 -0.5808133825 0.6230679907 5.46456e-05 0.0002164078 0.0001232652 6.428e-06 0.0891053174 -0.0824726741
410297540.0 -0.5736961084 0.6301880249 9.88435e-05 0.000366396 0.0002797225 0.0001017538 0.0876561632 -0.0831779429
415297510.0 -0.5681862105 0.6355723238 0.000334275 0.0002699108 3.52302e-05 0.0002595186 0.0862902007 -0.0846388898
420297480.0 -0.5607910061 0.6412594698 0.0001653211 0.0002357405 0.0004489848 -4.6131e-06 0.0853410899 -0.0852572251
425297450.0 -0.5537400183 0.6465832684 0.0002751108 0.0002283174 0.0001112137 7.55797e-05 0.0839306816 -0.0866015268
430297420.0 -0.5480841338 0.6518557163 0.0001806354 0.0003227839 6.36891e-05 6.57783e-05 0.0823944189 -0.0875665252
435297390.0 -0.5408405994 0.6572721567 8.75865e-05 0.0001700448 0.000254843 -9.575e-06 0.0812316624 -0.0881831881
440297360.0 -0.5339403404 0.6631879397 0.0004243091 1.53352e-05 0.0002415207 0.0001803052 0.0801398262 -0.0893650076
445297330.0 -0.527045621 0.6679848867 0.0002124389 8.94081e-05 -4.7452e-05 0.0002188695 0.0789056371 -0.090235646
450297300.0 -0.5205946679 0.6736224374 0.0003091933 0.0001889257 0.0002657468 0.0001172568 0.0774041378 -0.0910058296
455297270.0 -0.5135509858 0.6789632234 0.0002923227 0.0001914915 0.0003062124 8.80937e-05 0.0758311668 -0.0919316149
460297240.0 -0.5059402555 0.6841226358 0.0001856382 -2.15316e-05 4.01632e-05 3.15656e-05 0.0747864017 -0.0929961252
465297210.0 -0.499234386 0.6894143296 0.0002656598 0.0002157397 0.000327817 0.0002491745 0.0733977351 -0.0937497257
470297180.0 -0.4918513732 0.694372733 0.0004542862 0.0003591313 0.0001733829 0.0002753036 0.0721037219 -0.0942109976
475297150.0 -0.4848449689 0.6991311311 0.0002197873 1.56378e-05 0.000120503 0.0001749629 0.0707885312 -0.0951602964
480297120.0 -0.4769204615 0.703674105 0.000340249 0.0001451401 9.8342e-05 0.000120265 0.0690770606 -0.0959536375
485297090.0 -0.4697132421 0.7084721829 0.0002574041 -2.04061e-05 0.0003450602 0.0002483816 0.0676832113 -0.0969398517
490297060.0 -0.4619014287 0.7141098197 0.0002936793 5.88552e-05 0.0001238551 6.09035e-05 0.0664611811 -0.0974740968
495297030.0 -0.4549398938 0.718211735 0.0005369581 0.0002051743 0.0001903027 5.98886e-05 0.0652132618 -0.09855597
500297000.0 -0.4472061713 0.722266512 0.0002936278 7.60878e-05 0.0002922337 0.0002678533 0.0638270299 -0.0989128446
505296970.0 -0.4391862789 0.7274155245 0.0004176025 -2.36806e-05 0.0001844473 0.0002020519 0.06209501 -0.0996630821
510296940.0 -0.4323140463 0.7314876745 0.000375446 6.56861e-05 0.0002773861 6.54263e-05 0.0610862932 -0.099838961
515296910.0 -0.4241011065 0.7358393031 0.000178775 7.22393e-05 9.28729e-05 0.0001400673 0.0593845507 -0.1007825324
520296880.0 -0.416368058 0.7399390369 0.0002024754 0.0002054025 0.0002073337 5.44631e-05 0.0584660586 -0.1014761141
525296850.0 -0.4090606238 0.7442716018 0.0004845455 6.65477e-05 0.0001803304 1.84581e-05 0.0566471468 -0.1020165022
530296820.0 -0.4009549802 0.7478506249 0.0003530677 -1.10927e-05 0.0004944914 1.65586e-05 0.055149182 -0.1027634699
535296790.0 -0.392671686 0.7523687785 0.0002607194 -0.0001513997 0.0002328441 -0.0001299794 0.054269325 -0.1029520688
540296760.0 -0.385085098 0.7561456155 0.0003133454 -1.67384e-05 0.0003843399 0.0001031209 0.0527179298 -0.1037221459
545296730.0 -0.3771444604 0.7602906001 0.0001343253 5.62993e-05 0.0002173268 0.0002002459 0.0512529079 -0.1040674866
550296700.0 -0.3691471192 0.7640177573 0.0004186233 4.62547e-05 0.0002237668 0.0001000616 0.049472411 -0.1046405885
555296670.0 -0.361890063 0.7672895538 0.0003925861 3.676e-05 0.0002740002 6.701e-07 0.0481451809 -0.1052548443
560296640.0 -0.3528590475 0.7708372682 0.0001986329 -0.0001140889 0.0004174263 8.675e-05 0.0466455752 -0.1053816184
565296610.0 -0.3454577508 0.7739446157 0.0003241552 1.97561e-05 0.000419551 0.0001323343 0.0453657557 -0.1059696276
570296580.0 -0.3371842454 0.7784602553 0.0002330748 0.000103449 0.0003020966 0.0002147027 0.043604265 -0.1063952188
575296550.0 -0.3281140803 0.7812331147 0.0001313416 4.21597e-05 0.0003517916 0.0001395261 0.0425151175 -0.1069165036
580296520.0 -0.3211917347 0.7846851146 0.0003002087 4.75504e-05 0.0003819537 0.0001281107 0.0410364577 -0.1070888424
585296490.0 -0.3126689249 0.7877784027 0.0002407527 7.07846e-05 0.0002418826 0.0002281745 0.0398187725 -0.1071300141
590296460.0 -0.3037935731 0.7909907978 0.000386016 0.0001944547 0.0002944786 3.38278e-05 0.0381348545 -0.1076732187
595296430.0 -0.2957494371 0.7937355675 0.0001076772 -7.60952e-05 0.0004433757 5.30956e-05 0.0367300456 -0.1082091068
600296400.0 -0.2883561757 0.796715537 0.0001180793 -9.54109e-05 0.0003976398 3.92591e-05 0.0352829312 -0.1082584775
605296370.0 -0.2795725119 0.7993043534 0.0003317959 -0.0001072448 0.0005190704 0.0001759992 0.0337088045 -0.1083547981
610296340.0 -0.2716094903 0.8028729432 0.0004365073 5.98289e-05 0.0002477223 -0.0002640221 0.0321423752 -0.1088453923
615296310.0 -0.2628493161 0.8052966598 0.0003439623 4.59253e-05 0.0003157502 7.14462e-05 0.0310197374 -0.1088557472
620296280.0 -0.2552037578 0.8079876136 0.0003758606 8.41446e-05 0.0002945811 0.0002524168 0.0292649662 -0.1088141875
625296250.0 -0.2477276964 0.8103675428 0.0003986961 8.30445e-05 0.0002960173 -0.0001354108 0.0277798873 -0.1093916832
630296220.0 -0.2384982848 0.8133237513 0.0003910734 8.01011e-05 0.0003500622 -0.000221218 0.0263722933 -0.1094059344
635296190.0 -0.2305592809 0.8153017119 0.0002049691 3.56063e-05 0.0006188523 8.41993e-05 0.0247142238 -0.1092893098
640296160.0 -0.2214169652 0.8179313374 0.0001060022 7.88209e-05 0.0005037404 4.97702e-05 0.0234609765 -0.1097098461
645296130.0 -0.2136096277 0.8201584007 4.8182e-05 8.017e-06 0.0001934282 -0.0001408095 0.0217575728 -0.1095768657
650296100.0 -0.2058183932 0.8221071157 0.0004196986 -6.7681e-06 0.0001989942 3.81474e-05 0.0206152788 -0.1099363015
655296070.0 -0.1979479621 0.8246657351 0.0002334341 0.0002646346 0.0003683464 7.79713e-05 0.018637339 -0.1096900313
660296040.0 -0.1888100116 0.8263960982 0.0002181849 -0.0001718255 0.0004282131 -5.62874e-05 0.0177346761 -0.1101301867
665296010.0 -0.1804889659 0.8285670663 0.0004801328 7.70803e-05 0.0005210938 3.48742e-05 0.0162417471 -0.1098114487
670295980.0 -0.1726916062 0.8305489667 0.0003986833 0.0001305525 0.0004588287 0.0001016874 0.0144496805 -0.1099042151
675295950.0 -0.1638715752 0.8323341984 0.0003030146 -0.0002987538 0.0002640254 -0.0002709378 0.0132421865 -0.1098833288
680295920.0 -0.1566179249 0.8337235055 0.0002912856 -3.2533e-06 0.000363631 0.0001150735 0.0115144447 -0.1098054035
685295890.0 -0.1473464589 0.8361356056 0.0003917951 -2.96068e-05 0.0004347426 -5.58301e-05 0.0104031219 -0.1097982023
690295860.0 -0.138849951 0.8368753138 0.0002673357 2.88335e-05 0.0004428819 0.0001014938 0.008918614 -0.1096952424
695295830.0 -0.1307775943 0.8387157462 0.000320041 -0.0003269336 0.0004795074 1.6212e-05 0.0074294624 -0.1095472841
700295800.0 -0.1223923462 0.8400476433 0.0005856293 -9.74273e-05 0.0004477501 -0.0001772444 0.0062945053 -0.1094125259
705295770.0 -0.1146631367 0.8412799966 0.0003165578 5.30087e-05 0.0004347039 -0.0001154711 0.0046389178 -0.1091550489
710295740.0 -0.1068429419 0.8424007527 0.0004173348 -2.60566e-05 0.0004307866 -0.0001177653 0.0032767498 -0.1091230679
715295710.0 -0.0979301258 0.8436300866 0.0005642201 4.37845e-05 0.0003957028 -0.0001231183 0.0017373204 -0.1091666389
720295680.0 -0.0887247959 0.8446025045 0.0003496699 0.0002457227 0.0002368648 -2.93303e-05 0.0003770536 -0.1086662945
725295650.0 -0.0811973488 0.8458062428 0.000431869 -0.0001602162 0.0004003837 -2.42433e-05 -0.0013006313 -0.1084644081
730295620.0 -0.0740041399 0.8466093619 0.0004705483 -8.15107e-05 0.0005097602 -3.97135e-05 -0.0026675482 -0.1081437075
735295590.0 -0.0654504056 0.8477625001 0.0003638839 -1.92074e-05 0.0002245792 1.39876e-05 -0.0035817906 -0.1082440784
740295560.0 -0.0577862735 0.847609355 0.0005409129 -0.000122618 0.0002942565 0.0002732153 -0.0055116904 -0.1076380085
745295530.0 -0.0489160676 0.8489558698 0.0002508486 7.3736e-06 0.0005431535 -4.69698e-05 -0.0065141288 -0.1075567994
750295500.0 -0.0407587509 0.8491573195 0.0004516747 0.0001128042 0.0004098281 3.64978e-05 -0.0082836299 -0.1071742228
755295470.0 -0.0321334085 0.8502724225 0.0004823255 -4.93882e-05 0.0002044861 -0.0002077033 -0.0093350151 -0.1065601564
760295440.0 -0.0238075785 0.8507073347 0.0003375731 -0.0002380541 0.000569614 -0.0001769331 -0.0107260029 -0.1068146526
765295410.0 -0.0158962571 0.8507791782 0.00025204 0.0001359124 0.0004620114 -1.51261e-05 -0.0123685747 -0.1061134367
770295380.0 -0.0080969991 0.8510551138 0.0002995399 -0.000253548 0.0002798019 -0.0001833868 -0.0138316873 -0.1058225261
775295350.0 5.14537e-05 0.8511088027 0.0004732984 -0.0002080753 0.0002633953 -6.77036e-05 -0.0149199572 -0.1054020067
780295320.0 0.0088863667 0.8514952616 0.0002860959 -0.0001920511 0.0004285485 -1.3619e-06 -0.0163006802 -0.1053383843
785295290.0 0.0166842957 0.8509747735 0.0005586702 -0.0002061547 0.0004832617 -0.0002044509 -0.0177002304 -0.1043961758
790295260.0 0.0253021957 0.8506846354 0.0006360339 -0.000100042 0.0003269733 -6.23789e-05 -0.0189015849 -0.1040557959
795295230.0 0.0334438855 0.8506158272 0.0004283174 -7.12457e-05 0.0002382069 -4.7162e-06 -0.0207137384 -0.1037403273
800295200.0 0.0411760639 0.8506783246 0.0004184235 -0.0001451188 0.0003730205 -2.28051e-05 -0.0219209708 -0.1033140645
805295170.0 0.0492110508 0.8503376766 0.0004223452 -0.0001703275 0.0005760796 2.62121e-05 -0.0229778346 -0.1031143988
810295140.0 0.0577117421 0.8502698979 0.000507223 -0.0001387741 0.0002814047 -0.0002000411 -0.024308154 -0.1023617632
815295110.0 0.0653827896 0.8495859673 0.000355087 -2.54004e-05 0.0004507184 0.0001097668 -0.0258316004 -0.1017324261
820295080.0 0.0737768581 0.8489098051 0.0004402394 -2.44431e-05 0.000602544 3.8711e-05 -0.027319422 -0.1008713901
825295050.0 0.0818092489 0.8484714865 0.0004478648 -1.85239e-05 0.0003030566 9.9866e-06 -0.0281498057 -0.1007326638
830295020.0 0.0905244459 0.8478705234 0.0002704557 -7.28664e-05 0.0005346639 -0.0001084504 -0.0296508173 -0.1002804036
835294990.0 0.098339133 0.8465100418 0.0003431836 -0.0002169956 0.000481536 -8.62861e-05 -0.0307251052 -0.0991356605
840294960.0 0.1068532209 0.845317116 0.0004964879 -4.25933e-05 0.0004514707 -9.52105e-05 -0.0321812783 -0.0986454
845294930.0 0.1146949919 0.8444124415 0.0006360161 -0.0002356274 0.0003367487 -0.0001323353 -0.0334385541 -0.0979086324
850294900.0 0.1240062272 0.8429789693 0.0003904051 -0.0001812165 0.0004665906 -0.0001869758 -0.0346779168 -0.0974225929
