!Created with skrf (http://scikit-rf.org).
# Hz S RI R 50.0 
!freq ReS11 ImS11 ReS21 ImS21 ReS12 ImS12 ReS22 ImS22
300000.0 -0.0478900877 -0.0566360972 0.0001563282 0.0009333621 0.0001471617 0.0020964918 -0.7713771187 -0.1615802599
5299970.0 -0.0491590532 0.0160280008 6.37784e-05 0.0001220998 9.08508e-05 2.27598e-05 -0.7848044183 -0.008304039
10299940.0 -0.0432704983 0.0333746616 -1.03357e-05 0.0001219803 0.0001757025 -7.31051e-05 -0.7881703272 -0.0048665267
15299910.0 -0.0348351627 0.0480422139 0.0001734855 0.0002407981 -8.07663e-05 -4.87269e-05 -0.7934590983 -0.0026719583
20299880.0 -0.0247076927 0.0598417648 -4.6216e-05 0.0001358661 -0.0001667534 2.3249e-06 -0.8007014406 0.001601985
25299850.0 -0.0130581688 0.0691632923 1.3995e-06 6.29428e-05 1.47637e-05 9.96688e-05 -0.8066667493 0.0076540505
30299820.0 -0.001308325 0.0755488453 -0.0001351689 -0.000189184 7.70663e-05 -0.000211139 -0.8127169292 0.0147355439
35299790.0 0.0105812846 0.0805116829 0.0001330921 -1.2077e-06 1.1456e-05 7.69827e-05 -0.8178645599 0.024178236
40299760.0 0.0218261491 0.0831910135 -2.58113e-05 -7.89179e-05 0.000144347 0.0001211975 -0.8216879489 0.0332207538
45299730.0 0.0324450743 0.0847035862 5.14349e-05 -3.63601e-05 2.23247e-05 2.16119e-05 -0.8252028276 0.0421838099
50299700.0 0.0429780029 0.0844408103 0.0003068258 -0.0003416841 0.0002038484 -0.0001086846 -0.8278927466 0.0530203267
55299670.0 0.0520352373 0.0833616317 7.22158e-05 -0.0001657989 6.9706e-06 -0.0001456085 -0.8299602111 0.0633331994
60299640.0 0.0605241964 0.0813404198 -0.0001212538 0.0001767712 0.00016498 0.0001386407 -0.8313260969 0.0729577139
65299610.0 0.0685501062 0.0791182944 2.72642e-05 -4.78751e-05 -7.81505e-05 1.78255e-05 -0.8309139799 0.0828491347
70299580.0 0.0756571577 0.0757557407 -3.53232e-05 0.0001200522 4.18916e-05 -2.39543e-05 -0.8319563524 0.0925791892
75299550.0 0.0822218008 0.0720832834 6.53449e-05 9.63996e-05 -6.691e-06 -0.0001555505 -0.8323703485 0.1023229058
80299520.0 0.0875191386 0.0689335815 0.0001334431 2.5325e-06 -0.0001356018 -2.20258e-05 -0.8322425698 0.1122145591
85299490.0 0.0928195974 0.0646055962 -2.20777e-05 -0.0001235393 -0.0001885669 1.58174e-05 -0.8318525777 0.1223167195
90299460.0 0.0973362124 0.0609208765 -9.72637e-05 7.54308e-05 4.92414e-05 3.9168e-06 -0.8303681632 0.1314253238
95299430.0 0.1014445786 0.0567016265 -0.0001705911 0.0001113104 -6.06828e-05 5.80856e-05 -0.8299849715 0.1410589801
100299400.0 0.1049426419 0.0529017038 -0.0001114602 0.0001221728 9.4524e-05 0.0001956285 -0.8286799132 0.1493160354
105299370.0 0.1079880489 0.0490238588 -6.64754e-05 0.0001045593 -3.84404e-05 -9.427e-05 -0.827605765 0.1588030027
110299340.0 0.110924038 0.0447469381 0.0001058574 -7.70834e-05 -5.57287e-05 -7.55309e-05 -0.8266389969 0.1685120983
115299310.0 0.1136553932 0.0405107937 -8.57158e-05 1.56746e-05 -1.26269e-05 -9.18838e-05 -0.8246694864 0.1769180266
120299280.0 0.115671965 0.0365549898 0.0001864696 -2.7224e-06 5.1211e-06 -0.0001036694 -0.82339219 0.1861790797
125299250.0 0.1173223721 0.0327871262 -1.56345e-05 1.44578e-05 -0.0001539974 -7.3683e-05 -0.8217257571 0.1956833298
130299220.0 0.1192282044 0.0289751322 -8.6845e-06 -5.19593e-05 -2.54429e-05 3.38497e-05 -0.8201111009 0.2037726619
135299190.0 0.1206978901 0.0248306366 -0.0001213974 -0.0001520914 0.0001360857 8.0332e-06 -0.818078112 0.2125178432
140299160.0 0.1220344658 0.0215041078 9.63734e-05 -2.0429e-05 6.0684e-05 7.64515e-05 -0.8158387481 0.221523196
145299130.0 0.1231836397 0.0179820631 -0.00010963 0.0001599356 -0.0001823358 -0.0001312721 -0.8137016178 0.2299434898
150299100.0 0.1238961722 0.0141844798 0.0001983365 0.000108582 5.38068e-05 0.0002833165 -0.8117425607 0.2379785448
155299070.0 0.124656442 0.0108786709 9.6853e-05 0.0001078745 -9.72614e-05 1.09634e-05 -0.8094435224 0.2476772804
160299040.0 0.1250464267 0.0075432366 7.24697e-05 7.85156e-05 -0.0001268474 -9.37373e-05 -0.8076748955 0.2566612713
165299010.0 0.1253795551 0.0041265914 8.50743e-05 -0.0001092497 0.0002591749 -0.0001176768 -0.8041388976 0.2649632149
170298980.0 0.1258336514 0.0009806341 -0.0001387185 3.30357e-05 -1.02699e-05 4.3047e-06 -0.8018171387 0.2736629127
175298950.0 0.1261850316 -0.0021469025 7.86031e-05 0.0002616765 4.02641e-05 0.0001001708 -0.7986700683 0.2821969544
180298920.0 0.1261967692 -0.0052211315 3.1194e-06 -9.69205e-05 0.0001555477 3.34728e-05 -0.79566993 0.2903437607
185298890.0 0.1260117484 -0.0083029056 7.973e-06 -0.000104667 -2.63464e-05 9.0163e-06 -0.7929932891 0.2985529844
190298860.0 0.1261533807 -0.0113291208 -0.0003250864 3.42176e-05 2.98e-08 -3.97282e-05 -0.7889413121 0.3072693715
195298830.0 0.1263676863 -0.0143253777 0.0001937527 0.0003557795 -6.63441e-05 -2.47803e-05 -0.7868965118 0.3156089515
200298800.0 0.1257871429 -0.0167798616 7.0985e-05 -6.7496e-06 7.06528e-05 0.0001531899 -0.7834449895 0.3243338745
205298770.0 0.1254688405 -0.0196595688 -0.0001277122 1.1391e-05 -2.47092e-05 -3.19863e-05 -0.7801085201 0.3328382214
210298740.0 0.1253014585 -0.0222888365 0.0001210748 0.00022541 0.0001334232 3.04075e-05 -0.7764332488 0.3408664342
215298710.0 0.124567202 -0.0249592574 -7.46283e-05 0.0001127623 -9.00924e-05 4.87371e-05 -0.7736572678 0.3485967387
220298680.0 0.1242247933 -0.0275252247 5.30171e-05 4.5717e-06 0.0002576145 0.0001246413 -0.7697970306 0.3573055739
225298650.0 0.1235324095 -0.0300655957 0.0001161604 0.0001823677 1.52569e-05 -6.26008e-05 -0.7661614043 0.3652906222
230298620.0 0.1231590659 -0.032482062 0.0002642237 -0.000197334 0.0001076246 -4.66636e-05 -0.7619713504 0.3725246598
235298590.0 0.1224103922 -0.0350765084 -0.0001425749 3.71387e-05 -7.64753e-05 4.28997e-05 -0.758121048 0.3807529626
240298560.0 0.1217245422 -0.037257918 3.69649e-05 -0.0001117644 -0.0001561646 4.88616e-05 -0.7544183832 0.3886765587
245298530.0 0.1211232869 -0.0396877434 0.0002937108 0.0001232237 0.0001116917 7.73167e-05 -0.7499048182 0.3965317725
250298500.0 0.1203014757 -0.0418602632 -0.0001236083 0.0001728431 -0.0001720581 -0.0002022898 -0.7454588329 0.4048408949
255298470.0 0.1195620444 -0.0439507678 0.0002450517 -1.07724e-05 3.09661e-05 0.0003904994 -0.7412456362 0.4127161237
260298440.0 0.1187415344 -0.0461838672 -0.0002012696 -6.1828e-05 0.0001779174 0.0001349795 -0.7369943403 0.4199482392
265298410.0 0.1178468256 -0.0482167529 -6.85675e-05 -0.0001643091 1.22636e-05 -5.1448e-06 -0.7327376592 0.427910649
270298380.0 0.117004306 -0.0500415387 2.78142e-05 5.00448e-05 -0.0001242788 1.28926e-05 -0.727594416 0.4354586739
275298350.0 0.1161112387 -0.0522618022 2.5024e-05 0.0002116561 -8.31921e-05 0.0001569384 -0.7227966217 0.4432826185
280298320.0 0.114920529 -0.0542426881 -0.0001277029 -0.0001390349 0.0001628183 -5.3096e-06 -0.7184863345 0.4506704797
285298290.0 0.1140308915 -0.0562939351 0.0002475358 -4.8597e-05 0.0001007427 -2.64664e-05 -0.7133891602 0.4578418512
290298260.0 0.1130892918 -0.058064919 -0.0002806302 0.0002089108 0.000213226 -5.64126e-05 -0.7087645617 0.465865914
295298230.0 0.1121969125 -0.0602708341 -6.20219e-05 0.0001283993 6.82134e-05 -0.0001347822 -0.7039565641 0.4733995544
300298200.0 0.1111163195 -0.0622905959 0.0001034623 -5.26084e-05 3.70834e-05 2.15248e-05 -0.6990112699 0.4801993977
305298170.0 0.1105084481 -0.064011079 -7.55535e-05 0.0001120798 1.24283e-05 0.0002502817 -0.6934177365 0.487971491
310298140.0 0.1091199722 -0.0663414448 0.0001266396 2.61754e-05 0.0001871835 0.000297619 -0.6886773351 0.4952187761
315298110.0 0.1078740455 -0.0683793718 -0.0002243008 0.0001250099 0.0002261221 0.0001473631 -0.6830106245 0.502573094
320298080.0 0.1064490527 -0.0700237021 0.0001269141 2.32352e-05 3.46157e-05 0.0001026454 -0.6785197439 0.50957412
325298050.0 0.1051842253 -0.0718349345 0.0001404408 0.0003878091 0.0001690729 7.95e-07 -0.6724534395 0.516119359
330298020.0 0.1035574244 -0.0734522151 2.41765e-05 -8.55808e-05 0.0002525428 0.0001546322 -0.6667013579 0.5231719594
335297990.0 0.1020003299 -0.0749850533 0.0002714555 -1.87542e-05 7.51676e-05 0.0001028882 -0.6612549915 0.5299066559
340297960.0 0.1006154038 -0.0764912836 -1.68036e-05 3.87664e-05 5.86137e-05 0.0001514519 -0.6552549406 0.5372662736
345297930.0 0.0991205644 -0.0779519316 -0.000108275 6.41026e-05 6.65511e-05 -9.25439e-05 -0.6495619342 0.5440872554
350297900.0 0.0981267059 -0.0795208439 -3.46168e-05 -1.64169e-05 0.0002242753 6.15134e-05 -0.6438149447 0.5510202859
355297870.0 0.0963215211 -0.0808557701 7.66535e-05 -9.0879e-06 0.0002655598 -0.0001002043 -0.6382736795 0.5576095867
360297840.0 0.0952018908 -0.0821889825 -0.0001927487 0.0001245337 0.0001864876 -5.81796e-05 -0.6323065877 0.5640065928
365297810.0 0.0938171583 -0.083727112 3.72974e-05 -0.0001220823 -9.5523e-06 0.0001027474 -0.6262216959 0.5704764852
370297780.0 0.0923151771 -0.0848831543 0.0001292089 6.92901e-05 -7.31813e-05 1.47154e-05 -0.6206948851 0.5772155107
375297750.0 0.091001948 -0.0860826434 0.0001429438 -0.0001215916 3.90134e-05 -7.90685e-05 -0.6140278516 0.5832529187
380297720.0 0.089886856 -0.0876253272 8.2516e-05 -8.56014e-05 0.0002367524 4.78962e-05 -0.6079953015 0.5902673668
385297690.0 0.0880630651 -0.0884935376 0.0002609899 6.84887e-05 -0.000148838 -0.0001591017 -0.6017532406 0.5962213316
390297660.0 0.0867252569 -0.0899866991 9.53016e-05 0.0001131417 0.0002175436 3.34041e-05 -0.5952292573 0.6018558794
395297630.0 0.085416549 -0.0912541131 0.0002373247 6.6182e-06 0.0001617939 -7.16035e-05 -0.5894302425 0.6079436465
400297600.0 0.0840789115 -0.0920781787 0.0001761143 4.1152e-06 0.0002412607 1.60037e-05 -0.5834055512 0.6137205601
405297570.0 0.082568944 -0.0935938748 9.49355e-05 3.58754e-05 0.0001428208 0.0001576358 -0.5767313662 0.6200792296
410297540.0 0.0809184902 -0.0945623896 7.27592e-05 8.5933e-06 0.0001079365 0.0001968768 -0.5697035347 0.6259340501
415297510.0 0.0795052155 -0.0957661221 -6.7827e-05 -7.23441e-05 9.00397e-05 8.15603e-05 -0.5631940232 0.6318103769
420297480.0 0.0780586273 -0.0969796066 9.92773e-05 0.0001495089 0.0002497352 0.0001769823 -0.5572322692 0.6361928071
425297450.0 0.076483877 -0.0976757925 0.0001558371 0.0001495021 4.10475e-05 -3.37884e-05 -0.5496502232 0.643003364
430297420.0 0.0748771916 -0.0988454113 -3.25065e-05 0.0001061652 0.0001290232 0.0001049852 -0.5438729764 0.6488210865
435297390.0 0.0735266163 -0.0994104523 9.56266e-05 0.0001511646 6.06311e-05 -1.84448e-05 -0.5362780146 0.6531622607
440297360.0 0.0719311045 -0.1008066145 0.0001727524 6.03972e-05 0.0001680439 -3.10283e-05 -0.5302148813 0.6591346478
445297330.0 0.0703846161 -0.1015722524 -0.0001631295 0.0001091285 4.5775e-05 -1.03814e-05 -0.5235483937 0.6640902784
450297300.0 0.0687625865 -0.1026466754 0.0001901038 8.07772e-05 9.06219e-05 -0.0001343704 -0.5169791945 0.670006827
455297270.0 0.0671910144 -0.1033865055 0.0001384789 0.0001606548 -0.0001069255 -1.06709e-05 -0.5101398637 0.6751766983
460297240.0 0.0654653877 -0.1041234979 0.0001813679 0.0002395084 0.0001245833 -6.40611e-05 -0.5025304796 0.6804722088
465297210.0 0.0640585112 -0.1050971104 0.000122241 8.00547e-05 0.0001162263 8.341e-07 -0.495749396 0.685203866
470297180.0 0.0625967698 -0.1057912609 0.0001161386 -5.1659e-05 1.0946e-06 -5.82213e-05 -0.4886924256 0.6895961542
475297150.0 0.0607657667 -0.1067235686 -1.4259e-05 -0.0002101669 0.0001718489 -0.0001467555 -0.4816776565 0.6946721241
480297120.0 0.0591356234 -0.1075992145 0.0001259104 0.0001406663 0.0001291521 -4.46785e-05 -0.4748698637 0.7000928556
485297090.0 0.0576612098 -0.1081434781 2.0423e-05 -0.0001103559 9.29914e-05 4.72125e-05 -0.4673569313 0.7041903099
490297060.0 0.0561096662 -0.1088969131 -5.61023e-05 -5.67362e-05 3.7909e-06 -0.0001237637 -0.460486993 0.7083662849
495297030.0 0.0543300625 -0.109687677 -9.2479e-06 -0.0001439973 7.68511e-05 6.64162e-05 -0.4529108895 0.713302988
500297000.0 0.0527219563 -0.1104379959 3.09642e-05 9.23e-05 6.38543e-05 -6.70444e-05 -0.4464197564 0.7182325055
505296970.0 0.0509715805 -0.1108330155 3.8122e-06 1.24578e-05 8.63176e-05 0.0001326183 -0.4400374715 0.7222921981
510296940.0 0.0495799411 -0.1113450485 -4.41075e-05 6.26381e-05 -2.50818e-05 0.000106315 -0.4314991634 0.7268369739
515296910.0 0.0480327561 -0.1120603499 9.52313e-05 6.14468e-05 0.0001859613 7.35043e-05 -0.4240566286 0.7308693627
520296880.0 0.046239754 -0.1126019516 9.16769e-05 0.0001613672 -6.82096e-05 0.0001158563 -0.4174992517 0.7347243017
525296850.0 0.0444745059 -0.1131086682 1.0314e-05 -0.0002559699 -3.82549e-05 0.0001364941 -0.4095535117 0.7393265414
530296820.0 0.0426728995 -0.1135320285 6.9525e-05 4.56993e-05 0.0001771162 0.0001386253 -0.4028907994 0.7431871388
535296790.0 0.041522485 -0.113920568 9.89321e-05 5.13686e-05 3.06494e-05 -7.99847e-05 -0.3954957454 0.7462728026
540296760.0 0.0396575751 -0.1147989569 0.0001103999 1.4042e-06 0.0001090786 2.4193e-05 -0.3875738898 0.7511369422
545296730.0 0.0378738763 -0.1148073385 0.0002631571 7.4385e-06 -3.54e-05 -3.78085e-05 -0.3803546152 0.7539834358
550296700.0 0.0361257717 -0.1152867136 8.3583e-05 -0.0002266537 0.0002041158 -7.33008e-05 -0.3722139321 0.7583326694
555296670.0 0.0345958506 -0.1157304042 -9.686e-06 9.83565e-05 1.59931e-05 -0.0002116719 -0.3651295351 0.7618898869
560296640.0 0.0330495313 -0.1160262347 7.02849e-05 0.0001591742 1.02226e-05 8.45616e-05 -0.3575323132 0.765693782
565296610.0 0.0310446731 -0.1162190389 -0.000125387 5.47236e-05 9.2839e-05 5.5677e-05 -0.3499682583 0.7690400275
570296580.0 0.0294810676 -0.1166677766 0.0002032448 0.0001021992 0.000154384 -0.0001072595 -0.3422397702 0.7725109878
575296550.0 0.027949854 -0.1170582997 0.0002849539 8.90737e-05 0.000106532 -4.34546e-05 -0.3342846421 0.7759685582
580296520.0 0.0263721655 -0.1171460023 0.0002450479 0.0002669066 4.13681e-05 1.634e-07 -0.3269922707 0.7793158927
585296490.0 0.0241227049 -0.1176394224 9.28457e-05 -5.25907e-05 -4.23349e-05 -7.59782e-05 -0.3196176813 0.7819511107
590296460.0 0.0225378705 -0.1176187694 8.58069e-05 -4.18078e-05 0.0001833617 1.27302e-05 -0.3113388417 0.7850224381
595296430.0 0.0211393223 -0.1178553421 3.43764e-05 -6.80533e-05 -4.79079e-05 -6.22133e-05 -0.303661595 0.7873995136
600296400.0 0.019392872 -0.1180977742 -3.59481e-05 -3.8676e-06 7.23408e-05 -3.07055e-05 -0.2952233944 0.7914009313
605296370.0 0.0177400342 -0.1182731812 8.6287e-06 -3.11165e-05 6.66701e-05 -0.0001253306 -0.2882110598 0.7943020442
610296340.0 0.0161466123 -0.1185559376 0.0001128158 -0.0001118398 0.0002601382 -0.0002257953 -0.2799169444 0.7969822156
615296310.0 0.0143826524 -0.1184385176 -0.0001107679 0.0002001022 6.81699e-05 3.40546e-05 -0.271848367 0.79919505
620296280.0 0.0125353619 -0.1184358093 0.0001628024 -4.2108e-05 9.33699e-05 0.0001396853 -0.2645753013 0.8016052505
625296250.0 0.0107937273 -0.1186337678 -9.59481e-05 -1.67994e-05 2.23808e-05 -4.67242e-05 -0.2563336094 0.8047551786
630296220.0 0.0094110864 -0.1186746914 1.02256e-05 0.0002941801 8.4911e-06 3.4644e-05 -0.2485025762 0.8073148926
635296190.0 0.0074551119 -0.1186563538 0.000135086 -0.0001333187 1.21002e-05 0.0002942524 -0.2404639604 0.8090964757
640296160.0 0.0060533328 -0.1184669854 0.000163107 0.0001865608 0.0001624393 -0.0001653857 -0.2322092063 0.8119710593
645296130.0 0.0041163291 -0.1183693241 0.0002246559 -0.0002573987 5.19743e-05 4.46385e-05 -0.2248649739 0.8143304858
650296100.0 0.0022845788 -0.118371412 0.0001006058 5.67215e-05 0.0001777636 0.0001852158 -0.2162568156 0.8165153682
655296070.0 0.0008313449 -0.1182696375 -5.80381e-05 3.10196e-05 0.0002157754 1.77426e-05 -0.2082666656 0.8177744581
660296040.0 -0.0011971044 -0.1178263122 0.0002932794 -0.0001032881 0.00036942 7.54964e-05 -0.2002122184 0.8205724015
665296010.0 -0.0025606743 -0.1180672957 9.53494e-05 4.82023e-05 0.0003744151 0.000267052 -0.1922977721 0.822483305
670295980.0 -0.0042662294 -0.1179836766 5.16068e-05 0.0001134916 0.0001765259 0.0001238402 -0.1848185935 0.8236884538
675295950.0 -0.006149009 -0.1176894493 5.21338e-05 -4.36506e-05 0.0001366115 1.0662e-05 -0.1756883372 0.826414608
680295920.0 -0.0077315656 -0.1172333767 0.0001028574 0.0001718815 0.0002202997 -0.0001927039 -0.1673395275 0.8277418677
685295890.0 -0.0092475897 -0.1170568648 0.0001049516 8.05706e-05 0.0001278059 -0.0001953897 -0.1594364569 0.8299658508
690295860.0 -0.0108181934 -0.116840908 2.47901e-05 -7.69583e-05 0.0001333742 -0.0001385021 -0.1511808508 0.8305781583
695295830.0 -0.0122939463 -0.1168889393 0.0002244822 4.13082e-05 3.55662e-05 -5.56004e-05 -0.1432376099 0.8325282247
700295800.0 -0.0141400574 -0.1163505109 0.0001396242 -0.0002945584 0.0001766204 0.000150977 -0.1345587471 0.8332034566
705295770.0 -0.0158390822 -0.1160665944 5.23243e-05 6.11116e-05 9.52059e-05 -4.0024e-05 -0.1272357257 0.8350295042
710295740.0 -0.0174621408 -0.1158205222 6.20151e-05 -5.7264e-05 0.000267017 7.04109e-05 -0.1191423719 0.8367290689
715295710.0 -0.0191335789 -0.1151960373 0.0002206612 -0.0001809075 0.0001369913 -0.0001186664 -0.1105264584 0.8370587445
720295680.0 -0.0207728247 -0.1151282524 0.0003183353 -1.72818e-05 3.46226e-05 0.0001092865 -0.1017034326 0.8385578241
725295650.0 -0.0224022292 -0.1144025257 0.0001369544 1.4793e-06 -5.68777e-05 -3.7329e-05 -0.0935859259 0.8395043118
730295620.0 -0.0237986891 -0.1141280751 7.5209e-06 7.30227e-05 -9.4687e-06 1.56061e-05 -0.0850559314 0.8401463164
735295590.0 -0.025442301 -0.113484374 0.0002062619 -6.30517e-05 3.85286e-05 -2.73748e-05 -0.0766873329 0.8403176317
740295560.0 -0.0270614734 -0.1131854988 0.0001806629 -0.000161511 0.0002808711 -0.0001184604 -0.0687086877 0.8413041146
745295530.0 -0.0290228611 -0.11249908 -2.26498e-05 -0.0002016322 8.71992e-05 7.08011e-05 -0.0606288485 0.8421113917
750295500.0 -0.0303111507 -0.1120628069 8.87176e-05 -6.51529e-05 0.0001291272 2.4775e-05 -0.0517592446 0.8424231794
755295470.0 -0.0317576411 -0.1113736772 0.0002128558 6.90504e-05 0.0001828833 0.0001191446 -0.0440555065 0.8436894462
760295440.0 -0.0335178606 -0.1106509485 0.0002477104 -0.0001215659 0.0001707734 0.0001335712 -0.0358327986 0.8435016141
765295410.0 -0.0352597564 -0.1104704103 0.0001707012 0.0001250877 0.0002358828 -7.3184e-06 -0.0270104209 0.844007419
770295380.0 -0.0364716249 -0.1096521946 0.0001150438 -6.68687e-05 2.15201e-05 7.4341e-05 -0.0183683415 0.8442868411
775295350.0 -0.0382601621 -0.1088455927 0.000411005 4.4871e-05 0.0001403637 -0.0001114338 -0.0107531656 0.843942854
780295320.0 -0.0397636975 -0.1086509636 0.0003201083 0.0001895191 0.0001231316 6.52186e-05 -0.0021192522 0.8446835834
785295290.0 -0.0412050239 -0.1077212423 0.0003411438 -1.111e-07 8.22579e-05 -6.994e-05 0.005745228 0.8446396936
790295260.0 -0.0428001432 -0.1070864041 0.0002003413 3.95112e-05 0.0002565431 0.0001803951 0.0153599783 0.8445560197
795295230.0 -0.044241513 -0.1060569154 0.0003145887 -0.0001151608 0.0003559099 -5.61956e-05 0.0232011665 0.8442673505
800295200.0 -0.0455882009 -0.1055326888 5.8173e-05 -1.31298e-05 0.000157711 -4.46768e-05 0.0310467041 0.8439436493
805295170.0 -0.0471736326 -0.1051157989 0.0001036999 -0.000100955 0.0001823505 -7.13658e-05 0.0394548671 0.8433053253
810295140.0 -0.0487115479 -0.1042890616 0.0001622954 2.54907e-05 6.63198e-05 -2.35997e-05 0.0478070615 0.8437669483
815295110.0 -0.0501232325 -0.1031742461 0.0002208783 -0.000241925 8.8706e-06 0.0001328283 0.0558903266 0.8427275233
820295080.0 -0.0516235916 -0.1025603565 0.0001532461 0.0001027537 0.0003541154 2.256e-06 0.0639672822 0.8418595876
825295050.0 -0.0529151474 -0.1016347553 0.0003042243 -9.2916e-06 0.0002464817 7.29717e-05 0.0726399642 0.8412744598
830295020.0 -0.0548439987 -0.1005551684 0.0002485216 -8.77714e-05 0.000266701 -7.1319e-05 0.0801265334 0.8407037078
835294990.0 -0.055902978 -0.099758529 0.000191496 -0.000103641 0.0002957683 -0.0001286687 0.0888356957 0.8394730128
840294960.0 -0.057518042 -0.0987250947 9.73157e-05 -0.0004030047 6.91091e-05 -0.000132904 0.09688531 0.8390590247
845294930.0 -0.0589480285 -0.0979482842 0.0002192069 -0.0003303712 0.0001930208 -0.000162763 0.1053377919 0.8378350018
850294900.0 -0.0603795649 -0.0970740586 4.25342e-05 -6.41472e-05 0.0003237722 -0.0001310915 0.1132598146 0.8371024706
