!Created with skrf (http://scikit-rf.org).
# Hz S RI R 50.0 
!freq ReS11 ImS11 ReS21 ImS21 ReS12 ImS12 ReS22 ImS22
300000.0 -0.3168617237 -0.1012785384 0.370351654 0.0514600804 0.3730711176 0.0551006611 -0.3150656205 -0.1132406796
5299970.0 -0.3238158264 0.0050156237 0.3782757911 0.0022922654 0.3788154214 0.0031567636 -0.3261694001 0.0033050452
10299940.0 -0.3211085063 0.0157146157 0.3800409412 0.0022066878 0.3798639701 0.0023027492 -0.324385167 0.0128997542
15299910.0 -0.3182646874 0.0237022996 0.3821415194 0.0019962942 0.381897528 0.0024368225 -0.3213273301 0.0196955906
20299880.0 -0.3143867132 0.0302359652 0.3851380917 0.0012774705 0.385425086 0.0019216774 -0.3189008269 0.0263556762
25299850.0 -0.3104085657 0.035742616 0.3883316371 -0.000241361 0.388357715 -0.0001454366 -0.3158635965 0.0308782086
30299820.0 -0.306700338 0.0405227488 0.3916599165 -0.0024343513 0.391634599 -0.0022180213 -0.3130016606 0.0355815838
35299790.0 -0.3030356875 0.0450040473 0.3950581693 -0.0053973655 0.3949822999 -0.0053655645 -0.309874783 0.0392483101
40299760.0 -0.2996472365 0.047969562 0.3984133095 -0.0085563488 0.3986026879 -0.008701797 -0.3071493346 0.0429222371
45299730.0 -0.2966267789 0.0515403597 0.4010559484 -0.0130006048 0.4014621395 -0.0124705459 -0.3050881783 0.0459822982
50299700.0 -0.2932280063 0.0542226067 0.4032384433 -0.0173147723 0.4039057033 -0.0174238349 -0.3021053322 0.0492994343
55299670.0 -0.2907995173 0.0568507983 0.4053901851 -0.0221767496 0.405660591 -0.0220153257 -0.300195511 0.0520791613
60299640.0 -0.2879918053 0.0591069595 0.4076831345 -0.027199713 0.4074998162 -0.0268535152 -0.2982158364 0.0546674854
65299610.0 -0.2861761858 0.0615251622 0.4095203212 -0.0315175644 0.4095584355 -0.0317309807 -0.2960871982 0.0568556954
70299580.0 -0.2840008871 0.0633473411 0.4105189494 -0.0366271828 0.4105811703 -0.0369549084 -0.2946604796 0.0594349403
75299550.0 -0.2817509265 0.0659270476 0.4111756046 -0.0422294796 0.4115473128 -0.0423616188 -0.2930910028 0.0622641004
80299520.0 -0.2803075163 0.0681055961 0.4127789225 -0.0474558947 0.4126432039 -0.0470958013 -0.2916327917 0.0640412543
85299490.0 -0.2785684983 0.0697576476 0.4132382395 -0.0526503338 0.4129847436 -0.0525238021 -0.2906120619 0.0662764859
90299460.0 -0.2769154195 0.0722635762 0.4133727086 -0.0578862332 0.4134660252 -0.0578247003 -0.2883972729 0.0686293508
95299430.0 -0.2753195142 0.0741907029 0.4140970608 -0.0632092583 0.4140881502 -0.0630822362 -0.2875785063 0.0710487645
100299400.0 -0.2744683581 0.0766416124 0.4138591512 -0.0684238335 0.4138792482 -0.0682524934 -0.2866406249 0.0733179793
105299370.0 -0.2731643045 0.0782191395 0.4136900578 -0.073067135 0.4140059852 -0.0736709776 -0.2851856487 0.0758086161
110299340.0 -0.2721158922 0.0803707651 0.4133303061 -0.0784764129 0.4136772203 -0.0787090613 -0.2843486061 0.0781669685
115299310.0 -0.2707892479 0.0822211307 0.4131758943 -0.0835047369 0.4133006202 -0.0836163234 -0.2830358516 0.0799533887
120299280.0 -0.2698355904 0.0847188773 0.4132131194 -0.088918339 0.4128933894 -0.0890294942 -0.2823163022 0.0823368948
125299250.0 -0.2690804709 0.0868259082 0.4124945681 -0.093800357 0.4124513949 -0.0943028012 -0.2811558805 0.0848536738
130299220.0 -0.2678016555 0.08899476 0.4116910762 -0.0985804271 0.4114785238 -0.0991040037 -0.280429662 0.0872278963
135299190.0 -0.2668166169 0.0911381577 0.4105586091 -0.103998985 0.4107425709 -0.1042296424 -0.2794719574 0.0898495643
140299160.0 -0.2659596493 0.0938847837 0.4100986485 -0.1090767105 0.4102950026 -0.1092295582 -0.2784938621 0.0921924718
145299130.0 -0.2648269979 0.0957837024 0.409432569 -0.1143012605 0.4092121467 -0.113697633 -0.2780353501 0.094521141
150299100.0 -0.2639838337 0.0981960919 0.4082561257 -0.1190029973 0.4079761122 -0.1191245024 -0.2767548654 0.0970405064
155299070.0 -0.2629864174 0.100734315 0.4070253887 -0.1239572326 0.4070592281 -0.1241467891 -0.2760891373 0.0998015577
160299040.0 -0.2618375712 0.1029515185 0.4056896651 -0.1282634133 0.4058735007 -0.1287994144 -0.2751326862 0.1024598276
165299010.0 -0.2611339336 0.105427831 0.4049599869 -0.1335983163 0.4048988923 -0.133703138 -0.2743445095 0.1045598322
170298980.0 -0.2601815723 0.1077194167 0.4028801222 -0.1387115211 0.4032875848 -0.138429674 -0.2732005256 0.1070253163
175298950.0 -0.2590320555 0.1101956043 0.4021902295 -0.1431102858 0.4021617768 -0.1428982729 -0.2722623683 0.1096443634
180298920.0 -0.2581035838 0.112474186 0.4006775052 -0.1480642036 0.4006434524 -0.1480829217 -0.2711267696 0.1128195069
185298890.0 -0.2568803085 0.115104087 0.3983793407 -0.1525426476 0.3991846384 -0.1524679931 -0.2703968377 0.1149233114
190298860.0 -0.2558680195 0.1177856565 0.3973844343 -0.1571897177 0.3975134157 -0.157565911 -0.2685999181 0.1179852732
195298830.0 -0.2547776131 0.1199461407 0.3957196952 -0.1619631298 0.3956975206 -0.1622581271 -0.2681518079 0.1202921335
200298800.0 -0.2535253256 0.122755301 0.3941733659 -0.166079261 0.3939973142 -0.1666738556 -0.266706248 0.1232147193
205298770.0 -0.2527940774 0.1252301824 0.3923021088 -0.1713039921 0.3924340192 -0.1709752936 -0.2657904365 0.1252025668
210298740.0 -0.2514263836 0.1273801843 0.3903670255 -0.1757946736 0.3907290264 -0.175898551 -0.2647194806 0.1282230764
215298710.0 -0.2503305879 0.1303219138 0.3884423939 -0.1803508036 0.3884479046 -0.180177701 -0.2634480977 0.1312498886
220298680.0 -0.2493163478 0.1327305057 0.3862275273 -0.1847948536 0.3866911197 -0.1848395224 -0.2620690292 0.1340463983
225298650.0 -0.2477716745 0.1354061455 0.3845022976 -0.1890034738 0.3844348783 -0.1888198875 -0.2612417308 0.1363108548
230298620.0 -0.2469797651 0.1380975404 0.3829430751 -0.1934994332 0.3824913516 -0.1935206849 -0.2596396125 0.1391880557
235298590.0 -0.2453863347 0.1405064042 0.3803630212 -0.1977987179 0.3805176174 -0.1982360582 -0.2584197724 0.1415187907
240298560.0 -0.2444055138 0.143318169 0.3783349465 -0.2022233837 0.3785576643 -0.2021638208 -0.2570447868 0.1442149297
245298530.0 -0.242818712 0.1457019978 0.3756961997 -0.2066282637 0.3758336532 -0.2065823043 -0.2557440314 0.1472617597
250298500.0 -0.2416717086 0.1482344117 0.3738147717 -0.210639545 0.374071388 -0.2103805393 -0.2544394982 0.150062533
255298470.0 -0.2399882035 0.1510861915 0.3714112894 -0.2154386345 0.3715370286 -0.2150859165 -0.2527588967 0.1522267966
260298440.0 -0.2386247035 0.1532905412 0.3690205929 -0.2189010156 0.3688835113 -0.2193342765 -0.2511137252 0.1551840617
265298410.0 -0.23700224 0.1562805919 0.3665450113 -0.2234340763 0.3666388586 -0.2237003536 -0.2499284241 0.1578987339
270298380.0 -0.2355261958 0.1588554236 0.3637493759 -0.2279025846 0.364261188 -0.2277228521 -0.2480148397 0.1605631202
275298350.0 -0.234153639 0.1613482466 0.3616508884 -0.2323484874 0.3618903801 -0.2318951431 -0.2462635732 0.1631742831
280298320.0 -0.2325945171 0.1637675422 0.3590413066 -0.2354555826 0.3589311899 -0.2358101386 -0.2447007485 0.1661916913
285298290.0 -0.2311987578 0.1666409793 0.3568640067 -0.2398792999 0.3564602478 -0.2399624376 -0.2433837608 0.1685310131
290298260.0 -0.2292633038 0.1687981435 0.3540900774 -0.2439264603 0.3538336614 -0.2441268423 -0.2412321857 0.1714054616
295298230.0 -0.2275577274 0.1715401677 0.3512108251 -0.2482610605 0.3510047424 -0.2478779946 -0.2398834265 0.1739652302
300298200.0 -0.2257386161 0.1734746488 0.3485986721 -0.2517675284 0.348522102 -0.2521522144 -0.2376881111 0.1765680396
305298170.0 -0.2240527349 0.1761245682 0.3459560361 -0.2558791742 0.3459211118 -0.2561905536 -0.2358560926 0.1791764877
310298140.0 -0.2221155174 0.1784371118 0.3429767334 -0.2602406485 0.3427773592 -0.2601120767 -0.2339331666 0.1821012487
315298110.0 -0.220841808 0.1809866525 0.3402442903 -0.2639816288 0.3402355739 -0.2639715672 -0.2321324799 0.1843841217
320298080.0 -0.2188551954 0.1833709108 0.3371326561 -0.2678507325 0.3372104379 -0.2676626289 -0.2301886808 0.1868481932
325298050.0 -0.2173380825 0.1854257756 0.3343794689 -0.2716614419 0.3342406778 -0.271947943 -0.2287783823 0.1894915335
330298020.0 -0.215363818 0.1880750244 0.330596228 -0.2749976566 0.3308060456 -0.2754246861 -0.2266017976 0.1916470468
335297990.0 -0.2134580404 0.1900748003 0.3279072111 -0.2790499365 0.3274787078 -0.2791378208 -0.2247776146 0.1943540103
340297960.0 -0.2120090794 0.1929671728 0.3241590318 -0.2827489329 0.3243270364 -0.2826045661 -0.2226116299 0.1968709486
345297930.0 -0.2099678919 0.194954462 0.321149905 -0.2859231193 0.3208152189 -0.2860706206 -0.220536173 0.199451037
350297900.0 -0.2078284709 0.1977318891 0.3179948847 -0.2896307953 0.3183151502 -0.2896912689 -0.2190118749 0.2020297571
355297870.0 -0.2061442467 0.1998443959 0.3146431419 -0.2931886746 0.3148358615 -0.2934817699 -0.2168567032 0.20461936
360297840.0 -0.2038909853 0.202365023 0.3115444535 -0.2970703616 0.3111134644 -0.2967801519 -0.2145003914 0.2072692961
365297810.0 -0.2018341177 0.2044184466 0.3079972378 -0.3000244741 0.3082992159 -0.2999761624 -0.2126116687 0.2096686327
370297780.0 -0.1994776725 0.206682454 0.3045121947 -0.3031536217 0.3050161868 -0.3035247092 -0.2104206858 0.2122439637
375297750.0 -0.197627778 0.2092803299 0.3016412107 -0.3070165532 0.3013565898 -0.3070825657 -0.2080996388 0.2148249138
380297720.0 -0.1952071291 0.2113018624 0.2978443558 -0.3099733195 0.2979516264 -0.3099522206 -0.2059658625 0.2172622538
385297690.0 -0.1931995988 0.2138120408 0.2943226159 -0.3130283405 0.2944587871 -0.3135003193 -0.2037868267 0.2198265448
390297660.0 -0.1911745201 0.2160773975 0.2910049377 -0.3166650623 0.2910294564 -0.3168031801 -0.2014423938 0.2217991656
395297630.0 -0.1886030041 0.2181815211 0.2875680469 -0.3196228578 0.2874283198 -0.3196147974 -0.199216772 0.2243257066
400297600.0 -0.1865054116 0.2203674528 0.2840149846 -0.3230598947 0.284170489 -0.3229528436 -0.1973713098 0.226444413
405297570.0 -0.1840937862 0.2224547057 0.2800446673 -0.326102847 0.2804997061 -0.3262321987 -0.1946449172 0.2292615702
410297540.0 -0.1820508108 0.2244763291 0.2766736232 -0.3289388156 0.2765725906 -0.3288448794 -0.1923478511 0.2313468517
415297510.0 -0.1796552638 0.226776005 0.2730844647 -0.3321222473 0.2728800636 -0.3318930602 -0.1898324916 0.2339170435
420297480.0 -0.1770684269 0.2285567747 0.2693527813 -0.3352615439 0.2693401711 -0.3350586641 -0.1872216725 0.2355966302
425297450.0 -0.1745218706 0.2304336383 0.2655453381 -0.3378336908 0.265685924 -0.3384295546 -0.1850294154 0.2384284969
430297420.0 -0.1724913717 0.2330145692 0.2618142618 -0.3410912655 0.262047555 -0.3407837683 -0.1826293057 0.2400699291
435297390.0 -0.169819736 0.2344851811 0.2580698548 -0.3434938379 0.2585949086 -0.3434741932 -0.1799447809 0.2424654417
440297360.0 -0.1672943285 0.2365327201 0.2539211353 -0.3462026182 0.2539853981 -0.346449307 -0.177650879 0.2444427338
445297330.0 -0.1647146362 0.2385373629 0.2498995724 -0.3496459387 0.2504068588 -0.3491824239 -0.1751138349 0.2463638158
450297300.0 -0.1624184939 0.2402590066 0.2463116313 -0.3519265923 0.2465971705 -0.3518604682 -0.1725928889 0.2487755372
455297270.0 -0.1599627751 0.2421792297 0.2427587656 -0.3545954166 0.2431138425 -0.3544800144 -0.169970558 0.2508697509
460297240.0 -0.1576247272 0.2439800574 0.2385486698 -0.3569420957 0.2382344066 -0.3568296396 -0.1667873098 0.2529293307
465297210.0 -0.1544078084 0.2457732114 0.2346713251 -0.3596149333 0.2349961468 -0.3597340326 -0.1650040187 0.2546230133
470297180.0 -0.1521734003 0.2475473626 0.2308812696 -0.3616991453 0.2309646549 -0.3623225302 -0.1624628319 0.2567530849
475297150.0 -0.1497211144 0.2494084022 0.2265009271 -0.3644327734 0.2269838708 -0.3638282136 -0.1596022614 0.2582075028
480297120.0 -0.14713268 0.2507530469 0.2228368159 -0.3670122358 0.2230402727 -0.3667946933 -0.1568982326 0.2608626075
485297090.0 -0.1442098303 0.2527829977 0.2186359495 -0.3694197639 0.218870038 -0.3692706686 -0.1544127338 0.2622897644
490297060.0 -0.1415787387 0.2543472302 0.2145412172 -0.3715105252 0.2148712063 -0.3717900396 -0.1518113774 0.2641389287
495297030.0 -0.1390906206 0.2558694114 0.2102963914 -0.3737555714 0.2105776912 -0.3738647896 -0.1486609154 0.26560683
500297000.0 -0.135908289 0.2574774518 0.2062671196 -0.3761766675 0.2064532714 -0.3762846951 -0.146292399 0.2677605777
505296970.0 -0.1337870079 0.2592056642 0.2022715315 -0.3781682332 0.2023997333 -0.3782135118 -0.1440243729 0.269422631
510296940.0 -0.1310457958 0.2608962261 0.1984892308 -0.3808330771 0.1981445725 -0.3805673173 -0.1405760609 0.2712549632
515296910.0 -0.1283788932 0.2624232716 0.1939635311 -0.3825898963 0.1939894486 -0.3825536653 -0.138058287 0.2729534521
520296880.0 -0.1254739105 0.2637115816 0.1896669903 -0.3846517084 0.190083264 -0.3845516324 -0.1350826364 0.274604811
525296850.0 -0.1227353608 0.2651987302 0.1858896064 -0.3867368231 0.1858077087 -0.3870576485 -0.1322549096 0.2763353693
530296820.0 -0.1198125472 0.2668206621 0.1814591153 -0.3881196726 0.1814431806 -0.3885851911 -0.1297849633 0.2775130135
535296790.0 -0.1169789538 0.267959034 0.1769304071 -0.3901316756 0.1775364494 -0.3904137489 -0.1265863632 0.2792264109
540296760.0 -0.1142313152 0.269371655 0.1727009329 -0.3924131574 0.1725803528 -0.3924249389 -0.1242207683 0.2809646513
545296730.0 -0.1110883773 0.2707230938 0.1683704309 -0.3939301771 0.1685107629 -0.394195401 -0.1212390987 0.2819215902
550296700.0 -0.1087479542 0.2720946493 0.1640858714 -0.3957282099 0.1648226092 -0.3960810278 -0.1185087737 0.2838267297
555296670.0 -0.1057120568 0.2732306355 0.1600820861 -0.3975742513 0.160522246 -0.3976987619 -0.1157204931 0.2851987669
560296640.0 -0.1027261162 0.2745799646 0.1553309075 -0.3992246127 0.1558722175 -0.3993224704 -0.1121637061 0.2864596983
565296610.0 -0.0999114458 0.2758389916 0.150898955 -0.4006871505 0.151059503 -0.4010198224 -0.1096125024 0.2877680758
570296580.0 -0.096968671 0.2771139499 0.1463905327 -0.4023899776 0.1467380168 -0.4026664784 -0.10653723 0.289337711
575296550.0 -0.0941359065 0.2782608545 0.1425638696 -0.4035601994 0.142768551 -0.4040724912 -0.1034788528 0.2901378662
580296520.0 -0.0912169764 0.2793445806 0.1381475089 -0.4058625586 0.1379077368 -0.4055501022 -0.100583633 0.2917336238
585296490.0 -0.088373949 0.2803668943 0.1337620845 -0.4071948747 0.1338234618 -0.4070364613 -0.0977105905 0.2924515801
590296460.0 -0.085471226 0.2814824229 0.128915502 -0.4083172261 0.1291547619 -0.4084484188 -0.0946104491 0.2937865526
595296430.0 -0.0822049018 0.2825121755 0.1246226751 -0.40997046 0.1244554089 -0.4099579052 -0.0917533493 0.2949516092
600296400.0 -0.0792068889 0.2834285239 0.1204223623 -0.4108324959 0.1207745523 -0.4112423985 -0.0888538931 0.2964104233
605296370.0 -0.0761871342 0.2846418036 0.1157461817 -0.4122405473 0.1158284244 -0.412027284 -0.0856606918 0.2974879328
610296340.0 -0.0735042411 0.2855042819 0.1115096561 -0.4134974271 0.1114703363 -0.4135010412 -0.0822874749 0.2985818842
615296310.0 -0.0703762987 0.2864345515 0.1069591629 -0.414540684 0.1068252937 -0.4145753914 -0.0791932244 0.2992346119
620296280.0 -0.0673540504 0.2873542335 0.1025374453 -0.4157014134 0.1022125612 -0.4155379088 -0.07616122 0.2999917686
625296250.0 -0.0641423546 0.2881567291 0.0974562737 -0.4168990321 0.0976965266 -0.4169023311 -0.0733342356 0.3013008024
630296220.0 -0.0611815715 0.2892062038 0.0932553445 -0.4180467501 0.0936672269 -0.4178735013 -0.07042621 0.3021724885
635296190.0 -0.057899999 0.2901278087 0.0884315333 -0.4183488361 0.08872125 -0.4182931106 -0.0670300244 0.3028246434
640296160.0 -0.0546853341 0.2905125016 0.0841633973 -0.4195406972 0.0841098589 -0.4197059804 -0.0636358253 0.3036673005
645296130.0 -0.0520717671 0.2913177794 0.0794843726 -0.4201872678 0.0798515203 -0.420396766 -0.0610262412 0.3041687352
650296100.0 -0.0491651961 0.2924065948 0.0755406304 -0.4209413399 0.0751532902 -0.4210875558 -0.0573343075 0.3053061205
655296070.0 -0.0455219199 0.2924006584 0.0702509722 -0.4217863695 0.0705207682 -0.4218064214 -0.0541533397 0.3059805115
660296040.0 -0.0428875013 0.2935584472 0.0660802707 -0.4223109256 0.0660764098 -0.4224189445 -0.0515602562 0.3065499454
665296010.0 -0.0397163031 0.2938505287 0.0618913576 -0.4228920601 0.0616303401 -0.4230027847 -0.048494404 0.3072217592
670295980.0 -0.0363325952 0.2943781294 0.0565673726 -0.4236879566 0.057167553 -0.4235083837 -0.0451771658 0.3080173726
675295950.0 -0.0333386291 0.2948929495 0.0522083097 -0.4244153324 0.0523167898 -0.4244228355 -0.0417229356 0.3085867705
680295920.0 -0.0300840905 0.2955317019 0.0477134776 -0.4247527698 0.0474094292 -0.4251217353 -0.0385305831 0.3092315546
685295890.0 -0.0270572748 0.2956688655 0.0431732694 -0.425342115 0.042988139 -0.4256770151 -0.0352664403 0.3097880207
690295860.0 -0.0239257747 0.2962134438 0.0384085338 -0.4251573851 0.0383106728 -0.425515051 -0.0321809878 0.3100330917
695295830.0 -0.0205737393 0.2966865312 0.0333872067 -0.4260554498 0.0337399881 -0.4261337332 -0.0290206853 0.3107454156
700295800.0 -0.017506583 0.2972435585 0.0289557099 -0.4266627367 0.0291358368 -0.4266946456 -0.0256407226 0.3110123412
705295770.0 -0.0143427638 0.2975897855 0.0245346133 -0.4264480695 0.0247615438 -0.4268205846 -0.0230068582 0.3117882679
710295740.0 -0.0114090129 0.2978832751 0.0198088038 -0.4268969412 0.0200982994 -0.4266697876 -0.0197036561 0.3122090296
715295710.0 -0.008202231 0.2979585952 0.0149368523 -0.4269398335 0.0156184761 -0.4269043626 -0.0162282329 0.3120405434
720295680.0 -0.0049485337 0.2979914231 0.0104013989 -0.4268356021 0.0106833682 -0.4274313648 -0.0127391041 0.3125990428
725295650.0 -0.0018070373 0.2985368556 0.0056332343 -0.4270702281 0.0059768163 -0.4272793536 -0.0094568735 0.3130497869
730295620.0 0.0011871064 0.2985622384 0.0014062231 -0.4269210659 0.0013503267 -0.427346483 -0.0061527409 0.3131790371
735295590.0 0.0047782178 0.2984981425 -0.0030538013 -0.4269349423 -0.0030535448 -0.4274802912 -0.0029308484 0.3134589988
740295560.0 0.0077684193 0.2991999286 -0.0080042816 -0.4267200859 -0.007867491 -0.4272245217 0.000364748 0.3133425523
745295530.0 0.010543213 0.2990744414 -0.0127065818 -0.4267153404 -0.0121709172 -0.4271123182 0.0036048155 0.3136507337
750295500.0 0.0136231605 0.2987750197 -0.0168342406 -0.426343846 -0.0173708349 -0.4266804025 0.0069718677 0.3132594446
755295470.0 0.0177889071 0.2991881862 -0.0218495956 -0.4263153027 -0.0214971587 -0.4268224245 0.009907251 0.3138071645
760295440.0 0.0202528061 0.2991821759 -0.0262648106 -0.4258251214 -0.0261452635 -0.4263557084 0.0128512266 0.3137139923
765295410.0 0.0235557844 0.2985778882 -0.0306156796 -0.4255429395 -0.0309242229 -0.4263098171 0.0170343528 0.3140249165
770295380.0 0.0269468044 0.2988312995 -0.0356423612 -0.4253391041 -0.0353960963 -0.4253151477 0.0199244961 0.3134997363
775295350.0 0.0297375099 0.2990499037 -0.0402627984 -0.4249523954 -0.0399204725 -0.4251407299 0.0228543607 0.3133673402
780295320.0 0.0331217389 0.2982526403 -0.04435661 -0.424424518 -0.0443567086 -0.424776358 0.0261327853 0.3137850076
785295290.0 0.0361406276 0.2984435665 -0.0490367703 -0.4233303415 -0.049132038 -0.4239280362 0.0293556878 0.3135734809
790295260.0 0.0392108949 0.2979272246 -0.0534640575 -0.4230152325 -0.05379518 -0.4236719953 0.033032019 0.3132301535
795295230.0 0.042465573 0.2978827101 -0.0581552266 -0.4223994288 -0.0579522114 -0.4226473997 0.0363671671 0.3133845481
800295200.0 0.0459951232 0.2977375787 -0.0633050627 -0.4221126234 -0.0631799954 -0.422137177 0.0393190731 0.3127745997
805295170.0 0.0485327168 0.2972795229 -0.0671600135 -0.4209746314 -0.0675310885 -0.4211034041 0.0422277793 0.3123601562
810295140.0 0.0518832821 0.2968792653 -0.0720244442 -0.4201816452 -0.0719279219 -0.4208525726 0.0457648384 0.3125585408
815295110.0 0.0552119926 0.2964477451 -0.0765532765 -0.4194923497 -0.0766436593 -0.4193323973 0.0490932501 0.3121021539
820295080.0 0.0583564646 0.2957790761 -0.0811982354 -0.41860999 -0.0809060549 -0.4186823398 0.0520157532 0.3114251954
825295050.0 0.0616280876 0.2952338313 -0.0855352959 -0.417270569 -0.0854019817 -0.4177702806 0.0555598184 0.3110918316
830295020.0 0.0647812803 0.2951681352 -0.0902843013 -0.4165769794 -0.0903970347 -0.4170059352 0.0583201466 0.3105707787
