!Created with skrf (http://scikit-rf.org).
# Hz S RI R 50.0 
!freq ReS11 ImS11 ReS21 ImS21 ReS12 ImS12 ReS22 ImS22
300000.0 -0.102083191 -0.0619518262 0.6307095693 0.0579358963 0.6239225946 0.0579170226 -0.1006913274 -0.0691133343
5299970.0 -0.1024466141 0.0134400333 0.6306056048 0.0098228913 0.6306235079 0.0103695163 -0.1013015025 0.0132039363
10299940.0 -0.0975772086 0.0295745721 0.6342680942 0.0157037144 0.6345422228 0.0156566661 -0.0963256768 0.0302780175
15299910.0 -0.0903349766 0.0425704908 0.6405652243 0.0203937949 0.6407209753 0.0207810758 -0.089029603 0.0436899418
20299880.0 -0.0819896735 0.0530291257 0.6487760825 0.0246727317 0.6488610474 0.0241131999 -0.0803627274 0.054441625
25299850.0 -0.0724672915 0.0620841963 0.6576150993 0.0253489903 0.6576983601 0.0256119681 -0.0703231224 0.0631502245
30299820.0 -0.0622648212 0.0688833858 0.667559587 0.0243611872 0.6673976886 0.0248307203 -0.0603724671 0.0699653217
35299790.0 -0.0528189255 0.0736782615 0.6771744843 0.0216857675 0.6772972156 0.0216472711 -0.0501653234 0.0748022192
40299760.0 -0.0434069533 0.0772579173 0.6862347336 0.0172433147 0.6866608259 0.0176265944 -0.0406978386 0.0772336987
45299730.0 -0.0340872445 0.079505891 0.694975716 0.011821271 0.6961785837 0.012223642 -0.0314476266 0.0797508245
50299700.0 -0.0257106359 0.0802420499 0.7040504381 0.004985666 0.7037411276 0.0058596224 -0.0227568919 0.0802285974
55299670.0 -0.0176663212 0.0805066528 0.7113168654 -0.0036174105 0.7108970161 -0.002226308 -0.0148354251 0.0804674188
60299640.0 -0.0102153314 0.0799454027 0.717125918 -0.0114609991 0.7176224875 -0.0108056681 -0.0078801548 0.0792925466
65299610.0 -0.0036973817 0.078827915 0.723557862 -0.0199807834 0.7234699635 -0.0197125419 -0.0010179891 0.0781584423
70299580.0 0.0027465804 0.0778239888 0.7290682375 -0.0289314554 0.7287986612 -0.0283499953 0.004724352 0.0766049842
75299550.0 0.0081879306 0.0757891356 0.7327850132 -0.0386320685 0.7326617206 -0.0384830884 0.0104297527 0.0747786496
80299520.0 0.0130293785 0.0738530527 0.7376778831 -0.0487657257 0.7377658837 -0.0487816028 0.0155104136 0.0726599077
85299490.0 0.0179053176 0.0714101081 0.7403901989 -0.058069437 0.7409434553 -0.0582025807 0.0200447052 0.0699473273
90299460.0 0.0219358836 0.0689702511 0.7426997714 -0.0687083778 0.7437758194 -0.0686308925 0.0239951983 0.0680932797
95299430.0 0.0261462427 0.0663179399 0.7454105687 -0.078719031 0.7461162299 -0.0791272594 0.0276143953 0.0658139757
100299400.0 0.0292132177 0.0644983797 0.7468208436 -0.0886588986 0.747484856 -0.0887177861 0.0314087359 0.0628558997
105299370.0 0.0324079166 0.0618259324 0.7490548379 -0.0996040938 0.7491383061 -0.0988320753 0.0345819093 0.061140846
110299340.0 0.035172937 0.0596524542 0.7501008255 -0.1088892638 0.750320141 -0.1085627362 0.0363559832 0.058148721
115299310.0 0.0375715959 0.0572952666 0.7506396327 -0.1189807441 0.7511089515 -0.1189725886 0.0394137746 0.055875546
120299280.0 0.0397212858 0.0544650099 0.7514568777 -0.1288136459 0.7513641175 -0.1292610197 0.0412818229 0.0537373174
125299250.0 0.0421208964 0.0523240629 0.752207297 -0.1388932232 0.751645352 -0.1385598821 0.0427397435 0.0508871183
130299220.0 0.0434108773 0.050108342 0.7514800433 -0.148804915 0.7519201073 -0.1490668689 0.0447477724 0.0486626951
135299190.0 0.045169891 0.0482672822 0.7516363379 -0.1583584983 0.751117689 -0.1582626989 0.0464859541 0.0465795252
140299160.0 0.0464344481 0.0462242834 0.7511452503 -0.1682119971 0.750622708 -0.1689998261 0.0476807316 0.0447095254
145299130.0 0.0479767093 0.0439390233 0.7501844035 -0.1785700015 0.7499304254 -0.1780187094 0.0492056055 0.0425146632
150299100.0 0.0494412511 0.042111891 0.748887298 -0.1873814266 0.7497945112 -0.1874167358 0.0507969621 0.0406624086
155299070.0 0.0501219957 0.0399041157 0.7479308758 -0.197924193 0.7478136274 -0.1972742701 0.0512213959 0.0385817177
160299040.0 0.0517425457 0.0381446655 0.7466255908 -0.2065021323 0.7457989427 -0.2073534261 0.051837789 0.0363644457
165299010.0 0.0521986728 0.0365675231 0.7445556311 -0.2167982619 0.7449049216 -0.2168029254 0.0531647151 0.0351559779
170298980.0 0.05326116 0.0343106001 0.7429868357 -0.2262910581 0.7430568674 -0.2256932875 0.0535438512 0.0333017679
175298950.0 0.053415686 0.0325467891 0.7418542889 -0.2351454135 0.7411023564 -0.2347319008 0.0543884919 0.0315117345
180298920.0 0.0541039072 0.0308804914 0.7391381406 -0.2446218166 0.7394125875 -0.2440755275 0.0551376456 0.0298229665
185298890.0 0.0555179048 0.0289529103 0.7370794659 -0.2534413624 0.7365172106 -0.2529806367 0.0555204411 0.0283923964
190298860.0 0.05523766 0.0276628012 0.7347356289 -0.2629200032 0.7349409026 -0.2625972962 0.0561210567 0.0262975582
195298830.0 0.0561810549 0.0256386526 0.7321005969 -0.2713312605 0.7324581175 -0.2717128029 0.0570982924 0.0250554757
200298800.0 0.0562894479 0.0243248344 0.7295781008 -0.2808435918 0.7294471548 -0.280895079 0.0564890627 0.0236135457
205298770.0 0.0567432566 0.0230152951 0.7259865838 -0.289994591 0.726051743 -0.2892183685 0.057069914 0.0210035985
210298740.0 0.0572924404 0.0211636492 0.7235147774 -0.298008551 0.7235943106 -0.2976330639 0.0579667361 0.0212062232
215298710.0 0.0569235086 0.0197434376 0.7201998343 -0.3069258447 0.7203099991 -0.3070715162 0.0575291846 0.01927009
220298680.0 0.0576195971 0.0178395451 0.717305808 -0.3152385202 0.7170218593 -0.315325486 0.0573844607 0.0177994606
225298650.0 0.057989187 0.0167448362 0.7144966358 -0.324308624 0.7139941021 -0.3242673597 0.0575030452 0.0160962042
230298620.0 0.0580283228 0.0158242244 0.7112223809 -0.332731537 0.7112047739 -0.3326813596 0.0576872655 0.0146631232
235298590.0 0.0580884197 0.0148336904 0.7073264923 -0.3410302885 0.7074067342 -0.3408784022 0.0579757814 0.0136959002
240298560.0 0.0580948864 0.0134572969 0.7041817674 -0.3496232235 0.703612114 -0.3495289982 0.0578841306 0.0128479237
245298530.0 0.0579665084 0.0119250076 0.7005213356 -0.3580332389 0.7000229666 -0.3578791726 0.0587472993 0.0109902746
250298500.0 0.0586450158 0.0111642424 0.6956759506 -0.3663125183 0.6955283023 -0.3654391186 0.0582095122 0.0102152666
255298470.0 0.0585724349 0.0093166632 0.6917315416 -0.3738894549 0.6921480523 -0.3736593809 0.0588021031 0.0091994002
260298440.0 0.0580701858 0.0082495271 0.6879580669 -0.3830497639 0.6884029386 -0.3824108099 0.0591200307 0.0081203176
265298410.0 0.0589086057 0.0077918001 0.6837780738 -0.3906164518 0.6839192652 -0.3901266416 0.0587285166 0.0068075884
270298380.0 0.0586213377 0.0063415335 0.6801305557 -0.3982545204 0.6799292473 -0.398038655 0.0584761491 0.0060091238
275298350.0 0.0590415161 0.0052449153 0.6759076035 -0.4064907394 0.6758827108 -0.4063932805 0.0586438662 0.0045913589
280298320.0 0.0587459466 0.004355068 0.671662029 -0.4143512605 0.6716827364 -0.4143669572 0.0592251175 0.003738045
285298290.0 0.0587555471 0.0033620508 0.6670758491 -0.4222666565 0.6668062824 -0.4219569264 0.0587866837 0.0026340027
290298260.0 0.0589135104 0.0021119327 0.6623392856 -0.4290669853 0.6625384458 -0.4299989943 0.0589092227 0.0024451948
295298230.0 0.0588252207 0.0010441574 0.6581653968 -0.4370317965 0.6580747955 -0.4373626329 0.0594462674 0.0007759902
300298200.0 0.0583544311 -0.0001932169 0.6540165758 -0.4448726234 0.6533176307 -0.4454884464 0.0590191755 -0.000489197
305298170.0 0.0587449691 -0.0013324986 0.6474943631 -0.4530873122 0.6480259425 -0.4528875954 0.059391428 -0.0015194352
310298140.0 0.0583385958 -0.0020897442 0.6435945377 -0.460588847 0.6437502723 -0.4603388206 0.0592151514 -0.0024101113
315298110.0 0.0581580327 -0.0039657585 0.6381691222 -0.4685850409 0.6387146267 -0.4683863867 0.0587768709 -0.0037351141
320298080.0 0.0582509385 -0.0046415634 0.6322589666 -0.4762194797 0.6329951892 -0.4755423917 0.0584788824 -0.0051641417
325298050.0 0.0577251843 -0.0058732213 0.6275412417 -0.4836394189 0.6276495069 -0.4833344994 0.0579010501 -0.0057836682
330298020.0 0.0573094207 -0.0072127844 0.6214531554 -0.4907208605 0.6221772003 -0.4907873584 0.0570620545 -0.0071484549
335297990.0 0.0571394601 -0.0081156941 0.6165212243 -0.4973446504 0.6157933141 -0.4977492972 0.0561978176 -0.0077062361
340297960.0 0.0559490503 -0.0085950347 0.6100429514 -0.5044808974 0.6103710965 -0.5044132742 0.0566598895 -0.0081554774
345297930.0 0.0559252563 -0.0088249427 0.6049520261 -0.5121122084 0.6043951735 -0.512060711 0.0562823123 -0.0095013107
350297900.0 0.0552707 -0.0105228263 0.5980379282 -0.5187253053 0.5983117706 -0.5181994849 0.0553685147 -0.009550488
355297870.0 0.0551494904 -0.0100133209 0.5929687381 -0.5249853046 0.5932346916 -0.5247424623 0.0545849168 -0.0105706713
360297840.0 0.0546930119 -0.0109572646 0.5877086002 -0.5313023795 0.5881633981 -0.5311103753 0.0546031502 -0.0111499669
365297810.0 0.0541533424 -0.0116199437 0.5808115099 -0.5380228234 0.5820061874 -0.5377770691 0.0547001959 -0.0116636054
370297780.0 0.0545920452 -0.0128106442 0.5750010437 -0.5447955742 0.5752834676 -0.5438851138 0.0542588298 -0.012507525
375297750.0 0.0540166391 -0.0136466721 0.5692290735 -0.5511468336 0.5700840072 -0.5511513783 0.0543111053 -0.0130138262
380297720.0 0.0535896013 -0.0142579037 0.5637268361 -0.5575571325 0.5634719186 -0.5564634349 0.0535784476 -0.0142441408
385297690.0 0.0531765588 -0.01506685 0.556830697 -0.5640405416 0.5566936049 -0.5634229772 0.0534085865 -0.0144016146
390297660.0 0.0528319786 -0.0151939344 0.5506144785 -0.5700228955 0.5506417484 -0.5693321452 0.0528445775 -0.0152955967
395297630.0 0.0526160144 -0.0160927737 0.54446789 -0.5758418835 0.5442390632 -0.576105446 0.0534107172 -0.0162422167
400297600.0 0.0520462958 -0.016569936 0.5372710621 -0.5825257479 0.5381587638 -0.5818346617 0.0526242849 -0.0163810835
405297570.0 0.0514584059 -0.0175004915 0.5314924523 -0.5873481028 0.5318429823 -0.5874863191 0.0522294137 -0.017023177
410297540.0 0.051374749 -0.0180228962 0.5250727492 -0.5939125318 0.5258546762 -0.5938684056 0.0517376849 -0.0174567622
415297510.0 0.0516165303 -0.0185866469 0.518517962 -0.5999298413 0.5190743418 -0.5995212498 0.0515510372 -0.0181823747
420297480.0 0.0510638665 -0.0192118813 0.5123572348 -0.6056074657 0.5120411405 -0.6058825602 0.0509741273 -0.0192529873
425297450.0 0.0502777964 -0.0203473488 0.5056096875 -0.6110588542 0.5057960587 -0.6110751871 0.049971756 -0.0189396334
430297420.0 0.0498460964 -0.0208504041 0.498591533 -0.616392593 0.4989237122 -0.6162138386 0.0498756724 -0.0199339349
435297390.0 0.0493862614 -0.0211677087 0.491395019 -0.6223443823 0.4913845645 -0.6223826999 0.0505407691 -0.0205215328
440297360.0 0.0493336794 -0.0215922121 0.4848322582 -0.6274310469 0.484931487 -0.6274853779 0.0491908639 -0.021102597
445297330.0 0.0487182678 -0.0227916468 0.4782189771 -0.6331672347 0.478278119 -0.6323369355 0.0491868429 -0.0220578724
450297300.0 0.0488214124 -0.0230729169 0.4708561784 -0.6384127451 0.4712056537 -0.6384885018 0.0484962997 -0.0225875142
455297270.0 0.0482104381 -0.0234385628 0.4635626558 -0.643439511 0.464446028 -0.6436913808 0.048594166 -0.0231725487
460297240.0 0.0476337881 -0.0239878832 0.4570103567 -0.647923324 0.4571621087 -0.6490920914 0.0477120034 -0.0233024787
465297210.0 0.0476380428 -0.0245012973 0.4503370448 -0.6537944967 0.4495222063 -0.6542574344 0.0477998079 -0.0242056645
470297180.0 0.0471005504 -0.0254115848 0.4423321782 -0.6584741326 0.4424952445 -0.6589620162 0.0471631046 -0.0246798995
475297150.0 0.0468743479 -0.0259707923 0.4352095614 -0.6626896421 0.4354257379 -0.6628646787 0.0473432808 -0.0250975796
480297120.0 0.0463574395 -0.0258548877 0.427889599 -0.6683334431 0.4278773846 -0.6681143237 0.0471412933 -0.0254540054
485297090.0 0.0454083769 -0.0265441978 0.4206790466 -0.6730896969 0.4210024612 -0.6728249352 0.046301796 -0.0264479715
490297060.0 0.0448232977 -0.0274358894 0.4139146107 -0.6779810147 0.4139614424 -0.6770999713 0.046155756 -0.0260795777
495297030.0 0.0448326977 -0.0276948995 0.4057829503 -0.6819954764 0.406030591 -0.6817170531 0.0450299558 -0.027061443
500297000.0 0.0443892899 -0.0284195488 0.3982368997 -0.6860380189 0.3981495755 -0.6858081176 0.044938341 -0.0271683723
505296970.0 0.0440217196 -0.029133877 0.390541212 -0.6905806888 0.3905143599 -0.6907151056 0.0443086164 -0.0276568941
510296940.0 0.0435688079 -0.0291524109 0.3825393219 -0.6948456849 0.3831231659 -0.6954014773 0.0442678229 -0.0280099275
515296910.0 0.0427104208 -0.0293646884 0.3750868354 -0.6993733473 0.3753318484 -0.6991652888 0.0436550023 -0.0286249568
520296880.0 0.0423302922 -0.0300903625 0.3680080706 -0.7038751377 0.3678312514 -0.7031294483 0.0433678383 -0.0293313926
525296850.0 0.0423224522 -0.0310970339 0.3596863889 -0.7070003431 0.3605022142 -0.7075560218 0.0427907087 -0.0296599735
530296820.0 0.0417445262 -0.0312234228 0.3522629956 -0.7122908784 0.3526034559 -0.7114767382 0.0423676066 -0.0301777568
535296790.0 0.0408595161 -0.0315431597 0.3451099571 -0.7152842582 0.3449214975 -0.714948761 0.0417623018 -0.0312647028
540296760.0 0.0402686156 -0.0316019815 0.3366132268 -0.719059916 0.3367254546 -0.7193848408 0.0408537515 -0.0306388154
545296730.0 0.0400907041 -0.0326349204 0.3281835938 -0.7223822465 0.3287434357 -0.7224175041 0.0402745748 -0.0315097297
550296700.0 0.0401147437 -0.0324592472 0.3205126767 -0.7259192435 0.32110336 -0.7265807575 0.0397417858 -0.0318066372
555296670.0 0.038682034 -0.0331338788 0.3132357961 -0.7298411072 0.313373565 -0.7296211921 0.0395393783 -0.0320250708
560296640.0 0.0388030403 -0.0329753422 0.3044662786 -0.7329014647 0.3049076583 -0.7328458638 0.0391146758 -0.0327102099
565296610.0 0.0376028231 -0.0339974225 0.296705428 -0.7362104669 0.2969757809 -0.7364236858 0.0382822696 -0.0334988165
570296580.0 0.0371402058 -0.0340354052 0.288407401 -0.7401734412 0.2884643367 -0.7396052319 0.0378762768 -0.0329847069
575296550.0 0.0363829104 -0.0343770374 0.2811879766 -0.7433849455 0.2807060253 -0.7431283752 0.0377472465 -0.0338537585
580296520.0 0.0365970409 -0.0345856353 0.2726343747 -0.7460072745 0.2727792243 -0.7461666241 0.0374825562 -0.0345087397
585296490.0 0.0356836875 -0.0358550638 0.2648830094 -0.7484442703 0.2648574963 -0.7485536851 0.036533543 -0.0343205786
590296460.0 0.035513173 -0.0354029168 0.2561950516 -0.7506761018 0.2563773098 -0.7515215117 0.0355090454 -0.034823401
595296430.0 0.0351834178 -0.0355593264 0.2470890913 -0.7547234694 0.2478775231 -0.7540595832 0.0356634784 -0.0355749765
600296400.0 0.0339263737 -0.036253273 0.2397017472 -0.7569093585 0.2399250409 -0.7566495324 0.0345851568 -0.0355065067
605296370.0 0.0340464508 -0.0363833074 0.2312339771 -0.7595388224 0.2313238984 -0.7590400972 0.0340895838 -0.035515394
610296340.0 0.0329456491 -0.0369863574 0.2223874164 -0.7619971132 0.2235621351 -0.7622440994 0.0343239341 -0.0360405585
615296310.0 0.0327762505 -0.0374626222 0.2143295 -0.764245117 0.214284621 -0.7648931536 0.0336156484 -0.0362604977
620296280.0 0.0320577461 -0.0375460626 0.2063791898 -0.766304634 0.2061559035 -0.7661704112 0.0325979654 -0.0365014857
625296250.0 0.0313183389 -0.038221697 0.1987476263 -0.7693142515 0.198384306 -0.7692172746 0.0328519709 -0.0366004982
630296220.0 0.0318608336 -0.0380501751 0.189023514 -0.7708236874 0.1892772669 -0.7710622998 0.0318542015 -0.0370910887
635296190.0 0.0299020085 -0.0388900339 0.1811068244 -0.7729476251 0.1812455513 -0.7731380047 0.031421462 -0.0373225561
640296160.0 0.0296771803 -0.0388274953 0.1726351606 -0.7743271029 0.1732782148 -0.7749430875 0.0309302698 -0.0375673928
645296130.0 0.029274361 -0.0387539693 0.1639775748 -0.77629853 0.1643958647 -0.7766210537 0.0302193096 -0.0375412506
650296100.0 0.0290059161 -0.0390646916 0.1559791316 -0.7783824701 0.1562988432 -0.7783986222 0.0302685499 -0.0385015888
655296070.0 0.0277753917 -0.0395087598 0.1474632129 -0.7800066373 0.1472366772 -0.7802395218 0.0293910162 -0.0385000026
660296040.0 0.0267779246 -0.0401595507 0.1389041051 -0.7817900603 0.1390953681 -0.7817982207 0.0290062059 -0.0386432489
665296010.0 0.0273166847 -0.0398783482 0.1299316966 -0.7827641448 0.1303876757 -0.7827862299 0.0285554469 -0.0382088445
670295980.0 0.0253365802 -0.0401151252 0.1219437315 -0.7846769703 0.1216416383 -0.784257491 0.0271303994 -0.0386477629
675295950.0 0.025545692 -0.0399841581 0.1131582282 -0.7852085087 0.1132245148 -0.7849757846 0.0264064901 -0.0392414189
680295920.0 0.0244792662 -0.0407891804 0.1043335347 -0.786584355 0.1039273479 -0.7868860907 0.0261090853 -0.0384781415
685295890.0 0.0241189485 -0.039981414 0.0955882839 -0.7879135428 0.0954889747 -0.7878719403 0.0255916331 -0.0390432623
690295860.0 0.0237476188 -0.0407401339 0.0874174595 -0.7881135976 0.0874859346 -0.7892349576 0.0249713455 -0.0385765015
695295830.0 0.0232894417 -0.0413469626 0.0790218585 -0.789886338 0.0784203565 -0.7897035436 0.0241605158 -0.0389485241
700295800.0 0.0228609709 -0.0417500732 0.0705733248 -0.7902395094 0.0698360527 -0.7902786567 0.0235368131 -0.0386638639
705295770.0 0.0215754787 -0.0406674155 0.0611492373 -0.7910306475 0.0619367217 -0.7912192225 0.0230695957 -0.0391263519
710295740.0 0.0214190841 -0.0411418857 0.0529035722 -0.7927180562 0.0538608214 -0.792143382 0.0224282271 -0.0402402953
715295710.0 0.0198882207 -0.0417151257 0.0447683139 -0.7922218774 0.0441296446 -0.7924638694 0.0222638571 -0.0399639665
720295680.0 0.0198717425 -0.0417380633 0.0359333451 -0.792824586 0.0364066852 -0.7924646848 0.0212937862 -0.0393511578
725295650.0 0.0192937181 -0.0414823935 0.0268787907 -0.7926480539 0.0269674327 -0.793285482 0.0202766227 -0.0393571417
730295620.0 0.0190718625 -0.0414041135 0.0183459481 -0.793154053 0.0183576815 -0.7933098371 0.0196437775 -0.0406488067
735295590.0 0.0180168015 -0.0414362121 0.0102389372 -0.7940730397 0.0099194039 -0.7935030502 0.0193941974 -0.0405506893
740295560.0 0.0170736555 -0.0416698215 0.0012150634 -0.7935650992 0.0013422882 -0.7934628373 0.0191190533 -0.0402528813
745295530.0 0.0168728166 -0.0413559048 -0.0078003507 -0.7924001765 -0.0073278661 -0.7936589106 0.0184880062 -0.0407427737
750295500.0 0.0162920628 -0.0415094205 -0.0163600369 -0.7931547474 -0.0157681538 -0.7936197105 0.0177141243 -0.0403685017
755295470.0 0.0157571322 -0.0417702045 -0.0245791528 -0.7933566572 -0.0240165746 -0.7931909314 0.0180199339 -0.0410036652
760295440.0 0.0148464507 -0.0418032348 -0.0329185554 -0.7928384831 -0.0331837289 -0.792732995 0.0168844295 -0.0407283839
765295410.0 0.0142468289 -0.0420107348 -0.0422375095 -0.7927798382 -0.0422741076 -0.7924933541 0.0166136858 -0.040534584
770295380.0 0.0131288119 -0.0423045996 -0.0511962423 -0.7920124083 -0.0503032991 -0.7922282516 0.0154914975 -0.0411142741
775295350.0 0.0129423745 -0.0426178693 -0.0592895653 -0.7909100066 -0.0588247177 -0.7909307166 0.0141845923 -0.0405474873
780295320.0 0.0126479605 -0.041905732 -0.0682008975 -0.789764539 -0.0674701105 -0.7902401645 0.0139003078 -0.041183524
785295290.0 0.0116636918 -0.0426516554 -0.0765368765 -0.7890224053 -0.0760667294 -0.7894361178 0.0145579099 -0.0405667023
790295260.0 0.0117026464 -0.0414945067 -0.0843966556 -0.7885518624 -0.083870816 -0.7884267172 0.0131521915 -0.040856458
795295230.0 0.0108914446 -0.0425318901 -0.0937281633 -0.7875067005 -0.092899904 -0.7880336418 0.012912524 -0.0403240639
800295200.0 0.0099045737 -0.0416850731 -0.1029435815 -0.7862941584 -0.1019512368 -0.7867791594 0.012174475 -0.0407433815
805295170.0 0.0092858437 -0.0422585186 -0.1109194071 -0.7852129417 -0.1108237974 -0.7857179898 0.0115192191 -0.0402433228
810295140.0 0.0086187193 -0.0424523369 -0.1187466698 -0.7836190164 -0.1187541306 -0.7846604122 0.0115809491 -0.0402871788
815295110.0 0.0083835055 -0.0424588149 -0.1275924836 -0.7820835924 -0.1271690175 -0.7824382216 0.0100329344 -0.0399870292
820295080.0 0.0070580477 -0.0416158898 -0.1360186206 -0.7808030156 -0.1356994611 -0.7807599721 0.0094565737 -0.0402714929
825295050.0 0.0073037083 -0.0416834288 -0.1439518652 -0.7788853305 -0.1438459179 -0.7798065409 0.009480629 -0.0395719349
830295020.0 0.0064048304 -0.0416673204 -0.1533665042 -0.7777574003 -0.1526469152 -0.7780361973 0.009578266 -0.0398809521
