!Created with skrf (http://scikit-rf.org).
# Hz S RI R 50.0 
!freq ReS11 ImS11 ReS21 ImS21 ReS12 ImS12 ReS22 ImS22
300000.0 -0.2125031617 -0.0771713465 -0.0009109002 0.0006504832 0.0002668622 0.0017559002 -0.7715008495 -0.1662380154
5299970.0 -0.2139254157 0.0087312165 0.0001361415 8.26607e-05 -3.84648e-05 -9.1008e-05 -0.7848341931 -0.0085747271
10299940.0 -0.2103528007 0.0213249529 -0.0002746906 -8.72213e-05 -0.0001379332 -0.000225339 -0.7880744019 -0.0049966074
15299910.0 -0.2056218737 0.03100333 0.0001558491 4.76484e-05 3.90885e-05 8.6204e-05 -0.7933770227 -0.0035061045
20299880.0 -0.1993566045 0.0392205387 -8.15472e-05 -0.0001688461 -0.0001693674 -0.0001153999 -0.8002505624 0.0015105545
25299850.0 -0.1930889995 0.0453435387 0.0001615721 -5.69026e-05 2.53677e-05 0.0001288191 -0.8065973112 0.0072328197
30299820.0 -0.1863671392 0.0503711617 8.72109e-05 -1.52662e-05 0.0001696344 0.0001621973 -0.8125922763 0.0150676898
35299790.0 -0.1800824622 0.054428577 -0.0001485063 4.09724e-05 -0.0001467362 -0.0001402568 -0.8178023191 0.0238442011
40299760.0 -0.1739353572 0.0570990564 -0.0001619637 0.0002131418 2.85606e-05 -2.02707e-05 -0.8212131381 0.0330923045
45299730.0 -0.1684135976 0.0593947966 7.48571e-05 1.94487e-05 -8.61056e-05 9.35305e-05 -0.8252253104 0.0424082623
50299700.0 -0.1629415301 0.0609923124 0.0001906041 -4.4942e-06 -4.43533e-05 -1.51496e-05 -0.8277768361 0.0527786708
55299670.0 -0.1583539983 0.0618702919 -7.3088e-06 4.13384e-05 -6.74768e-05 -0.0001536084 -0.8298402437 0.0628946046
60299640.0 -0.153984465 0.0620973177 -0.00029071 1.91546e-05 0.0001755935 -0.0001705051 -0.8308856984 0.0727678849
65299610.0 -0.149978746 0.0626927672 -0.0002833088 8.07802e-05 1.28969e-05 0.0001914058 -0.8312115932 0.0829359951
70299580.0 -0.1465233114 0.0628706162 8.99818e-05 -0.000188068 9.16085e-05 -0.0001978908 -0.8323101105 0.0930110158
75299550.0 -0.1429670733 0.0625289292 6.55738e-05 0.0001395651 0.0001120265 4.83599e-05 -0.8320090123 0.1022589447
80299520.0 -0.1406290153 0.062751304 -8.9589e-06 8.60944e-05 8.34388e-05 1.15233e-05 -0.8319973071 0.1126434458
85299490.0 -0.1376599046 0.0623179903 0.0001098976 -5.01515e-05 -0.0001732098 0.0001646193 -0.8316755081 0.1221263498
90299460.0 -0.1354092104 0.0622649241 -9.87306e-05 6.5422e-06 4.17077e-05 -2.16501e-05 -0.8305866036 0.1314031884
95299430.0 -0.1334879392 0.0618552686 5.25165e-05 -4.52453e-05 -0.0001333425 -0.0001092694 -0.8299046269 0.1411389394
100299400.0 -0.1315951164 0.0618164873 9.10327e-05 0.000132746 0.0001239926 0.0002978869 -0.82893761 0.1497646592
105299370.0 -0.1297080795 0.0618072289 -0.0001119907 0.000165525 2.14555e-05 0.0001329074 -0.8275784462 0.1594184013
110299340.0 -0.1282411209 0.0613611711 8.43342e-05 0.0001484238 4.97347e-05 0.000209483 -0.8270903528 0.1681907225
115299310.0 -0.1268884731 0.0611887874 -0.0001029529 7.88043e-05 7.76629e-05 0.0003276011 -0.8243442203 0.1772054567
120299280.0 -0.1253438614 0.0614093287 1.42161e-05 6.12664e-05 4.85002e-05 -0.0001573359 -0.823358431 0.1861254556
125299250.0 -0.1246019097 0.0609344315 -5.2067e-06 9.52371e-05 7.51302e-05 -1.41773e-05 -0.8218952663 0.1955989718
130299220.0 -0.1232257449 0.0614113568 -0.0001280315 0.0001239596 -0.000259745 0.0002544132 -0.8201594138 0.2046217895
135299190.0 -0.1224696053 0.0611311726 2.97194e-05 -1.56239e-05 4.30027e-05 0.0001054082 -0.8178700344 0.2125483452
140299160.0 -0.1216371411 0.0612585103 0.0001197573 0.0002349885 -2.092e-06 0.000149016 -0.8156826174 0.2212839572
145299130.0 -0.1206111939 0.0613368709 1.45231e-05 7.84072e-05 -5.733e-06 -6.28901e-05 -0.8140416615 0.2297572861
150299100.0 -0.1201227559 0.0615131455 -7.21954e-05 7.56145e-05 -0.000232124 7.5184e-05 -0.8118341252 0.2381824516
155299070.0 -0.1191571351 0.0621398655 -4.11268e-05 -3.73759e-05 -8.68254e-05 -0.0001332728 -0.8099143439 0.2478294549
160299040.0 -0.1185672016 0.0621742281 0.0002578617 -0.0001284362 -4.87387e-05 -0.0001304962 -0.8075279597 0.2561104281
165299010.0 -0.1180950928 0.0625508571 -0.0001069522 0.0002011786 0.0001810194 0.0001815304 -0.8040944127 0.2651278621
170298980.0 -0.117657287 0.0627509666 0.0001182918 0.0002175903 6.72817e-05 0.0001217678 -0.8017623092 0.2735983049
175298950.0 -0.1171157542 0.0636087238 0.0002738799 -4.69023e-05 -0.0001987991 -1.55333e-05 -0.7989799388 0.2824737224
180298920.0 -0.1163794159 0.0637805166 0.0001905951 0.000136973 -5.93601e-05 2.10498e-05 -0.7956951395 0.2904229578
185298890.0 -0.1160842426 0.0643491562 -5.20942e-05 0.0001379769 0.0001011501 6.12196e-05 -0.793032897 0.2987369578
190298860.0 -0.1152940249 0.0648715745 6.44558e-05 6.44142e-05 0.0001361147 0.000115817 -0.7893310565 0.3075507227
195298830.0 -0.1144361648 0.0651489111 0.0002892214 2.71937e-05 6.77835e-05 -3.58665e-05 -0.7867095535 0.3151018201
200298800.0 -0.1143272413 0.0661268653 -9.68342e-05 -0.0001476458 -4.39866e-05 -7.69594e-05 -0.7828359438 0.324318836
205298770.0 -0.1140319734 0.066524757 -0.0001070595 0.0003224415 -7.36662e-05 1.9432e-06 -0.7801537812 0.3320509838
210298740.0 -0.1132496539 0.0672881711 -3.58588e-05 0.0002236661 0.0001030535 5.10751e-05 -0.7767472444 0.3409876692
215298710.0 -0.1130350368 0.0677527306 8.00118e-05 0.0001229574 -7.9394e-05 0.0001167791 -0.7732893758 0.3480519443
220298680.0 -0.1124492921 0.0685959546 4.38132e-05 -5.9026e-06 -4.37183e-05 4.257e-06 -0.7695832364 0.3570233499
225298650.0 -0.1119494401 0.0691858014 0.0002130731 1.18843e-05 -6.54518e-05 0.0001446304 -0.7659969888 0.3644906194
230298620.0 -0.1113654909 0.0697434303 0.0001055069 0.0003214277 -1.6064e-06 4.05878e-05 -0.7615760504 0.372854336
235298590.0 -0.111215967 0.0706148716 -0.0001541935 0.0001631876 0.0002805318 -2.22606e-05 -0.7580696146 0.3804660673
240298560.0 -0.1107501048 0.0716106887 8.36214e-05 4.85101e-05 -0.0001353097 -2.93762e-05 -0.7539926717 0.3885798732
245298530.0 -0.1099404687 0.0724835736 0.000253478 -6.88255e-05 -1.42907e-05 5.42201e-05 -0.7499000075 0.3962426198
250298500.0 -0.1096560427 0.0733454513 0.0001242887 -8.32819e-05 1.15061e-05 9.77474e-05 -0.7458434263 0.4045891602
255298470.0 -0.1089593986 0.0741013313 0.0001017658 -0.0001332112 0.0002759553 -0.0001363934 -0.7412250222 0.412565732
260298440.0 -0.1084507706 0.0748680528 0.0001169024 0.0002185743 -5.07222e-05 0.0001884046 -0.7366153285 0.419512501
265298410.0 -0.1080182946 0.0759281213 4.59574e-05 4.62639e-05 -4.27808e-05 0.0001201663 -0.7322633032 0.4276082736
270298380.0 -0.1075231623 0.0767837463 0.0002272008 0.0002135094 1.47087e-05 5.8352e-06 -0.7275017078 0.4350168893
275298350.0 -0.107194893 0.0774877782 -1.5114e-05 6.28996e-05 9.34084e-05 6.71456e-05 -0.72296254 0.4430884811
280298320.0 -0.1066737582 0.0785576023 0.0002238477 3.15625e-05 1.17956e-05 -1.26863e-05 -0.7182719166 0.4501026581
285298290.0 -0.105872285 0.0794339257 0.0002048822 0.0002282846 8.98777e-05 0.0001671943 -0.7130455247 0.4575354896
290298260.0 -0.105401493 0.0802850052 0.000175884 0.0002468264 6.16985e-05 0.0002272923 -0.7086205939 0.4654657952
295298230.0 -0.1046847695 0.0810947969 0.00020321 0.00014069 0.000222603 7.19575e-05 -0.7039579447 0.4730679565
300298200.0 -0.1042848454 0.0818495111 -3.31687e-05 2.80268e-05 3.9869e-06 -4.75811e-05 -0.6984849725 0.4800306192
305298170.0 -0.1032097667 0.0831274954 -0.0001045226 0.0002630924 0.0001572835 0.0002703237 -0.6930827174 0.487454933
310298140.0 -0.1026426616 0.0836421427 0.0002488848 -2.34037e-05 -2.01524e-05 2.4364e-05 -0.6885884116 0.4947782982
315298110.0 -0.1027510833 0.0843282709 0.0001165359 0.0001151626 9.44985e-05 6.2251e-05 -0.6829217475 0.501972208
320298080.0 -0.101833856 0.0853508333 8.36669e-05 0.0002014004 1.97775e-05 3.54828e-05 -0.6773203614 0.509338806
325298050.0 -0.1014035931 0.0861354722 -1.381e-07 0.0003051377 0.0001725914 0.0002199482 -0.6718028589 0.5161815519
330298020.0 -0.1009595328 0.0872935077 0.0002853613 0.0001337775 0.0001011262 -6.33347e-05 -0.6664936432 0.5232947837
335297990.0 -0.1001783558 0.0883567159 -9.02192e-05 -0.0001178844 0.0001433935 0.0002980014 -0.6613834096 0.5301993386
340297960.0 -0.1000247304 0.0893171588 0.0001837559 4.94789e-05 0.0003733378 2.44658e-05 -0.6553497228 0.537223483
345297930.0 -0.0992856619 0.0901615849 0.000302135 0.0001212142 0.0002779228 0.0001266891 -0.6497515239 0.5434193102
350297900.0 -0.0985302936 0.0912988743 0.0002684685 3.60861e-05 -6.43251e-05 0.0001614915 -0.6433964238 0.5509412121
355297870.0 -0.098021919 0.0921800738 0.0001345454 0.0001047534 0.0001603909 0.0002309746 -0.6381246443 0.5576023931
360297840.0 -0.0972658058 0.0931534545 0.0001742415 0.0001196102 0.0001481202 -0.0001016864 -0.6323628382 0.5637580846
365297810.0 -0.0964839184 0.0942588826 0.000244528 0.0002141108 -9.8393e-05 6.38567e-05 -0.6259091203 0.5703824806
370297780.0 -0.0961444694 0.0953295904 5.13775e-05 8.64303e-05 4.23332e-05 0.0001356147 -0.6207111842 0.5762742061
375297750.0 -0.0951031422 0.0964723767 0.0001273766 -1.58565e-05 0.0001239116 0.0002927073 -0.6141266455 0.5831231015
380297720.0 -0.0942841027 0.0973491203 8.73655e-05 6.16544e-05 0.0002008125 0.0001481897 -0.608007985 0.5905302515
385297690.0 -0.0936043043 0.0983938843 4.42431e-05 1.6308e-05 -4.3561e-05 -8.7799e-05 -0.6018355668 0.5964399243
390297660.0 -0.0925732195 0.099406149 0.0002804842 4.2348e-06 0.0002672756 1.4626e-06 -0.5952283245 0.6017338081
395297630.0 -0.091826563 0.1001374219 0.0001742387 -0.0001301815 0.0001783401 0.0002899083 -0.5895713851 0.6082905657
400297600.0 -0.091203745 0.101318655 2.61261e-05 -8.5472e-06 -0.0001321735 2.34059e-05 -0.5830788654 0.614058628
405297570.0 -0.0903686709 0.1022749436 -8.80012e-05 3.92976e-05 3.1793e-05 -4.11526e-05 -0.5769053122 0.6197438228
410297540.0 -0.0892728437 0.1032984614 0.0001257755 7.8219e-05 5.39233e-05 1.82421e-05 -0.5698845097 0.6256607297
415297510.0 -0.0885928029 0.1042027355 0.0001298446 3.36481e-05 0.0001739171 0.0001360659 -0.5637543914 0.6321718995
420297480.0 -0.0877828063 0.105113421 3.09116e-05 -8.20267e-05 0.0001132674 0.0001038513 -0.5567858737 0.6368055762
425297450.0 -0.0869167432 0.1059599672 0.0001413871 -0.0001546804 2.51606e-05 -8.08843e-05 -0.5503454855 0.6431306992
430297420.0 -0.0862764744 0.1070336286 5.39864e-05 8.00964e-05 0.0001696216 5.78713e-05 -0.5439370036 0.6487648113
435297390.0 -0.0850881083 0.1082115956 0.0002251715 7.10976e-05 0.0002405165 -5.91547e-05 -0.5367749914 0.6535815461
440297360.0 -0.0841786059 0.1089198593 0.0001753629 -0.0001318664 0.000227503 -0.0001395997 -0.5296141445 0.6587842071
445297330.0 -0.0834352604 0.1099327951 -1.74332e-05 0.0001897506 3.41124e-05 5.19786e-05 -0.5235003655 0.6643452462
450297300.0 -0.0824947515 0.110744527 6.68486e-05 2.52067e-05 0.0004046095 4.46913e-05 -0.5166982399 0.6699375143
455297270.0 -0.0814954011 0.1121155778 8.778e-05 -0.0001706098 -3.06401e-05 -0.000146528 -0.5099793732 0.6752288017
460297240.0 -0.08074935 0.112965203 0.0001561096 0.00018718 -0.0001298231 0.0002992919 -0.5027913832 0.6799103869
465297210.0 -0.079443951 0.1136065125 0.000161296 0.0001135605 0.0001450464 -2.15828e-05 -0.4957505109 0.6849254097
470297180.0 -0.0787092239 0.1144584439 0.0002083439 4.96285e-05 0.0001504657 -2.9722e-06 -0.489240495 0.6896942224
475297150.0 -0.0776065466 0.1155542383 0.0002434297 6.6256e-06 0.000301839 1.23398e-05 -0.4819721423 0.6946961218
480297120.0 -0.0766261746 0.1164032898 0.000162473 3.53395e-05 0.0001742367 6.30289e-05 -0.4748433452 0.6997733905
485297090.0 -0.0756381333 0.117286912 0.0003543751 0.0001641863 0.0002201566 -1.06677e-05 -0.4676826976 0.7037099275
490297060.0 -0.0743969428 0.1180361227 -8.91362e-05 -0.000222231 -5.61428e-05 5.82542e-05 -0.4611484024 0.7083036063
495297030.0 -0.0737173844 0.1190641506 0.0002076577 -1.16153e-05 5.834e-07 -3.53579e-05 -0.4528760924 0.7129036102
500297000.0 -0.0725132901 0.1197844359 0.0002390002 5.84436e-05 7.20474e-05 2.38141e-05 -0.4466223794 0.7177784256
505296970.0 -0.0715395021 0.120624162 0.0003193838 -5.58863e-05 0.00013763 -2.57502e-05 -0.4397375107 0.7217038326
510296940.0 -0.0699977308 0.1217503349 -0.000154118 -8.70788e-05 0.0001922717 0.0003013082 -0.4318396796 0.726232172
515296910.0 -0.0693639472 0.1227395037 0.0001279725 0.000132269 0.0003361461 0.0001576274 -0.4243115807 0.7308740536
520296880.0 -0.0682102591 0.1233226014 0.0003743169 5.45848e-05 0.0001163631 -2.986e-06 -0.4173094374 0.7349103207
525296850.0 -0.0670599678 0.1240920096 0.000470632 0.000132523 3.89757e-05 4.63464e-05 -0.4096304204 0.7394071649
530296820.0 -0.0660665282 0.1247054799 9.61368e-05 0.0001382265 0.0001077793 0.0002418406 -0.4028673546 0.7429185578
535296790.0 -0.064670956 0.1257750011 0.000499779 -0.0001576447 0.0002880984 0.0001270883 -0.3953126973 0.7463987171
540296760.0 -0.0637056808 0.1261935779 0.0001817033 3.44492e-05 0.0001839385 -6.46148e-05 -0.3877231239 0.750732321
545296730.0 -0.0626141596 0.1273442888 -2.94446e-05 0.0001890998 0.0002103941 -0.0001263925 -0.3805105995 0.7543449096
550296700.0 -0.0616784795 0.1283005124 0.0002091463 0.0001269726 0.0001203276 4.56081e-05 -0.3731123219 0.7578050167
555296670.0 -0.0604047078 0.1287653089 9.08509e-05 0.00014448 0.0002140879 0.0001426907 -0.3649418964 0.7618243429
560296640.0 -0.0589110365 0.129674259 0.0002744459 -0.0002068793 0.0003190228 0.0001954534 -0.3574044652 0.7653468265
565296610.0 -0.0581248387 0.1303562577 0.0002229054 7.1726e-05 0.0002393451 0.0002941804 -0.3502775949 0.7689320419
570296580.0 -0.0567211831 0.1312290682 0.0003177175 -7.59068e-05 0.0002747135 0.0001863668 -0.3427109744 0.7724558674
575296550.0 -0.0555438071 0.1319558536 8.92008e-05 0.0002471861 0.0003067271 0.000165932 -0.3342843808 0.7757352353
580296520.0 -0.0542225013 0.132701385 0.0001375129 8.5665e-06 0.0002086999 0.0001074223 -0.3267599265 0.7787294572
585296490.0 -0.0533611611 0.1331946227 0.0002442426 7.45217e-05 0.0001857858 -6.54067e-05 -0.3196933065 0.7818631244
590296460.0 -0.0519147497 0.134026811 0.0002720494 5.39681e-05 0.0002895853 0.000109557 -0.3114460522 0.784576866
595296430.0 -0.0505647872 0.1347035055 0.0003240448 -0.0001190111 -3.9622e-06 3.9852e-05 -0.3036103346 0.7873874068
600296400.0 -0.0493861244 0.1352823725 0.0001580535 5.46806e-05 0.0001782243 -8.49111e-05 -0.2957814013 0.7912236303
605296370.0 -0.0481182332 0.1360427716 0.0001555124 8.30241e-05 0.0002059672 -0.0001347656 -0.2882204547 0.7942376214
610296340.0 -0.0469110936 0.1364913627 0.0002043684 -0.0002210223 0.0003305611 -7.2198e-06 -0.2800290839 0.7966767466
615296310.0 -0.0457105552 0.1375230658 0.0002285793 -3.01492e-05 0.0001009334 -1.30505e-05 -0.2724072101 0.79940496
620296280.0 -0.0441858113 0.137892068 0.000269513 -1.41704e-05 0.0003756966 1.57093e-05 -0.2644013899 0.8019801931
625296250.0 -0.0430726049 0.1386192726 0.0003930967 2.69192e-05 0.0003183365 0.000117655 -0.2562280903 0.8050798232
630296220.0 -0.041606441 0.1390942886 0.0001952848 -1.69763e-05 0.0002890594 0.0001963151 -0.2485298294 0.8075664745
635296190.0 -0.0403780439 0.1397729658 0.0001579681 -6.61496e-05 0.0001309558 -0.0001179039 -0.2410290376 0.8092055584
640296160.0 -0.0390375215 0.1404702285 0.0001340981 8.3026e-05 0.0002882083 -1.6969e-06 -0.2321429594 0.8115475092
645296130.0 -0.0380783191 0.1409142145 0.0001563671 -4.9935e-05 0.000219988 0.0001487514 -0.2250691646 0.8141716325
650296100.0 -0.0365896226 0.1416346789 0.0001659963 -8.15325e-05 0.0001104739 -6.81266e-05 -0.2165620328 0.8168310289
655296070.0 -0.0351561452 0.1421296119 0.0002187205 8.25147e-05 0.0003496194 0.0002188153 -0.2080447893 0.8177005664
660296040.0 -0.0340349369 0.1426596233 0.0003240363 0.0001863433 0.0002734345 0.0001774682 -0.2002238885 0.8204198464
665296010.0 -0.0323874888 0.1428691891 0.0001482156 0.0001333801 0.0001076541 -1.6218e-06 -0.192706775 0.8223735012
670295980.0 -0.0310002697 0.1437046002 0.0003782179 -0.0001035524 0.0001655307 0.0002426763 -0.1845786631 0.8242829342
675295950.0 -0.0298407611 0.1442469503 0.0001896839 0.0002746695 0.0001094136 -0.0001246476 -0.1762462339 0.8258071906
680295920.0 -0.0285567071 0.1448403647 0.0005231613 0.0001472432 0.0001587412 -3.7163e-06 -0.1678822398 0.8275564177
685295890.0 -0.0272690318 0.1452509507 0.0002262833 -1.80316e-05 0.0002889034 0.0001368845 -0.1596896104 0.8288800455
690295860.0 -0.0253732241 0.1455584551 0.0001137861 0.0001051071 0.0001195583 2.90361e-05 -0.1512860301 0.8304349564
695295830.0 -0.0243712122 0.1458779964 0.000308797 -0.0001452823 0.0001944804 -3.6503e-05 -0.1433017352 0.8325786824
700295800.0 -0.0229817238 0.1464246081 0.0001572482 0.0001374498 0.0001837326 -7.19503e-05 -0.1348161934 0.8333877564
705295770.0 -0.0215024173 0.1467556277 0.000271045 4.06346e-05 9.09521e-05 -7.01613e-05 -0.1274054722 0.8352922165
710295740.0 -0.0200796048 0.1473711585 0.0001801637 8.9753e-05 1.25687e-05 6.37369e-05 -0.1192214483 0.8364003635
715295710.0 -0.0188734986 0.1478812202 0.0002424294 -5.69796e-05 0.0001647803 7.44074e-05 -0.110628941 0.8373541709
720295680.0 -0.0175298611 0.1477642332 0.0002386325 7.22103e-05 0.0001795176 9.12412e-05 -0.102109743 0.838420619
725295650.0 -0.0159320746 0.1485305872 0.0001727872 9.07805e-05 0.000120499 -4.44394e-05 -0.0939606905 0.8397205445
730295620.0 -0.0146780716 0.1485872273 0.0002987425 -6.96663e-05 0.0002175286 1.6256e-06 -0.0856162361 0.8404845408
735295590.0 -0.0129163515 0.1489664311 0.0002849687 -5.3983e-06 0.0002249364 1.5599e-05 -0.0766497228 0.8411709772
740295560.0 -0.0115738921 0.1493777542 0.0003301645 -9.42524e-05 0.000176642 -3.67917e-05 -0.0690317542 0.8412562888
745295530.0 -0.0103948748 0.1497681767 0.0001034999 -0.0001615598 0.000293386 8.3907e-05 -0.060453329 0.8420538636
750295500.0 -0.0089037488 0.1500515959 0.0003420745 6.8589e-06 0.0001413532 -2.1656e-05 -0.0519346814 0.8425780389
755295470.0 -0.0071412766 0.150470079 0.0002034493 -5.10847e-05 0.0002414877 1.50148e-05 -0.0442825681 0.8431367668
760295440.0 -0.0058977354 0.1508248698 0.0001595292 8.86847e-05 0.0003127491 -5.7067e-06 -0.0360766421 0.8440427645
765295410.0 -0.0044597728 0.1505489195 0.000202829 -6.44627e-05 0.0003191814 -7.27882e-05 -0.0269142188 0.8440638621
770295380.0 -0.0030354549 0.151466624 0.0002386401 5.54206e-05 0.0001977134 -6.70485e-05 -0.0184207417 0.8436145624
775295350.0 -0.0016489079 0.1515257512 0.0003129004 -9.22749e-05 0.000324074 -1.20584e-05 -0.0110575321 0.8439291292
780295320.0 -0.0002617933 0.1517170505 0.0003195141 2.04326e-05 0.0003421984 -2.40974e-05 -0.002454875 0.8446388167
785295290.0 0.0013416831 0.1521100221 0.0002041641 7.04494e-05 0.0002717246 -6.73696e-05 0.0052727777 0.844156017
790295260.0 0.0028234258 0.1521187618 0.0005144971 -0.0002924757 0.000113141 7.80022e-05 0.0146554801 0.8441681253
795295230.0 0.0042070689 0.1525577877 7.0563e-05 -0.0001714387 7.92885e-05 -5.3855e-05 0.0225935168 0.8441542894
800295200.0 0.005896581 0.1526930857 0.0003025743 -0.0001311752 0.000287799 4.09758e-05 0.0309907635 0.8436677319
805295170.0 0.0069768692 0.1525992428 0.0002015655 3.90363e-05 0.0002542819 -2.9013e-05 0.0389297705 0.8430886619
810295140.0 0.0086909008 0.1528839074 0.0004109325 2.16215e-05 0.0002060874 -1.88813e-05 0.0474637343 0.8437213004
815295110.0 0.0102605548 0.1528719855 0.0001664288 -0.0001394252 0.0002987434 -5.77875e-05 0.0558698043 0.842562562
820295080.0 0.011569449 0.152921364 0.0002371851 -0.0001098413 0.0002360878 -0.0001405114 0.0637077395 0.8419565116
825295050.0 0.0134167752 0.1530047775 0.0001794294 -0.0001016237 0.0002848096 -0.0002412512 0.0720722621 0.8416409583
830295020.0 0.0150123797 0.1531917954 0.0002864403 -0.0003110931 0.0002632743 -7.99427e-05 0.0802351778 0.8403795853
835294990.0 0.0160573329 0.1535648112 0.0002436889 -3.59734e-05 0.0003368672 -4.22976e-05 0.0884659156 0.8396464864
840294960.0 0.0176366946 0.1531476727 3.01774e-05 -0.0001914764 0.0001502058 -8.86785e-05 0.0964738108 0.8388716175
845294930.0 0.0189939993 0.1534199213 0.0001676165 -4.15692e-05 -3.81632e-05 -0.0003303266 0.1045927523 0.8378255539
850294900.0 0.0204927826 0.1532879414 0.0001334526 0.0001389769 0.0003232428 -5.29595e-05 0.1130652127 0.8367809441
