!Created with skrf (http://scikit-rf.org).
# Hz S RI R 50.0 
!freq ReS11 ImS11 ReS21 ImS21 ReS12 ImS12 ReS22 ImS22
300000.0 -0.0965576575 -0.1032416708 0.6253101311 0.0944394315 0.6217277873 0.0947899335 -0.0965611521 -0.1065236662
5299970.0 -0.1014215062 0.0114347528 0.6304234233 0.010867527 0.6307516582 0.0111672797 -0.1016677325 0.0111121409
10299940.0 -0.0969308828 0.0286764436 0.6349818482 0.0159360476 0.634266129 0.0166378044 -0.0965851961 0.0285793228
15299910.0 -0.0892002522 0.042233736 0.6403510287 0.0211533099 0.6405525842 0.0212207225 -0.0896051197 0.0417880404
20299880.0 -0.0803453821 0.0535483581 0.6488685088 0.024133478 0.6490360209 0.0244577672 -0.0809634008 0.0529220749
25299850.0 -0.0702856293 0.0625005941 0.6583219996 0.0258990693 0.6587183203 0.0258376147 -0.0716019073 0.0620027472
30299820.0 -0.0607033477 0.068623288 0.6680670251 0.0244511513 0.6679786128 0.0244252959 -0.0616250508 0.0683377724
35299790.0 -0.0504085754 0.0735025141 0.6770088396 0.0221441957 0.6773563326 0.0219293626 -0.0521349144 0.0737732685
40299760.0 -0.0410395211 0.0762800895 0.6871310926 0.0178225944 0.6870782724 0.0177747988 -0.0425157565 0.0769253507
45299730.0 -0.0317421181 0.0786024391 0.6956336605 0.0127654774 0.6958222836 0.0119259471 -0.0334145756 0.0790953922
50299700.0 -0.0228142584 0.0790387786 0.7037526897 0.0052600783 0.7041332827 0.0050070627 -0.024473805 0.0804457178
55299670.0 -0.0150563684 0.0789818005 0.711137789 -0.0021195043 0.7110062616 -0.0026414431 -0.0170234442 0.0803848093
60299640.0 -0.0077645289 0.0786523374 0.7181083016 -0.0106174883 0.7179617044 -0.0109745029 -0.009584084 0.0796150977
65299610.0 -0.0010910597 0.0772111275 0.7243999477 -0.0192808018 0.7241822906 -0.0202262795 -0.0023884599 0.0786049606
70299580.0 0.0052776184 0.0751566519 0.7289306933 -0.0284647015 0.7293467082 -0.0291141478 0.0031302512 0.0770983756
75299550.0 0.0105431762 0.0733142589 0.7332761109 -0.0391869627 0.7336447731 -0.0387259776 0.0088157126 0.075471134
80299520.0 0.0156538555 0.0713685096 0.7379896134 -0.0484730454 0.7380839626 -0.048601307 0.0137700766 0.0735757129
85299490.0 0.0201684797 0.0693968626 0.7411350523 -0.0586539454 0.7412201007 -0.0584845352 0.0179461103 0.0708773747
90299460.0 0.0240313196 0.0667740486 0.7434198158 -0.0687599262 0.7434305727 -0.068062719 0.022506637 0.0693928536
95299430.0 0.0280535408 0.0641296335 0.7462384122 -0.0785956189 0.7463881577 -0.0792143523 0.0260847798 0.0665131415
100299400.0 0.0313990099 0.0615205755 0.7479559713 -0.0887305388 0.7476267171 -0.0887733534 0.0290962213 0.0647740268
105299370.0 0.0346196875 0.0590520881 0.749163076 -0.0985206414 0.7498973175 -0.0988533342 0.0328794809 0.0616193242
110299340.0 0.0373936884 0.0565286082 0.7503398097 -0.108332493 0.7508453267 -0.1085712629 0.0351476633 0.0592022157
115299310.0 0.0396223669 0.0541873537 0.7513539359 -0.1188115855 0.7512548199 -0.1183147315 0.0373788177 0.0575661862
120299280.0 0.0415172465 0.0521724321 0.7523442184 -0.1294960332 0.751830817 -0.1294835789 0.0398471422 0.0546120757
125299250.0 0.0438956212 0.0495885353 0.752077249 -0.1393162022 0.7521261877 -0.138695125 0.0422056596 0.0527415866
130299220.0 0.0458482824 0.0472094822 0.7520040969 -0.1493404973 0.7519478971 -0.1491154305 0.0438079575 0.0507961881
135299190.0 0.0468447282 0.0454621079 0.7523688599 -0.1583635573 0.7519809535 -0.1590271787 0.0455869424 0.0480539599
140299160.0 0.0489953993 0.0434110795 0.7519302964 -0.168557521 0.751183568 -0.167968839 0.0461925899 0.0454204721
145299130.0 0.0494396159 0.0412274243 0.7502705947 -0.1782105399 0.7505441751 -0.1783532416 0.0479943719 0.0436106463
150299100.0 0.0507245611 0.0390017354 0.7495676434 -0.1879389413 0.7492753827 -0.1879228238 0.0493239202 0.0423276528
155299070.0 0.0524393129 0.0371637899 0.7476756665 -0.1977032884 0.7483910223 -0.1975552338 0.0505012727 0.0396966746
160299040.0 0.0534537561 0.0355841811 0.7466720332 -0.2072121377 0.7467247919 -0.2069328056 0.0509118097 0.0381479364
165299010.0 0.0543985015 0.0335767373 0.7453062033 -0.2162166226 0.7450950689 -0.2164967201 0.0523885966 0.0360473316
170298980.0 0.0550747159 0.0320066617 0.7431355137 -0.2261680038 0.7434725802 -0.2260911554 0.0525576782 0.0339889233
175298950.0 0.0557018259 0.0302120805 0.7419328798 -0.2350982569 0.7419585568 -0.235463801 0.0535183484 0.0326693486
180298920.0 0.0564197426 0.0286639937 0.7392743396 -0.2448106383 0.7390956322 -0.2445409554 0.0539862125 0.0309962709
185298890.0 0.0566884676 0.0271362044 0.7374601795 -0.2533872332 0.7372991584 -0.25318342 0.055064618 0.0289454624
190298860.0 0.0577590794 0.025593387 0.7342968667 -0.2624187302 0.7347840377 -0.2624057104 0.055161019 0.0272624003
195298830.0 0.0579747825 0.0242142196 0.7324814076 -0.2720306685 0.7325329041 -0.2717049384 0.0557852539 0.025934453
200298800.0 0.058383416 0.0225279422 0.7298763279 -0.2812358528 0.7299524044 -0.2807521802 0.0563300099 0.0240822783
205298770.0 0.0582413927 0.0208763247 0.7271676058 -0.289162441 0.7271710796 -0.2891983979 0.056803058 0.0225870644
210298740.0 0.0589419773 0.0199300543 0.7241709921 -0.2980817753 0.7234368987 -0.2986273218 0.056649551 0.0209089349
215298710.0 0.0593110216 0.0184896177 0.7210916542 -0.30641543 0.7210543103 -0.3073042114 0.05719674 0.0196540991
220298680.0 0.0596945678 0.0178504893 0.7175158129 -0.3153991112 0.7174603892 -0.3159202462 0.0572043841 0.0180272247
225298650.0 0.0597977614 0.0159066705 0.7140862403 -0.3239501715 0.7145197637 -0.3242383075 0.0577669149 0.0164349641
230298620.0 0.0601496005 0.0150385092 0.7115233813 -0.3331945774 0.7111284494 -0.3327100199 0.0574891662 0.0152872436
235298590.0 0.0600633812 0.0136487417 0.7079490434 -0.3417488309 0.7080392089 -0.3412593055 0.0575732037 0.0141618807
240298560.0 0.0604068035 0.0129669323 0.7043963245 -0.3493888656 0.7039657677 -0.3498705002 0.0577066641 0.012707717
245298530.0 0.0601446591 0.0113321296 0.7007423344 -0.3576826103 0.700193988 -0.3576679941 0.0577204432 0.0117390439
250298500.0 0.0603786514 0.0101671243 0.6970674994 -0.3656515328 0.6966799543 -0.3658814048 0.0578889371 0.0107306008
255298470.0 0.0605069137 0.0094710044 0.6929764065 -0.3743342441 0.6933240459 -0.3743932149 0.057845917 0.0097741562
260298440.0 0.0605808582 0.0084416801 0.6891080075 -0.3818059887 0.6889294559 -0.3824854088 0.0578121933 0.0080363543
265298410.0 0.0600637465 0.0074869609 0.6844330351 -0.3908761026 0.6845565001 -0.3907022458 0.0589473094 0.0068221757
270298380.0 0.0598784515 0.006363647 0.6804679617 -0.3982795775 0.6807513553 -0.3983791102 0.0582438648 0.0059603857
275298350.0 0.0604361588 0.0057054681 0.6753028979 -0.4058581613 0.6755498561 -0.405912996 0.0576019438 0.004850917
280298320.0 0.0596087027 0.0046650982 0.6720938331 -0.4137242767 0.6721032715 -0.4137285435 0.0581548735 0.0037248761
285298290.0 0.0599071472 0.0035204558 0.6671409431 -0.4221061407 0.6670364737 -0.4213596252 0.0580533795 0.0025301158
290298260.0 0.0601764689 0.0027613298 0.6636614623 -0.429618639 0.6633099643 -0.4300620369 0.0581731022 0.0017701757
295298230.0 0.0599620203 0.0013104547 0.658401448 -0.4375896899 0.6584147079 -0.4373449358 0.0576086667 0.0003621988
300298200.0 0.0603016443 0.0009555428 0.6536026096 -0.44507321 0.6540024421 -0.444797736 0.0577706834 -0.00061525
305298170.0 0.059991459 -0.000956607 0.6489795355 -0.4529906307 0.6492165602 -0.4532296779 0.0576888172 -0.0023820162
310298140.0 0.0603508118 -0.0015514026 0.6446621354 -0.4604232132 0.6445889638 -0.4604861649 0.0579359058 -0.0036710877
315298110.0 0.0598800565 -0.0032590111 0.639646562 -0.4687712217 0.6388658861 -0.4685166715 0.0576217984 -0.0043734294
320298080.0 0.059831308 -0.0038525948 0.6332166605 -0.4754276181 0.634219058 -0.4765720885 0.0573486136 -0.0056918331
325298050.0 0.058465051 -0.005221037 0.6282096545 -0.4825717846 0.6290586139 -0.4828090193 0.0571786644 -0.0070343734
330298020.0 0.0574658199 -0.0056981743 0.6229509508 -0.4909973297 0.6230800064 -0.4904646976 0.055984051 -0.0080938941
335297990.0 0.057647396 -0.0068407464 0.616976895 -0.4975327134 0.6172514894 -0.4977056481 0.0556048602 -0.0088864814
340297960.0 0.057073943 -0.007769666 0.611097845 -0.5050647932 0.6109273526 -0.5050575262 0.0551700151 -0.009138663
345297930.0 0.056411492 -0.0086794202 0.6055256589 -0.5117935925 0.6049173748 -0.5117525231 0.0552767858 -0.0104330728
350297900.0 0.0559684549 -0.0093462859 0.6000610785 -0.5178452679 0.6005354 -0.518079969 0.0544936032 -0.0112922505
355297870.0 0.055746143 -0.0096314672 0.5947484427 -0.5243007697 0.5944294345 -0.5245140199 0.0544964348 -0.0120058367
360297840.0 0.0552707202 -0.0104908537 0.5877955308 -0.5314416431 0.5886514002 -0.5313818887 0.0534852253 -0.0123370489
365297810.0 0.0545770731 -0.0109597594 0.582431065 -0.5374500116 0.5822795732 -0.5382819429 0.0529873782 -0.0132207077
370297780.0 0.0548995451 -0.0114533197 0.5761541013 -0.5440921238 0.576496735 -0.5445948782 0.0529092449 -0.0137704121
375297750.0 0.0543144471 -0.0123384744 0.5705115137 -0.5506580395 0.570766473 -0.5509417831 0.052873558 -0.0145880215
380297720.0 0.0532606207 -0.0127944242 0.5644872219 -0.5572784022 0.5641883979 -0.5572747929 0.0522821667 -0.0149911043
385297690.0 0.0531542908 -0.0136530021 0.5581778903 -0.5635994377 0.5583683563 -0.5645035708 0.0523139903 -0.015469888
390297660.0 0.0529928217 -0.0144051815 0.5520999351 -0.5690401405 0.5522388233 -0.5695196314 0.0522060983 -0.0167659412
395297630.0 0.0531156452 -0.0149576299 0.5456428632 -0.575176683 0.5459380417 -0.5755070756 0.0511713102 -0.017171264
400297600.0 0.0523124855 -0.0158530401 0.5396265355 -0.5822341026 0.5398057816 -0.5821607928 0.0515711487 -0.0173974998
405297570.0 0.0520375725 -0.0166730152 0.5332055728 -0.5877646697 0.5333200629 -0.5878693261 0.0508931716 -0.0179726553
410297540.0 0.051442662 -0.0164559961 0.5270648543 -0.5938996903 0.5270795328 -0.5934248351 0.050522502 -0.0186423192
415297510.0 0.0510540341 -0.017240481 0.52033371 -0.5993529624 0.5210395321 -0.5999993575 0.0504797559 -0.0191795723
420297480.0 0.0505483842 -0.0185465099 0.5133772002 -0.6053827302 0.513826214 -0.6054171264 0.050294715 -0.0196830573
425297450.0 0.0508085105 -0.0188881598 0.5068597617 -0.6106124693 0.5067135714 -0.6110415604 0.0497597985 -0.0209203815
430297420.0 0.0500280331 -0.019264452 0.5000631563 -0.6167894472 0.5008324735 -0.6164071812 0.0497115123 -0.0210568643
435297390.0 0.0497848765 -0.020148819 0.4931229626 -0.6229344893 0.4933150107 -0.6221728646 0.0486844622 -0.0214233887
440297360.0 0.0497943868 -0.0209545968 0.4860243469 -0.6279522895 0.4863334846 -0.62788598 0.0486886523 -0.0218250695
445297330.0 0.0495026311 -0.0220807842 0.4797581291 -0.6329983079 0.4795044244 -0.6331560255 0.0482115054 -0.0219277612
450297300.0 0.0488991682 -0.0221464117 0.472677937 -0.6379402244 0.4728707062 -0.637995264 0.0479591773 -0.022617191
455297270.0 0.0478219254 -0.022685514 0.4658091716 -0.6434843475 0.4660010729 -0.6435008922 0.0476150914 -0.0234348953
460297240.0 0.0482136144 -0.0233967142 0.4584761204 -0.6492343228 0.4586416375 -0.6488964981 0.0472328796 -0.0243066287
465297210.0 0.0476667873 -0.0239941566 0.4505923673 -0.6535874923 0.4508547042 -0.654152314 0.0475419603 -0.0239643625
470297180.0 0.0473441844 -0.0250378311 0.444285776 -0.6584893893 0.4446841508 -0.6585634193 0.0470563359 -0.0249526893
475297150.0 0.0464856484 -0.0248690823 0.4371752168 -0.6641725693 0.4371838093 -0.6636495936 0.0465996649 -0.0256436621
480297120.0 0.0468053775 -0.0251155292 0.4293648903 -0.6684348411 0.4298265582 -0.6685124268 0.0459802996 -0.0261414946
485297090.0 0.046182365 -0.0268028928 0.4225486842 -0.673790768 0.4225960273 -0.6729794854 0.0459608111 -0.0262734673
490297060.0 0.0462792487 -0.026602985 0.414360461 -0.6779765821 0.4150441258 -0.678207971 0.0451105464 -0.0272226397
495297030.0 0.0450995817 -0.0276700774 0.4074770431 -0.6824237983 0.407532138 -0.6826589182 0.0453287381 -0.0276221322
500297000.0 0.044682836 -0.0278083844 0.399771955 -0.6867350853 0.3997958329 -0.6871243587 0.0447507381 -0.0277136829
505296970.0 0.0451181721 -0.0282730527 0.3928738209 -0.6914521122 0.3925987466 -0.6910271449 0.0444577631 -0.0292156258
510296940.0 0.044390392 -0.0290727385 0.3847454145 -0.6962688025 0.385147367 -0.6962077834 0.0442490347 -0.0289498701
515296910.0 0.0438762878 -0.0293340785 0.376801031 -0.6999837754 0.3767328871 -0.7000281456 0.043602376 -0.0299425743
520296880.0 0.0436785549 -0.0294679277 0.3701330872 -0.7036756199 0.3696771566 -0.7037071349 0.0435515214 -0.0297802817
525296850.0 0.0433477287 -0.0303022469 0.3617566951 -0.7078656144 0.3615764417 -0.7079487446 0.0434576403 -0.0308028801
530296820.0 0.0423990314 -0.0310034654 0.3534340185 -0.711933491 0.3539877397 -0.7118759425 0.0430516224 -0.0314666265
535296790.0 0.0426882868 -0.0311558965 0.3462456762 -0.7153058953 0.3461326748 -0.7156432913 0.0429977504 -0.0311969188
540296760.0 0.0421685472 -0.0312800462 0.3379808105 -0.7190191888 0.3382108239 -0.719512887 0.0420239954 -0.0323088916
545296730.0 0.0407940672 -0.0319107123 0.3303003607 -0.7231760831 0.3300609118 -0.7228801211 0.0418881039 -0.0326846544
550296700.0 0.0414180439 -0.0320481756 0.3224045115 -0.7266062098 0.3220767494 -0.72656716 0.0416513463 -0.0329276492
555296670.0 0.0406323657 -0.032918058 0.3142962023 -0.7305620638 0.3148649177 -0.7302960086 0.0408045632 -0.0337992128
560296640.0 0.0410500213 -0.0332873294 0.3062988207 -0.7337968355 0.3068561379 -0.7336622057 0.0405001142 -0.0337662809
565296610.0 0.039624577 -0.0335415056 0.2985613789 -0.7371614149 0.298917228 -0.7364265606 0.0404684341 -0.0342848516
570296580.0 0.0393480961 -0.0336379027 0.2895644338 -0.7399982919 0.2904270237 -0.7403806452 0.0395868608 -0.03509633
575296550.0 0.0390393437 -0.0341757426 0.2829044893 -0.743785573 0.2824160261 -0.7429498456 0.0391603244 -0.0353419517
580296520.0 0.0387734868 -0.034195545 0.2741459741 -0.7465811036 0.2739814219 -0.7466930541 0.0380834474 -0.0357926977
585296490.0 0.0384318581 -0.0344696404 0.2666269321 -0.7494002866 0.265997484 -0.749011391 0.0386053879 -0.0358772774
590296460.0 0.0384581964 -0.034882206 0.2578263854 -0.7521811666 0.2578094788 -0.7528150917 0.0374944545 -0.0358976739
595296430.0 0.0377742614 -0.0353139329 0.2491960563 -0.7551254083 0.2490410972 -0.7553348399 0.0373945129 -0.037078064
600296400.0 0.0375529697 -0.0355175986 0.2400852896 -0.757481437 0.2410451963 -0.7578351387 0.0370911233 -0.0372596183
605296370.0 0.0362333449 -0.0356502811 0.2333682792 -0.7600472042 0.2324846717 -0.7602561625 0.0362896387 -0.0374858425
610296340.0 0.0363978693 -0.0358009744 0.2243329055 -0.762161864 0.2249254132 -0.76232986 0.0354042931 -0.0377951027
615296310.0 0.0361940894 -0.0362157798 0.2160086125 -0.7655335395 0.2158312923 -0.7649524938 0.0354762215 -0.0380192164
620296280.0 0.0349855015 -0.036162517 0.2069674335 -0.7676157891 0.2075815412 -0.7672657962 0.0343405346 -0.0379915223
625296250.0 0.034787054 -0.0367246586 0.1994519346 -0.7702712598 0.1995124059 -0.7702029976 0.0335994712 -0.0386339312
630296220.0 0.0342958281 -0.0369244224 0.1909795613 -0.7720094539 0.1907950932 -0.7716655282 0.0335116717 -0.0389117398
635296190.0 0.0333363137 -0.036867 0.1823480057 -0.7740497657 0.1826622816 -0.7735648851 0.0329167783 -0.0391683482
640296160.0 0.0329414592 -0.0372704019 0.1738074998 -0.7759767672 0.1742994228 -0.7760722766 0.0320323974 -0.0398864049
645296130.0 0.0327979487 -0.0367577672 0.1653870716 -0.7780704802 0.165245744 -0.7776803926 0.0313910555 -0.0403641343
650296100.0 0.0320221618 -0.0373726161 0.1572927712 -0.7796253304 0.1572588691 -0.7799046614 0.0320601033 -0.0404092562
655296070.0 0.0315241895 -0.0372257587 0.148124072 -0.7813779719 0.1482439511 -0.7807219704 0.0304377354 -0.0406320435
660296040.0 0.0310564479 -0.0372947997 0.1397824339 -0.7825560011 0.1399052124 -0.7834678962 0.0297718517 -0.0411289642
665296010.0 0.0307596347 -0.0378913183 0.1305307219 -0.783784077 0.131206554 -0.7838938577 0.0293569703 -0.040926469
670295980.0 0.030126609 -0.0377485635 0.122717128 -0.7861472809 0.1226380207 -0.7849658998 0.0280538704 -0.0414352719
675295950.0 0.0295125096 -0.0379776438 0.1140748932 -0.7865488983 0.1144033468 -0.7868316343 0.0279216072 -0.0413780698
680295920.0 0.0289527129 -0.0382186663 0.105712972 -0.7879618772 0.1059087115 -0.787392063 0.0277477274 -0.0419976845
685295890.0 0.0285458933 -0.037917898 0.0967243334 -0.7892490077 0.0976196899 -0.7892346823 0.0270042323 -0.0417261758
690295860.0 0.0274520257 -0.0378272922 0.0881338208 -0.7900353316 0.0879481338 -0.7902495045 0.0262611291 -0.0424100409
695295830.0 0.0271982509 -0.0383755327 0.0804762747 -0.7911585222 0.0795614481 -0.790895145 0.0257854887 -0.0424126271
700295800.0 0.0268505398 -0.0383959846 0.0720253244 -0.7916728019 0.0713085814 -0.7917374672 0.024785069 -0.0424268076
705295770.0 0.0258574167 -0.0383940168 0.0626863447 -0.7928179139 0.0626256826 -0.7921784412 0.0244180037 -0.0423028353
710295740.0 0.0254529392 -0.0385412259 0.05388079 -0.7933505747 0.0540097599 -0.7935739853 0.0240177737 -0.0425419078
715295710.0 0.0246975285 -0.0380563411 0.0456075109 -0.7940981463 0.0458245691 -0.7938436836 0.0232969303 -0.0428073009
720295680.0 0.0249272711 -0.0382955618 0.0367075883 -0.7940283669 0.0367478826 -0.7944857246 0.0224544537 -0.0430597315
725295650.0 0.0231786028 -0.0383503561 0.0285528896 -0.7948853967 0.0286364669 -0.7941972366 0.0213770005 -0.0422341328
730295620.0 0.0222521412 -0.0385408463 0.0193339091 -0.793932281 0.019032205 -0.7937197261 0.020912397 -0.0419435068
735295590.0 0.0226799794 -0.0384887921 0.0108331945 -0.7950557724 0.0108040547 -0.7947627403 0.02023079 -0.0429383799
740295560.0 0.0216745408 -0.0388737529 0.0019570148 -0.7949152101 0.0028955081 -0.7949764499 0.0190708364 -0.0427148183
745295530.0 0.0209182172 -0.03846855 -0.0060698316 -0.794271923 -0.0053213062 -0.7944293489 0.0181886101 -0.0429031329
750295500.0 0.0202306876 -0.0384823552 -0.0146005576 -0.7948168782 -0.0152828165 -0.7944525494 0.0178724275 -0.0428488824
755295470.0 0.0194132431 -0.038370228 -0.0236966332 -0.7946412456 -0.0229680731 -0.7948473833 0.0176076219 -0.0421787391
760295440.0 0.0188955941 -0.0378098896 -0.0330194742 -0.7937266387 -0.0321074645 -0.7936189904 0.017146235 -0.0436782488
765295410.0 0.0186177971 -0.0384544177 -0.0412508437 -0.7935699296 -0.0399753023 -0.7935707117 0.0161631188 -0.0429615026
770295380.0 0.0179020032 -0.0378297854 -0.0489774093 -0.7923326963 -0.0491880398 -0.7937794736 0.015200345 -0.0428113688
775295350.0 0.0171915996 -0.0384321942 -0.0577062061 -0.7927214383 -0.0574820104 -0.7917548808 0.0152976776 -0.0426564776
780295320.0 0.016334233 -0.0379120424 -0.0662476313 -0.7917651912 -0.0661104145 -0.7913328482 0.0147567651 -0.042955313
785295290.0 0.0156918678 -0.0384609833 -0.0748037815 -0.7912228091 -0.0747347488 -0.7907383596 0.0133056982 -0.0420989953
790295260.0 0.0156255336 -0.0385448243 -0.0834073692 -0.7902688171 -0.0832844037 -0.7903422583 0.012838243 -0.0418093718
795295230.0 0.0145865337 -0.0385016982 -0.0920972884 -0.7898781481 -0.0920377998 -0.7898034881 0.0120856694 -0.0429882938
800295200.0 0.0135592907 -0.0379161425 -0.1000975653 -0.7878758409 -0.1004879452 -0.7880001669 0.0113865271 -0.0424037987
805295170.0 0.0127534602 -0.0381521429 -0.1089768913 -0.7874714805 -0.108746676 -0.7872297215 0.0114674434 -0.0420886975
810295140.0 0.0129224742 -0.0376504027 -0.1177026997 -0.7853326822 -0.1173429237 -0.7855520094 0.0105592454 -0.0425484323
815295110.0 0.0119256157 -0.0376332307 -0.1261060476 -0.7843777318 -0.1256537067 -0.7845530842 0.0097621966 -0.0421561557
820295080.0 0.0113372044 -0.0376711592 -0.1337396615 -0.7825566727 -0.1341281811 -0.7829622295 0.0080800112 -0.0414191735
825295050.0 0.0103512394 -0.03774721 -0.1434374624 -0.7822115641 -0.1427412023 -0.7812358906 0.0088627603 -0.0410087491
830295020.0 0.0095293717 -0.0376826034 -0.1517077018 -0.7796942441 -0.1513620878 -0.7799504906 0.007641267 -0.0419889876
