!Created with skrf (http://scikit-rf.org).
# Hz S RI R 50.0 
!freq ReS11 ImS11 ReS21 ImS21 ReS12 ImS12 ReS22 ImS22
300000.0 -0.7804496724 -0.0962567397 -0.0020736621 0.0006667319 0.0006597257 0.0010531803 -0.0480710745 -0.0606481111
5299970.0 -0.7846553529 -0.0054262293 -0.0001316143 -0.0001267956 -5.56473e-05 -1.94386e-05 -0.0457784046 0.0156018981
10299940.0 -0.7876106439 -0.0039304294 -2.7337e-06 -0.0001839326 -5.23932e-05 2.06295e-05 -0.0399542676 0.0338816059
15299910.0 -0.7935972376 -0.0021440981 -0.0001253849 -4.06962e-05 -0.0001140255 -6.11238e-05 -0.0315119089 0.0485384708
20299880.0 -0.800239846 0.001786208 0.0001798429 5.0173e-06 -3.3155e-06 0.0002304528 -0.0213458718 0.0599806376
25299850.0 -0.8061819291 0.007997057 -4.83889e-05 0.0001052883 -6.7215e-06 -0.0001484607 -0.0098826937 0.0696175784
30299820.0 -0.8128824845 0.0151886652 7.60034e-05 -2.02096e-05 1.2297e-06 -7.2582e-05 0.0015337466 0.0765244493
35299790.0 -0.8177741305 0.0249271721 0.0001181418 0.0002049774 2.80935e-05 -6.95802e-05 0.0130608352 0.0815203387
40299760.0 -0.8213421971 0.0334633482 -9.9433e-06 0.0002250961 -9.26636e-05 -4.54115e-05 0.024333972 0.0841136184
45299730.0 -0.8253601704 0.0424104957 -6.1297e-05 8.34779e-05 -2.89483e-05 0.0001842672 0.0352800923 0.0855630538
50299700.0 -0.8274607223 0.0530647201 -0.0001725263 7.58114e-05 7.84776e-05 4.75082e-05 0.0452426454 0.0852668362
55299670.0 -0.8297491464 0.06312579 8.11018e-05 -0.00020391 -1.61878e-05 -0.0001958566 0.0546643114 0.0844497523
60299640.0 -0.8310280384 0.0730071549 -0.0001442239 3.7042e-06 2.98539e-05 0.000151513 0.0631730531 0.0825468015
65299610.0 -0.831455744 0.0835969903 0.0001883422 -0.0002731987 3.61623e-05 -0.0002109872 0.0707896146 0.0800580271
70299580.0 -0.8316342266 0.093263337 -0.000129014 0.0001023118 -5.93695e-05 -4.1406e-05 0.0776906156 0.0773217696
75299550.0 -0.8319384143 0.102974384 -7.87091e-05 -0.0002643524 0.0001380544 -7.62319e-05 0.0839327538 0.0735557952
80299520.0 -0.8322064014 0.1129799292 -3.9628e-06 0.0001243926 2.93024e-05 6.92628e-05 0.0894733578 0.0704402176
85299490.0 -0.8311886481 0.1222198409 0.0001393969 0.0002519178 0.0001251704 0.0001532894 0.0946035654 0.0666839594
90299460.0 -0.8300299911 0.1322018378 0.0001130548 0.0001353469 -4.05706e-05 0.0001365868 0.099158821 0.0628034238
95299430.0 -0.8296287015 0.1417034262 -0.0002050948 3.5065e-06 5.17992e-05 8.4815e-05 0.1032068077 0.0590615382
100299400.0 -0.8281102971 0.1503984373 -2.68943e-05 -2.65545e-05 -9.71667e-05 4.10195e-05 0.1069830352 0.0549959894
105299370.0 -0.8270926947 0.1600533769 6.23684e-05 -3.47295e-05 0.0001690994 -0.000126623 0.1105171099 0.0511392054
110299340.0 -0.8258193657 0.1696033554 7.76653e-05 0.0001192371 -0.0001325629 5.87891e-05 0.1134779151 0.0473715889
115299310.0 -0.8241140077 0.1786137045 1.51712e-05 2.07273e-05 4.52319e-05 0.0001557944 0.1158735014 0.0433445844
120299280.0 -0.8218234895 0.1867297437 0.0002166672 0.0001553675 1.93408e-05 -0.0002282788 0.1182587286 0.0395190697
125299250.0 -0.8203704861 0.1962829957 -2.18222e-05 -6.93028e-05 3.83084e-05 0.0001033552 0.120223048 0.0356214067
130299220.0 -0.8188819112 0.2052686431 0.0001625278 -4.46891e-05 0.0002251911 0.0001547972 0.1220913627 0.0318825631
135299190.0 -0.8170839314 0.2141261777 8.10093e-05 0.0002093375 0.0001225579 7.61598e-05 0.1234708254 0.0284769552
140299160.0 -0.8148811071 0.2232296842 3.09393e-05 0.0001161617 3.43556e-05 3.12443e-05 0.1247453005 0.0251167415
145299130.0 -0.8125920103 0.232345049 -8.89954e-05 0.0001099187 0.0002610667 4.9774e-06 0.1258867943 0.022002387
150299100.0 -0.8099649739 0.241670433 -0.000174385 0.0001025276 -5.2954e-05 -0.0001045786 0.1271337196 0.0187445657
155299070.0 -0.8081333705 0.2495680891 4.99203e-05 -0.0001490197 9.12612e-05 -3.31354e-05 0.1279947436 0.015514072
160299040.0 -0.8054124307 0.2577873716 6.86953e-05 2.13812e-05 -1.11535e-05 8.77899e-05 0.1279920514 0.0123337927
165299010.0 -0.8028692326 0.2671594443 4.53709e-05 -1.22209e-05 0.0001735599 0.0001701823 0.1289890175 0.0090069387
170298980.0 -0.7998397359 0.2757098412 7.83765e-05 -8.9894e-06 0.0001865652 0.0001193207 0.1294736484 0.0061519686
175298950.0 -0.7974421416 0.2842623666 0.0003024968 8.7137e-06 -1.13342e-05 -1.87131e-05 0.1296466842 0.0032761909
180298920.0 -0.7950557847 0.2926549487 -6.83445e-05 0.0001621737 -8.41227e-05 0.000160104 0.1298282985 0.000489384
185298890.0 -0.7918407411 0.3009347794 -3.53151e-05 0.0001276718 -7.12815e-05 0.0001816573 0.1298874652 -0.0023619338
190298860.0 -0.7886926757 0.309282025 -0.0002123435 2.325e-07 2.063e-05 0.0002185032 0.1303237718 -0.0047038014
195298830.0 -0.7855172643 0.3175134239 8.83587e-05 0.000163113 0.000164571 0.0001194777 0.1302328812 -0.007537845
200298800.0 -0.7816054627 0.3262558427 9.86519e-05 -1.65736e-05 -4.48685e-05 2.01248e-05 0.1301610102 -0.0101402092
205298770.0 -0.7786349457 0.3339363704 0.0001581492 0.0002332018 0.0001889545 -0.0002250163 0.129901893 -0.0130981182
210298740.0 -0.7752715685 0.342473767 -3.70741e-05 0.0001577652 -9.97339e-05 7.88711e-05 0.1296931695 -0.0152744932
215298710.0 -0.7722727133 0.3509003098 -2.11457e-05 5.51886e-05 7.38926e-05 0.0001873628 0.1289324369 -0.0176498144
220298680.0 -0.7678435786 0.3584938332 -1.3721e-06 0.0001052568 0.0001012942 0.0002423737 0.1285577068 -0.0203179647
225298650.0 -0.7644562706 0.3670037688 0.000126971 -3.7288e-05 4.58211e-05 -0.0001089063 0.1280554517 -0.0228488276
230298620.0 -0.7609218684 0.3749956764 -6.3254e-06 -2.86861e-05 0.0002482357 0.0001746632 0.1276780722 -0.0250932307
235298590.0 -0.7565253828 0.3836720612 -6.6572e-05 0.0002600193 3.72234e-05 -9.94437e-05 0.1271385297 -0.0273434722
240298560.0 -0.7531154787 0.3909860084 -2.17632e-05 0.0002741919 9.734e-06 0.0001155878 0.1266853293 -0.0296780364
245298530.0 -0.7493343852 0.3986110387 -5.19877e-05 0.0002089609 0.0001906587 0.000163895 0.1258849341 -0.031832706
250298500.0 -0.7445560356 0.4070764181 -3.52661e-05 4.88229e-05 0.0001562953 6.89358e-05 0.1253771579 -0.0341487131
255298470.0 -0.7396937489 0.413442061 -1.1553e-06 3.38791e-05 0.0002339128 0.0002020045 0.1246787314 -0.0365266727
260298440.0 -0.7357062207 0.4215468297 -9.43932e-05 4.72779e-05 0.0002504025 7.80372e-05 0.1242578036 -0.0383185036
265298410.0 -0.7316979469 0.4296070395 0.0001662032 -6.299e-05 5.5769e-06 0.0001354839 0.1236417662 -0.0399649747
270298380.0 -0.7272487717 0.4373395714 7.7201e-05 0.0002045462 6.74486e-05 0.0001048346 0.1229138446 -0.0422486597
275298350.0 -0.722222926 0.4449328741 0.0001294994 -8.51894e-05 8.76887e-05 9.44132e-05 0.1223361917 -0.0438750488
280298320.0 -0.7174098712 0.4523384035 0.0002847746 0.0003053103 -5.54e-07 0.0001113942 0.1218076284 -0.0462660746
285298290.0 -0.7131347553 0.4603855375 -5.27568e-05 0.0003016911 1.3256e-05 9.68673e-05 0.1209006129 -0.0482364818
290298260.0 -0.7080194199 0.4672660137 3.74446e-05 4.2342e-05 -4.09164e-05 6.444e-06 0.1204167868 -0.0497454973
295298230.0 -0.7029262327 0.4745976831 0.0002837565 0.000165272 -3.91623e-05 0.0002137563 0.1196803192 -0.052105696
300298200.0 -0.6977266491 0.4817220865 7.52673e-05 0.000162311 0.00017318 4.6423e-05 0.1187764537 -0.0535775796
305298170.0 -0.6924995259 0.4883609345 0.000119927 7.29696e-05 -9.8163e-05 0.0001538925 0.1180873152 -0.0558546874
310298140.0 -0.6878551784 0.4965119046 0.000234134 4.00274e-05 7.9138e-05 0.0001960414 0.1170004476 -0.0575503646
315298110.0 -0.68321446 0.5031475515 6.6037e-05 0.0001876153 9.54869e-05 0.0001645789 0.1156846605 -0.0590886148
320298080.0 -0.6775712391 0.5102393402 -0.0001366379 7.0201e-06 7.305e-05 0.0002664546 0.1148899256 -0.0612027619
325298050.0 -0.6723564917 0.5174041747 0.0002445788 -2.9432e-05 2.6847e-06 -1.46364e-05 0.1134864524 -0.0629784199
330298020.0 -0.666448381 0.5239391431 0.0001832684 0.0001826826 0.0004369946 -1.88762e-05 0.11227943 -0.0642763351
335297990.0 -0.6608105925 0.5308958304 0.0001212673 0.0002926379 0.0002328559 0.0002331713 0.110921164 -0.0653325294
340297960.0 -0.6558066883 0.5378445156 0.000124188 9.56863e-05 0.0001222814 4.6757e-05 0.1103857702 -0.0669926284
345297930.0 -0.6503590229 0.5446143871 0.0002174903 0.0002049418 0.0001117661 0.0001918522 0.1088830194 -0.0685414813
350297900.0 -0.6448174804 0.5509444881 7.53219e-05 -5.62625e-05 0.0001971034 -6.65178e-05 0.1073091723 -0.0691471448
355297870.0 -0.6382930995 0.5584472912 0.0001779819 -4.03859e-05 0.0001628159 4.41956e-05 0.1063471351 -0.0708376643
360297840.0 -0.6327896045 0.5637772363 8.64944e-05 0.0002040765 -3.17864e-05 1.13611e-05 0.1052954785 -0.0721129784
365297810.0 -0.6275233952 0.5708504022 0.000383168 0.0001353738 5.75565e-05 9.00152e-05 0.1042911678 -0.0735537233
370297780.0 -0.621366234 0.5767708938 0.0001970467 0.0003414574 3.51272e-05 0.0001321022 0.1032214519 -0.0745395599
375297750.0 -0.6149925128 0.5836192072 3.56691e-05 6.0602e-06 0.0001113925 0.0002332201 0.1015863733 -0.076167738
380297720.0 -0.6095452436 0.5893501048 -1.1155e-05 6.78656e-05 0.0002299941 5.50233e-05 0.1001165347 -0.0771452378
385297690.0 -0.6034557464 0.5954655187 5.80129e-05 1.11941e-05 0.0001153818 0.000215155 0.0993922226 -0.0783298899
390297660.0 -0.5971436154 0.6011706416 0.0001899465 -0.000102069 0.0002849937 0.0001390312 0.0978938501 -0.0792494286
395297630.0 -0.5906104424 0.6082534738 -7.7545e-06 0.0001502852 0.0002019889 1.20586e-05 0.0968473446 -0.0807753497
400297600.0 -0.584383554 0.6141715917 0.0001374384 0.0001225641 0.0001268172 0.0002096133 0.0959657111 -0.0817332441
405297570.0 -0.5780284119 0.6189152814 0.0003571638 0.0001515049 -2.3466e-06 0.0001351587 0.0942094896 -0.0831961505
410297540.0 -0.5714851286 0.6254577488 0.0003841289 0.0002836473 0.0001767071 9.68376e-05 0.0931201659 -0.0839631868
415297510.0 -0.5648054032 0.6310720718 0.0003667945 9.83545e-05 0.0001872238 0.0003142573 0.0914641822 -0.0849545602
420297480.0 -0.5595097373 0.6373196966 0.0003438302 -7.5369e-05 4.24533e-05 -3.96479e-05 0.0904550063 -0.0863573036
425297450.0 -0.552186471 0.6424200052 0.0005026382 -0.0001269874 0.00019245 0.0001165444 0.0891620318 -0.0876861712
430297420.0 -0.5458401897 0.6482283599 0.0003011185 0.0001788165 2.82588e-05 -0.0001269932 0.0877606344 -0.0886811842
435297390.0 -0.5393546986 0.6533276016 0.0002545031 0.0001133525 0.0002503043 2.5755e-06 0.0865856955 -0.0898702333
440297360.0 -0.5323309639 0.6589470752 0.0002463535 0.0001416917 0.0003830407 7.72191e-05 0.0853362067 -0.0906633932
445297330.0 -0.5249672692 0.664765336 5.44206e-05 0.0001595824 0.0003132568 0.0002414927 0.0841476324 -0.0920165578
450297300.0 -0.5181274952 0.6692333764 0.0002824764 1.96158e-05 -2.40419e-05 0.0002818793 0.0828777563 -0.0929084697
455297270.0 -0.5115313235 0.6748591702 0.000145594 5.05057e-05 0.0002091244 -3.32811e-05 0.0814635923 -0.0940034159
460297240.0 -0.5048338987 0.6800446779 0.0001086232 0.0001663775 0.0001953676 0.0001101047 0.080187023 -0.0946181934
465297210.0 -0.4982393432 0.6850823986 0.0001253565 0.0002447358 4.7151e-05 -3.58759e-05 0.0788865977 -0.0954847376
470297180.0 -0.4905496672 0.6899836402 0.0001518584 0.0002316811 0.0002280624 0.0001834339 0.0775573255 -0.0961769322
475297150.0 -0.4835379587 0.6946560711 0.0004021193 0.0001072694 0.0003049157 0.0003013554 0.0761770527 -0.097357821
480297120.0 -0.4768536127 0.6998563258 0.0001211499 0.0002053488 0.0004544959 0.000150755 0.0752359415 -0.0980563395
485297090.0 -0.4689816064 0.7042452711 0.0002404475 0.0001671917 0.000374986 0.0001413258 0.0739317147 -0.0985483593
490297060.0 -0.4624175974 0.7084672688 0.0003183741 4.85045e-05 0.0001961707 0.0002287828 0.0725327142 -0.0995094624
495297030.0 -0.4553218008 0.7131591019 0.000277184 8.68122e-05 0.0003796687 8.84849e-05 0.0710531562 -0.0999298488
500297000.0 -0.4480620236 0.7181953692 0.0002690016 -9.90942e-05 7.34942e-05 6.55852e-05 0.0699924755 -0.1008790388
505296970.0 -0.4403486736 0.7228062358 0.0003547927 5.41784e-05 0.0003633777 0.0001828794 0.0683483875 -0.1011923065
510296940.0 -0.4327980089 0.7271286872 0.0002929461 0.0001104694 0.0002276876 0.0001620234 0.06706719 -0.1020915064
515296910.0 -0.4246220204 0.7309045141 0.0002258113 9.0869e-05 0.0002338845 -0.0001209376 0.0658416447 -0.1025933836
520296880.0 -0.4182948966 0.7356661908 2.55243e-05 -6.63077e-05 0.0002359326 0.0002053877 0.0643460899 -0.1031821181
525296850.0 -0.4103580544 0.7393783449 0.0003098631 0.0001568984 0.0002019903 1.02395e-05 0.062798083 -0.1036402282
530296820.0 -0.403191399 0.7440668101 0.0001607003 0.0002303709 0.0002998154 -0.0001407929 0.0614757589 -0.1040995603
535296790.0 -0.3966690888 0.7472693686 0.0002541099 -4.85243e-05 0.0001970767 0.000279561 0.0597838784 -0.1050042377
540296760.0 -0.3885820866 0.7512166134 0.0003406233 0.0003348319 0.0002703015 0.0001461305 0.0582844181 -0.1053948023
545296730.0 -0.3811224588 0.7554079767 0.0003028507 3.97524e-05 0.000366248 0.0001887699 0.0567328175 -0.106037489
550296700.0 -0.3733516029 0.759562661 0.0003091726 0.0002516388 0.0003297853 8.24018e-05 0.0552734084 -0.1067455399
555296670.0 -0.3650358443 0.7620520824 0.0001814881 0.0001710259 0.0004037196 0.0001277171 0.0541564756 -0.1067175492
560296640.0 -0.3576190828 0.7666834994 6.66092e-05 0.0001047595 0.0002469023 0.0001146617 0.0525725058 -0.1071746841
565296610.0 -0.3496137837 0.7702361603 0.0003995086 0.0001532318 0.0003093793 -0.0001450256 0.0511193354 -0.1078960299
570296580.0 -0.3422838765 0.7726979262 0.0002087179 -0.0001614109 0.0003690085 0.0001543047 0.0495193974 -0.1080910568
575296550.0 -0.3346428721 0.7770227367 0.0006039377 0.0001304537 0.0001297381 1.70844e-05 0.0479784375 -0.1087332621
580296520.0 -0.3264395101 0.7799969325 7.74912e-05 0.0002410964 0.0004479005 0.0001248609 0.0465618465 -0.109104531
585296490.0 -0.3185252416 0.7828063362 0.0001199388 3.72934e-05 0.000313637 -3.95172e-05 0.0452008934 -0.1100046768
590296460.0 -0.3102335816 0.7855165901 0.0003058714 -0.0001532657 6.07511e-05 3.81866e-05 0.0437456547 -0.109569866
595296430.0 -0.3031585239 0.7885946289 0.0001883093 -0.0001530813 0.0003551785 0.000220361 0.0424931968 -0.1104655033
600296400.0 -0.2953925852 0.7920770189 0.0003232592 0.0003652356 8.38327e-05 0.0001622306 0.0408684357 -0.1110388981
605296370.0 -0.2882106555 0.7950801494 0.0004967504 -3.36863e-05 0.0005946901 0.0001216795 0.0393600731 -0.1113413605
610296340.0 -0.279284435 0.7974437912 0.0004215476 0.000202957 0.0003743637 8.52851e-05 0.0381238764 -0.1116630427
615296310.0 -0.2703816797 0.8002541335 0.0002234705 -8.6029e-06 0.0003467274 5.32781e-05 0.036790825 -0.1118150108
620296280.0 -0.2630148905 0.8026997469 1.77106e-05 9.73784e-05 0.0003966597 -0.0002250284 0.0351164891 -0.1121808966
625296250.0 -0.2547832672 0.8058343908 0.0003803143 9.24021e-05 0.0004909821 0.0001888223 0.0340226835 -0.1122316458
630296220.0 -0.2462777863 0.8083051983 0.0002190414 0.0001186529 0.0004474078 0.0001439828 0.0323903652 -0.1123416306
635296190.0 -0.2388010698 0.8106338435 0.0002438366 -4.96745e-05 0.0006507817 0.0001044249 0.0309796872 -0.1127043142
640296160.0 -0.2310002864 0.8123541678 0.0002747697 -9.7823e-05 0.0004685921 -2.495e-07 0.0295643448 -0.1130487451
645296130.0 -0.2226597239 0.8155919566 0.0001576961 0.0001603463 0.0003384745 -6.6845e-06 0.028079953 -0.1129951505
650296100.0 -0.214407396 0.8168456917 0.0003200199 -7.29206e-05 0.0003110059 4.16219e-05 0.0267159342 -0.113372455
655296070.0 -0.2064933073 0.8192105023 0.0003160159 -0.0001595838 0.0002280217 3.02801e-05 0.025610618 -0.1131684007
660296040.0 -0.1980415467 0.82052171 0.0002400843 -0.0001219028 0.0004061659 0.0001776812 0.0240606433 -0.113676226
665296010.0 -0.1896898111 0.8224235738 0.0003325489 -8.08697e-05 0.0002240728 4.55984e-05 0.0226192587 -0.1131483572
670295980.0 -0.1823501692 0.8249164551 0.0003070583 0.0001278792 0.0003065974 9.709e-07 0.0207455502 -0.1132697895
675295950.0 -0.1736426978 0.8260492435 0.0003346402 -9.25042e-05 0.0003663825 0.0001557984 0.0193333378 -0.1132395765
680295920.0 -0.1649305886 0.8280996196 0.000242812 -0.0001508463 0.000297781 -0.0001660382 0.0182214438 -0.1128622822
685295890.0 -0.1567185909 0.8301378303 0.000297118 6.64809e-05 0.0005117197 0.0001153611 0.0169491633 -0.1130821159
690295860.0 -0.148805336 0.8311680734 0.0002509282 -7.79745e-05 0.000288588 -0.000113702 0.0152937943 -0.1126094021
695295830.0 -0.1409106922 0.8321920745 0.0005631938 1.59167e-05 0.0002323952 -0.0001618829 0.013854021 -0.1127322884
700295800.0 -0.1322289428 0.8338021096 0.0001089454 4.63335e-05 0.0002589701 -0.0003478253 0.012277262 -0.1128743344
705295770.0 -0.1239799907 0.8355814354 0.0001022371 0.0001349822 0.000332953 -5.2463e-06 0.0109683136 -0.1121864447
710295740.0 -0.1161294461 0.8371250481 0.000268936 -0.0001507968 0.0001949334 -2.20978e-05 0.0093006812 -0.1124923852
715295710.0 -0.1072023779 0.8374454838 0.0002429656 -1.73411e-05 0.0004255721 9.4615e-05 0.0079349185 -0.1123854297
720295680.0 -0.0992134016 0.8387425369 0.0004451883 -9.51065e-05 0.0004471752 0.0001142247 0.0064958705 -0.1122166627
725295650.0 -0.0907483901 0.8399337722 0.0002531977 -0.0001388041 0.0002977346 0.0001622597 0.0048856557 -0.1116694261
730295620.0 -0.0817689596 0.8405467823 0.0001132294 -1.37146e-05 0.0003617369 -1.84867e-05 0.0033898764 -0.1117817328
735295590.0 -0.0743359796 0.8414715881 2.8168e-05 4.78166e-05 0.0001999359 -0.0001565045 0.0017324215 -0.1121299418
740295560.0 -0.0661030823 0.8421720058 0.0003730235 -4.09522e-05 0.0005290772 -0.0002206697 0.0004161338 -0.1114511659
745295530.0 -0.0570689581 0.8429586553 0.0003938427 -0.0001957172 0.0005240515 -8.44815e-05 -0.0008849295 -0.1112346686
750295500.0 -0.0485080687 0.8428937816 0.0002720895 -6.48449e-05 0.0004894185 -4.45634e-05 -0.0020827088 -0.1112480546
755295470.0 -0.041130371 0.8437317643 0.0002563218 0.0002025364 0.0003481126 -0.0001337939 -0.0037698021 -0.1112032958
760295440.0 -0.0322236343 0.8437641509 0.0003960748 7.68952e-05 0.0003799022 3.64058e-05 -0.0050622838 -0.1109113855
765295410.0 -0.0242593548 0.8440321197 0.000493923 0.000103459 0.0003570972 -0.0001403454 -0.00644438 -0.1106209591
770295380.0 -0.0161338548 0.8446899562 0.0004199859 -6.83132e-05 0.0004547739 6.9438e-05 -0.0082676127 -0.1103439348
775295350.0 -0.0077761179 0.8443605336 0.0005107284 -7.66629e-05 0.0002681546 8.1121e-06 -0.009723332 -0.1099998895
780295320.0 0.0012440922 0.8447780064 0.0003504784 1.66452e-05 0.0003574483 -0.0001892827 -0.0107062219 -0.1094485253
785295290.0 0.0089482533 0.8439272683 0.0005168117 -0.0001902019 0.0002291434 -0.000321147 -0.0119591841 -0.1093345706
790295260.0 0.0179129122 0.8441180703 0.0005205147 0.0001545092 0.0004350775 -0.0002809953 -0.0132408482 -0.1090425767
795295230.0 0.0253972674 0.8438328695 0.0003638191 -0.0001217947 0.000430326 -4.42519e-05 -0.0145945288 -0.1087708275
800295200.0 0.0341858613 0.8433050537 0.0003322122 -0.0001839275 0.0003914702 -0.0001007795 -0.0161889477 -0.1078147062
805295170.0 0.0424987192 0.8431821438 0.0003855803 -0.0002029068 0.0004305857 -0.0002201309 -0.0174575887 -0.1078410909
810295140.0 0.0509994243 0.8428897051 0.0003252856 2.26732e-05 0.0004465892 -0.0002108629 -0.0184721312 -0.1074062584
815295110.0 0.0598344786 0.8419108614 0.0004179156 -8.07248e-05 0.0003488687 -0.000298236 -0.0201116436 -0.1069401457
820295080.0 0.0677341301 0.8415392556 0.0003234507 5.58632e-05 0.0003237139 -6.80169e-05 -0.0212034798 -0.1062906025
825295050.0 0.0763878663 0.840554109 0.0005246166 0.0001801079 0.0003504303 -0.0001473637 -0.0222803066 -0.1059436161
830295020.0 0.0838036969 0.8401132764 0.0003225194 -0.0004343997 0.0002989102 -0.0001656253 -0.0230751264 -0.1054151935
835294990.0 0.0917636964 0.8393727534 0.0004457157 -4.27868e-05 0.0003580451 -7.63602e-05 -0.0249940118 -0.1047814496
840294960.0 0.0999157056 0.8386363897 0.0005941373 -0.0001715622 0.0003833655 -0.0001339262 -0.0262300492 -0.1041106544
845294930.0 0.1082549036 0.8371920907 0.0002599193 -4.8837e-06 0.0004531072 -0.0002911404 -0.0277658843 -0.1035481547
850294900.0 0.116968144 0.8359033953 0.0004935438 -0.0001192651 0.0004553044 -0.0001018774 -0.0288426701 -0.1027144587
