!Created with skrf (http://scikit-rf.org).
# Hz S RI R 50.0 
!freq ReS11 ImS11 ReS21 ImS21 ReS12 ImS12 ReS22 ImS22
300000.0 -0.2351828908 -0.1256097209 0.4652549458 0.0807573254 0.4655358731 0.081843636 -0.2346799066 -0.1291103717
5299970.0 -0.2447742284 0.0051284158 0.4736858793 0.0059144597 0.4741865537 0.0059156762 -0.2432183452 0.0050916623
10299940.0 -0.2418556023 0.0185062532 0.4760038333 0.007084333 0.475889078 0.0072441713 -0.2399765824 0.0178989656
15299910.0 -0.2367193344 0.0282949966 0.4793690903 0.0085281025 0.4796333346 0.0083234198 -0.2360136025 0.0273113542
20299880.0 -0.2317020302 0.0362725215 0.4843042818 0.0085778064 0.48448419 0.008641571 -0.2310397995 0.0353970263
25299850.0 -0.2254130333 0.0428213287 0.4893736422 0.0077661947 0.4895478375 0.007484741 -0.2258491384 0.0418155883
30299820.0 -0.2201938918 0.0476898304 0.4951270057 0.0055862705 0.4953594507 0.0053895822 -0.2206971629 0.0470094146
35299790.0 -0.2141633928 0.0516922774 0.4999181108 0.0025972389 0.5005291159 0.0023424557 -0.2154475308 0.0513713808
40299760.0 -0.2089178766 0.0548481261 0.5055113554 -0.001639685 0.5057919032 -0.0018696748 -0.2104709895 0.0547232382
45299730.0 -0.2040380639 0.0572467022 0.5106987984 -0.0060034295 0.5104918772 -0.006464399 -0.2055284476 0.0575442583
50299700.0 -0.1988595792 0.0591567246 0.5143399385 -0.01197396 0.5148106494 -0.0116985098 -0.2011999912 0.0599926926
55299670.0 -0.194831253 0.0602667424 0.5178140061 -0.0175381589 0.5181938424 -0.0174536512 -0.1972442508 0.0617767418
60299640.0 -0.1909085946 0.0620309808 0.5220512257 -0.0240609404 0.5215739054 -0.0242056916 -0.1934120497 0.0632072383
65299610.0 -0.1871611256 0.0625729875 0.5250204418 -0.0299442213 0.5248422849 -0.0305636158 -0.1898619332 0.0648549232
70299580.0 -0.1839487153 0.0631618544 0.5267642519 -0.0365308059 0.5271644753 -0.0370827306 -0.1870326302 0.0657108556
75299550.0 -0.1809062273 0.0638583273 0.5291339116 -0.0441528241 0.5293055141 -0.0438427186 -0.1839365151 0.0670447848
80299520.0 -0.1784131713 0.0643513011 0.5308476565 -0.0504756696 0.5310723994 -0.0507957604 -0.1812626506 0.0682962993
85299490.0 -0.1757713282 0.0648208936 0.5320171742 -0.0575856095 0.5326786892 -0.0570432534 -0.1791800191 0.0687352979
90299460.0 -0.1735282381 0.0653252956 0.5329694037 -0.0643893602 0.5330921126 -0.0646341197 -0.1766852531 0.0699453849
95299430.0 -0.1713087332 0.0658338265 0.5342262476 -0.0714775773 0.5344517471 -0.0719955409 -0.17465887 0.0706463434
100299400.0 -0.169293635 0.0662931637 0.5343810286 -0.0779156249 0.5347149677 -0.0786162168 -0.1728836375 0.0719589804
105299370.0 -0.1675289452 0.0665015286 0.5349989885 -0.0851700137 0.5353150378 -0.0856723171 -0.1708640644 0.0722188391
110299340.0 -0.1659059981 0.0668502303 0.5352236153 -0.0915787751 0.5355536924 -0.0918221616 -0.1695702006 0.0732277301
115299310.0 -0.1643477794 0.0677292235 0.5347827582 -0.0986229194 0.5354467136 -0.0992577165 -0.167931946 0.0743430319
120299280.0 -0.1631747335 0.0682490454 0.5352897921 -0.1063955735 0.5352285353 -0.1061936827 -0.1663738006 0.0748136459
125299250.0 -0.1618361179 0.0685868519 0.5345361803 -0.1127171807 0.5348045778 -0.112277765 -0.1647864706 0.0760192672
130299220.0 -0.1606890683 0.0691348433 0.5339092599 -0.1190585213 0.534007673 -0.1199539934 -0.1636626259 0.0771319282
135299190.0 -0.1595477701 0.0702747428 0.5337201028 -0.1256325005 0.5339113238 -0.1262904314 -0.16256325 0.0776941703
140299160.0 -0.1586639912 0.0709204863 0.5330042361 -0.1328996917 0.5324559634 -0.1325880466 -0.1620091307 0.0786714904
145299130.0 -0.1579569522 0.0716201646 0.5318028475 -0.1388870649 0.5318851937 -0.1388691101 -0.1610331408 0.0797632938
150299100.0 -0.156474095 0.0722391283 0.5302721362 -0.1454470816 0.5303648372 -0.1460528808 -0.1595903737 0.0815477449
155299070.0 -0.1556609059 0.0733840335 0.5289353059 -0.1522393095 0.5293181554 -0.1523531886 -0.1585186137 0.08216236
160299040.0 -0.1547187914 0.0744758467 0.5279026177 -0.1586872975 0.5281344249 -0.1587108928 -0.1579888564 0.0837617333
165299010.0 -0.1536672291 0.0752869384 0.526720324 -0.1647698313 0.5267511166 -0.1651773875 -0.1564041244 0.0844199001
170298980.0 -0.1529174984 0.0762597255 0.5245158079 -0.1715469387 0.5248847618 -0.1715333339 -0.1559996288 0.0858251593
175298950.0 -0.1521996695 0.0775979704 0.5234992873 -0.1779562936 0.5238447275 -0.1781569328 -0.1546308803 0.0875470702
180298920.0 -0.1516591071 0.0783201957 0.5216163352 -0.184244124 0.5217954679 -0.1845060269 -0.1536970269 0.0886691844
185298890.0 -0.1506814262 0.0795367152 0.5200060901 -0.1907055458 0.5198987109 -0.1905217913 -0.152809971 0.0896853338
190298860.0 -0.1495502839 0.0807195257 0.5174008422 -0.1964649975 0.5179201764 -0.1965924695 -0.1518635057 0.0911464571
195298830.0 -0.1491331028 0.0819687587 0.5161765125 -0.2029008458 0.5162068357 -0.2027425001 -0.1511343158 0.0927505407
200298800.0 -0.1481518511 0.0827788749 0.5140336399 -0.2089709685 0.5141950083 -0.2089240143 -0.1500114887 0.0937439428
205298770.0 -0.1481051375 0.0838995036 0.5115552649 -0.2144267429 0.5115866174 -0.21453239 -0.1487197213 0.0949360378
210298740.0 -0.1470305654 0.0854351788 0.5098216564 -0.2208916236 0.5092057851 -0.2204624811 -0.1483875574 0.0964830385
215298710.0 -0.1461081366 0.0867353193 0.5065234868 -0.2264554888 0.5071309755 -0.2270538638 -0.1471454166 0.097839056
220298680.0 -0.145273201 0.0878552569 0.503974789 -0.2328587454 0.5042363866 -0.232879281 -0.146206342 0.0990836967
225298650.0 -0.1445801294 0.0889031314 0.5018912379 -0.2383645605 0.501956226 -0.2379048541 -0.1452973431 0.1003791661
230298620.0 -0.1435076761 0.0904772643 0.4995587758 -0.244426316 0.4998052383 -0.2445477618 -0.1444090411 0.1017098623
235298590.0 -0.1432231761 0.0916247672 0.4967807271 -0.2505875574 0.4971991763 -0.2500314273 -0.1433936279 0.1036645267
240298560.0 -0.1420494899 0.0930309662 0.4939733178 -0.2553116535 0.4941202142 -0.2558158058 -0.1423612385 0.1044794824
245298530.0 -0.1414819294 0.0940851032 0.4912493475 -0.2614702996 0.4915752872 -0.2617612729 -0.1414308967 0.1061827803
250298500.0 -0.1408407998 0.0953084431 0.4887501415 -0.2671296954 0.4887644739 -0.2668439412 -0.1399976753 0.1076974607
255298470.0 -0.1399639265 0.09688676 0.486142319 -0.2721050163 0.4862138987 -0.2729897826 -0.1393379152 0.1094057158
260298440.0 -0.1388636054 0.0980357468 0.4828744921 -0.2778835194 0.4829240967 -0.2777470243 -0.1383364152 0.1101382452
265298410.0 -0.1384496699 0.0996743214 0.4797657682 -0.2841967141 0.4794973056 -0.2838401686 -0.1363926242 0.1118141766
270298380.0 -0.1376479507 0.100910011 0.4772125525 -0.2889965143 0.4768006177 -0.2890625052 -0.1357171395 0.1136720092
275298350.0 -0.1366339047 0.1024794397 0.4731726455 -0.2943280185 0.4735516237 -0.2944753293 -0.1345924163 0.1151549425
280298320.0 -0.1361837765 0.1038469232 0.4704057611 -0.2995273086 0.4712231873 -0.2998956072 -0.1333648893 0.1164699999
285298290.0 -0.1350009375 0.104979279 0.4669332819 -0.3048987653 0.4678263958 -0.3051333699 -0.132619269 0.1183996837
290298260.0 -0.1341701826 0.1063843035 0.4643680732 -0.3102269826 0.4641030328 -0.3105475828 -0.1309978509 0.1193198397
295298230.0 -0.1335388273 0.1073720241 0.4608712592 -0.3160626228 0.4605892766 -0.3162578331 -0.1297235421 0.120588315
300298200.0 -0.1322896625 0.108933595 0.4570840579 -0.3207898461 0.4579187364 -0.3208673745 -0.1285488002 0.1221957646
305298170.0 -0.1316134452 0.1099293748 0.453951413 -0.3261752238 0.4541734187 -0.3265490988 -0.1272014201 0.1228867772
310298140.0 -0.1301675622 0.111226609 0.4502321389 -0.3315698569 0.4502449781 -0.3313202887 -0.1256784817 0.1247150457
315298110.0 -0.1296278793 0.1120174402 0.4468032758 -0.3368471094 0.4466678007 -0.337213591 -0.1245468197 0.1261824335
320298080.0 -0.1287945978 0.1136319952 0.442447295 -0.3421561546 0.4431182769 -0.34222434 -0.1234276668 0.1273987243
325298050.0 -0.1283227742 0.1143399247 0.4388868638 -0.3465718224 0.4394903595 -0.3470143197 -0.1218024488 0.1284465147
330298020.0 -0.127579414 0.1161074903 0.4350890004 -0.3520039741 0.4355152584 -0.3521324917 -0.1212916325 0.129809638
335297990.0 -0.126522386 0.1171432168 0.431101648 -0.3561764314 0.4313363036 -0.3567918756 -0.1199462977 0.1311678066
340297960.0 -0.1256167163 0.1185853618 0.4265427647 -0.3619234143 0.4273629185 -0.361767098 -0.1184889611 0.1329486774
345297930.0 -0.1250249689 0.1197899465 0.422947832 -0.3662983492 0.4231208242 -0.3664854888 -0.1172738228 0.1339069723
350297900.0 -0.1243017716 0.1213022784 0.4187355451 -0.3707504958 0.419158103 -0.3705829433 -0.1158488508 0.1351704666
355297870.0 -0.1229932289 0.1225526811 0.4148805467 -0.3750169144 0.4148100051 -0.3753545975 -0.1143679562 0.1369675165
360297840.0 -0.1218000472 0.1239742991 0.4104449646 -0.379939144 0.4105547946 -0.3799948641 -0.1131496529 0.1381618066
365297810.0 -0.1213483571 0.1252002728 0.4064666299 -0.3842266536 0.4065573068 -0.3845198543 -0.1120327005 0.1395793505
370297780.0 -0.1198925082 0.126427868 0.4017837435 -0.3890294643 0.4023907556 -0.3889035654 -0.1106394695 0.1408555942
375297750.0 -0.1189466385 0.1278299903 0.3977498149 -0.3932364554 0.3979977297 -0.3932804345 -0.1089166402 0.1420278074
380297720.0 -0.1180801572 0.1291520923 0.3939659406 -0.3975953872 0.39374543 -0.3977724898 -0.1078104371 0.1437903864
385297690.0 -0.1167757816 0.1303969631 0.3886294712 -0.4020734788 0.3892697739 -0.4027235512 -0.1056983218 0.1452445475
390297660.0 -0.1156925593 0.1313589102 0.3845309847 -0.4058028846 0.3848248028 -0.4063327658 -0.1043993175 0.1461515902
395297630.0 -0.1143687342 0.1325074012 0.3802363813 -0.4097511448 0.3803885582 -0.4101187072 -0.1028270043 0.1473020189
400297600.0 -0.11352748 0.1340435664 0.3760199318 -0.414867898 0.3764502979 -0.414304349 -0.1008829472 0.1489531982
405297570.0 -0.1121436384 0.1345050778 0.3713356763 -0.4180715857 0.371596115 -0.4187206415 -0.0993778098 0.1504923124
410297540.0 -0.111128815 0.1364287004 0.3667904345 -0.4229986619 0.3669125063 -0.4226096654 -0.0978885343 0.1516346916
415297510.0 -0.1100987755 0.1374962784 0.3617091204 -0.4265530971 0.3624262817 -0.4270449428 -0.0962517595 0.152753624
420297480.0 -0.1087621165 0.1382709234 0.3572854338 -0.4307967359 0.3575679204 -0.4306842103 -0.0942012751 0.1542982174
425297450.0 -0.1068802142 0.1394322607 0.3525801949 -0.4347830804 0.3525735575 -0.4345126954 -0.0929238705 0.1548583804
430297420.0 -0.1063106298 0.1404210162 0.3486176896 -0.4385957821 0.3480719777 -0.438151956 -0.0910186653 0.1563590137
435297390.0 -0.1048847702 0.1416090878 0.3428917167 -0.4430672034 0.3431148721 -0.441993023 -0.08964952 0.1577819809
440297360.0 -0.1029773024 0.1426996483 0.3374754645 -0.4457724735 0.3380898584 -0.4459705104 -0.0878036991 0.1589544971
445297330.0 -0.1018377236 0.1434471016 0.3336578509 -0.4489606778 0.3335454826 -0.4498886693 -0.0855865226 0.159955752
450297300.0 -0.1004164543 0.1449732943 0.3282688519 -0.4530815752 0.3288533891 -0.4529635812 -0.084303128 0.1610503143
455297270.0 -0.0996660721 0.1457139726 0.3236248147 -0.4562585443 0.3236164865 -0.4570134328 -0.0822011132 0.1621084697
460297240.0 -0.0979696181 0.1470890427 0.3184367466 -0.4607591423 0.318594367 -0.4606367584 -0.080596037 0.163236202
465297210.0 -0.096487852 0.1479534642 0.3131972031 -0.4637511713 0.3129154438 -0.464012947 -0.0785976502 0.1646354452
470297180.0 -0.0950484724 0.1490820591 0.3081592651 -0.4665811183 0.3087528991 -0.4671174214 -0.0767489005 0.1652461538
475297150.0 -0.0938650366 0.1501633792 0.3030645657 -0.4705099503 0.3032883369 -0.4705523645 -0.074847757 0.1662355879
480297120.0 -0.0918879101 0.1514768614 0.2975361243 -0.4738091014 0.2979132224 -0.4735620712 -0.0734525875 0.1672309409
485297090.0 -0.0905049963 0.1517533851 0.2927746655 -0.476924528 0.2926409414 -0.4766537226 -0.0711800661 0.1682745889
490297060.0 -0.0884857946 0.1531786974 0.2869977402 -0.4801251725 0.2876465866 -0.4804088085 -0.0693622779 0.1689107434
495297030.0 -0.0879472644 0.1536539638 0.282468339 -0.4832914234 0.2824192869 -0.4832687116 -0.0672529857 0.1695225903
500297000.0 -0.086316605 0.1548652083 0.2769819916 -0.4858575995 0.2772129798 -0.4866606157 -0.0658522774 0.1711062041
505296970.0 -0.0843008854 0.1559113569 0.2717572223 -0.4893579647 0.2716279692 -0.4891878438 -0.0634377737 0.1713252504
510296940.0 -0.0828662206 0.1566716848 0.2666562855 -0.4925453839 0.266660354 -0.492571122 -0.0612143116 0.1726361177
515296910.0 -0.081144276 0.1576768391 0.2602956206 -0.4948452901 0.2606428086 -0.4950301314 -0.0600648337 0.1729913592
520296880.0 -0.079491633 0.1585918615 0.2553026738 -0.4974373843 0.2551242388 -0.4977971331 -0.0572464525 0.1743162839
525296850.0 -0.0779082516 0.1593499827 0.2500348544 -0.5002176764 0.2496440706 -0.5005011398 -0.0556793979 0.1751034711
530296820.0 -0.0764991755 0.1602267155 0.2441231895 -0.5029420221 0.2445879842 -0.503178088 -0.0537592018 0.1754733396
535296790.0 -0.0743338113 0.161088746 0.2388611028 -0.5056171624 0.2390897947 -0.5056487262 -0.0514910091 0.1765791565
540296760.0 -0.0724607019 0.1622662302 0.2328777216 -0.5078970185 0.233110265 -0.5079458118 -0.0496241602 0.1767135683
545296730.0 -0.0717780252 0.1633390607 0.2283255948 -0.5109191957 0.2278613274 -0.5104487599 -0.0476220446 0.1776509359
550296700.0 -0.0694660891 0.1640391823 0.2222069211 -0.5135430826 0.2219569519 -0.5132651712 -0.0457247336 0.1783699634
555296670.0 -0.0681225685 0.1649721109 0.217055406 -0.5160867495 0.2167143192 -0.5157125885 -0.0438548526 0.1785365619
560296640.0 -0.0658738015 0.1655186703 0.2107122966 -0.5178001814 0.2113083838 -0.5178773265 -0.0417678649 0.1794941415
565296610.0 -0.0648091593 0.1667070158 0.2057528768 -0.5200716448 0.2056494234 -0.519727166 -0.0395452594 0.1801952229
570296580.0 -0.0629857161 0.1674874735 0.1995410878 -0.5224670503 0.1995810992 -0.5224942182 -0.0376430825 0.1805901146
575296550.0 -0.0610735037 0.1678037367 0.194215617 -0.5244023574 0.1940442911 -0.5245663917 -0.0354821735 0.1812469688
580296520.0 -0.0595119611 0.1689757466 0.1885710187 -0.5260615668 0.1882274573 -0.5263992293 -0.0337070513 0.181462866
585296490.0 -0.0575981489 0.1696919679 0.1825578679 -0.5280334411 0.1822543726 -0.5282737953 -0.0311448922 0.1822370097
590296460.0 -0.0555386097 0.1705441081 0.1770789255 -0.5306300355 0.1769440769 -0.5307693146 -0.0297347636 0.1828819181
595296430.0 -0.0538108913 0.1710667836 0.1705171855 -0.5321638817 0.1707646724 -0.5322157551 -0.027336848 0.1829964744
600296400.0 -0.0520193066 0.1718562143 0.164644169 -0.5337035171 0.164711686 -0.5338495418 -0.0251804898 0.1834252156
605296370.0 -0.0508619312 0.1726821434 0.1596492063 -0.535532779 0.1592899614 -0.5357278919 -0.0232703487 0.1838535502
610296340.0 -0.0481596987 0.173847137 0.15363746 -0.5367508663 0.1538394163 -0.5371055633 -0.021275189 0.1842640441
615296310.0 -0.0466001386 0.174111074 0.1478523581 -0.5392940382 0.1473403825 -0.538949877 -0.0185893956 0.1848820988
620296280.0 -0.0451571959 0.1754053146 0.1418490554 -0.5405193073 0.141641183 -0.5403889548 -0.0171501756 0.1855379938
625296250.0 -0.0436463523 0.1755448635 0.1357076466 -0.542027162 0.1357265492 -0.5420768085 -0.0154789611 0.1851540068
630296220.0 -0.0417149836 0.1766744903 0.1300216743 -0.5434104217 0.12979746 -0.5435516241 -0.0131862456 0.1856895899
635296190.0 -0.0400583915 0.1770983286 0.1242056403 -0.544588744 0.1243692318 -0.5445149199 -0.0110392633 0.1862577738
640296160.0 -0.0380976028 0.1776639669 0.1181167799 -0.5458972244 0.118182345 -0.5461034541 -0.0093793504 0.1861365816
645296130.0 -0.0363003964 0.1787023958 0.1124318133 -0.5473320927 0.1124579123 -0.5467938942 -0.0070291056 0.1862629687
650296100.0 -0.0347494408 0.1788627843 0.1064319574 -0.5486066634 0.1061213864 -0.5485434549 -0.0043794065 0.1866429961
655296070.0 -0.0328868573 0.1795932291 0.1004362525 -0.5494651551 0.1004661641 -0.5492851173 -0.0030149517 0.1868702758
660296040.0 -0.0312469584 0.1802602582 0.0946794604 -0.5505393425 0.0944459106 -0.5507060975 -0.0008802049 0.1867943264
665296010.0 -0.0292182225 0.1809038998 0.0879302524 -0.5507066713 0.08837581 -0.5513156591 0.0013840508 0.1869237246
670295980.0 -0.0274732769 0.1813315358 0.082416427 -0.5523143498 0.0826028439 -0.551942869 0.0030714341 0.1871451126
675295950.0 -0.0257635693 0.1819540556 0.07640891 -0.5529785603 0.0766997498 -0.5533718516 0.0051897159 0.1873749384
680295920.0 -0.0243186014 0.1823564012 0.0709417508 -0.5538258203 0.0708199392 -0.5537695584 0.0074880452 0.187101103
685295890.0 -0.022234185 0.1831922902 0.0642610906 -0.5547032537 0.0648367867 -0.5547209652 0.0095634106 0.1875586559
690295860.0 -0.0204918871 0.1835576197 0.0585580052 -0.5551879803 0.0585347724 -0.5554691612 0.011573183 0.1873405342
695295830.0 -0.0185235383 0.1840278426 0.0528716972 -0.5559469717 0.0525229516 -0.5553733601 0.0133989238 0.1877003072
700295800.0 -0.0169302109 0.1845328593 0.047346048 -0.5560550812 0.0462820821 -0.5562046041 0.0157881726 0.1876099547
705295770.0 -0.0153421252 0.1848771323 0.0410554396 -0.5569191548 0.040279122 -0.5565334485 0.0178393695 0.1880806542
710295740.0 -0.0135687044 0.1851566603 0.0349567736 -0.5570889384 0.0346629111 -0.5575175454 0.0200963869 0.1877147026
715295710.0 -0.0117840449 0.1856459425 0.0287591203 -0.5575002963 0.0286641632 -0.5576302871 0.021979693 0.1872426725
720295680.0 -0.0096698773 0.1860941282 0.0227102953 -0.5576506882 0.0225479943 -0.5577654217 0.0239415294 0.187218412
725295650.0 -0.0085019895 0.1866653636 0.016936935 -0.557697211 0.0163669586 -0.5577147626 0.0258841642 0.1873355472
730295620.0 -0.0071154561 0.1867189398 0.0113822266 -0.5575264053 0.0109900087 -0.5574992429 0.0276031626 0.187568234
735295590.0 -0.0049076564 0.1872249755 0.0048719082 -0.5580090523 0.0044373819 -0.5581727319 0.0300651532 0.1867649008
740295560.0 -0.0032507773 0.1871592305 -0.0012840649 -0.5579442656 -0.00126684 -0.5583989618 0.0319154492 0.1870500993
745295530.0 -0.0018109258 0.1877221346 -0.0068817962 -0.5572609042 -0.0065393438 -0.5577795951 0.0334340898 0.1867313812
750295500.0 7.8453e-06 0.1881517283 -0.012578971 -0.5576729946 -0.0134920256 -0.5577258628 0.0357909711 0.1865636921
755295470.0 0.0017890086 0.1884706868 -0.0187334157 -0.557686536 -0.0194257688 -0.5576714919 0.0381291377 0.1868030171
760295440.0 0.0033327829 0.1888036589 -0.025567061 -0.557258987 -0.025413086 -0.5569226333 0.0403458806 0.1852449433
765295410.0 0.0055786494 0.1885780626 -0.0311964893 -0.5568759622 -0.0309707712 -0.5572552318 0.0422807118 0.185558013
770295380.0 0.0069759847 0.1890305733 -0.0367805184 -0.5562805838 -0.037238078 -0.5568163044 0.043951943 0.1853325604
775295350.0 0.008733198 0.1890228191 -0.0427745137 -0.5562729855 -0.0427066438 -0.5557843796 0.046313795 0.1847967851
780295320.0 0.0102543533 0.1893487168 -0.0483588859 -0.5553937767 -0.0490015539 -0.5555103848 0.0485319697 0.1848161697
785295290.0 0.0123233325 0.1892129339 -0.0547676252 -0.5551894407 -0.0548170813 -0.5552780723 0.0499599751 0.1846020572
790295260.0 0.0140469984 0.1889866158 -0.0607088525 -0.5543594046 -0.0606562952 -0.5547349999 0.0519735904 0.1843585184
795295230.0 0.0153695793 0.1890991545 -0.0666945823 -0.553673664 -0.0666902671 -0.554007201 0.0540931871 0.1831954824
800295200.0 0.0170993996 0.1894356949 -0.0722715116 -0.5527092227 -0.0725226952 -0.553182018 0.0560477808 0.1828556765
805295170.0 0.0189765226 0.189830888 -0.0787022379 -0.5516610843 -0.0782550753 -0.5523418798 0.0584877295 0.1824710236
810295140.0 0.0208238904 0.189519453 -0.084387605 -0.551063727 -0.0844061967 -0.5511391706 0.0604532692 0.1820744108
815295110.0 0.0221698209 0.1897721519 -0.0898669313 -0.5502380942 -0.0899716976 -0.550645015 0.062202438 0.1816790755
820295080.0 0.0242057786 0.1895785293 -0.0957626303 -0.548769146 -0.0959065745 -0.5494287144 0.0635926664 0.1817711043
825295050.0 0.0258640977 0.1894865637 -0.1019474668 -0.5479693933 -0.1021832507 -0.5483389187 0.066277224 0.1811270743
830295020.0 0.0274362946 0.1893006667 -0.1080619501 -0.5469374461 -0.1077821129 -0.5471558671 0.0679717927 0.1798720812
