!Created with skrf (http://scikit-rf.org).
# Hz S RI R 50.0 
!freq ReS11 ImS11 ReS21 ImS21 ReS12 ImS12 ReS22 ImS22
300000.0 -0.2407908811 -0.0905390204 0.4735072913 0.0615730114 0.4710196893 0.0570067966 -0.2405125595 -0.096853081
5299970.0 -0.2450084765 0.0064039768 0.4747628845 0.0047994266 0.4750251308 0.0050497255 -0.2413030935 0.0074337743
10299940.0 -0.241650594 0.0179104341 0.476691993 0.0059370061 0.4766883821 0.0063223402 -0.2374846658 0.0203723606
15299910.0 -0.2373432462 0.0268972912 0.4802631011 0.007496762 0.4805806518 0.0074426915 -0.2332583499 0.030234253
20299880.0 -0.2329620691 0.0339455489 0.485052382 0.0080599225 0.4850308561 0.0079744619 -0.2276138781 0.0380902766
25299850.0 -0.2276753826 0.0401474016 0.4898726253 0.0070642138 0.4900847484 0.0067694601 -0.2216469149 0.0445853415
30299820.0 -0.2224680117 0.0450498474 0.4955329653 0.0049000519 0.495440637 0.0050147252 -0.2160121711 0.0498823959
35299790.0 -0.2175689144 0.0490871566 0.5010688757 0.0014082282 0.5006917157 0.0017732057 -0.2105079955 0.0544793694
40299760.0 -0.212548984 0.0524579021 0.5059272302 -0.002346888 0.5059771239 -0.002262262 -0.2051335456 0.0575078388
45299730.0 -0.2077425588 0.0548722625 0.510300355 -0.0073312828 0.5108410442 -0.0070849671 -0.200168423 0.0606271819
50299700.0 -0.2037704754 0.0567837776 0.5146665559 -0.0125924006 0.5150304182 -0.0123634243 -0.1956802967 0.062670988
55299670.0 -0.1998202399 0.0583659957 0.5187605582 -0.0189173454 0.5185288913 -0.0183904701 -0.1915042979 0.0643512953
60299640.0 -0.1961556822 0.0597464464 0.5220309761 -0.0248020692 0.5220889327 -0.0244393928 -0.1875343109 0.0654606419
65299610.0 -0.192979525 0.0606128446 0.5246464372 -0.0313220897 0.5247812976 -0.0310867046 -0.1841430838 0.0665564656
70299580.0 -0.1901267073 0.0622059318 0.5273002896 -0.0381380351 0.5270503629 -0.0377136809 -0.1807153699 0.0675770673
75299550.0 -0.1870772936 0.0628683581 0.5288768514 -0.0445003987 0.5289908978 -0.0448239635 -0.1779360383 0.068547581
80299520.0 -0.1847665386 0.063487847 0.5310502912 -0.0514470691 0.5310445668 -0.0514671003 -0.1754195359 0.069139694
85299490.0 -0.1824083491 0.0640373694 0.5317066005 -0.0579667543 0.5324264815 -0.0581762782 -0.1733286683 0.0695202895
90299460.0 -0.1803332436 0.0647516294 0.5325072951 -0.0653573953 0.5332601944 -0.065466006 -0.1705400626 0.0706026731
95299430.0 -0.1782909229 0.0654275005 0.533769681 -0.072347962 0.5339560128 -0.0724461971 -0.1681328458 0.0711523546
100299400.0 -0.1766051452 0.0660350305 0.5338953534 -0.07881767 0.5340142086 -0.0791849068 -0.1660721618 0.0715925627
105299370.0 -0.1751158508 0.0667690298 0.5347892354 -0.0859155757 0.5348889434 -0.085930882 -0.1638548755 0.0723671071
110299340.0 -0.17327324 0.0675854863 0.5346346097 -0.092364814 0.5346996052 -0.0924447099 -0.1628881106 0.0728201784
115299310.0 -0.1721835798 0.0682376163 0.5349623561 -0.0997208953 0.5347565703 -0.0995961166 -0.1613563305 0.0738754513
120299280.0 -0.1706194785 0.068295648 0.5342383173 -0.1063914202 0.5345967482 -0.1067719517 -0.1596436003 0.0744262431
125299250.0 -0.1694660635 0.0691863683 0.5342572598 -0.1127968191 0.5343460534 -0.1128981697 -0.1586628769 0.0748800783
130299220.0 -0.1684028745 0.0702863472 0.5332704572 -0.1201336672 0.5333883574 -0.1197532496 -0.1571892668 0.0755968863
135299190.0 -0.1675415133 0.071513174 0.5329884919 -0.1266498911 0.5324630283 -0.1261518844 -0.1556085119 0.0767919295
140299160.0 -0.1665252613 0.0720134516 0.5320284899 -0.1330952454 0.5320912336 -0.1330343648 -0.154511696 0.0780823783
145299130.0 -0.1655127127 0.0727624742 0.531128894 -0.1393958829 0.5308968069 -0.1395326777 -0.1534996718 0.0787798209
150299100.0 -0.1644183114 0.0738385678 0.5297703036 -0.1461719928 0.5301980364 -0.1456957973 -0.1525995577 0.0804471832
155299070.0 -0.1638363818 0.0747365166 0.528800638 -0.1531474306 0.5286549403 -0.1530387909 -0.1510838039 0.0812302202
160299040.0 -0.1631271514 0.0757384191 0.5275256809 -0.1590290691 0.527331194 -0.1592721609 -0.1506449264 0.0821754988
165299010.0 -0.162051201 0.0768650747 0.5257785878 -0.1658275175 0.5260066893 -0.1657674247 -0.1492545799 0.0834863854
170298980.0 -0.1614979013 0.0775633792 0.5242240598 -0.1719014597 0.5246155328 -0.1717617353 -0.1483978528 0.0846473636
175298950.0 -0.1606656305 0.0788875175 0.5231101781 -0.1781261884 0.5224566289 -0.1782372739 -0.1476026562 0.0860921752
180298920.0 -0.1601133879 0.0798512575 0.5213474493 -0.1840456479 0.5207582549 -0.1846024586 -0.1463236043 0.0873843969
185298890.0 -0.1589613535 0.0810333744 0.5191978506 -0.1910022018 0.5190372451 -0.1906183717 -0.1455085147 0.0887509087
190298860.0 -0.1582042846 0.082286338 0.5173376563 -0.1968291464 0.517629834 -0.196626587 -0.1449460119 0.0898156385
195298830.0 -0.1574353664 0.0831099147 0.5149939277 -0.20295496 0.5156927988 -0.2025435831 -0.1435923936 0.0910228642
200298800.0 -0.1567650086 0.0846324518 0.5129657377 -0.2094059706 0.5130394913 -0.2093868054 -0.1429314755 0.0925900624
205298770.0 -0.1560878559 0.0859524966 0.5106850806 -0.2154506275 0.5107927395 -0.2149010504 -0.1420110148 0.0927928253
210298740.0 -0.1552649374 0.0867483608 0.5086649512 -0.2207711661 0.508727795 -0.2206961899 -0.1410023301 0.0953981656
215298710.0 -0.155132686 0.0885516268 0.5064114365 -0.2271875958 0.5064868701 -0.227094555 -0.1403833935 0.0966166314
220298680.0 -0.1541908204 0.089171691 0.5036592835 -0.2326800744 0.5037244727 -0.2329649448 -0.139692514 0.0974275819
225298650.0 -0.1532680534 0.0905451984 0.5014331547 -0.238592858 0.501723984 -0.2384612968 -0.1389905342 0.0988829878
230298620.0 -0.1523274223 0.0922570624 0.4991110329 -0.2442451489 0.4997594419 -0.2445416786 -0.1380060624 0.1002102894
235298590.0 -0.1518199587 0.0935134436 0.4963589782 -0.2503963017 0.4961105024 -0.2500134746 -0.1367979357 0.1013192342
240298560.0 -0.151050818 0.0947974414 0.4937122051 -0.2562272632 0.4933080127 -0.2559169801 -0.1359093808 0.1034817583
245298530.0 -0.1503762787 0.0961643863 0.4913611043 -0.2620267756 0.4911637703 -0.2618787765 -0.134726289 0.104031885
250298500.0 -0.1492549745 0.097494232 0.4877541516 -0.2674166642 0.4872471456 -0.2670056079 -0.1337795748 0.1054235183
255298470.0 -0.1485187871 0.0984810155 0.4845703143 -0.2727832716 0.4847354423 -0.2726843544 -0.132653759 0.1066977274
260298440.0 -0.1481901093 0.1001074015 0.4818424355 -0.2785816258 0.4821888603 -0.278000412 -0.1314140903 0.108243693
265298410.0 -0.1465996977 0.1014547389 0.4788841193 -0.2835086726 0.4791706324 -0.2834909396 -0.1305659764 0.1097545551
270298380.0 -0.1460266254 0.1029521559 0.4765234986 -0.2889652454 0.4760577073 -0.2893565867 -0.1299299686 0.1109636401
275298350.0 -0.145008649 0.1042475272 0.4730556804 -0.2950809752 0.4730427401 -0.2947197145 -0.1280307118 0.1122574756
280298320.0 -0.143752468 0.1058616867 0.4698996264 -0.3003408687 0.469663116 -0.299890286 -0.1271747158 0.1135585776
285298290.0 -0.1430026762 0.1071440746 0.4663895221 -0.3055378024 0.466332135 -0.3056610075 -0.1258266719 0.1150383677
290298260.0 -0.1418951761 0.1082848468 0.4627210548 -0.3105593903 0.4632431095 -0.3105147648 -0.1244244822 0.1166074373
295298230.0 -0.140831224 0.1095782774 0.4598324154 -0.3159872393 0.459741211 -0.3159221501 -0.1227469706 0.1176306238
300298200.0 -0.1404554323 0.1110166536 0.4566751245 -0.3207922393 0.4567190051 -0.321433585 -0.1219050548 0.1189096062
305298170.0 -0.1390706047 0.1120742686 0.4525925726 -0.3268482682 0.4530337709 -0.3263853855 -0.1195199529 0.1200495922
310298140.0 -0.1380242412 0.1136205133 0.4492001928 -0.3315673511 0.4495601088 -0.3314566509 -0.1190974947 0.1214183814
315298110.0 -0.1370791283 0.1145677947 0.4455925007 -0.3364242204 0.4458283489 -0.3366146765 -0.1175944844 0.1228139062
320298080.0 -0.1355734623 0.1158859191 0.4411898468 -0.3422100132 0.4418343391 -0.3420617343 -0.1165185861 0.1242158816
325298050.0 -0.1348893564 0.1169805333 0.4380289573 -0.347147214 0.4380995932 -0.3467919071 -0.1155206783 0.1251927341
330298020.0 -0.1340830414 0.1179534701 0.4336645485 -0.3519908642 0.4343743741 -0.3519739935 -0.1141381689 0.1266664638
335297990.0 -0.1331967705 0.1192065698 0.4298070851 -0.3566931757 0.4298498902 -0.3570496366 -0.1134100497 0.1284361312
340297960.0 -0.1324999727 0.1210105996 0.4256224265 -0.3615918592 0.4257829492 -0.3618078871 -0.1115175959 0.1295744477
345297930.0 -0.1316195104 0.1228479229 0.4217288784 -0.3662157827 0.4214381051 -0.3660917881 -0.1103876388 0.1308926515
350297900.0 -0.1305388156 0.1235523295 0.4173729792 -0.3708879483 0.4174996887 -0.3711323551 -0.1094234625 0.1324948312
355297870.0 -0.1291869455 0.1255800545 0.4133744152 -0.3757932226 0.4135829443 -0.3752444765 -0.108103525 0.1335880406
360297840.0 -0.1282263967 0.1266270962 0.4095299158 -0.3796434445 0.4099976703 -0.3795247233 -0.1068397405 0.1355098378
365297810.0 -0.1271685064 0.1285769149 0.4050580795 -0.3849550288 0.405400085 -0.3846371518 -0.1053864557 0.1367472969
370297780.0 -0.1257730251 0.1291879525 0.4005956612 -0.3885896179 0.4010766128 -0.3884911398 -0.103670039 0.1380298057
375297750.0 -0.1244746803 0.130767668 0.3963507027 -0.3932205983 0.3969673505 -0.3934671105 -0.1023474419 0.1394249592
380297720.0 -0.1235613415 0.1320794084 0.3923299569 -0.3975656175 0.3924301289 -0.3971930526 -0.1013318015 0.1403410886
385297690.0 -0.1225504127 0.1331761356 0.3876537371 -0.4016358254 0.3875998346 -0.4018830466 -0.0995932319 0.1420631774
390297660.0 -0.1211751416 0.1351264718 0.3835285682 -0.4062902237 0.3832225676 -0.4060938158 -0.0981492194 0.1431978272
395297630.0 -0.1199094506 0.1364191573 0.3792807724 -0.4103395601 0.3789357508 -0.4102899237 -0.096147668 0.1443236076
400297600.0 -0.118939422 0.1376108859 0.3742427076 -0.4150729009 0.3743019296 -0.4144999187 -0.0950690973 0.1457990623
405297570.0 -0.1178666423 0.1386716441 0.3699698504 -0.4182166777 0.3696787495 -0.4182951905 -0.0934858685 0.1471745827
410297540.0 -0.1161390121 0.1399374169 0.3653588121 -0.4226055638 0.3657309671 -0.4223768756 -0.0919733703 0.1482349491
415297510.0 -0.114404989 0.141116122 0.3603803713 -0.4267179688 0.3610927774 -0.4266912535 -0.0905784071 0.1491589414
420297480.0 -0.1137277075 0.1426896334 0.3556878313 -0.4307074786 0.3557173089 -0.4303557557 -0.0888624018 0.1499344017
425297450.0 -0.1121975417 0.1434236292 0.3515144049 -0.4340048875 0.3514857168 -0.434633025 -0.087569664 0.1517052255
430297420.0 -0.1108706448 0.1448627295 0.3462182683 -0.4379920367 0.3464989448 -0.4376575675 -0.086108364 0.1522653019
435297390.0 -0.1093704464 0.1461784133 0.3412243755 -0.4418993011 0.3411577856 -0.4421887427 -0.0836000396 0.1536692405
440297360.0 -0.1079797239 0.1474679141 0.3367972182 -0.4452684347 0.3366977588 -0.445648445 -0.0824190546 0.1544333144
445297330.0 -0.1067465307 0.148263074 0.3320016331 -0.4494619802 0.331868415 -0.4490426534 -0.0807758022 0.1550395528
450297300.0 -0.105025771 0.1495699463 0.3268604701 -0.4526742212 0.3268475177 -0.4531194647 -0.0789798231 0.1560782521
455297270.0 -0.1035201921 0.1505037414 0.3218473872 -0.4558893661 0.3222297176 -0.4564419647 -0.0771436551 0.1570631677
460297240.0 -0.1025345038 0.1516707149 0.3170121788 -0.4594124335 0.316938355 -0.4596914772 -0.0754724892 0.1583852525
465297210.0 -0.1006605805 0.1530805481 0.3121291882 -0.4635573617 0.3120546763 -0.4634300939 -0.0736815975 0.1591782543
470297180.0 -0.0995089597 0.1539418103 0.3065816265 -0.4667402511 0.3068535585 -0.466874065 -0.0718789018 0.1602399268
475297150.0 -0.0977159785 0.1546379368 0.3012732783 -0.469164364 0.301946879 -0.4696063504 -0.0697958506 0.1608343922
480297120.0 -0.0964545683 0.1564051245 0.2964820405 -0.4732411553 0.2966859071 -0.4732756188 -0.0679083688 0.1620487706
485297090.0 -0.095099318 0.157088525 0.2913879608 -0.4757784611 0.2914868901 -0.4759224103 -0.0661341828 0.1626233614
490297060.0 -0.0935814975 0.1582979236 0.2864244736 -0.4797102849 0.2861778173 -0.4793225928 -0.0644122587 0.1639456568
495297030.0 -0.0918982269 0.1593082712 0.2804032557 -0.4825821212 0.2811418306 -0.4820897128 -0.0630156583 0.1647530214
500297000.0 -0.0903811752 0.1601349456 0.2757856138 -0.4853625654 0.2754704489 -0.4849476497 -0.0607752427 0.166090876
505296970.0 -0.0885008219 0.1613275975 0.2700635714 -0.4883248367 0.2700246868 -0.488215406 -0.0588595549 0.1667775713
510296940.0 -0.0875249444 0.1623639454 0.2650283778 -0.4913419871 0.2648199037 -0.4917174748 -0.0568333507 0.1676224314
515296910.0 -0.085831903 0.1635118484 0.2596499379 -0.4945371387 0.2597047873 -0.4939059687 -0.055216888 0.1683990872
520296880.0 -0.0842578287 0.1642436845 0.2544012715 -0.4971141833 0.2541846932 -0.496519694 -0.0532408911 0.1690578032
525296850.0 -0.0824103948 0.164724231 0.2487209708 -0.4999346886 0.2489889133 -0.4994771569 -0.0516394606 0.1699654046
530296820.0 -0.0808235956 0.1662273251 0.24320242 -0.5022080375 0.2434241409 -0.5022411993 -0.0496824458 0.1706726629
535296790.0 -0.0797458672 0.1671992858 0.2382398528 -0.504511748 0.2379865951 -0.5043754521 -0.0482901964 0.1709989515
540296760.0 -0.0778770454 0.1682541744 0.2323131989 -0.5079796281 0.2323958446 -0.5073779528 -0.0461863424 0.1725549175
545296730.0 -0.0763378501 0.1689272029 0.226883116 -0.5094326801 0.2264740341 -0.5097369403 -0.0441686645 0.1725277784
550296700.0 -0.0743703159 0.1699309401 0.2213215623 -0.5123846417 0.2211101056 -0.5125596652 -0.0425343837 0.1735943343
555296670.0 -0.0730524093 0.170574828 0.2158914889 -0.5146775144 0.2160148753 -0.5140628117 -0.0406332626 0.174209353
560296640.0 -0.07096945 0.1717019992 0.2100118162 -0.5170565571 0.2099985228 -0.5169236504 -0.0383989462 0.1748215571
565296610.0 -0.0696818568 0.1724478431 0.2044888857 -0.5191098479 0.2045562644 -0.5189888241 -0.0366198475 0.1750547047
570296580.0 -0.0681181228 0.1731116956 0.1986507706 -0.5218385514 0.1986049326 -0.521254857 -0.0349478172 0.1762805229
575296550.0 -0.0665836265 0.1743590597 0.1932930996 -0.5239289545 0.1928027537 -0.5236015327 -0.0327353239 0.1765598379
580296520.0 -0.064666406 0.1748965534 0.187268483 -0.5256948804 0.1873536292 -0.5256022042 -0.0308823521 0.17712042
585296490.0 -0.0631019595 0.1751838868 0.1820343531 -0.5274314927 0.1819529838 -0.5275295434 -0.02902842 0.1778306996
590296460.0 -0.0612771422 0.1763763972 0.176361564 -0.528923423 0.1762874565 -0.5291967234 -0.0276125613 0.1780851956
595296430.0 -0.0593139589 0.1771362809 0.1699151777 -0.531497271 0.170240382 -0.53121028 -0.0253594875 0.1779757783
600296400.0 -0.0580743594 0.1775155154 0.1644952155 -0.5330438469 0.1643959894 -0.5324374847 -0.023585629 0.1782111077
605296370.0 -0.0561237344 0.1783140108 0.1587987905 -0.5346571422 0.1588501074 -0.5345512901 -0.0211833619 0.1788012202
610296340.0 -0.0543028452 0.1789136427 0.1524209758 -0.5360162524 0.1528304346 -0.5360822558 -0.0190562609 0.1792594322
615296310.0 -0.0524446155 0.1793905646 0.1467031867 -0.5375697584 0.1468850325 -0.5379600855 -0.0170877073 0.179574828
620296280.0 -0.0506663979 0.1800256703 0.141077364 -0.5391368738 0.1410545567 -0.5390040399 -0.0154364742 0.180033161
625296250.0 -0.049167651 0.1803743187 0.1359641629 -0.5407608529 0.1354427702 -0.5409820682 -0.0128051419 0.1801571969
630296220.0 -0.0469333961 0.1811509711 0.1286482108 -0.5420691075 0.1291211643 -0.5422232931 -0.0110419766 0.1805947454
635296190.0 -0.0458209756 0.1819653172 0.1236586676 -0.5433974592 0.1234767756 -0.5437039257 -0.0089639916 0.1807476882
640296160.0 -0.0439809782 0.1825058398 0.1178216658 -0.5443999371 0.1178318688 -0.5448207323 -0.007045107 0.1809978652
645296130.0 -0.0423330032 0.1832628992 0.1112006359 -0.5459963056 0.1119194947 -0.5459549598 -0.0049461677 0.1813000011
650296100.0 -0.0400561587 0.1837336197 0.1058460112 -0.5470079858 0.1058638707 -0.5471722031 -0.0026231735 0.1806210714
655296070.0 -0.0387005212 0.184082811 0.099590965 -0.5484780165 0.1002910889 -0.5483122816 -0.0005941608 0.1813127518
660296040.0 -0.0373803089 0.1845112665 0.0940428578 -0.5492439435 0.0943262037 -0.5493956556 0.001722138 0.1815979196
665296010.0 -0.0347335763 0.1847217841 0.0880986813 -0.5500049624 0.0882562317 -0.5501679942 0.0038197504 0.1823096412
670295980.0 -0.0338972078 0.1855475365 0.0825367859 -0.5509662399 0.0822835754 -0.5508210716 0.0051335638 0.1819208399
675295950.0 -0.0318253447 0.1861490597 0.0766122847 -0.5517290579 0.076557272 -0.5518234994 0.0072695845 0.1822266228
680295920.0 -0.0299981418 0.186404728 0.0700703952 -0.5525656263 0.0700305793 -0.5529092602 0.0095817907 0.1827296945
685295890.0 -0.0280372459 0.1873238303 0.0640655945 -0.5536200091 0.0640916969 -0.5531504101 0.0114126841 0.1826353882
690295860.0 -0.0259617895 0.1874961859 0.0583250157 -0.5534584842 0.058382352 -0.5543648759 0.0136476438 0.1832909362
695295830.0 -0.0244503985 0.1878395157 0.0528351034 -0.5545816299 0.0520355196 -0.5542023982 0.0156058395 0.1829064344
700295800.0 -0.022485683 0.1878226367 0.0461132404 -0.554451089 0.0462497059 -0.5550296484 0.017625772 0.1833451647
705295770.0 -0.0208888432 0.1889935706 0.0401310234 -0.5556091613 0.0407217827 -0.5552173982 0.0192175866 0.1832109896
710295740.0 -0.018511607 0.1890466864 0.0343909033 -0.556531085 0.0346066841 -0.5560367513 0.0212592899 0.1828425306
715295710.0 -0.0174309786 0.1892847699 0.0287896078 -0.5564005868 0.0281095212 -0.5564922601 0.0238965935 0.1830046705
720295680.0 -0.015306136 0.1895786325 0.0223342763 -0.556421707 0.0223974424 -0.5564242474 0.0255688441 0.1832305776
725295650.0 -0.0132648592 0.1899774188 0.0167588716 -0.5565885833 0.0167015013 -0.5569120872 0.0272706025 0.1831786135
730295620.0 -0.0112664931 0.1904965416 0.0104764847 -0.5564734095 0.0107734982 -0.5568707423 0.0290167156 0.1827511331
735295590.0 -0.0097084124 0.1902651191 0.0046624703 -0.5571262954 0.004461454 -0.5569947335 0.0311137799 0.1821541394
740295560.0 -0.0080167614 0.1910210697 -0.0017784218 -0.5567143702 -0.0014692252 -0.5567757007 0.0338217794 0.1823395379
745295530.0 -0.005709632 0.191366362 -0.0078888469 -0.5564571306 -0.0075564253 -0.5565850076 0.0354570841 0.1817912926
750295500.0 -0.0041121956 0.1912181683 -0.0133464216 -0.5563811943 -0.0133108214 -0.5564008357 0.0373725696 0.1815914681
755295470.0 -0.0021031492 0.1910801003 -0.0193803976 -0.5562281525 -0.0196782433 -0.5567422415 0.039483274 0.1811110653
760295440.0 -0.0003099134 0.1915068355 -0.0258153192 -0.5564103204 -0.0254706252 -0.5564062047 0.0412225927 0.1805879952
765295410.0 0.0013040429 0.1915710318 -0.0316330604 -0.5555580372 -0.0321301264 -0.5559314628 0.0435446989 0.1805676888
770295380.0 0.0029602485 0.191741187 -0.0373736362 -0.5555187775 -0.0373130765 -0.5551646287 0.0452953665 0.1800040651
775295350.0 0.0049391811 0.1914874531 -0.0438335535 -0.5546995335 -0.0429682334 -0.554615896 0.0465899624 0.1800255035
780295320.0 0.0069681804 0.1920044571 -0.0495960012 -0.5539822519 -0.0489637245 -0.5539015258 0.0487734561 0.1791338206
785295290.0 0.0084428093 0.191591129 -0.0556689927 -0.5532238719 -0.0555054619 -0.553719984 0.0515481487 0.1790679182
790295260.0 0.0112794192 0.1920672112 -0.0611780416 -0.5527635413 -0.0604236312 -0.5530569672 0.053388617 0.1782127114
795295230.0 0.0124394287 0.1917561767 -0.0670923368 -0.5523658011 -0.0670402602 -0.5525979622 0.0554602648 0.1783404399
800295200.0 0.0143448723 0.1921510856 -0.0738309968 -0.5511004871 -0.0732549456 -0.5511579453 0.0574308571 0.1774386978
805295170.0 0.0163655517 0.191877887 -0.0790339587 -0.5502370387 -0.0790960834 -0.5507265152 0.0593736731 0.1770871716
810295140.0 0.0179334733 0.1917069671 -0.0849020483 -0.5494935026 -0.0849404532 -0.549715782 0.0617685745 0.1767424354
815295110.0 0.0199780099 0.1914468217 -0.0907863346 -0.5482328885 -0.0908497889 -0.5488970355 0.0636239602 0.1760808976
820295080.0 0.0215596684 0.1917506258 -0.0968225758 -0.5472107552 -0.0963252974 -0.5476254626 0.0656669018 0.1754910591
825295050.0 0.0239153486 0.1916239375 -0.1024410039 -0.5463915174 -0.1022429356 -0.5469096086 0.0679275282 0.1751356704
830295020.0 0.0254480272 0.1916440432 -0.1085476022 -0.5451033398 -0.1086717391 -0.5449982062 0.0701896291 0.1743403993
