!Created with skrf (http://scikit-rf.org).
# Hz S RI R 50.0 
!freq ReS11 ImS11 ReS21 ImS21 ReS12 ImS12 ReS22 ImS22
300000.0 -0.0994354707 -0.0716402379 0.6292077204 0.067629978 0.6236597006 0.0668169504 -0.1002744523 -0.0793299189
5299970.0 -0.1019604126 0.0128294398 0.630497147 0.0101544656 0.6303849401 0.0103912629 -0.1007899596 0.0129616916
10299940.0 -0.0969888287 0.0292451556 0.6340694893 0.0154893301 0.6337148789 0.0157681876 -0.0955379021 0.0303747977
15299910.0 -0.0897188052 0.0424966265 0.6404384714 0.0205361572 0.6406684492 0.0206569912 -0.0881677479 0.0434877389
20299880.0 -0.0817314927 0.0530372757 0.6484089362 0.0244870741 0.648147683 0.0239766759 -0.0793139942 0.0544768578
25299850.0 -0.0723459815 0.0620991305 0.657438321 0.0255066451 0.6576073425 0.0251552173 -0.0696314307 0.0634802615
30299820.0 -0.062046731 0.0687464402 0.6675210575 0.0243472481 0.6673306083 0.0244496159 -0.0595795606 0.0701088126
35299790.0 -0.0524316291 0.0735657194 0.6770067024 0.0210005178 0.6771030007 0.0216063628 -0.0496187289 0.0752120862
40299760.0 -0.0431522225 0.0773046003 0.6860116448 0.0172725469 0.6861764249 0.0171864575 -0.0402730012 0.0777381054
45299730.0 -0.0336858132 0.0793894399 0.6949442262 0.0112654899 0.6954656335 0.0116572893 -0.0311925781 0.0798260554
50299700.0 -0.0254830251 0.0800689403 0.7038441877 0.0045636918 0.7034193154 0.0053399052 -0.0226124289 0.080585673
55299670.0 -0.0177492734 0.0804440304 0.7108905451 -0.0029379974 0.7104916343 -0.0027668849 -0.0152818192 0.0805641914
60299640.0 -0.0100661223 0.0801588762 0.7171080851 -0.0114551063 0.7173345309 -0.0110215765 -0.0078222554 0.0796635797
65299610.0 -0.0037959357 0.0788891632 0.7228358961 -0.0203080463 0.7235209537 -0.0201559947 -0.0012031304 0.0788496353
70299580.0 0.002632104 0.0776568245 0.728862733 -0.0296177497 0.7286856802 -0.0292186936 0.0046505674 0.0768703276
75299550.0 0.0079795709 0.0757946196 0.7324034182 -0.0391561501 0.7324126749 -0.0391841466 0.0100983332 0.0749647736
80299520.0 0.0129140969 0.0735798575 0.7368397554 -0.0491786888 0.7370980975 -0.0488138518 0.0148349739 0.07251445
85299490.0 0.0177898074 0.071449175 0.7404055282 -0.0587406369 0.7403273531 -0.058334945 0.0191667704 0.0698804268
90299460.0 0.0216116154 0.0692698406 0.7428140644 -0.0688747657 0.7433470907 -0.0688997004 0.0233482163 0.0679416496
95299430.0 0.0257302505 0.0666401997 0.7457829208 -0.0790126049 0.7459353587 -0.0791373755 0.0273275083 0.0653680426
100299400.0 0.0290020754 0.0647213161 0.7465692012 -0.0893721992 0.7468811062 -0.0892959991 0.0309580582 0.0624285143
105299370.0 0.0322665092 0.0619947427 0.7485499075 -0.0998916561 0.7489362876 -0.0993875394 0.0340108467 0.0604813373
110299340.0 0.0349929934 0.0595808124 0.7504017889 -0.1095671151 0.7493691307 -0.109057257 0.0358909179 0.0577060911
115299310.0 0.0371625575 0.0574648736 0.7506096373 -0.1190700854 0.7502673948 -0.1193548232 0.0387496295 0.0554727837
120299280.0 0.0399343918 0.0545266891 0.7507686327 -0.1293828041 0.7513381359 -0.1296122472 0.0413360447 0.0527882593
125299250.0 0.0418657689 0.0522670559 0.7513015736 -0.1393956677 0.7511026764 -0.1391678901 0.0425480492 0.0500180146
130299220.0 0.0435682377 0.050168684 0.7511142649 -0.1497409665 0.750667857 -0.1493360943 0.0447293575 0.0479732521
135299190.0 0.0455037085 0.048282475 0.751342048 -0.1590449881 0.7509848709 -0.158933635 0.0468463201 0.0457402382
140299160.0 0.0469043314 0.0463203469 0.7500591302 -0.169142433 0.7502196059 -0.1691111513 0.0478547516 0.0442199191
145299130.0 0.0484321831 0.0438133194 0.7501928924 -0.1786273056 0.7494879168 -0.1783120279 0.0495296703 0.0420809968
150299100.0 0.0500871819 0.0421580313 0.7488342788 -0.1878194626 0.7486927404 -0.187872394 0.0510445482 0.040124479
155299070.0 0.0502944042 0.0396649906 0.7478463783 -0.1981525556 0.7473297012 -0.1980814464 0.0518326563 0.0381728579
160299040.0 0.0520397334 0.0379076408 0.7461078562 -0.2074676141 0.7455582175 -0.2076998587 0.0524464733 0.0360737983
165299010.0 0.0525229959 0.0362775093 0.7445193399 -0.2178313373 0.7445764972 -0.2174067721 0.0539850237 0.0348059459
170298980.0 0.0534281795 0.033841616 0.7426714411 -0.2267451633 0.7425483474 -0.2262220559 0.0545488171 0.0330274581
175298950.0 0.0539013851 0.0321776943 0.7413833585 -0.2356764735 0.7402371963 -0.2356421345 0.0550896161 0.0312512861
180298920.0 0.054541699 0.0303649696 0.7386430148 -0.2449930532 0.7385095486 -0.244101577 0.0555398561 0.0297460012
185298890.0 0.0556273111 0.0286701935 0.7361200591 -0.2544967751 0.7361441856 -0.2537833354 0.0557767498 0.0284773459
190298860.0 0.055562097 0.0269940547 0.7343176705 -0.2636138909 0.7343821535 -0.2626033766 0.0564430627 0.0262957714
195298830.0 0.0562190537 0.025151091 0.7318026457 -0.2720166942 0.7319713465 -0.2716970884 0.0573338167 0.0251915334
200298800.0 0.0564456061 0.0239514121 0.7287897167 -0.2814245239 0.7288227853 -0.2812703785 0.0568805553 0.0238114367
205298770.0 0.0569310952 0.0227229123 0.725475667 -0.2903269455 0.7258731359 -0.2898331166 0.0571572405 0.021517342
210298740.0 0.0573007881 0.0206232313 0.722978719 -0.2984135921 0.7227894432 -0.2977554651 0.0577140792 0.0214541647
215298710.0 0.0568920105 0.0194868763 0.719964186 -0.3075362636 0.7199285611 -0.3075756046 0.0577108757 0.0199681761
220298680.0 0.0575237714 0.0174011042 0.7163614646 -0.3159419541 0.7166021889 -0.3162093996 0.0576749531 0.0183361381
225298650.0 0.0578917438 0.0165048058 0.7133475353 -0.3246599358 0.7135045806 -0.3248505569 0.0573455296 0.0165764162
230298620.0 0.0577514345 0.0157664621 0.7101756639 -0.3329212937 0.7105976528 -0.3334462367 0.057394199 0.0149428538
235298590.0 0.0578806643 0.014606291 0.7068786393 -0.3420507403 0.7065483844 -0.3410296011 0.0574654689 0.0140401217
240298560.0 0.0577221513 0.0132425267 0.7030931749 -0.3499888864 0.7027838431 -0.3502361033 0.0576064246 0.0132795514
245298530.0 0.057968582 0.0120060296 0.699572576 -0.3584576843 0.6996127191 -0.358348984 0.0581140409 0.010970563
250298500.0 0.0583701329 0.0110901589 0.6949303419 -0.3669492994 0.6950929784 -0.365867502 0.0575346603 0.0103026871
255298470.0 0.0580798988 0.0093299375 0.6907703053 -0.3740147222 0.6911711887 -0.3745446591 0.0580850292 0.0091548695
260298440.0 0.0580467559 0.0081371882 0.6875967153 -0.383679162 0.6876394593 -0.382289944 0.0584364232 0.0079190075
265298410.0 0.058782855 0.007447912 0.6833880466 -0.3913605737 0.6837479248 -0.3907238149 0.0580730906 0.006693149
270298380.0 0.0585106746 0.0062105173 0.6795605719 -0.3984699732 0.6792482845 -0.3983937535 0.0577813222 0.0056008801
275298350.0 0.0591618871 0.0052636369 0.6749493999 -0.4069790368 0.675082572 -0.4067724384 0.0581925447 0.0043793491
280298320.0 0.0586935686 0.0044883104 0.6708842557 -0.4142203242 0.6702723578 -0.4141554519 0.0587018782 0.0033851624
285298290.0 0.058520217 0.0032040463 0.6663832922 -0.4223605368 0.6661123969 -0.4226075492 0.0582328221 0.0022435219
290298260.0 0.059325072 0.0020237599 0.6616961701 -0.4297196316 0.6612351762 -0.430031458 0.0584480719 0.001672738
295298230.0 0.0589420718 0.0007887556 0.6573898263 -0.4379706952 0.6573381879 -0.4375859543 0.0594239394 0.0003069546
300298200.0 0.058394757 -0.000398516 0.6526630113 -0.4452995448 0.6525861982 -0.4458736828 0.0587263718 -0.0011035082
305298170.0 0.0586436707 -0.0013074315 0.6472024466 -0.4537798265 0.6475401929 -0.453217137 0.0593515605 -0.0022251641
310298140.0 0.058462098 -0.0026781645 0.6427865879 -0.4611347498 0.643121798 -0.4608087406 0.0595775696 -0.0032804242
315298110.0 0.0585603722 -0.0043721978 0.6377193904 -0.4685958494 0.6377196828 -0.4687301925 0.0588751027 -0.0046935273
320298080.0 0.058772678 -0.0051471896 0.6317543155 -0.4762063252 0.6322315441 -0.4760124165 0.0587627211 -0.0056378014
325298050.0 0.0578929018 -0.0061580441 0.6271332152 -0.4838948083 0.626992621 -0.483585047 0.0580866097 -0.0067357122
330298020.0 0.0573862869 -0.0076239036 0.6211000919 -0.4905880111 0.6208736545 -0.4908367782 0.0575223116 -0.0079910133
335297990.0 0.0572036777 -0.0088117919 0.6149991828 -0.4978007428 0.6151456228 -0.4982937897 0.0567923984 -0.0081856367
340297960.0 0.0564193978 -0.0094210067 0.6098402361 -0.5049804594 0.6087830019 -0.5051343369 0.0570718332 -0.0088622089
345297930.0 0.0558422448 -0.00955662 0.6034532158 -0.5126735028 0.6033516489 -0.512232246 0.0565524575 -0.0100294285
350297900.0 0.0551381796 -0.0110409171 0.5971238609 -0.5188985784 0.5974052416 -0.518433745 0.0556055222 -0.0097267648
355297870.0 0.054892294 -0.0107402217 0.5917750317 -0.5253415487 0.5923068876 -0.5249688732 0.0555255488 -0.0108128787
360297840.0 0.0545486076 -0.011734277 0.5871028566 -0.5321536851 0.5872315853 -0.5315762164 0.0551677474 -0.0110870842
365297810.0 0.0537821103 -0.012275983 0.5802795724 -0.5390279549 0.5811501476 -0.5386381458 0.0547201178 -0.0119208033
370297780.0 0.0542761233 -0.0133663666 0.5744536883 -0.5443460682 0.5748892709 -0.5442333012 0.0544711125 -0.0123942441
375297750.0 0.0536938884 -0.0139887257 0.5684892548 -0.5510966815 0.5690333314 -0.5508761812 0.0544056591 -0.0129052231
380297720.0 0.0533686858 -0.0144294328 0.5624694194 -0.5576563691 0.5626656792 -0.5568989035 0.0535313838 -0.0139561536
385297690.0 0.0530628037 -0.015100431 0.556573787 -0.5636669144 0.5562530422 -0.5635414874 0.0533881308 -0.0142289101
390297660.0 0.052591802 -0.0153819493 0.5499896974 -0.5701065726 0.5499155259 -0.5695995217 0.0525207408 -0.0150446899
395297630.0 0.0522484633 -0.0160471481 0.5438086511 -0.5764290321 0.5435731427 -0.5761763788 0.0530721018 -0.0154785575
400297600.0 0.0518657869 -0.0165828278 0.5368100654 -0.5826979337 0.5370134553 -0.58246243 0.0521117799 -0.0160641924
405297570.0 0.0511643066 -0.0176356844 0.5305727077 -0.5877460995 0.5308069292 -0.5878663471 0.0512212471 -0.0165419853
410297540.0 0.0513066612 -0.0181840557 0.5244470229 -0.5946147176 0.5250905669 -0.5941672376 0.0509883656 -0.0170817018
415297510.0 0.0512373847 -0.0185382293 0.5175846643 -0.6000836638 0.5177089346 -0.599940752 0.0508601492 -0.0175487182
420297480.0 0.0506982242 -0.0190708167 0.5108807707 -0.6059185005 0.5111637 -0.6058243152 0.0500024421 -0.0188214821
425297450.0 0.0499633063 -0.0202771276 0.5044412128 -0.611192707 0.5046199161 -0.6116345671 0.0492750663 -0.0188144646
430297420.0 0.0496593836 -0.0208669953 0.4975284512 -0.6166832473 0.497536725 -0.6167989911 0.0491828409 -0.0199148363
435297390.0 0.0495816484 -0.0214004738 0.4908087876 -0.6225909837 0.4900227121 -0.6222031023 0.0499715607 -0.0206284137
440297360.0 0.0493904894 -0.0215414726 0.4837220195 -0.6276340309 0.4841219448 -0.6279541059 0.0487382136 -0.0217126646
445297330.0 0.0486453308 -0.0229713452 0.4773368995 -0.6332621527 0.4774156543 -0.6326862119 0.0486260518 -0.0224618393
450297300.0 0.0487902161 -0.0234322774 0.4705479174 -0.6388398176 0.4703161599 -0.6387054313 0.0479700945 -0.0230444566
455297270.0 0.0481938251 -0.0238906651 0.4628170144 -0.6436883186 0.4635858908 -0.6442473534 0.0481021045 -0.0235366325
460297240.0 0.0476903533 -0.0245027629 0.4556835009 -0.6488583383 0.4558386689 -0.6489985206 0.0474665235 -0.0239110827
465297210.0 0.0476659977 -0.0248939093 0.4492644905 -0.6541497278 0.4487167534 -0.6541423114 0.0477210655 -0.0250840436
470297180.0 0.0470671544 -0.0260570383 0.4413878405 -0.6590482899 0.4415234276 -0.658953958 0.0469898376 -0.0253121509
475297150.0 0.0465820337 -0.0266424163 0.4337435895 -0.6629192452 0.434283874 -0.6634638903 0.0473120818 -0.0263152735
480297120.0 0.0459333505 -0.0265730996 0.4269272234 -0.6685362032 0.4264668904 -0.6682374506 0.0470249465 -0.0261918132
485297090.0 0.0455144215 -0.0271929632 0.4193563423 -0.6729779766 0.4196154214 -0.6728866252 0.0461281942 -0.0271931466
490297060.0 0.0445632177 -0.0279415419 0.4128961464 -0.6782139481 0.4123370544 -0.6771896431 0.0459211354 -0.0269487635
495297030.0 0.0445082326 -0.0284310092 0.4050385746 -0.681910535 0.4049424184 -0.6821056477 0.0450251322 -0.0278925525
500297000.0 0.0441537813 -0.0291078312 0.3968610227 -0.6862743851 0.3966773493 -0.6860253819 0.0450213909 -0.0276640095
505296970.0 0.0439070467 -0.0295696588 0.3896961779 -0.6909350896 0.3890664191 -0.6906935996 0.0444290808 -0.0282533465
510296940.0 0.0430992375 -0.029695457 0.3820788276 -0.6955995531 0.3818123287 -0.6954679407 0.0445270718 -0.028771661
515296910.0 0.0424109567 -0.029746563 0.3740592719 -0.699703552 0.374204526 -0.6988788959 0.043800308 -0.0291393422
520296880.0 0.0419912437 -0.0307272397 0.3664396324 -0.703883361 0.3666142622 -0.7030398516 0.0432505479 -0.0295881846
525296850.0 0.0419374926 -0.0317258057 0.3589644858 -0.7074893236 0.3591633997 -0.707300166 0.0427352729 -0.0296727969
530296820.0 0.041308487 -0.0315757728 0.3510203938 -0.7117697806 0.3510609027 -0.7110863244 0.0423681021 -0.0300854595
535296790.0 0.0403708758 -0.0318558206 0.3434794149 -0.715355561 0.3438912668 -0.714685716 0.041840982 -0.0309205211
540296760.0 0.039868607 -0.0318062833 0.3358666604 -0.7189324093 0.3355656372 -0.7189145396 0.0407682269 -0.0300695543
545296730.0 0.0395310302 -0.0326577752 0.3269178258 -0.7224467818 0.3275857376 -0.7222629114 0.0402929918 -0.0313695386
550296700.0 0.0396263207 -0.0326234139 0.3198008227 -0.7256228811 0.3196123923 -0.7261374384 0.0395369677 -0.0315943247
555296670.0 0.0383545814 -0.0332546577 0.3117820981 -0.7297251045 0.3121026842 -0.7293613624 0.039416519 -0.0316909149
560296640.0 0.0385747902 -0.0330115524 0.3035300317 -0.7331162905 0.3037833901 -0.732847245 0.038841618 -0.0320725503
565296610.0 0.0374995773 -0.0341408115 0.2954530259 -0.7363097955 0.2959676473 -0.7362884543 0.0378140945 -0.0329329629
570296580.0 0.0369676043 -0.0340344152 0.2878672621 -0.7400410074 0.2866697549 -0.7396784131 0.0373912558 -0.0323286394
575296550.0 0.0362387406 -0.0340763112 0.2798766779 -0.7429984413 0.2792186695 -0.7424584921 0.0373597976 -0.033443826
580296520.0 0.0362977452 -0.0346134609 0.2708520251 -0.7462829388 0.2714964692 -0.7454790852 0.0367275372 -0.0341339464
585296490.0 0.0353517914 -0.0357480666 0.2636705423 -0.748396726 0.2633254258 -0.748420642 0.0357252348 -0.0339363196
590296460.0 0.0354430159 -0.0356584162 0.2552065179 -0.7504024174 0.2547629657 -0.7509678865 0.0345609744 -0.0341451029
595296430.0 0.034962712 -0.0355987741 0.246255513 -0.7542886454 0.2468910321 -0.7539081774 0.0350937838 -0.0351853372
600296400.0 0.0337900758 -0.0364270524 0.2386087445 -0.7569874919 0.2385174653 -0.7563596533 0.0341005961 -0.0353693287
605296370.0 0.0334006491 -0.0366869017 0.2299856397 -0.7594158069 0.2300517119 -0.7589113881 0.0333377583 -0.0357172155
610296340.0 0.0330719885 -0.0367614989 0.2212000996 -0.7616430365 0.2222004515 -0.7617669705 0.0334337647 -0.0366955211
615296310.0 0.0328339323 -0.0378164696 0.213763978 -0.7639237392 0.2130517227 -0.7645084032 0.0328733929 -0.0362460779
620296280.0 0.0321111469 -0.0380749516 0.2054491554 -0.7662171131 0.2052951755 -0.7661043322 0.0319952473 -0.0371378945
625296250.0 0.0311532726 -0.0388839053 0.1979711749 -0.7690077116 0.1968134967 -0.7690264072 0.0320631775 -0.037203813
630296220.0 0.0316879225 -0.0383989074 0.1879127729 -0.7705341715 0.187890869 -0.7702785924 0.0312997208 -0.0371146629
635296190.0 0.0297676081 -0.0393268911 0.1797866983 -0.7727882987 0.1799114746 -0.7724316123 0.0311413262 -0.0377901984
640296160.0 0.0291824853 -0.0389877364 0.1715883277 -0.7740702885 0.1718286986 -0.7746022746 0.0300503566 -0.0380223034
645296130.0 0.0287144724 -0.0394119992 0.1628245715 -0.7765436708 0.1633357279 -0.7762999503 0.0299485243 -0.0380993247
650296100.0 0.0283771248 -0.0397564816 0.1542843175 -0.7786599742 0.1548185473 -0.777716083 0.0299398744 -0.0393513552
655296070.0 0.0274241289 -0.0402941075 0.1456412787 -0.7799247659 0.1466108729 -0.7794273911 0.0291428975 -0.0390697156
660296040.0 0.0263534501 -0.0407458284 0.1378882103 -0.7818147679 0.1377823456 -0.7815429123 0.0291646592 -0.0389913533
665296010.0 0.0267756015 -0.0405149161 0.1283592438 -0.7828523886 0.1292491311 -0.7826757704 0.0282883694 -0.0387287635
670295980.0 0.024689438 -0.0405053924 0.1205626811 -0.7841245689 0.1204503171 -0.7839168178 0.0273422013 -0.039348623
675295950.0 0.0248099854 -0.0405514764 0.1126141979 -0.7849091272 0.1124093054 -0.7846755879 0.0263944206 -0.0394090888
680295920.0 0.0237082001 -0.0412417874 0.1034822835 -0.7868071915 0.1026697053 -0.7868318278 0.0263004197 -0.0386396878
685295890.0 0.0237367744 -0.040463119 0.094884002 -0.7874669084 0.0942102154 -0.7873265279 0.0256816616 -0.0388590914
690295860.0 0.0234251895 -0.0407738458 0.0864565428 -0.7876214886 0.0858292448 -0.7885023481 0.0246359481 -0.0386613374
695295830.0 0.0227550964 -0.0413030766 0.0777471768 -0.7890070424 0.0767541357 -0.7891079354 0.024555929 -0.0391420838
700295800.0 0.0221922982 -0.0417412632 0.0690445495 -0.790006066 0.068464211 -0.7895774065 0.0235543891 -0.0385463999
705295770.0 0.0213075036 -0.0408533559 0.0603771335 -0.7905257238 0.060275259 -0.7909815358 0.0227738403 -0.0388664642
710295740.0 0.0210379357 -0.0413113462 0.0523262091 -0.7923554246 0.0522296352 -0.7917032655 0.0226271344 -0.039695491
715295710.0 0.0195713823 -0.0416941899 0.0436253478 -0.7923716449 0.0425308519 -0.7919797921 0.022097331 -0.0394075929
720295680.0 0.0194342722 -0.0418326514 0.0348573192 -0.7922528938 0.0345590904 -0.791976633 0.0213985648 -0.038844628
725295650.0 0.0193608951 -0.0414970819 0.0257417764 -0.7925046446 0.025978863 -0.7929600903 0.0203031636 -0.0390880063
730295620.0 0.0187239508 -0.0412105038 0.0173251603 -0.7925610985 0.0171290238 -0.7930938281 0.0196219338 -0.0396884423
735295590.0 0.0179222356 -0.041642542 0.0082443232 -0.7931065587 0.0088917677 -0.7930470714 0.0188476146 -0.039799982
740295560.0 0.0170895308 -0.0414891375 -0.000114183 -0.792567133 -0.0002302138 -0.7929068409 0.018831952 -0.0393267354
745295530.0 0.0165628531 -0.0415533657 -0.0086142432 -0.7918205915 -0.0092142883 -0.792710427 0.0180688096 -0.0403810816
750295500.0 0.0162466781 -0.0417162236 -0.0171483375 -0.7926090985 -0.016998654 -0.7925568986 0.0173851244 -0.039903083
755295470.0 0.0156897301 -0.0423894148 -0.0257773144 -0.7922187855 -0.0257368241 -0.7929751692 0.0172109284 -0.040088472
760295440.0 0.01465855 -0.0417796056 -0.034305936 -0.7923736012 -0.0344971756 -0.7921517968 0.0163505057 -0.0405141753
765295410.0 0.0141780725 -0.0422589192 -0.0429200157 -0.7916141192 -0.0433052475 -0.7916649327 0.0159506651 -0.040092287
770295380.0 0.0132347527 -0.0421855605 -0.0517980669 -0.7911496322 -0.0518414305 -0.7910474387 0.0150375266 -0.0409908317
775295350.0 0.0124431397 -0.0430680777 -0.0609743554 -0.7904631337 -0.0596830823 -0.7903575903 0.0135107366 -0.0403101331
780295320.0 0.0125075311 -0.0423515162 -0.0692093167 -0.7894847718 -0.067998177 -0.7896028848 0.0134472131 -0.041378743
785295290.0 0.011619454 -0.0429253301 -0.0780492284 -0.787773051 -0.0772364846 -0.7886949891 0.013623862 -0.0408421239
790295260.0 0.0114014161 -0.0418357264 -0.0855246727 -0.788186684 -0.08494256 -0.7880095267 0.0123973498 -0.0411923725
795295230.0 0.0104853186 -0.0426893606 -0.0945776079 -0.7865785068 -0.093957032 -0.7870758404 0.0123664492 -0.0405848243
800295200.0 0.009678987 -0.0421365912 -0.104040076 -0.7858280969 -0.1031454566 -0.7856132986 0.0114548152 -0.0410954836
805295170.0 0.0088763927 -0.042520899 -0.1118405284 -0.7843282409 -0.1120181266 -0.7848921412 0.0110950824 -0.0408852288
810295140.0 0.0078305585 -0.0429615556 -0.1196146333 -0.7836001277 -0.120359178 -0.783287402 0.0110710056 -0.0403511135
815295110.0 0.0080192771 -0.0429328026 -0.1283116611 -0.7819185884 -0.1286748327 -0.7817332248 0.0098149304 -0.0404339363
820295080.0 0.0063929473 -0.0418713707 -0.1368181542 -0.7804332636 -0.1369734552 -0.7804708207 0.0093156373 -0.0404961564
825295050.0 0.0068400779 -0.0420272307 -0.14525415 -0.7787125007 -0.1456706407 -0.7788371513 0.009559602 -0.0404452374
830295020.0 0.005943 -0.0420603545 -0.1542831576 -0.7771433647 -0.1540705695 -0.7768189372 0.0093747259 -0.0404403771
