!Created with skrf (http://scikit-rf.org).
# Hz S RI R 50.0 
!freq ReS11 ImS11 ReS21 ImS21 ReS12 ImS12 ReS22 ImS22
300000.0 -0.7716053873 -0.1776096977 -0.0004210669 0.0021162517 6.32617e-05 0.0007224861 -0.0444647582 -0.0777695605
5299970.0 -0.7859343921 -0.0094183379 -8.19688e-05 -0.0001682599 1.91114e-05 8.29994e-05 -0.0476274643 0.013967868
10299940.0 -0.7894974772 -0.0059976402 9.07796e-05 -9.85468e-05 1.70583e-05 -0.0002204421 -0.0420025483 0.0314907289
15299910.0 -0.7943879867 -0.0030767795 5.34076e-05 -7.25164e-05 0.0001068816 -0.0001028722 -0.0335332308 0.0453897334
20299880.0 -0.8008516235 0.000495185 -0.0001844043 -0.0001997648 6.14929e-05 0.0001765869 -0.0244063773 0.0573248374
25299850.0 -0.8076702558 0.0064646141 -9.99785e-05 3.54051e-05 3.79986e-05 0.0001735485 -0.0136107003 0.0660261788
30299820.0 -0.8140050381 0.0139043039 0.0001681091 0.0001483072 -8.9532e-06 -7.43946e-05 -0.002006311 0.0727251983
35299790.0 -0.8188951128 0.023067642 -0.000163812 -5.9771e-06 4.84969e-05 2.01159e-05 0.0088171979 0.0774608969
40299760.0 -0.8235928517 0.0318000074 2.2902e-06 2.24611e-05 3.76921e-05 -7.86522e-05 0.0200114171 0.0802316499
45299730.0 -0.8264898186 0.0416430215 -0.0001812554 0.00015631 -4.88184e-05 -2.42873e-05 0.0304923752 0.0814143856
50299700.0 -0.8292614162 0.0519240521 -2.26985e-05 -7.97517e-05 0.0002799773 9.75825e-05 0.040417658 0.0817061419
55299670.0 -0.831569085 0.0614289444 -8.00217e-05 6.18972e-05 -3.91756e-05 6.87497e-05 0.0493035938 0.080213097
60299640.0 -0.8325389191 0.0717278135 0.000152609 0.0001942647 0.0002307845 1.77135e-05 0.0578368215 0.0784783546
65299610.0 -0.8330787321 0.0814777413 -6.17534e-05 -6.74216e-05 -8.9091e-06 -1.16271e-05 0.0653847402 0.0762143115
70299580.0 -0.8337833536 0.0916331888 0.0001330937 0.0001638292 -0.0001774441 9.83952e-05 0.0720559666 0.0734215944
75299550.0 -0.8335964422 0.1014655375 5.24947e-05 -6.40768e-05 -0.0001798006 1.17224e-05 0.0785682101 0.0698818519
80299520.0 -0.8337361247 0.1122848095 -0.000170214 0.0001041434 6.9916e-06 0.0001641249 0.0839429526 0.066494018
85299490.0 -0.8326679549 0.1208996593 6.95488e-05 0.0001856785 9.50616e-05 0.0001053933 0.0888054413 0.0626108497
90299460.0 -0.8321551215 0.1313360786 9.89108e-05 -0.0002301919 0.0002600697 -8.29054e-05 0.0931184085 0.0589489752
95299430.0 -0.8316785656 0.1403711052 5.89389e-05 -0.0001146922 0.0002532967 9.77456e-05 0.0975667203 0.0548065063
100299400.0 -0.8307628691 0.1501110883 -5.34484e-05 2.97769e-05 4.82011e-05 -3.6693e-06 0.100834206 0.0510573371
105299370.0 -0.8287640145 0.159073515 4.84591e-05 0.0001173191 1.87904e-05 -7.06148e-05 0.1041092034 0.0470360873
110299340.0 -0.8276822145 0.1690572259 7.99668e-05 0.0001216622 -0.000124305 -7.8771e-06 0.1066353918 0.042914824
115299310.0 -0.8260051682 0.1769569309 -0.0002411615 -4.98653e-05 9.93951e-05 -2.00679e-05 0.1092335016 0.0389864722
120299280.0 -0.8242954534 0.1865999227 0.0002633322 6.28991e-05 2.53108e-05 -7.52348e-05 0.111165793 0.0351946555
125299250.0 -0.8221693972 0.1953950701 2.6505e-06 -7.56785e-05 -3.05198e-05 9.35853e-05 0.1134082434 0.0311835407
130299220.0 -0.8207806052 0.2049406796 -8.00494e-05 7.45508e-05 -1.22815e-05 5.12751e-05 0.1148431673 0.0276229008
135299190.0 -0.8184278058 0.2142956304 -6.4503e-06 0.0001661205 1.93036e-05 3.71139e-05 0.1164448152 0.0238047777
140299160.0 -0.81722577 0.2228630016 0.0001958883 0.0001346147 -2.50845e-05 -2.00635e-05 0.1170717362 0.020359094
145299130.0 -0.8140880591 0.2319962214 -3.41e-08 0.0001136443 8.1811e-06 0.0001524909 0.1186238621 0.0167714776
150299100.0 -0.8118920017 0.2413245077 -0.0001117319 8.97278e-05 -4.22981e-05 -3.38888e-05 0.1192212691 0.0133336868
155299070.0 -0.8101062353 0.250165349 0.0002803975 9.97808e-05 0.0001524194 -0.0001111899 0.1197860278 0.0099080774
160299040.0 -0.8074307008 0.2586587137 0.0003129243 5.50957e-05 6.23542e-05 7.76989e-05 0.1201281971 0.006855903
165299010.0 -0.8045444504 0.267619359 -0.0001187217 0.0002476474 2.63854e-05 0.0001316367 0.1209536621 0.0035887131
170298980.0 -0.8011763573 0.2760221502 0.0003474567 6.98308e-05 -6.48512e-05 0.0001106028 0.1212631417 0.0004344486
175298950.0 -0.7993182475 0.2842705421 2.82429e-05 0.0001399191 9.34227e-05 4.70364e-05 0.1213279002 -0.0023358894
180298920.0 -0.796301415 0.2933677127 0.0001354415 -7.62625e-05 0.0002861823 3.80261e-05 0.12156655 -0.0055953343
185298890.0 -0.7930837103 0.3021001159 -8.63371e-05 9.27851e-05 -0.0001705424 -0.0001271001 0.1215996385 -0.0088931782
190298860.0 -0.7894654733 0.3113459298 0.0001220818 -1.801e-06 -2.93877e-05 0.0001468767 0.1213056238 -0.0116516722
195298830.0 -0.7861112695 0.3189378407 0.0001604869 5.999e-06 -7.42733e-05 7.16554e-05 0.1208073969 -0.0142322343
200298800.0 -0.7827568669 0.3280957372 -0.0001050236 0.0001675465 0.0001739735 0.0002165599 0.1208396238 -0.0169853639
205298770.0 -0.7789950024 0.3361428368 0.0001676797 0.0002624721 1.83228e-05 4.70572e-05 0.1207091874 -0.0196901238
210298740.0 -0.7762518284 0.3443564604 -5.80289e-05 -4.65383e-05 -2.56309e-05 1.38354e-05 0.1201537691 -0.0223998731
215298710.0 -0.7721226763 0.3529572164 2.16416e-05 -1.45129e-05 3.9908e-06 -9.84683e-05 0.1195881149 -0.0249301237
220298680.0 -0.7688474212 0.3606033355 0.0001019221 -0.0001199537 0.0002058862 6.12146e-05 0.1192617662 -0.0273469
225298650.0 -0.7647933729 0.3696091259 -0.000129619 0.0002281372 0.0002347233 -1.62349e-05 0.1187145663 -0.0300500827
230298620.0 -0.7609001992 0.3778868661 -8.09182e-05 0.0001050374 6.4912e-06 -5.6969e-06 0.1179510539 -0.0323239859
235298590.0 -0.757151249 0.3860093304 -1.64784e-05 6.8117e-05 0.0001590877 1.2418e-05 0.1170763291 -0.0344551576
240298560.0 -0.7528661566 0.3937254232 0.0001100617 -6.32664e-05 0.0001448514 -2.90296e-05 0.1166499493 -0.036863435
245298530.0 -0.7487968478 0.401393375 0.0001248047 0.0002050231 -0.000101206 3.9565e-06 0.1160886766 -0.0391233782
250298500.0 -0.7444876317 0.4090096999 7.71649e-05 -4.24822e-05 3.42996e-05 -0.0001912804 0.115201925 -0.0412940873
255298470.0 -0.7408164456 0.4173977141 4.98909e-05 -9.22683e-05 -0.0001449943 -0.0001666645 0.1144875981 -0.0434753015
260298440.0 -0.7363009124 0.4255920334 -2.06494e-05 -6.19187e-05 -5.44232e-05 0.000137775 0.1130556563 -0.0457382933
265298410.0 -0.7317729936 0.4328300471 9.0232e-06 5.0834e-06 0.0001599909 0.0003050487 0.1127860298 -0.0478030464
270298380.0 -0.727044856 0.4407538496 -1.85009e-05 0.0001520179 1.11402e-05 6.67406e-05 0.1118892705 -0.0500470086
275298350.0 -0.723153038 0.4482804279 -6.44479e-05 8.84366e-05 5.86411e-05 4.53018e-05 0.1108527218 -0.0518133386
280298320.0 -0.7182092611 0.4553218048 7.03623e-05 2.43159e-05 0.0001225742 6.8312e-05 0.1098515503 -0.0536567083
285298290.0 -0.713328552 0.4632603581 -6.94219e-05 9.75536e-05 9.2322e-05 1.20892e-05 0.1089302777 -0.0554991324
290298260.0 -0.708424187 0.4712530524 0.000159392 5.1865e-05 5.11014e-05 0.0003044024 0.1078937582 -0.0574425107
295298230.0 -0.7043785564 0.478088828 9.97635e-05 3.08639e-05 -0.0001575078 8.24626e-05 0.1069079495 -0.0593269505
300298200.0 -0.699637323 0.4853519606 0.0001436408 -0.0002286897 0.0001313453 7.80103e-05 0.1060301239 -0.0611542932
305298170.0 -0.6943407567 0.4921699038 -6.5881e-06 -0.0001039267 0.0001204489 8.33574e-05 0.1047531036 -0.0630343843
310298140.0 -0.6893469812 0.4997725755 3.68269e-05 0.000114428 -4.30739e-05 0.0001261192 0.1041838871 -0.0646875737
315298110.0 -0.6845264435 0.5067503032 0.0001784504 0.0002258621 -2.19314e-05 4.6517e-05 0.1031114843 -0.0666512549
320298080.0 -0.6785120574 0.5143803087 0.0002105529 2.64785e-05 -3.0291e-05 0.0001417027 0.1014638249 -0.0685562636
325298050.0 -0.6732944242 0.5207285669 -0.0003028847 -2.40686e-05 5.48712e-05 -7.87661e-05 0.1007699566 -0.0703863198
330298020.0 -0.6681381509 0.5278514117 7.4425e-06 3.07893e-05 1.67336e-05 9.01507e-05 0.0990975656 -0.0721061598
335297990.0 -0.663274067 0.5343317227 0.0001485789 -7.19321e-05 -4.8936e-06 0.0001305157 0.0978018582 -0.0738634059
340297960.0 -0.6579058157 0.5412360375 -4.227e-07 4.77684e-05 1.7974e-05 3.186e-06 0.0962836561 -0.0751578362
345297930.0 -0.652306647 0.5476885855 0.0001864804 0.0002373077 0.0001286507 -0.0001058278 0.0947495537 -0.0768144791
350297900.0 -0.6463694487 0.5553800653 7.99688e-05 7.58055e-05 0.0001188554 2.89664e-05 0.0931817453 -0.0782274873
355297870.0 -0.6411776316 0.5609593378 0.0002967393 -0.0001837901 -3.91083e-05 7.42384e-05 0.0917894933 -0.0792421842
360297840.0 -0.6347024874 0.5683544972 6.92579e-05 0.0001081249 0.0001237958 -3.13044e-05 0.0903221874 -0.0810362886
365297810.0 -0.6292679164 0.5747043472 0.000174452 6.3188e-06 0.0001425417 -0.0001267387 0.0890548638 -0.0822383275
370297780.0 -0.623206957 0.5805338957 3.3516e-06 0.0003010483 0.0001218339 5.69089e-05 0.0875889738 -0.0833584309
375297750.0 -0.6179733465 0.5870345479 -0.0001085263 6.77005e-05 0.0001575525 -2.27757e-05 0.0860040739 -0.0845387798
380297720.0 -0.612021414 0.5931495389 -7.37624e-05 0.0002608352 0.0001220439 0.0002529197 0.0852537838 -0.0857564367
385297690.0 -0.605538547 0.5998949127 8.41305e-05 0.0001544133 0.0002493789 1.41967e-05 0.0834037047 -0.0869637242
390297660.0 -0.5989641045 0.6053092518 5.95111e-05 -4.16704e-05 0.0001001907 0.000151886 0.0818014275 -0.0882750328
395297630.0 -0.5930962743 0.6120232978 -2.62261e-05 -0.0002156377 4.84713e-05 4.42499e-05 0.0801687431 -0.0895821564
400297600.0 -0.5868627368 0.6184001348 0.0002085867 5.0833e-06 6.5958e-05 -9.39629e-05 0.0791844949 -0.0904406873
405297570.0 -0.5805359415 0.6232435829 9.16318e-05 9.76834e-05 8.27626e-05 6.29772e-05 0.0775996563 -0.0915741631
410297540.0 -0.5737392012 0.6295236699 -1.79381e-05 0.0001355696 7.669e-07 3.96383e-05 0.0760000086 -0.0924131672
415297510.0 -0.5682674218 0.6358155112 0.0001064327 -6.25505e-05 0.0001554447 2.073e-06 0.0746327598 -0.0936249878
420297480.0 -0.5609161324 0.6408871008 -0.0001344652 0.000128343 2.59597e-05 7.12381e-05 0.0734460041 -0.0947172714
425297450.0 -0.5542526572 0.6472213155 6.09851e-05 0.0001985346 1.03501e-05 -0.0001540805 0.0717888887 -0.0961526236
430297420.0 -0.5480027065 0.6521199543 5.31739e-05 3.01576e-05 0.0002155715 -9.30791e-05 0.0703180729 -0.0967650996
435297390.0 -0.540643739 0.657266769 9.69923e-05 -8.4897e-05 3.78235e-05 -8.8072e-06 0.0682990188 -0.0971260778
440297360.0 -0.5341400904 0.6630593661 4.58133e-05 0.0002411296 0.0002910849 -0.0001126282 0.0671255915 -0.0986596504
445297330.0 -0.5274997613 0.6679762665 0.0002065146 0.0002164056 0.0001989122 -4.43507e-05 0.0656594512 -0.0994097081
450297300.0 -0.5204775639 0.673610104 9.8492e-06 -0.0001026745 0.0002556662 4.8512e-06 0.0642917567 -0.1003220169
455297270.0 -0.5140175775 0.6786452855 0.0002172194 -4.72421e-05 0.0002357264 0.0001421963 0.0625419852 -0.1008396706
460297240.0 -0.5062381249 0.683918011 -2.74956e-05 -5.60651e-05 8.50116e-05 6.58896e-05 0.0608567482 -0.1020953093
465297210.0 -0.499208744 0.6889687473 0.0001826153 0.0001046392 0.0002345139 -0.0002189875 0.0597421159 -0.10243285
470297180.0 -0.4920762498 0.6939345991 8.62704e-05 -0.0002714206 0.0001949885 4.9603e-05 0.0576333115 -0.1034046301
475297150.0 -0.4846205842 0.6985201921 0.0001405441 6.44075e-05 1.49075e-05 0.000210861 0.0564373713 -0.1042696375
480297120.0 -0.476808383 0.704121598 -3.9461e-06 -5.18108e-05 0.000125749 -7.82106e-05 0.054487468 -0.1047163201
485297090.0 -0.4700885215 0.7083806999 4.93971e-05 0.0002387456 0.000131118 7.6163e-05 0.052907671 -0.1057588259
490297060.0 -0.4619521348 0.7139183004 0.0002335593 -6.34053e-05 0.0002248467 -8.37233e-05 0.0515387716 -0.1063474891
495297030.0 -0.4550128909 0.7186630605 9.69681e-05 6.59189e-05 -0.0001242586 -9.95239e-05 0.0499274224 -0.1073072265
500297000.0 -0.4474191613 0.7221966591 3.02394e-05 -1.11647e-05 0.0001941906 6.06253e-05 0.0481275608 -0.1074446998
505296970.0 -0.4393970318 0.7267907944 4.50576e-05 0.0001884402 -1.03992e-05 5.91807e-05 0.0464692673 -0.1080319751
510296940.0 -0.4323954285 0.7315336209 -5.35456e-05 -3.75446e-05 1.76584e-05 5.66876e-05 0.0449676309 -0.1085442748
515296910.0 -0.4244577536 0.7357912775 4.3436e-06 6.95803e-05 -6.89645e-05 0.0001220162 0.0434584842 -0.1094076558
520296880.0 -0.4164036181 0.7401145464 0.0001083387 0.0001518909 -6.55526e-05 5.22026e-05 0.0419833635 -0.1098184298
525296850.0 -0.4086529779 0.7437700718 -1.62356e-05 6.92534e-05 0.0001435988 7.01053e-05 0.040008282 -0.110312439
530296820.0 -0.4014213336 0.7479418356 0.0002421354 0.0001328251 0.0002367049 -0.0002435519 0.0386646517 -0.1108561542
535296790.0 -0.3930065876 0.7518624069 2.28611e-05 3.01261e-05 8.39216e-05 -5.00913e-05 0.0372895804 -0.1115225948
540296760.0 -0.3850695272 0.755711485 0.0002487425 -3.83637e-05 3.86678e-05 4.40057e-05 0.0348586126 -0.1114994996
545296730.0 -0.3773066562 0.760612639 0.00016322 4.92744e-05 6.68619e-05 5.74269e-05 0.0334310608 -0.1120299619
550296700.0 -0.3693520272 0.7635749523 0.0002611264 5.864e-06 0.0003447258 8.69623e-05 0.0319176515 -0.1125028058
555296670.0 -0.3617510583 0.7671560463 -3.6967e-06 1.294e-06 2.65847e-05 -0.0001451239 0.0299850631 -0.1130139394
560296640.0 -0.3535054813 0.7708822685 3.49063e-05 8.97215e-05 6.08182e-05 -0.0001352144 0.028296884 -0.1132359075
565296610.0 -0.3459919558 0.77388181 -7.51299e-05 -3.59471e-05 -1.65646e-05 -4.57299e-05 0.0268869381 -0.1134570507
570296580.0 -0.3373573633 0.777711527 0.0002092961 -1.07209e-05 0.0002508181 -9.75827e-05 0.0250429825 -0.1138920463
575296550.0 -0.3285111153 0.7810918595 -3.62743e-05 -0.0001678895 -0.0002261404 3.09541e-05 0.0238457226 -0.114118476
580296520.0 -0.3211470654 0.784690111 8.89055e-05 3.25589e-05 -0.0001058485 8.32142e-05 0.021603974 -0.1142654064
585296490.0 -0.3125023995 0.7875707389 0.0001037637 -0.000181337 0.0001183939 -0.0002606258 0.0201187538 -0.1143744975
590296460.0 -0.3039100219 0.7905300307 0.0002288486 4.61418e-05 8.23557e-05 0.0001554462 0.0182216401 -0.1144072402
595296430.0 -0.2960974444 0.793468768 -0.0001787576 -9.64148e-05 0.0001164008 -0.0001506297 0.0167638962 -0.1148516894
600296400.0 -0.2888392337 0.7961386208 0.0001003371 -0.0001122571 6.90101e-05 -2.71666e-05 0.0151930513 -0.1148712952
605296370.0 -0.2795853129 0.7995296421 0.0001868464 6.83593e-05 6.33935e-05 -3.29503e-05 0.0135787826 -0.1152136566
610296340.0 -0.2717934076 0.8026742889 0.0003132703 -1.17801e-05 5.08326e-05 1.45092e-05 0.0115102176 -0.1152494714
615296310.0 -0.2628770468 0.8050480233 -5.91836e-05 -0.0003194031 0.0002096743 -0.0001292804 0.010051756 -0.1151819602
620296280.0 -0.2554353744 0.8083498934 0.0003062356 -0.0001147124 1.01035e-05 -6.06755e-05 0.0084459917 -0.1151790791
625296250.0 -0.2476645349 0.809608785 -2.75403e-05 0.0001221478 0.0002923479 -2.6968e-06 0.0066390244 -0.1152073675
630296220.0 -0.2384912056 0.8128722193 7.64789e-05 0.0001891374 -7.37682e-05 -0.0001034804 0.0050509094 -0.1152586238
635296190.0 -0.2303166864 0.8157014709 -2.97596e-05 0.0001441352 0.0001763784 -8.63202e-05 0.003086881 -0.1150247598
640296160.0 -0.2218873475 0.8174920798 0.0001033962 -0.0001625859 0.0001431161 -2.72212e-05 0.0018387112 -0.1152530492
645296130.0 -0.2141908043 0.8206135234 1.4394e-05 0.0001571671 0.0003085692 -7.38399e-05 -0.0003574601 -0.1151353095
650296100.0 -0.2054839281 0.82154146 0.0001586663 -0.0001806825 0.0002098194 -3.45222e-05 -0.0016531458 -0.114912477
655296070.0 -0.1975724161 0.8242975057 -6.14043e-05 -4.64064e-05 4.06151e-05 -7.3707e-05 -0.0037381601 -0.1148678505
660296040.0 -0.1894176857 0.8268040329 0.000205216 -7.52093e-05 0.0002428007 -1.73003e-05 -0.0048947769 -0.1145848294
665296010.0 -0.1807891614 0.8288956956 -0.0001159952 2.82545e-05 0.0004051853 6.73931e-05 -0.0065991468 -0.1145184293
670295980.0 -0.172777378 0.8305823777 0.0001438704 0.0001938443 0.0003403226 -6.02693e-05 -0.008529699 -0.1143528118
675295950.0 -0.1643242617 0.8319320517 0.0002477099 6.18134e-05 1.6932e-05 -0.0001210454 -0.0102039303 -0.1140907379
680295920.0 -0.1567194272 0.8337245501 2.16151e-05 -0.0001068438 0.0001796022 -9.51917e-05 -0.0117522221 -0.1139351499
685295890.0 -0.1478788563 0.835799737 0.0003736103 -0.0003171198 9.8456e-05 -0.0001382772 -0.0132865706 -0.1134250753
690295860.0 -0.1393874994 0.8372378563 0.0001477292 0.0001182575 0.0001476655 -5.06183e-05 -0.0150431883 -0.1131532454
695295830.0 -0.1304779743 0.838134436 7.47166e-05 -0.0001019998 0.0003641731 -4.12042e-05 -0.0166466025 -0.1129248727
700295800.0 -0.1226539965 0.8395916289 0.000294399 -7.93976e-05 0.0001613718 9.26149e-05 -0.0181211681 -0.1125982204
705295770.0 -0.1150884827 0.8413695819 0.0001373957 -8.52435e-05 -3.80126e-05 0.0001925534 -0.019932052 -0.1120367518
710295740.0 -0.1068213287 0.8418684138 5.44368e-05 -2.5099e-05 7.93933e-05 0.0001187589 -0.0213495148 -0.111618822
715295710.0 -0.0979858733 0.8439103959 0.0003165053 -8.22693e-05 0.0001029301 -1.76417e-05 -0.0229020408 -0.1115769638
720295680.0 -0.0889197163 0.8444132817 8.75248e-05 -1.6059e-05 -3.96776e-05 0.000160863 -0.0250644449 -0.1111363516
725295650.0 -0.0816570075 0.8458732308 -0.0002306493 -2.6829e-05 5.48629e-05 -7.94619e-05 -0.0264584512 -0.1104863522
730295620.0 -0.0740825551 0.8464246017 0.0001794671 -0.0001468421 0.0001068975 -7.19939e-05 -0.0281662298 -0.1098107525
735295590.0 -0.0659750499 0.847583841 4.78642e-05 -0.000161491 -0.0001045715 -0.00014865 -0.0294820149 -0.1095686562
740295560.0 -0.0574948834 0.8474270199 0.0001870956 4.30477e-05 0.0002456537 7.61151e-05 -0.0313119345 -0.1088914096
745295530.0 -0.0489352099 0.8488688751 0.0001328977 0.0002874581 0.0001845773 2.5645e-06 -0.0327523419 -0.1087157497
750295500.0 -0.0406867249 0.8491292865 0.0001964137 2.77283e-05 0.0002246128 2.54091e-05 -0.0342953516 -0.1080891975
755295470.0 -0.0324327514 0.8497561549 0.0003330566 0.0001881387 0.0001910421 -0.0001315688 -0.0360441841 -0.1072966427
760295440.0 -0.0241748033 0.8510348186 0.0002587002 7.3353e-06 0.0001173253 5.6492e-05 -0.0374976934 -0.1068432816
765295410.0 -0.0161174946 0.8502161269 0.00024754 -0.0001078697 -2.9334e-06 -7.9815e-06 -0.0390684603 -0.1058730985
770295380.0 -0.0084695928 0.8511402582 7.3458e-05 -0.0001434368 9.72904e-05 -0.0002481629 -0.0407325842 -0.1056833303
775295350.0 -0.0004866327 0.8512937685 1.04651e-05 -0.0002107838 0.0001433067 -0.0001011033 -0.0421508544 -0.10502532
780295320.0 0.0087442992 0.851025408 6.71952e-05 -0.0001697201 9.27392e-05 6.30809e-05 -0.04387439 -0.1041674046
785295290.0 0.0169607153 0.8508231104 0.0001579619 -0.0001053576 0.0001813211 -0.0001012074 -0.0455922199 -0.1033670226
790295260.0 0.024920486 0.8508960056 0.0001489734 7.45697e-05 0.0001519921 -1.48492e-05 -0.0467635643 -0.1026186676
795295230.0 0.03360312 0.8502916751 0.0001984729 -0.0003800805 0.0001351856 -3.46558e-05 -0.0486462423 -0.1022026373
800295200.0 0.0414262787 0.8505538517 -8.74567e-05 8.92869e-05 0.0002779316 -4.76902e-05 -0.0498847846 -0.1013723071
805295170.0 0.0490424457 0.8503640775 9.62087e-05 -0.0001373479 3.06868e-05 -0.0001293946 -0.0509107201 -0.1009357736
810295140.0 0.0577243397 0.8507835222 0.0001897311 -4.08055e-05 7.67229e-05 6.07992e-05 -0.0526726173 -0.0997934538
815295110.0 0.065698387 0.8498687004 -2.0179e-05 -0.0001133711 0.0002145848 8.04354e-05 -0.0545005678 -0.0992188854
820295080.0 0.0740875171 0.8489676144 0.0003371272 2.11654e-05 0.0001795754 -0.0003999656 -0.0558488003 -0.097883056
825295050.0 0.0819966436 0.8481806995 0.0001429785 -8.87e-05 0.0001373822 -3.5085e-06 -0.0569858915 -0.096979734
830295020.0 0.0907915809 0.8475424873 0.0002425193 0.0002515601 0.0001718491 -0.0001036379 -0.0587403831 -0.0962745522
835294990.0 0.0980898429 0.8465653064 0.0002836856 -7.3954e-06 -5.951e-06 7.44708e-05 -0.0596774627 -0.0950266614
840294960.0 0.1069891904 0.8452777942 0.0001397371 3.54003e-05 0.0002926894 -0.0001683799 -0.0615438869 -0.0943003055
845294930.0 0.1141546952 0.8447073233 0.0002216247 -1.638e-06 0.0002190253 -0.0002576695 -0.0627017956 -0.0932759509
850294900.0 0.1244579467 0.8431945768 8.39986e-05 -1.19182e-05 3.86115e-05 -0.0001031093 -0.0642603303 -0.0925805539
