!Created with skrf (http://scikit-rf.org).
# Hz S RI R 50.0 
!freq ReS11 ImS11 ReS21 ImS21 ReS12 ImS12 ReS22 ImS22
300000.0 -0.772599449 -0.0973264629 7.97653e-05 0.0024809517 -0.0010926538 0.0016706885 -0.7722914003 -0.1377430852
5299970.0 -0.785078195 -0.0057267117 -7.16425e-05 1.78607e-05 -6.36539e-05 2.2453e-05 -0.7851129889 -0.0075642814
10299940.0 -0.7877890422 -0.0040050721 -3.62405e-05 6.6294e-05 -0.000183007 -9.35983e-05 -0.7879065966 -0.0033619475
15299910.0 -0.7935266843 -0.0021137235 -7.2092e-05 -6.04274e-05 3.94216e-05 0.0001460135 -0.7931195742 -0.001200501
20299880.0 -0.8003821471 0.0019537691 -0.0001031576 -1.17285e-05 0.0003238488 -8.937e-05 -0.7998966109 0.0020353481
25299850.0 -0.8067509444 0.0076655565 -7.22311e-05 -6.5463e-05 9.198e-07 -5.93839e-05 -0.8060089076 0.0082469582
30299820.0 -0.8123976827 0.015203134 0.0001491227 -0.0002069381 -1.52726e-05 -0.0001418602 -0.8123276852 0.0161979872
35299790.0 -0.8172183742 0.0241774207 -9.89587e-05 2.31752e-05 -0.000168549 0.0001000158 -0.8169925586 0.025296396
40299760.0 -0.8210689442 0.033501514 0.0001096214 -0.0002901892 0.000171397 -7.41191e-05 -0.8212382855 0.0342313565
45299730.0 -0.8244703247 0.0429600387 -0.0001651058 -0.0003025648 -2.76307e-05 -2.94046e-05 -0.8252756088 0.0441098332
50299700.0 -0.8271846012 0.0532198882 -0.0001720508 0.0001579611 9.46045e-05 -0.0001593573 -0.8275933493 0.0539183539
55299670.0 -0.8293948704 0.0629570253 -3.0468e-06 -0.0001043862 8.36685e-05 -6.93526e-05 -0.8294557509 0.0641638356
60299640.0 -0.8302320998 0.073564466 -0.0001184915 -6.16691e-05 -4.34406e-05 6.24069e-05 -0.829893776 0.0741700885
65299610.0 -0.8314478469 0.0835879321 8.60114e-05 -0.0001324415 -0.0001833149 1.25147e-05 -0.8321238663 0.0840616014
70299580.0 -0.8316346757 0.0928535277 0.0003407884 5.91002e-05 8.83934e-05 -4.85673e-05 -0.8314689031 0.0943562658
75299550.0 -0.831796623 0.1034414 -2.82555e-05 -7.74562e-05 -1.10388e-05 0.0002914004 -0.8320604316 0.1039364477
80299520.0 -0.8315745017 0.1130335399 3.81099e-05 -7.029e-06 -5.74489e-05 0.0001381357 -0.8319517592 0.114236822
85299490.0 -0.8311685529 0.1221915717 -1.9618e-05 1.31522e-05 -7.05631e-05 4.12769e-05 -0.8314293223 0.1231530481
90299460.0 -0.8300968723 0.1321145933 0.000125549 9.92431e-05 0.0001182215 -0.0001535204 -0.8308141363 0.1329247794
95299430.0 -0.8293023243 0.1411350852 0.0001375822 -2.40052e-05 -5.0954e-06 -0.0001286405 -0.829490888 0.1425814323
100299400.0 -0.8280183468 0.1507349733 -0.0001728781 7.05957e-05 -4.98477e-05 -1.51622e-05 -0.8286374752 0.1518663225
105299370.0 -0.8271707249 0.1601865984 -0.0001858644 -0.0002134251 3.94169e-05 -8.06452e-05 -0.8266097221 0.1608918204
110299340.0 -0.8255249952 0.1692998101 6.91583e-05 3.14534e-05 1.51696e-05 -5.6152e-05 -0.825298493 0.1704631545
115299310.0 -0.8243112405 0.1785992758 -4.77233e-05 -3.50034e-05 -0.0001665344 -8.9573e-06 -0.8240192108 0.179486521
120299280.0 -0.8224482685 0.1866693052 -0.0001388514 0.0002465919 -1.03329e-05 -3.5717e-05 -0.8225404806 0.1890635965
125299250.0 -0.8204448713 0.1960558571 -6.37721e-05 -3.41472e-05 -0.00012361 1.51403e-05 -0.8204632831 0.1978955915
130299220.0 -0.8188204032 0.2051755798 -0.0001225349 -0.000106568 -8.4086e-06 -6.5212e-05 -0.8187875176 0.2067980746
135299190.0 -0.8167781442 0.2140973983 -6.42628e-05 5.8298e-05 -0.0001709689 0.0001130225 -0.8167936392 0.2157981237
140299160.0 -0.8148891537 0.2232401658 -0.0001602123 -0.0001320925 0.0001073786 -0.0001497181 -0.8142471775 0.2246944376
145299130.0 -0.8126857501 0.23234896 -6.2925e-05 -7.5224e-06 -0.0001059949 -0.0001024548 -0.8125170487 0.2342053054
150299100.0 -0.8100870049 0.2407047288 4.24296e-05 7.72322e-05 -7.35056e-05 7.2034e-06 -0.8104790243 0.2429936201
155299070.0 -0.8077590017 0.2491129996 0.0003470644 0.0001736764 -7.40418e-05 -0.0002442166 -0.8073383328 0.2516288353
160299040.0 -0.8051949593 0.2580471858 -7.54683e-05 -5.13705e-05 7.41158e-05 -0.0001640441 -0.8051960505 0.2608775598
165299010.0 -0.8028839003 0.2667594828 0.0001216507 -4.4868e-06 0.0002346433 -4.17478e-05 -0.8026200638 0.2694625059
170298980.0 -0.799575977 0.2751638721 4.77313e-05 0.0001548766 3.0791e-05 -0.0001501559 -0.7994915206 0.2780268429
175298950.0 -0.7972247531 0.2840024841 -9.2245e-06 -5.79612e-05 -0.0001503116 -8.24046e-05 -0.7972467827 0.2865327277
180298920.0 -0.7951461023 0.2926282132 -0.0002278362 -0.0002451567 0.0001021542 -0.0002036467 -0.7938969729 0.2953001879
185298890.0 -0.7912095795 0.3006399143 0.000128027 -0.0001078169 -8.57748e-05 6.5968e-06 -0.790227207 0.3036751285
190298860.0 -0.788347724 0.3099784959 0.0001188444 -8.82143e-05 0.0001359748 0.0001546713 -0.7882826125 0.312030409
195298830.0 -0.7854044764 0.3178819593 -0.0001326512 -0.000293618 -0.0001247874 5.2582e-06 -0.784867184 0.3206300754
200298800.0 -0.7814648658 0.3258864912 -1.37019e-05 0.0001149799 3.06049e-05 6.10449e-05 -0.7815728512 0.3287461852
205298770.0 -0.7781624701 0.3339095449 0.0001019119 9.80633e-05 0.000308256 0.0001692237 -0.7774681211 0.3376263368
210298740.0 -0.7749538473 0.3424706616 9.91335e-05 -8.9708e-05 5.272e-05 -2.47923e-05 -0.7746930351 0.3456530797
215298710.0 -0.7716161139 0.3503856276 -0.0001610244 -8.47566e-05 -3.07152e-05 -0.0001367438 -0.7710237725 0.353538442
220298680.0 -0.7675336993 0.3584639358 -0.0001868914 -2.71919e-05 -5.71537e-05 -1.43051e-05 -0.767281705 0.3620402852
225298650.0 -0.7641725709 0.3661022176 -0.0001620915 -0.0001016095 -9.2306e-05 3.83169e-05 -0.7633861425 0.3701193921
230298620.0 -0.76067888 0.3746009852 4.21918e-05 -2.5526e-05 4.10839e-05 3.83939e-05 -0.7597496157 0.3785789416
235298590.0 -0.7561066572 0.3829059574 7.41881e-05 6.58579e-05 -0.0001788499 -8.44509e-05 -0.7559609099 0.3867993274
240298560.0 -0.7524166923 0.3907796298 -1.96065e-05 -0.0002502627 -7.41695e-05 -2.24401e-05 -0.7516902346 0.394866578
245298530.0 -0.748632429 0.3984955703 0.0001296402 2.64348e-05 -2.16564e-05 0.0002104151 -0.7478751557 0.4022175494
250298500.0 -0.7439955112 0.4066660928 0.000119672 -5.71387e-05 0.0001470544 9.37699e-05 -0.7434322406 0.4098003738
255298470.0 -0.739425264 0.41401016 0.000300304 0.0001051301 -3.11952e-05 6.33728e-05 -0.7387956876 0.4175238611
260298440.0 -0.7355262771 0.4215338564 2.14119e-05 0.0001512713 -0.000147367 0.00011812 -0.7347993213 0.426229863
265298410.0 -0.7313305148 0.4293667388 -4.95375e-05 -9.30142e-05 -7.26765e-05 6.13002e-05 -0.7303473361 0.4334148834
270298380.0 -0.7271542083 0.4371634155 5.25106e-05 4.09855e-05 7.6277e-06 -8.36935e-05 -0.7254763936 0.4408455442
275298350.0 -0.7222805682 0.4447583083 -4.72002e-05 -1.42543e-05 -0.0001050863 -3.20915e-05 -0.7210305015 0.4478000568
280298320.0 -0.7167618948 0.4524397151 9.4689e-05 1.74156e-05 -6.12449e-05 6.36928e-05 -0.7160331231 0.4558503828
285298290.0 -0.7128952004 0.4598520939 0.0002246833 -0.0001231026 -5.19814e-05 -0.0002032727 -0.7111249497 0.463896627
290298260.0 -0.7078422145 0.4674328756 -4.148e-05 0.0002987257 -4.44424e-05 -4.89851e-05 -0.7062488331 0.4707209904
295298230.0 -0.7026553976 0.4741015936 -2.6388e-06 -0.0002364727 8.73643e-05 8.594e-05 -0.7012993405 0.4775641505
300298200.0 -0.6981576845 0.4813249921 2.69918e-05 2.06506e-05 -0.0001174344 -3.32681e-05 -0.6965257775 0.4851350692
305298170.0 -0.692872967 0.4881719068 6.6942e-05 -1.81092e-05 -0.0001256829 5.65239e-05 -0.6902942407 0.4928113356
310298140.0 -0.6877219723 0.4960186708 2.30438e-05 0.0001860852 -9.24723e-05 3.32386e-05 -0.6860370413 0.4996217535
315298110.0 -0.6828252087 0.5029609436 4.44982e-05 0.0001237116 4.68951e-05 -3.65315e-05 -0.6806402579 0.5069103896
320298080.0 -0.6776808664 0.5100011184 -0.0001625807 0.0001106901 8.11024e-05 4.56302e-05 -0.6744582751 0.5145291772
325298050.0 -0.6715643502 0.5169834497 -5.63376e-05 0.0001324713 0.0001161968 -9.56121e-05 -0.6692222784 0.5212148267
330298020.0 -0.66685302 0.5236875335 9.51375e-05 7.62574e-05 -8.19481e-05 -0.0002073322 -0.6638323953 0.5284897541
335297990.0 -0.6605576073 0.5304307488 1.08489e-05 -8.60072e-05 0.0001933285 -5.4683e-06 -0.6587681058 0.5352740515
340297960.0 -0.6559538944 0.5374861646 0.0002409772 -0.0002458154 0.0001382319 -4.33532e-05 -0.6528201178 0.5421623618
345297930.0 -0.6499535689 0.5440133936 0.0002178588 -0.0001764206 -0.0001255352 1.56201e-05 -0.647079974 0.5486381459
350297900.0 -0.6449839514 0.5508056797 -2.16519e-05 9.83146e-05 -3.82424e-05 -0.0001086285 -0.6413203695 0.5552841119
355297870.0 -0.6385856395 0.5577417985 4.73096e-05 0.0002207149 2.68036e-05 4.3504e-06 -0.6358511065 0.5617420854
360297840.0 -0.6326644461 0.5633147099 -3.1936e-05 2.081e-06 -1.9421e-06 4.74419e-05 -0.6304172498 0.5684807352
365297810.0 -0.6272555078 0.5702856779 0.0001419644 -0.000142702 8.44803e-05 -0.0001440858 -0.6232959754 0.5752442776
370297780.0 -0.6213608282 0.5764457458 8.91796e-05 -0.0001145988 -7.95187e-05 0.000178892 -0.6174965876 0.5826103182
375297750.0 -0.6144719867 0.5834374988 0.0001014381 -0.000145673 7.99433e-05 -8.4393e-06 -0.6113487227 0.5875502139
380297720.0 -0.6089220171 0.5892524873 0.0001358507 8.17904e-05 -4.83716e-05 -5.13146e-05 -0.6061799858 0.5937503573
385297690.0 -0.6038254193 0.5948523222 0.0001586162 -0.0002018405 -7.5154e-06 -5.40468e-05 -0.5993344156 0.6007516465
390297660.0 -0.5970978374 0.6013298054 -7.56836e-05 0.0001137951 -7.79688e-05 -0.0001296939 -0.593591029 0.6062266861
395297630.0 -0.5902281993 0.6079336518 7.12637e-05 -0.0001351271 8.55382e-05 6.23602e-05 -0.5867932715 0.612887385
400297600.0 -0.5838095539 0.6136204599 4.80077e-05 -3.39577e-05 1.31542e-05 -0.000143441 -0.5810129132 0.6187021968
405297570.0 -0.5782731345 0.619410835 7.32705e-05 -2.54742e-05 4.26249e-05 1.85094e-05 -0.5749112489 0.624842093
410297540.0 -0.571246672 0.6253447924 3.69005e-05 0.0001911648 -4.09286e-05 9.82075e-05 -0.5678109768 0.6306023837
415297510.0 -0.5645666045 0.6307480622 4.03223e-05 0.000202501 -2.44138e-05 4.6928e-05 -0.5613740903 0.6366603681
420297480.0 -0.5590985693 0.6369124892 -9.67281e-05 1.60322e-05 0.0001475912 -6.38816e-05 -0.5547057046 0.642010661
425297450.0 -0.5519399187 0.64228428 -0.0002042864 -4.0771e-05 -2.49146e-05 0.0001087369 -0.5480903505 0.6476957939
430297420.0 -0.5453265501 0.6480807826 0.0001326374 -0.0003414012 5.60461e-05 0.0001717812 -0.5412022259 0.6524998799
435297390.0 -0.538822659 0.653361072 6.61344e-05 2.61002e-05 -4.23163e-05 7.35392e-05 -0.5341344099 0.6582133044
440297360.0 -0.5316932585 0.6585792833 -0.0002020133 0.000206814 -6.04974e-05 -0.000119329 -0.5277201439 0.663643868
445297330.0 -0.5248866697 0.664293127 9.22914e-05 0.000157752 4.59755e-05 0.0002860222 -0.5205033052 0.6684410094
450297300.0 -0.5181780313 0.6692043159 1.98666e-05 -0.0001814529 -4.06211e-05 2.60081e-05 -0.5134549305 0.673922357
455297270.0 -0.5116090103 0.6744726153 -6.67664e-05 0.0003166326 -0.0001811643 8.44655e-05 -0.5065487739 0.6784702484
460297240.0 -0.5050323242 0.6794452567 8.9579e-06 -0.0001254098 3.05188e-05 -9.29778e-05 -0.5000988788 0.684025014
465297210.0 -0.4980290924 0.6853294912 0.0001467283 -2.82319e-05 0.0001425684 7.37933e-05 -0.4920333905 0.6888994231
470297180.0 -0.4903921447 0.6898844252 -6.06832e-05 -0.0002334911 9.93604e-05 -0.0002710581 -0.4849987114 0.6942870712
475297150.0 -0.4839007082 0.6944474494 -2.21531e-05 0.000263458 -5.18853e-05 0.0001267575 -0.4777001333 0.6986229187
480297120.0 -0.4770090208 0.6994137561 5.85489e-05 0.0001286486 -0.0001540757 -9.4764e-06 -0.4702424212 0.7034064488
485297090.0 -0.4694517227 0.7039502715 0.0001337436 9.65789e-05 -0.0001385331 0.0001111419 -0.4636046497 0.708156713
490297060.0 -0.4623928663 0.7085622319 0.0002102033 -1.59751e-05 5.40433e-05 3.17206e-05 -0.4562450328 0.71265288
495297030.0 -0.4552099869 0.7128733398 -5.91402e-05 1.38682e-05 1.07603e-05 6.40768e-05 -0.4485609028 0.7173261392
500297000.0 -0.4479776826 0.7179556494 -0.0001771668 -0.0001255574 -0.0001330713 2.25388e-05 -0.4415686394 0.722335386
505296970.0 -0.4404160539 0.7222552217 2.4921e-06 9.6091e-06 -0.0002595416 -0.0001337731 -0.4336842232 0.7264498051
510296940.0 -0.4330323775 0.7266477086 -0.0001108487 2.876e-06 -4.09638e-05 0.0001207 -0.4267285658 0.7306071001
515296910.0 -0.4249812338 0.7305953189 -0.0001286092 -1.68401e-05 -2.12046e-05 -9.76644e-05 -0.4194970267 0.7349176136
520296880.0 -0.4182659117 0.7354286077 0.0002802159 3.89601e-05 -9.3557e-06 0.0001299685 -0.4119302767 0.738984267
525296850.0 -0.4105683388 0.7391210788 -0.0001877339 -3.59887e-05 8.717e-07 0.0001097397 -0.4046144552 0.7435492777
530296820.0 -0.4030818316 0.7432734655 0.0001550249 5.11279e-05 -7.88758e-05 -8.72183e-05 -0.3963915857 0.7475564171
535296790.0 -0.3960660341 0.7467772269 0.0001611619 0.0002780831 -0.000226509 9.55554e-05 -0.3890437954 0.7511629007
540296760.0 -0.3883728171 0.7510695459 -5.22059e-05 1.71066e-05 -0.0001299405 6.28286e-05 -0.3816018595 0.755361116
545296730.0 -0.3811163895 0.7552688983 -6.15989e-05 0.0002040055 5.1955e-05 2.62719e-05 -0.374088691 0.7591393178
550296700.0 -0.3732293705 0.7587269679 -0.0001112053 0.0001518274 6.55972e-05 -6.40373e-05 -0.3662062454 0.763425002
555296670.0 -0.3652132172 0.7615345696 4.31471e-05 -7.47795e-05 -4.3573e-05 7.90143e-05 -0.3583808774 0.7667770383
560296640.0 -0.3576691589 0.766156467 -3.91878e-05 -0.0003802806 7.89463e-05 0.0002629547 -0.3509383533 0.7709373364
565296610.0 -0.350315412 0.7697181641 -8.45143e-05 3.24195e-05 0.0001921102 -3.64962e-05 -0.3426309389 0.7735130084
570296580.0 -0.3427254261 0.7722784697 -9.44459e-05 -0.0002556219 0.0001036942 1.2409e-06 -0.3349176528 0.7773754228
575296550.0 -0.3350196469 0.776500203 -3.07416e-05 -0.0001611804 -8.0669e-06 -6.83995e-05 -0.3271978806 0.7808847221
580296520.0 -0.326838432 0.7795115352 -0.0001206338 -7.64402e-05 -6.18167e-05 -1.0691e-05 -0.318665457 0.7838778112
585296490.0 -0.3191607273 0.7824826239 -3.90542e-05 -5.36389e-05 9.01209e-05 -3.40764e-05 -0.3108311323 0.7869628267
590296460.0 -0.311032721 0.7860033638 -0.0002058349 -2.25282e-05 5.01592e-05 9.39714e-05 -0.3036570259 0.7903472138
595296430.0 -0.303341476 0.7883779023 -2.69929e-05 -3.14995e-05 6.45782e-05 1.10166e-05 -0.2952228258 0.7926476222
600296400.0 -0.2957567197 0.7918652752 3.4797e-05 3.64695e-05 -0.0001055086 1.84362e-05 -0.2870991485 0.7949318601
605296370.0 -0.2876107256 0.7943523738 2.59943e-05 -0.0001360056 -0.0001153072 -1.9204e-06 -0.2781240348 0.7985614663
610296340.0 -0.2793626138 0.7971834353 2.47686e-05 2.04551e-05 3.99604e-05 -4.05229e-05 -0.2708405469 0.8009163434
615296310.0 -0.2707307296 0.8000295906 -7.50095e-05 0.0001710129 -2.60192e-05 -3.5742e-06 -0.262023302 0.8034194984
620296280.0 -0.2631732013 0.8019570902 0.0001015992 4.14166e-05 -1.56896e-05 7.0516e-06 -0.2548327004 0.8063179278
625296250.0 -0.2553301021 0.8047634624 0.0001203878 0.0004073377 -9.00372e-05 -9.54558e-05 -0.2457263962 0.8080084271
630296220.0 -0.2462744688 0.808148419 -0.0001730395 -8.15543e-05 -9.3167e-05 3.85064e-05 -0.2378947053 0.8112204402
635296190.0 -0.2389296718 0.8101614713 2.9117e-05 0.0001473399 5.42158e-05 6.29609e-05 -0.2296523884 0.8128352141
640296160.0 -0.2311797035 0.8122074041 -0.0001693039 0.0001722827 -3.51484e-05 0.0002002026 -0.2217193179 0.8154257305
645296130.0 -0.2226857564 0.8151087063 -0.0001432343 1.4878e-05 -0.0001990973 4.7702e-05 -0.2133587161 0.8175718538
650296100.0 -0.2149038014 0.8168555303 -8.87853e-05 -0.0001982726 1.20504e-05 -0.0003034794 -0.2053552302 0.8189098513
655296070.0 -0.2064847343 0.8192072473 -0.0001862509 -0.0003305629 -7.50124e-05 7.8577e-06 -0.1969819032 0.8209452932
660296040.0 -0.1986789315 0.8205989395 -8.3988e-05 -0.0001911623 -4.05637e-05 6.07769e-05 -0.1880166964 0.823460474
665296010.0 -0.1897228073 0.8224232938 0.0001214325 -9.8412e-06 0.000109504 0.0002281658 -0.1792627957 0.8251422307
670295980.0 -0.1824824288 0.8242607505 -0.0001323105 0.0001663183 9.91915e-05 0.0001485469 -0.1723223515 0.8265824352
675295950.0 -0.1732482166 0.8260514013 -0.0002709794 4.60387e-05 -1.22957e-05 7.06717e-05 -0.1638958427 0.8288482629
680295920.0 -0.1654138089 0.828047162 0.0001166368 0.0001862476 -0.0001049356 7.7667e-05 -0.1558236186 0.8310829007
685295890.0 -0.1573120612 0.8301020959 0.0002238452 2.00923e-05 -0.0001657379 0.0001993805 -0.1469081342 0.8316289024
690295860.0 -0.149113664 0.8312775281 7.88834e-05 3.00956e-05 -5.22767e-05 -9.06992e-05 -0.1387344362 0.8335816047
695295830.0 -0.1409608298 0.8320129028 9.70644e-05 0.0001109085 -8.60434e-05 -6.12355e-05 -0.1299379809 0.8348556432
700295800.0 -0.1321539323 0.8334995194 2.81014e-05 -3.46335e-05 -6.85915e-05 0.0001524144 -0.122692196 0.8366113745
705295770.0 -0.1239944675 0.835316675 -0.000249464 0.0001137033 -5.90844e-05 -5.91022e-05 -0.1139785714 0.8386082149
710295740.0 -0.1155618531 0.836144669 3.43642e-05 -4.42239e-05 3.14604e-05 0.0001003696 -0.1054593502 0.839312773
715295710.0 -0.1073733296 0.8377836272 9.64505e-05 -0.0001325686 0.0001869377 0.0001978994 -0.0963715361 0.8392767041
720295680.0 -0.0990781886 0.8383572658 0.0001206004 -0.0001008046 -0.0001212297 0.0001414628 -0.0879507337 0.8407570341
725295650.0 -0.0911141048 0.8394834792 7.86578e-05 0.0002482782 5.01311e-05 4.24338e-05 -0.0806086421 0.841836368
730295620.0 -0.082327526 0.8402698353 0.0001271636 0.0001271763 2.78199e-05 -0.0001063267 -0.0720989466 0.8420473641
735295590.0 -0.0747386744 0.8408942184 2.47578e-05 -2.83733e-05 -2.79861e-05 8.66065e-05 -0.0637570259 0.8423478105
740295560.0 -0.0659170757 0.8422230184 -0.0001728908 3.58616e-05 7.64029e-05 -0.0001054068 -0.0545427187 0.8437304654
745295530.0 -0.057986007 0.8429602434 -0.0001378528 -1.1486e-06 -4.38734e-05 0.0002240597 -0.0462388636 0.8437486174
750295500.0 -0.0493044016 0.8429758064 1.2987e-06 0.0001049032 -0.0001975636 1.3116e-05 -0.0382700005 0.8441379134
755295470.0 -0.0408150038 0.8433795423 -3.52294e-05 -0.0002140913 0.0001389571 -3.86837e-05 -0.0297046715 0.8438151388
760295440.0 -0.0328657994 0.8431211391 -8.6638e-05 -7.69895e-05 -0.0001432453 5.09351e-05 -0.0214676718 0.8443397274
765295410.0 -0.0245650562 0.8437276111 4.08862e-05 0.0001118662 0.0002631139 3.87338e-05 -0.0126857464 0.8449515601
770295380.0 -0.0165222966 0.8441599429 2.6753e-05 -0.0001650361 -5.45496e-05 0.0002186375 -0.0045184037 0.8448338891
775295350.0 -0.0081207413 0.8441126136 -6.12509e-05 -0.0002599951 0.0001181021 8.84785e-05 0.0035956561 0.8440963822
780295320.0 0.0006150758 0.844407873 3.47092e-05 3.93443e-05 0.0001096716 1.54156e-05 0.0123703392 0.8444141147
785295290.0 0.0086746156 0.8438329024 -5.08238e-05 4.78696e-05 -0.000193295 2.66907e-05 0.0206532362 0.8441343481
790295260.0 0.0179114897 0.8436732098 -0.0001136465 -0.0001345393 -2.9601e-06 5.11224e-05 0.0298744944 0.8441226833
795295230.0 0.0253602835 0.8432740516 0.0001083626 -3.4639e-05 -1.2987e-06 -3.74604e-05 0.0385602156 0.8431738923
800295200.0 0.0336537794 0.8431601874 -9.73068e-05 -0.0001009112 0.0001945758 9.00211e-05 0.0469974042 0.8431682366
805295170.0 0.0427565655 0.8428454049 0.0002431871 -1.99836e-05 -5.35939e-05 1.41928e-05 0.0542175855 0.8421514381
810295140.0 0.0506494166 0.8422884919 -6.93733e-05 -9.42411e-05 0.0002001214 8.1394e-06 0.0629760974 0.8418824499
815295110.0 0.0587705656 0.8421550706 -0.0001642993 0.0001884037 -3.55671e-05 8.54507e-05 0.0718726297 0.8410520961
820295080.0 0.0667527862 0.84151479 0.000216476 -0.0001113275 4.82874e-05 8.53857e-05 0.0800752837 0.8405909225
825295050.0 0.0764943877 0.840729437 4.37495e-05 0.0001006765 -1.30887e-05 4.23005e-05 0.088460384 0.839386286
830295020.0 0.0841004443 0.8399733797 -1.1359e-05 0.0001854653 5.39655e-05 5.35142e-05 0.0978072641 0.8387589054
835294990.0 0.0918545317 0.8392757106 1.36545e-05 0.0003183503 -2.31107e-05 0.0003772745 0.1045358263 0.8383289114
840294960.0 0.0996419953 0.8385753237 7.40388e-05 -0.0001062644 -7.3982e-05 -4.9038e-06 0.1134716709 0.8367936759
845294930.0 0.1079505577 0.8371548751 6.4735e-06 9.7061e-06 -4.30685e-05 6.88293e-05 0.1214406648 0.8354577727
850294900.0 0.1168499442 0.8364996594 8.98987e-05 0.0001861647 6.75364e-05 -3.47534e-05 0.129233372 0.8337215556
