!Created with skrf (http://scikit-rf.org).
# Hz S RI R 50.0 
!freq ReS11 ImS11 ReS21 ImS21 ReS12 ImS12 ReS22 ImS22
300000.0 -0.7714957925 -0.1762175863 -0.0014293469 0.0004484573 0.0021944575 0.0003646876 -0.0455615797 -0.0788504823
5299970.0 -0.7856548157 -0.0093354008 -0.0001229999 -3.59146e-05 0.000208682 5.53473e-05 -0.0476716137 0.013588437
10299940.0 -0.7896461874 -0.0056976363 0.0001147404 0.0001938149 1.79472e-05 4.3018e-06 -0.0419193777 0.031487857
15299910.0 -0.7941777374 -0.0031982626 0.0001113377 2.85716e-05 0.0001725458 2.35065e-05 -0.033789166 0.045647831
20299880.0 -0.8011077238 0.0008381845 5.72928e-05 0.0001393476 -6.50333e-05 -4.3899e-05 -0.0243524513 0.0571926467
25299850.0 -0.8075643851 0.0067297458 -9.7492e-06 0.000118173 -9.5176e-05 -0.0002144522 -0.013578548 0.0662227394
30299820.0 -0.8135260403 0.0135216153 2.351e-06 0.0001503111 -3.22811e-05 -0.0001000928 -0.0020351928 0.0728652553
35299790.0 -0.8185750225 0.022953737 0.0001417187 4.3617e-05 0.0001721856 3.85517e-05 0.0089326639 0.0774551636
40299760.0 -0.8236894893 0.0318327975 4.44146e-05 9.04039e-05 -1.7631e-05 -0.0001012407 0.0202244636 0.0799948245
45299730.0 -0.8265515171 0.0418142856 -0.0002227795 -7.32274e-05 0.0001172092 0.0001194696 0.0306028496 0.0813779867
50299700.0 -0.8288542848 0.0517733383 5.9748e-05 2.99e-05 -0.0001791741 -3.49263e-05 0.0403503776 0.0814400186
55299670.0 -0.8310998063 0.0610364424 8.88694e-05 2.97571e-05 -7.18325e-05 3.93964e-05 0.0494891127 0.080240334
60299640.0 -0.8326867755 0.0719303815 8.77352e-05 5.7931e-05 -6.2375e-05 -0.0001132839 0.0577400908 0.078519571
65299610.0 -0.8336382036 0.0822206629 2.53581e-05 0.0001617272 0.0001575666 -3.98845e-05 0.0655540864 0.0762479233
70299580.0 -0.8333844515 0.0915941622 2.13589e-05 -2.10987e-05 -4.0708e-05 3.04892e-05 0.0722302044 0.0731268677
75299550.0 -0.8341136031 0.1019836447 -1.68366e-05 0.0001459671 -0.0001029137 3.26755e-05 0.0787293466 0.0701106437
80299520.0 -0.8338204595 0.1120647596 -0.0001648233 -0.0001637109 3.39097e-05 0.0001335772 0.0842297266 0.0662216137
85299490.0 -0.8326114398 0.1212701062 2.33856e-05 8.2603e-05 3.48572e-05 -1.28369e-05 0.0889332084 0.0626154553
90299460.0 -0.8321415592 0.13129573 0.0001906594 -6.29776e-05 -0.0002144337 -4.4056e-05 0.0934254302 0.0587906981
95299430.0 -0.8315501418 0.1409313041 -2.39384e-05 0.0002642514 9.68033e-05 -4.3003e-06 0.0975122017 0.0549832955
100299400.0 -0.8303429324 0.1495639939 -8.40984e-05 0.0002463573 5.6198e-06 0.0002190837 0.1009804294 0.0513673925
105299370.0 -0.8284582376 0.1590303953 -4.20645e-05 -2.77539e-05 3.89021e-05 -7.93097e-05 0.1044840463 0.046977826
110299340.0 -0.8278482863 0.1683421842 -9.5339e-06 0.0001012116 -0.00016905 0.0001178914 0.106819175 0.0427704544
115299310.0 -0.8260087705 0.1778506575 3.734e-07 -3.7378e-05 8.46645e-05 4.74099e-05 0.1093276433 0.0391184294
120299280.0 -0.8248362922 0.1871624621 5.0369e-05 0.0004359185 -2.01324e-05 -6.11522e-05 0.1115615265 0.0349829223
125299250.0 -0.8223168649 0.1957324095 -0.0002194395 6.70996e-05 0.0001545331 0.0001811078 0.1131626742 0.0310962755
130299220.0 -0.8211905264 0.2051422492 7.13448e-05 0.00018267 -4.0039e-05 -8.50355e-05 0.1149171061 0.0275908643
135299190.0 -0.8189069688 0.2141770004 -4.40976e-05 0.0001444359 -7.23395e-05 3.51187e-05 0.1165514481 0.0237205751
140299160.0 -0.8173390843 0.2234107769 0.000196905 -0.0001313589 -0.0001228289 0.0001851821 0.1173263675 0.0205512631
145299130.0 -0.8147218534 0.2323581013 -0.0001367963 0.0001814746 -3.01559e-05 -7.62413e-05 0.1184218934 0.0169428858
150299100.0 -0.8118504122 0.2404749562 0.0002158677 0.0001279219 0.0001057094 -9.00695e-05 0.1191543952 0.0133116683
155299070.0 -0.8099365566 0.2500442313 4.14165e-05 -0.0001041833 6.95743e-05 0.0002477871 0.1198879568 0.0099519282
160299040.0 -0.807839334 0.2593705571 0.0001649138 1.81266e-05 6.80395e-05 0.0001571595 0.1202715696 0.0065735321
165299010.0 -0.8046024909 0.2672669867 1.28752e-05 2.22152e-05 -0.0001212987 0.0001687014 0.1210833331 0.0034984201
170298980.0 -0.8014602999 0.2761638176 0.0001370696 -1.49257e-05 1.30714e-05 -8.479e-06 0.1211739392 0.0005304928
175298950.0 -0.7990146849 0.284697018 2.48077e-05 7.32299e-05 -1.44491e-05 6.08236e-05 0.1214175387 -0.0026388334
180298920.0 -0.7963179222 0.2930938803 4.8047e-05 -0.0001878197 8.53235e-05 -0.0001011159 0.1216669179 -0.0057674698
185298890.0 -0.7927227899 0.302216034 0.0001560568 1.2603e-06 0.0001985228 9.12133e-05 0.1213209818 -0.0086927417
190298860.0 -0.7891685115 0.3113434434 4.75299e-05 -8.8774e-05 -5.23523e-05 0.0001597608 0.1213106437 -0.0113978007
195298830.0 -0.7867278141 0.3195803399 0.0002282616 -0.0001283253 2.08764e-05 5.30732e-05 0.1212880159 -0.0143198448
200298800.0 -0.7826678919 0.3275384582 3.20202e-05 7.3067e-06 9.8642e-05 8.88549e-05 0.1211683717 -0.0168927009
205298770.0 -0.7787438923 0.336569213 2.20073e-05 -4.45055e-05 -5.55674e-05 8.9886e-05 0.1206699975 -0.0197125539
210298740.0 -0.7764759701 0.3448764641 4.07637e-05 0.0003213357 7.18386e-05 0.0002025522 0.1203389601 -0.0224711127
215298710.0 -0.7720585913 0.3532643737 -4.10741e-05 -3.34611e-05 1.75426e-05 -0.0001793384 0.1198086005 -0.0251522829
220298680.0 -0.7686237576 0.3607489478 0.0001467279 7.83673e-05 0.0001987837 -0.0001222018 0.1192369339 -0.027303391
225298650.0 -0.764834993 0.3693787485 -4.3975e-05 -9.65566e-05 3.93409e-05 0.000202422 0.1184390738 -0.0297693069
230298620.0 -0.761135706 0.3776256338 -6.2394e-05 -3.59374e-05 -5.1678e-05 6.45552e-05 0.1182903905 -0.0322558831
235298590.0 -0.7576597292 0.3859883409 -8.89727e-05 -7.70115e-05 -3.00362e-05 -6.7672e-06 0.1174816359 -0.0346513759
240298560.0 -0.7532935693 0.3938331779 0.0002856637 0.0002572539 6.75249e-05 0.0001258859 0.1169341863 -0.0368709799
245298530.0 -0.7488433413 0.4013622778 0.0001334901 -0.0001634625 8.44571e-05 0.0002324153 0.1160052087 -0.0391381303
250298500.0 -0.7444946966 0.4094584153 0.0001159375 2.02196e-05 5.65189e-05 0.0001616553 0.1151868833 -0.0409465348
255298470.0 -0.740138256 0.4175545371 7.1296e-06 -0.0001105447 2.55955e-05 0.0001864695 0.1145745691 -0.0435663924
260298440.0 -0.7361736052 0.4250896113 0.0001365668 -3.37722e-05 0.0001189749 0.0001240587 0.1131688278 -0.0454659741
265298410.0 -0.7318483302 0.432601655 6.89906e-05 -0.0001114177 6.1016e-06 7.6519e-06 0.1130372001 -0.0479971365
270298380.0 -0.7270717278 0.4405701784 0.0001273791 9.00388e-05 4.10893e-05 9.10637e-05 0.1119049645 -0.0499608661
275298350.0 -0.7231514099 0.447800659 -0.0001267134 -8.51454e-05 6.88681e-05 0.0001698674 0.111185947 -0.0515951596
280298320.0 -0.7185299452 0.4556476722 2.57067e-05 9.227e-06 0.0001388085 0.0001116247 0.1099967161 -0.0535816667
285298290.0 -0.7132994861 0.4631971597 1.97439e-05 -7.17112e-05 -8.37641e-05 2.99586e-05 0.1087899525 -0.0556200116
290298260.0 -0.7083405857 0.4710119403 7.21811e-05 7.31903e-05 -0.0003090717 -0.0001126472 0.1077872626 -0.0574812219
295298230.0 -0.7035321655 0.4781759183 -5.59622e-05 0.0001109355 0.0001165325 4.28569e-05 0.1069005184 -0.0591561581
300298200.0 -0.6993285271 0.485633972 -5.54225e-05 4.55912e-05 4.21999e-05 0.000192479 0.1061092963 -0.0610019479
305298170.0 -0.694822469 0.4924848614 0.0002344175 -2.58525e-05 0.0001669371 -1.0781e-06 0.1048250846 -0.0629652391
310298140.0 -0.6891513917 0.4991903532 3.4313e-05 4.89694e-05 4.06559e-05 0.0001722832 0.1040982546 -0.0647432476
315298110.0 -0.6846287125 0.5071820092 1.23567e-05 0.0001273729 -0.0001146711 -8.7158e-06 0.1029767121 -0.0666450423
320298080.0 -0.679088112 0.5143433983 0.0002785895 0.0001972388 1.275e-07 1.70398e-05 0.1015724108 -0.0681675461
325298050.0 -0.6735922149 0.5207512908 -1.4036e-06 -3.8936e-06 2.66329e-05 0.0001926513 0.100799974 -0.070346751
330298020.0 -0.6683373689 0.5278168235 -4.7243e-05 6.4755e-05 8.64359e-05 -0.0001331007 0.0991432874 -0.0721608947
335297990.0 -0.6631179927 0.5342787353 0.0001731795 6.02976e-05 0.000187691 5.52222e-05 0.0979336324 -0.0737256223
340297960.0 -0.6579275919 0.5414817694 6.58353e-05 1.00875e-05 0.0001023395 -7.09372e-05 0.0961000417 -0.0750008909
345297930.0 -0.652074302 0.5486968704 -3.75121e-05 2.00011e-05 0.0001456823 5.06835e-05 0.0945044921 -0.0764859274
350297900.0 -0.6466252413 0.5551232621 4.49962e-05 5.73798e-05 -7.26638e-05 0.0001830384 0.0928982997 -0.0782847533
355297870.0 -0.6406234926 0.5617291469 3.46424e-05 -0.000141688 0.0002439977 7.4576e-06 0.0921228753 -0.0792612982
360297840.0 -0.634408237 0.56787415 4.15414e-05 0.0003113031 0.0002537706 8.27993e-05 0.0903432241 -0.0808068348
365297810.0 -0.6296376382 0.5743956388 0.0001642436 -1.15298e-05 2.7208e-05 -0.0001523008 0.0891258231 -0.0823624059
370297780.0 -0.6234134763 0.5808760877 0.0001360369 5.36308e-05 4.58029e-05 -5.12442e-05 0.0873805188 -0.0835226598
375297750.0 -0.6178840308 0.5872288011 -0.0001296184 2.07949e-05 -0.000149877 0.0001324718 0.086281443 -0.0845761492
380297720.0 -0.6120122095 0.5936750196 4.79696e-05 5.19479e-05 9.76611e-05 0.0001374579 0.0846500283 -0.0857126949
385297690.0 -0.6055906969 0.5997533861 1.18164e-05 -0.0001532106 9.13524e-05 0.000160601 0.0833167089 -0.0868328514
390297660.0 -0.5987750371 0.6056226248 0.0002207006 0.0001882721 -1.4766e-06 7.21129e-05 0.0818166125 -0.0880857001
395297630.0 -0.5925931885 0.6121680078 0.0002710656 -0.0002596908 0.0001775455 -7.80081e-05 0.08056401 -0.0895937943
400297600.0 -0.5867629365 0.6184080316 0.0002762428 0.0001415688 4.8121e-05 -9.34351e-05 0.0791086446 -0.0903655776
405297570.0 -0.5812701944 0.6228765555 0.0001551467 0.0002381605 -2.9867e-05 9.77e-08 0.0779207675 -0.0914355123
410297540.0 -0.5737841058 0.629588476 0.0001908772 -0.0001534639 3.64936e-05 0.0001115435 0.0760488899 -0.0925161952
415297510.0 -0.5682079954 0.6355106725 1.77079e-05 0.000136635 0.0001956944 -2.49419e-05 0.0745334941 -0.0936486874
420297480.0 -0.56097487 0.6407962669 0.0001461028 1.60974e-05 -8.44417e-05 -0.000169695 0.0733730571 -0.0944170331
425297450.0 -0.5547621839 0.6467344731 -8.59575e-05 -1.37633e-05 0.0001132727 0.0001409039 0.0715496816 -0.0957119136
430297420.0 -0.5475901841 0.6521730888 -0.0001599631 0.0002014292 -5.03287e-05 -8.41544e-05 0.0701830533 -0.0967446456
435297390.0 -0.5404366263 0.6577646667 0.0003267431 -0.0001854588 -0.0001278878 0.0003312975 0.0683801009 -0.0977602474
440297360.0 -0.5343301228 0.662642597 0.0003450589 0.0004011419 3.2452e-05 0.0003181151 0.0672211719 -0.098656233
445297330.0 -0.5268976783 0.6679703457 0.0002364601 3.26803e-05 5.96669e-05 -7.17319e-05 0.065752762 -0.0990883688
450297300.0 -0.5203142329 0.6737054144 2.15275e-05 -2.91446e-05 2.36248e-05 3.03999e-05 0.0643719391 -0.1000162715
455297270.0 -0.5138689188 0.6784727535 6.13834e-05 0.0003256275 0.0003272481 -3.11491e-05 0.0625840597 -0.101006664
460297240.0 -0.5059947119 0.6839477271 -1.66204e-05 -0.0001050806 0.0003593568 0.0001249408 0.0609711552 -0.1018267495
465297210.0 -0.4993273319 0.6889691931 6.75762e-05 3.05978e-05 0.0001948499 0.0001405307 0.0594322588 -0.1023025233
470297180.0 -0.4924062762 0.6943286033 4.22195e-05 0.0003301675 7.33111e-05 -5.08874e-05 0.0581155121 -0.1035871236
475297150.0 -0.484925975 0.6992090471 0.0001353837 8.48734e-05 -2.485e-05 8.9054e-06 0.0562494066 -0.1041154795
480297120.0 -0.477023868 0.7038932413 0.0001137466 2.29556e-05 0.000299651 1.06949e-05 0.0544334596 -0.1047661157
485297090.0 -0.4705333492 0.7084389232 0.0001429245 7.40733e-05 2.07711e-05 -1.48324e-05 0.0529235568 -0.1055838551
490297060.0 -0.462107617 0.7135825286 -9.1623e-06 -7.5908e-06 0.0002566862 -5.16541e-05 0.0511741473 -0.1066141005
495297030.0 -0.4546415375 0.7178191093 0.0001322007 2.0342e-05 -0.0001053169 6.88813e-05 0.0498296006 -0.1069043348
500297000.0 -0.4475717646 0.7223228918 0.0001891395 -3.00413e-05 -5.06134e-05 -1.33803e-05 0.0484076754 -0.1075231036
505296970.0 -0.4397380193 0.7270373877 -8.45443e-05 -3.93597e-05 0.0001212633 7.32232e-05 0.0466349952 -0.1080150166
510296940.0 -0.4321490425 0.7312867278 0.0002540334 0.0003581404 -0.0002894418 -2.35683e-05 0.0450648858 -0.1083304115
515296910.0 -0.4245891554 0.7354970954 2.7689e-06 9.9584e-06 0.0002821165 -0.0001062639 0.0432023963 -0.1092820904
520296880.0 -0.4163904898 0.7400922304 0.000226714 0.0001390631 0.0001962047 -6.53884e-05 0.0420784376 -0.1100383224
525296850.0 -0.4086241679 0.743750757 -9.33363e-05 6.53543e-05 0.000141821 -1.33429e-05 0.0401069567 -0.110286636
530296820.0 -0.400768996 0.7479260137 -5.88194e-05 -7.854e-05 0.0001023273 -5.7779e-06 0.038376946 -0.1109221508
535296790.0 -0.3925381663 0.7522188536 8.2539e-06 9.10668e-05 -5.18957e-05 -1.92027e-05 0.037277369 -0.1111377855
540296760.0 -0.3848860711 0.7561933648 -6.5312e-06 -0.0001296826 0.0003199586 0.0001306965 0.0351244811 -0.1116635454
545296730.0 -0.3775152988 0.7602830447 0.0003331734 4.16133e-05 -0.0001116158 8.82027e-05 0.0336955445 -0.111903045
550296700.0 -0.3692801268 0.7639805914 7.9245e-06 7.58058e-05 -3.71965e-05 5.2595e-06 0.0317843979 -0.1124523905
555296670.0 -0.3613815746 0.7672475266 5.66109e-05 8.5986e-06 0.0001201422 8.46635e-05 0.0299605845 -0.1128072728
560296640.0 -0.3535134099 0.7708807853 0.0002226503 -1.35347e-05 7.68144e-05 8.69067e-05 0.0283223687 -0.1132020882
565296610.0 -0.345842865 0.774634956 0.0002900062 0.0001589318 1.06683e-05 -9.59024e-05 0.0271121386 -0.1132979196
570296580.0 -0.3368319348 0.7776757742 0.0001951793 0.0001392438 5.36683e-05 9.34747e-05 0.0249712395 -0.1136244194
575296550.0 -0.3283430545 0.7809635765 -3.8137e-05 0.0001482848 -3.10822e-05 -1.34927e-05 0.0236046336 -0.1140400558
580296520.0 -0.321392124 0.7845688042 2.28276e-05 2.96686e-05 0.0002026353 -3.63214e-05 0.0217574962 -0.1144280158
585296490.0 -0.3126062514 0.7874767557 8.02631e-05 -0.0001271124 0.0002379528 4.1619e-06 0.0201570042 -0.114289118
590296460.0 -0.304018231 0.7906055256 6.02568e-05 -0.0001461953 -8.54915e-05 -0.0001332925 0.0184480155 -0.1146262506
595296430.0 -0.2956313242 0.7943891564 1.55657e-05 4.60755e-05 9.58141e-05 -8.92079e-05 0.0168268821 -0.114681441
600296400.0 -0.2886876175 0.796992481 0.0001796838 8.94937e-05 6.06723e-05 5.01507e-05 0.0151697251 -0.1151045343
605296370.0 -0.2801291729 0.7995172655 0.0001753812 6.48033e-05 -8.43794e-05 0.0002112445 0.0135416697 -0.1150633113
610296340.0 -0.2715289545 0.8028078061 0.0001843515 -9.51429e-05 0.0001911027 -0.0001644387 0.0114141714 -0.1150667148
615296310.0 -0.2630964638 0.8052944796 0.0001338204 -5.40353e-05 -6.4982e-06 -0.0002301446 0.010160273 -0.1150133389
620296280.0 -0.2554272435 0.8080490374 -1.13616e-05 -9.22233e-05 0.0001866073 7.6537e-05 0.0081436285 -0.1150391012
625296250.0 -0.2476408782 0.8102939815 -6.73759e-05 0.000159819 7.92606e-05 4.42989e-05 0.0065341852 -0.1152102176
630296220.0 -0.2393960303 0.8129952224 -9.84739e-05 -5.26264e-05 -5.6612e-06 0.0001225343 0.0048356816 -0.1152558016
635296190.0 -0.230241794 0.8160075644 0.0001207247 4.12545e-05 0.0001077753 -0.0001503362 0.0032701983 -0.1149661421
640296160.0 -0.2217486037 0.8178928573 0.0002236811 8.14852e-05 7.32629e-05 0.0001114297 0.0016759649 -0.1151049761
645296130.0 -0.2137416712 0.82046024 0.0001872375 -2.66378e-05 6.22047e-05 3.06231e-05 -0.0001186548 -0.1148554156
650296100.0 -0.2058203373 0.8220558007 0.0002043578 0.000140652 0.0001820361 -6.6962e-05 -0.0017006706 -0.1147791476
655296070.0 -0.1976317159 0.8249797704 0.0002172259 6.60249e-05 0.0003169406 9.98637e-05 -0.0037463068 -0.1148199284
660296040.0 -0.1889880611 0.8265709388 -1.26517e-05 -3.0502e-06 -3.8072e-06 0.000126534 -0.0049405193 -0.1147660976
665296010.0 -0.1807210549 0.8284421474 0.0002650464 9.18427e-05 0.0003312048 -4.86818e-05 -0.006455943 -0.1143770084
670295980.0 -0.1725404089 0.8305202922 0.0001288855 -3.33723e-05 -5.46962e-05 -0.0001125706 -0.0086489784 -0.1141595759
675295950.0 -0.163236217 0.8322187239 0.0001135804 0.0002621198 0.0002415679 -3.73941e-05 -0.0100538999 -0.1137922698
680295920.0 -0.1567501446 0.8340580773 -3.8567e-06 0.0002095564 6.19779e-05 -0.0001627984 -0.0118569698 -0.1138752004
685295890.0 -0.1474730636 0.8359760414 0.0001557051 -6.10165e-05 0.0001340387 6.5328e-05 -0.0138043006 -0.1132869615
690295860.0 -0.1391893486 0.8369078484 0.0001650349 0.000210579 0.0003109549 6.17069e-05 -0.0149988214 -0.1132136487
695295830.0 -0.1314026956 0.8389327075 -1.95523e-05 0.0001107028 0.0001225281 4.12168e-05 -0.0167746791 -0.1126509892
700295800.0 -0.1221827329 0.8404284459 0.0002284457 0.0001250735 3.0413e-06 -5.0734e-06 -0.0182370048 -0.1128939605
705295770.0 -0.1152174307 0.8415496878 -2.45081e-05 -0.0002330043 0.0001650337 -0.0001952548 -0.019817238 -0.1118314544
710295740.0 -0.106586292 0.8422518996 -3.7438e-05 7.3499e-05 4.70268e-05 7.6187e-05 -0.0215923813 -0.1116820284
715295710.0 -0.0973038921 0.8438522035 -6.36081e-05 -6.56203e-05 0.0001943606 -3.51727e-05 -0.0229751688 -0.1115237079
720295680.0 -0.0894879125 0.8443791495 4.16338e-05 0.0001643881 0.0002139993 -7.59104e-05 -0.0249261654 -0.1113155374
725295650.0 -0.0817270444 0.845686374 6.4947e-06 0.0002188125 5.40232e-05 0.000212297 -0.0265426729 -0.1103615863
730295620.0 -0.0742879519 0.8466200485 0.0001813442 -7.29507e-05 0.0001309983 -2.56004e-05 -0.028336193 -0.1098529255
735295590.0 -0.0651538912 0.8474977572 0.0002767635 6.71536e-05 -3.5216e-05 -9.38506e-05 -0.029814936 -0.109391173
740295560.0 -0.057546048 0.8474419992 0.0001105077 -7.15237e-05 9.65822e-05 -7.52871e-05 -0.0312393874 -0.1087522886
745295530.0 -0.0485892973 0.8490454373 0.0002679367 3.29556e-05 -1.47763e-05 -6.49601e-05 -0.0328608019 -0.1085766284
750295500.0 -0.0410160595 0.8494170843 0.0001523209 4.5141e-05 9.68787e-05 9.54939e-05 -0.0345710114 -0.1078457458
755295470.0 -0.0323153519 0.8494750723 -4.75625e-05 -2.03892e-05 0.0001406051 7.71153e-05 -0.0359902749 -0.1068762169
760295440.0 -0.0240561803 0.850696566 0.0002245145 -0.0002124022 0.0002403952 -7.05267e-05 -0.0374372479 -0.1069119402
765295410.0 -0.016629286 0.8508197924 0.0001618934 1.29714e-05 0.0002052895 4.92619e-05 -0.039261862 -0.1057820175
770295380.0 -0.0083502131 0.8516303449 8.08144e-05 0.0001611147 7.57626e-05 -4.40588e-05 -0.0407349315 -0.1055216352
775295350.0 3.67161e-05 0.8513305787 0.0001185993 0.0001787693 7.46187e-05 3.62531e-05 -0.0422070188 -0.105157341
780295320.0 0.0086086818 0.8517208684 0.0002287168 5.4976e-05 0.0001490096 -3.37578e-05 -0.0437182555 -0.1041610068
785295290.0 0.0168194841 0.8508384336 0.0001245467 3.08838e-05 0.0002859149 -0.0001566132 -0.0454921988 -0.1034354223
790295260.0 0.0253642683 0.8508503316 0.0001027828 -4.36406e-05 0.0003468985 2.85645e-05 -0.0469982969 -0.1025378254
795295230.0 0.0332624227 0.8503374056 0.0003868474 -3.61224e-05 0.0001081363 -3.181e-07 -0.0484570004 -0.1020937191
800295200.0 0.0413943385 0.8506281895 -3.97257e-05 -1.85732e-05 -1.68144e-05 -0.0001617751 -0.0499998306 -0.101228641
805295170.0 0.0492667068 0.8506331023 -4.13856e-05 -0.0001207655 9.54526e-05 -3.41057e-05 -0.0509759789 -0.1009739859
810295140.0 0.0580137329 0.8506579552 0.0001233187 -4.01282e-05 3.28704e-05 -7.0114e-05 -0.0526257558 -0.0995509834
815295110.0 0.0651727064 0.8494505036 0.000102599 -8.56774e-05 8.23871e-05 -1.28522e-05 -0.0541804256 -0.0990063061
820295080.0 0.0736801485 0.8491758745 0.0002839078 8.66024e-05 5.60753e-05 -0.0001567185 -0.0562671228 -0.0976997335
825295050.0 0.082061491 0.8479346498 -6.70665e-05 -7.54846e-05 0.0002416611 7.80533e-05 -0.0570105621 -0.0969759891
830295020.0 0.0903905943 0.8475634479 0.000245851 -6.2921e-06 0.0001741057 -0.0001283404 -0.0587782558 -0.0964878376
835294990.0 0.0978279914 0.8464506419 0.0003065711 -5.32919e-05 0.000175792 -1.43946e-05 -0.0598879748 -0.0951783802
840294960.0 0.1065261168 0.845291643 0.0001067091 -0.0001956917 0.0001474761 -5.19795e-05 -0.0611841971 -0.0942451451
845294930.0 0.1147493687 0.844647489 2.47226e-05 8.21928e-05 8.62121e-05 7.86702e-05 -0.0627705154 -0.0931139336
850294900.0 0.1240456928 0.8440529452 0.0002119897 -3.17697e-05 0.000112688 6.11711e-05 -0.0642794965 -0.0922601894
