!Created with skrf (http://scikit-rf.org).
# Hz S RI R 50.0 
!freq ReS11 ImS11 ReS21 ImS21 ReS12 ImS12 ReS22 ImS22
300000.0 -0.2397469713 -0.0824140098 0.4715750814 0.0551380027 0.4673561438 0.0531771191 -0.240632816 -0.094176845
5299970.0 -0.2440713969 0.0072811951 0.4735151728 0.0046606585 0.4737132649 0.0054088285 -0.2442650076 0.0073347515
10299940.0 -0.2410141925 0.0187130789 0.4755396098 0.0063378885 0.4755529174 0.0064998371 -0.2406989407 0.020035308
15299910.0 -0.2366404226 0.028033673 0.4793599029 0.0074865445 0.4794863721 0.007981583 -0.2362852425 0.0294410385
20299880.0 -0.232019336 0.0355848827 0.4838824641 0.0085174684 0.4837107398 0.0082980784 -0.230809456 0.0373697338
25299850.0 -0.2268642711 0.0421281674 0.4889577648 0.0075009836 0.4893335323 0.0074100027 -0.2247168262 0.0439560852
30299820.0 -0.2215873104 0.0470911064 0.4947034058 0.0053614886 0.4945242008 0.0054663714 -0.2190668052 0.0492437443
35299790.0 -0.2161799744 0.0512534832 0.4999026913 0.0021349253 0.5000132402 0.002120883 -0.2135475831 0.053264798
40299760.0 -0.2113978187 0.0551655173 0.504920509 -0.0019707825 0.5051557653 -0.0019807356 -0.2080574984 0.0563928992
45299730.0 -0.2066950205 0.057976908 0.5097403025 -0.0065917299 0.5101304293 -0.0066004075 -0.2031262441 0.0587713086
50299700.0 -0.2023536399 0.0598284361 0.5144015891 -0.0119276717 0.514276326 -0.0116766929 -0.1988399911 0.0604958185
55299670.0 -0.198300799 0.0619960619 0.5181798336 -0.0186525667 0.5178831798 -0.017985309 -0.1942881442 0.0620245632
60299640.0 -0.1942217007 0.0635850252 0.5209325272 -0.024477185 0.5215394953 -0.0238502872 -0.1904495674 0.0633249571
65299610.0 -0.1910848316 0.0647899888 0.5240976463 -0.0308829839 0.5245516505 -0.0303725261 -0.1873807187 0.0640469721
70299580.0 -0.1880321922 0.0662009447 0.5265595857 -0.0372024139 0.5265181568 -0.037081203 -0.183650231 0.0648841481
75299550.0 -0.1850281974 0.0675944799 0.5285043282 -0.0441484789 0.5284002395 -0.0440408235 -0.1812139015 0.0654061597
80299520.0 -0.182561205 0.0682233638 0.5307888497 -0.0510839874 0.5307625796 -0.0510214441 -0.1786510961 0.0658530067
85299490.0 -0.1800483487 0.0686058076 0.5315044098 -0.0572136401 0.5321630976 -0.0575594647 -0.1762886489 0.0662355652
90299460.0 -0.1780638449 0.0698329368 0.5327144265 -0.0645181983 0.5327971024 -0.0646945782 -0.1737181622 0.0666450937
95299430.0 -0.1755783788 0.0704071723 0.5336785394 -0.0714087942 0.5335126143 -0.0718488214 -0.171794595 0.0673917182
100299400.0 -0.1738239817 0.0715052998 0.5337649292 -0.0788365967 0.5339952753 -0.0781935677 -0.1690651887 0.0671905609
105299370.0 -0.1719847618 0.0723869414 0.5343002727 -0.0856858113 0.5345536495 -0.0853311306 -0.1675556612 0.0679931709
110299340.0 -0.1703263001 0.0734349321 0.5347458041 -0.092248125 0.5344680046 -0.0921283946 -0.1665629103 0.0682812932
115299310.0 -0.1687258241 0.073868724 0.5347828346 -0.099396215 0.5342726141 -0.0990656846 -0.1647872504 0.0690817632
120299280.0 -0.167346463 0.0749311784 0.5341950764 -0.1058027085 0.5343483565 -0.1061340645 -0.1634692802 0.0693334252
125299250.0 -0.1660862589 0.0755826677 0.5336238587 -0.112376375 0.5343954668 -0.1125115501 -0.1622688687 0.0695842807
130299220.0 -0.1651498232 0.0768294125 0.5330004647 -0.1197129813 0.5333949819 -0.1191560004 -0.1609813392 0.0699722137
135299190.0 -0.1636806464 0.0779957737 0.5327771045 -0.1260387839 0.5327213316 -0.1260564855 -0.1599938401 0.071005283
140299160.0 -0.1627150026 0.0790407552 0.5318790588 -0.1328821952 0.5317835087 -0.1326478982 -0.1587010011 0.0724164739
145299130.0 -0.1613476027 0.079851169 0.5314554389 -0.1391591038 0.5307572498 -0.1392858443 -0.1580042789 0.0726535821
150299100.0 -0.1600064754 0.0811321191 0.5299725366 -0.1455365014 0.5299620372 -0.1451906891 -0.1571201897 0.0739508948
155299070.0 -0.1595848741 0.082026406 0.5288836258 -0.1531068851 0.5284124445 -0.1523023179 -0.1558586601 0.0745861687
160299040.0 -0.1580987939 0.0834046436 0.5273624398 -0.1589628988 0.5269429446 -0.1588557735 -0.1557424654 0.0756201
165299010.0 -0.1572833769 0.0846284399 0.5256689148 -0.1655018079 0.5259562935 -0.1654120887 -0.1539871909 0.0768055649
170298980.0 -0.1563656521 0.0858842606 0.5245041036 -0.1718044769 0.5241069747 -0.1715756074 -0.1533702175 0.0775052839
175298950.0 -0.1555481146 0.0872026472 0.5231736201 -0.1780281094 0.5226874882 -0.1776481072 -0.1530173245 0.0786331163
180298920.0 -0.1547799072 0.0881735681 0.5208550799 -0.1838994474 0.5209784308 -0.1838273193 -0.1518997662 0.0799100982
185298890.0 -0.1534361834 0.0893576338 0.5191392094 -0.1905576436 0.5189480899 -0.1902463002 -0.1511962868 0.0810866939
190298860.0 -0.1524907171 0.0909919525 0.5174848859 -0.1967232281 0.5172463309 -0.1964048796 -0.1506761768 0.081804335
195298830.0 -0.1517551017 0.0922914131 0.5154170408 -0.2027523901 0.5153200633 -0.2026055162 -0.1497247927 0.0830283012
200298800.0 -0.1507862919 0.0934762964 0.5133246243 -0.2090065869 0.513225859 -0.2090752243 -0.1494455393 0.084250289
205298770.0 -0.1497216689 0.094847014 0.5105737811 -0.2150316835 0.5108745944 -0.2145982284 -0.1484902496 0.0849257211
210298740.0 -0.1489336911 0.0962804208 0.5084780247 -0.2207323019 0.5086696188 -0.2201478009 -0.1474289246 0.0867838575
215298710.0 -0.1483378976 0.0977000914 0.5061377101 -0.2268406049 0.506022485 -0.2269110932 -0.1472924323 0.0876990284
220298680.0 -0.1471549368 0.0986618071 0.5036505783 -0.2324314353 0.503653881 -0.2328106967 -0.1467931846 0.0887269793
225298650.0 -0.1461379647 0.1002343152 0.5009398992 -0.2383253803 0.501441884 -0.238434786 -0.1462335699 0.0898736179
230298620.0 -0.1451738751 0.1024954286 0.4988907617 -0.2444787383 0.49943896 -0.2445324487 -0.1456219658 0.0908752181
235298590.0 -0.1440068855 0.1037360465 0.4962333443 -0.2502557262 0.4964219267 -0.249621842 -0.1446878594 0.0922185934
240298560.0 -0.1431402157 0.1051330782 0.4936287605 -0.2559570285 0.4934938127 -0.2560165216 -0.1440121564 0.0938007011
245298530.0 -0.1424659005 0.1065378723 0.4913616733 -0.2616048455 0.4909564649 -0.2615471994 -0.1428938656 0.0941043178
250298500.0 -0.1407183343 0.1082248473 0.4872006893 -0.2672926688 0.4872790576 -0.2666858461 -0.1426319732 0.0956752008
255298470.0 -0.1397116586 0.1092937207 0.4842923485 -0.2727303011 0.4849374408 -0.2723864574 -0.1414277407 0.0970840511
260298440.0 -0.1390963153 0.1107006596 0.4815686135 -0.2785149225 0.4822081308 -0.2780259655 -0.1403881695 0.0981004277
265298410.0 -0.1376739817 0.112730397 0.4789053594 -0.2838562666 0.4796627904 -0.2836829079 -0.1397543722 0.0996248261
270298380.0 -0.1368128666 0.1136221433 0.4760345829 -0.288920951 0.4761846969 -0.2892615303 -0.138902004 0.1008201132
275298350.0 -0.1350774879 0.1151401503 0.4725710965 -0.2948717195 0.4731815731 -0.2945644262 -0.1379786264 0.1017101394
280298320.0 -0.1340005394 0.1167092703 0.4695740897 -0.3004220285 0.469661595 -0.2999155193 -0.1369536882 0.103087395
285298290.0 -0.1329025329 0.1183957405 0.4663709286 -0.3054322915 0.4662897959 -0.3054963186 -0.1360418175 0.1042233235
290298260.0 -0.1315651631 0.1198942928 0.4630629582 -0.310490061 0.4631941347 -0.3108843476 -0.1350431017 0.1055835354
295298230.0 -0.1302252098 0.1209424357 0.459425509 -0.315446941 0.4594748566 -0.3159792644 -0.1334032486 0.1063714535
300298200.0 -0.1290521653 0.1224595732 0.456494282 -0.3208169032 0.4568724006 -0.3214791093 -0.1326798273 0.1080312664
305298170.0 -0.1274959765 0.1236272694 0.4522813334 -0.3267243849 0.4524736646 -0.3263420728 -0.1313495535 0.1091652354
310298140.0 -0.1267690538 0.1253837507 0.4495409744 -0.3316266204 0.4495517806 -0.3314393577 -0.1305638772 0.11028029
315298110.0 -0.1251870346 0.1263460258 0.4457619811 -0.3368256142 0.4458279164 -0.3365947599 -0.1297417273 0.1113133947
320298080.0 -0.1237113317 0.1274490463 0.4416919123 -0.3421090089 0.4416921538 -0.3418854447 -0.1285812869 0.1124824455
325298050.0 -0.1225233072 0.1289030185 0.43755297 -0.3469110994 0.4379740158 -0.3470705821 -0.1278076361 0.1140031084
330298020.0 -0.1215144996 0.1301911004 0.4336544962 -0.352134506 0.4340334325 -0.3520062322 -0.1270443682 0.1149233509
335297990.0 -0.1199940712 0.1313320052 0.4298607324 -0.3564037297 0.4296850313 -0.3566747749 -0.1264766937 0.1170347773
340297960.0 -0.1192627747 0.1330227267 0.4255922781 -0.3616316518 0.4253107521 -0.361429865 -0.1253407574 0.1180884863
345297930.0 -0.1178089087 0.1347686384 0.4215055883 -0.3666263938 0.4211599723 -0.3664873517 -0.124055712 0.1189365298
350297900.0 -0.1164240555 0.1354716904 0.4169234669 -0.3711861596 0.417327607 -0.370857699 -0.1232726434 0.1209740203
355297870.0 -0.1150118658 0.1376745613 0.4130344017 -0.3756172525 0.4136483527 -0.3752142354 -0.1225264944 0.122249496
360297840.0 -0.113696453 0.138880249 0.4093957925 -0.379801272 0.4094888533 -0.3797268825 -0.1211620969 0.1235508196
365297810.0 -0.1125896945 0.1403614795 0.4050736644 -0.3852220147 0.4053028668 -0.3844942374 -0.1203370177 0.1248099153
370297780.0 -0.1109931382 0.1414984668 0.4004414264 -0.3887599428 0.4009979786 -0.3884166444 -0.1191349605 0.1264690089
375297750.0 -0.1090769053 0.1430527749 0.396445784 -0.3932334222 0.3968269663 -0.3930306971 -0.1178953966 0.1274924123
380297720.0 -0.1079847685 0.1442414642 0.3919817455 -0.3980351969 0.3921837578 -0.3970714223 -0.1175150125 0.1287683601
385297690.0 -0.1063812187 0.1453189252 0.3875192319 -0.4016267652 0.387445291 -0.4019161715 -0.1158049639 0.1302023078
390297660.0 -0.1049517063 0.1471698638 0.383088263 -0.4061794826 0.3832835269 -0.4056203462 -0.1150783752 0.1311875487
395297630.0 -0.1032615064 0.1483376029 0.3786708794 -0.4104143428 0.378913297 -0.4103157652 -0.1129854672 0.1326559548
400297600.0 -0.1017101976 0.1496539688 0.3740929364 -0.4148938473 0.3740345307 -0.4144465178 -0.1121176089 0.1339483854
405297570.0 -0.1002865173 0.1507994564 0.3692957467 -0.4183495724 0.3694961847 -0.4183071792 -0.1113988041 0.1348026215
410297540.0 -0.0984480345 0.1516985264 0.3650380405 -0.4225211053 0.3654391257 -0.4228505693 -0.1100183852 0.136437951
415297510.0 -0.0965804417 0.1529534877 0.3601424728 -0.4268583541 0.360899653 -0.4266538263 -0.1087968456 0.1373761163
420297480.0 -0.0953378431 0.1546725077 0.3557767929 -0.4307643042 0.3556655963 -0.4307505331 -0.1076714094 0.1386343295
425297450.0 -0.0935259612 0.1555260956 0.3511605572 -0.4347905923 0.3511973127 -0.4344095895 -0.1066175032 0.1400754767
430297420.0 -0.091924217 0.1565489663 0.3461927304 -0.4377069933 0.3460391357 -0.4377606641 -0.1051529172 0.140720389
435297390.0 -0.0901324098 0.1580286878 0.3409676289 -0.4418358315 0.3413831517 -0.4419942167 -0.103237081 0.1419245255
440297360.0 -0.0884858342 0.1592318619 0.3364408473 -0.4456233717 0.3366809429 -0.4456236426 -0.1023140872 0.1427710134
445297330.0 -0.0869160671 0.1599835037 0.3318704102 -0.4493023867 0.3317216249 -0.4488647128 -0.1007040731 0.1436098559
450297300.0 -0.0847438473 0.1608875385 0.3266000814 -0.4526488642 0.3266642788 -0.4530786188 -0.0997634646 0.1447835645
455297270.0 -0.0831670595 0.162157353 0.3213635279 -0.4563884204 0.3215723545 -0.4562223109 -0.0982050024 0.1457951723
460297240.0 -0.0815715594 0.1632896292 0.3163643309 -0.4597111215 0.3167170669 -0.4599392954 -0.0968140198 0.1471342074
465297210.0 -0.0794961959 0.1641998335 0.3117869476 -0.4632176947 0.3117231308 -0.4634190876 -0.0949412961 0.1478645435
470297180.0 -0.0778585659 0.1650846179 0.306181953 -0.466475429 0.3065797385 -0.4666343362 -0.0937532922 0.1493396398
475297150.0 -0.0759046045 0.1660460052 0.3012027415 -0.4693567842 0.3014858299 -0.4692481814 -0.0918049687 0.149921329
480297120.0 -0.0739869205 0.1673784227 0.2959770551 -0.4734021384 0.2958375632 -0.4731202818 -0.0903488182 0.1512717656
485297090.0 -0.0725328725 0.1683835585 0.2911526935 -0.476062662 0.2912151082 -0.4760787103 -0.0890446003 0.1521059655
490297060.0 -0.0708551486 0.1690470505 0.2864862293 -0.4796790036 0.2861914233 -0.479170034 -0.0874963921 0.1533752587
495297030.0 -0.06882292 0.1700993127 0.27989295 -0.4823748306 0.2812220005 -0.4824716036 -0.0860703949 0.1543497199
500297000.0 -0.0669684098 0.1706333211 0.2752571312 -0.4853160023 0.2750326574 -0.4849108557 -0.0845572921 0.1558509823
505296970.0 -0.0646674675 0.1717301168 0.269975013 -0.4881578178 0.26982485 -0.4884245606 -0.082983161 0.1562880417
510296940.0 -0.0630789821 0.1724851447 0.2647198561 -0.4915825083 0.2645373009 -0.4916207102 -0.0815093776 0.1576127428
515296910.0 -0.061045943 0.1733176948 0.2592962803 -0.4941998789 0.2594410292 -0.4937666794 -0.0801027792 0.158553649
520296880.0 -0.0593115175 0.1743410007 0.2537392159 -0.4973285938 0.253835258 -0.4967018942 -0.078376971 0.1594372807
525296850.0 -0.0571916666 0.1747947822 0.2481364398 -0.4995477154 0.2487860596 -0.4994541833 -0.0771393738 0.1603849415
530296820.0 -0.0555166059 0.1757619583 0.2429057595 -0.5022157563 0.242942388 -0.502405936 -0.0753539658 0.1614246921
535296790.0 -0.0539491417 0.1767311845 0.2381730806 -0.5046472226 0.2377782236 -0.504245629 -0.0740693966 0.1618502561
540296760.0 -0.0516947612 0.1775419884 0.2323005563 -0.5074774542 0.2316243739 -0.5075802433 -0.0725739088 0.1633293533
545296730.0 -0.0497694011 0.1778926821 0.2259210574 -0.5098264229 0.2262898512 -0.5102089103 -0.0711948293 0.1640637027
550296700.0 -0.0474055374 0.1788356442 0.2205511186 -0.5124502993 0.2209382187 -0.5124769589 -0.0698868044 0.1651506834
555296670.0 -0.0457682202 0.1792952301 0.2150056971 -0.5144562886 0.2155443565 -0.5147342173 -0.0678282906 0.1661782296
560296640.0 -0.0436177572 0.1804959168 0.2094095262 -0.5169897782 0.2096997655 -0.5168640196 -0.0664436297 0.1665132911
565296610.0 -0.0418836552 0.1808180457 0.2039301707 -0.5191555978 0.2043314004 -0.5188833781 -0.0649169759 0.1672187248
570296580.0 -0.0402051901 0.1813832039 0.1984358937 -0.521791096 0.1980566753 -0.5212772967 -0.0634873366 0.1684698306
575296550.0 -0.0378805868 0.1824624436 0.192618892 -0.5238209518 0.1924989091 -0.5236534964 -0.0616311999 0.1688010984
580296520.0 -0.0359556888 0.1825559795 0.1867172468 -0.5259089825 0.1869351193 -0.5255593276 -0.0601772682 0.1694486781
585296490.0 -0.0341059248 0.1829191173 0.181238526 -0.5273357036 0.1815387247 -0.5276863257 -0.0586893488 0.17022197
590296460.0 -0.0317277725 0.1834797493 0.1757385329 -0.5291395648 0.1759056772 -0.5291586394 -0.0573873413 0.1710388476
595296430.0 -0.0294770056 0.1841215772 0.1690435428 -0.5314247072 0.1697505697 -0.5310794053 -0.0552394857 0.1714500253
600296400.0 -0.0279799261 0.1845727247 0.1640902829 -0.5334137234 0.164085894 -0.5326597645 -0.053985456 0.1718985655
605296370.0 -0.0258348323 0.184748496 0.158415795 -0.5346239459 0.1586100111 -0.5344380545 -0.0521856326 0.1730473381
610296340.0 -0.0236954054 0.1850870607 0.1519282675 -0.5361095681 0.1525962117 -0.5364813565 -0.0504984969 0.1733909236
615296310.0 -0.0213152706 0.1855379079 0.1461292711 -0.5377923045 0.1461310658 -0.5384958541 -0.0484466704 0.1738853722
620296280.0 -0.0197648636 0.185718751 0.140580327 -0.5393094977 0.1409472856 -0.5393367706 -0.047144252 0.1743302888
625296250.0 -0.0177185413 0.1861615153 0.1351803298 -0.5408948354 0.1349237361 -0.5411517897 -0.0446699255 0.1749364997
630296220.0 -0.0148767739 0.1863851531 0.1283211581 -0.542292902 0.1286848275 -0.5421257843 -0.0431368082 0.1758177158
635296190.0 -0.0137672688 0.1869632698 0.1231126839 -0.5435490034 0.1229459664 -0.5435610342 -0.0416151564 0.1761250081
640296160.0 -0.0114210932 0.1872394328 0.1173658084 -0.5444585197 0.1176702505 -0.5446043142 -0.0397611526 0.1769917254
645296130.0 -0.0094403824 0.1875017427 0.1111679356 -0.5455324285 0.1117223579 -0.5459959466 -0.0379286913 0.1773261588
650296100.0 -0.0073199778 0.1874876417 0.1053899527 -0.5471359777 0.1056282605 -0.5470407793 -0.0360339815 0.1776631398
655296070.0 -0.0055188446 0.1877304059 0.0993115225 -0.548513955 0.0998251727 -0.5480112316 -0.0342375194 0.1784671243
660296040.0 -0.003577437 0.1877710349 0.0936753322 -0.5493822849 0.093747492 -0.5493647843 -0.032254775 0.1787999329
665296010.0 -0.0010861411 0.1881324296 0.0873606233 -0.5500749678 0.087892035 -0.5499880486 -0.0306265181 0.1797546283
670295980.0 0.000174167 0.1883796264 0.0814429333 -0.5508117804 0.081615458 -0.5507521096 -0.0292194491 0.1796239471
675295950.0 0.0029104295 0.1886505147 0.075753194 -0.5517245743 0.0758449505 -0.5515148648 -0.0275259899 0.1805591589
680295920.0 0.0045564101 0.1885052144 0.0697822665 -0.5523328144 0.0693198599 -0.5527037341 -0.0256070642 0.1815421186
685295890.0 0.0069411237 0.1889243162 0.063842533 -0.5534938678 0.0634106643 -0.5533343739 -0.0239205225 0.1815064181
690295860.0 0.0091225378 0.1890118413 0.0576630804 -0.5535903364 0.0579453788 -0.5542043527 -0.0221962291 0.1825204937
695295830.0 0.0111401351 0.1886701083 0.0521566286 -0.5540134499 0.0517416517 -0.5545218577 -0.0205254698 0.1830290417
700295800.0 0.0134270509 0.1885745249 0.0456973661 -0.5544687045 0.0454160006 -0.5547963252 -0.019117326 0.1834810547
705295770.0 0.014962343 0.1894077213 0.0400251625 -0.5555249028 0.0401366256 -0.5555918596 -0.0168332345 0.1836770148
710295740.0 0.0176375241 0.1888655111 0.0343135889 -0.555758554 0.0342825716 -0.5561165185 -0.0152431549 0.1837625439
715295710.0 0.0192909321 0.1889399314 0.0283206084 -0.5564043399 0.0276702243 -0.5559134364 -0.0131587215 0.1839420211
720295680.0 0.0216580189 0.1889012912 0.0219943756 -0.5565820067 0.0220896963 -0.5563771205 -0.0116232793 0.1846319306
725295650.0 0.023675732 0.1887718233 0.0158126881 -0.5568844316 0.0160511436 -0.5567270928 -0.0103804796 0.1849142252
730295620.0 0.0258898144 0.1891774861 0.0097202594 -0.5565468308 0.010144669 -0.5566807168 -0.008474527 0.1849756379
735295590.0 0.0278694632 0.1886452216 0.0038483331 -0.5565355596 0.0039837564 -0.5564179872 -0.0069329814 0.1848670041
740295560.0 0.0297527918 0.1885589374 -0.0020604947 -0.5563859807 -0.0021277249 -0.556732548 -0.0041737268 0.1854231727
745295530.0 0.03162362 0.1883417902 -0.0080699776 -0.55642209 -0.0083686953 -0.5564744322 -0.0030515244 0.1850242932
750295500.0 0.0340012827 0.1882142573 -0.0142040432 -0.5565101166 -0.0138784423 -0.5564571705 -0.0013744714 0.1854552718
755295470.0 0.0360640891 0.1876716439 -0.0198536016 -0.5562211047 -0.0202923245 -0.5563590524 0.0009251374 0.1855435825
760295440.0 0.0379718755 0.1874381038 -0.0259041829 -0.5561256959 -0.0264088683 -0.5560511606 0.0023976704 0.1855680948
765295410.0 0.0398422749 0.1868542195 -0.0319651984 -0.5552395928 -0.0322995675 -0.5557658792 0.0044799362 0.1858924872
770295380.0 0.0420572561 0.1866667069 -0.0384286359 -0.5551454383 -0.0380628752 -0.5549444397 0.0058917883 0.1853935375
775295350.0 0.0438490711 0.1860093243 -0.0444035524 -0.5543369587 -0.0437026114 -0.5543545015 0.0071962947 0.1859908195
780295320.0 0.0461433087 0.1860948987 -0.0503763418 -0.5535880393 -0.0493322463 -0.5539814537 0.0091520879 0.1856200839
785295290.0 0.0480791816 0.1854019754 -0.0568081456 -0.5527650066 -0.055587252 -0.5532813256 0.0121692361 0.1859179511
790295260.0 0.0507149631 0.1853827657 -0.0618487052 -0.5528785151 -0.0612414221 -0.5526007291 0.0133535274 0.1859750075
795295230.0 0.052453266 0.1846291547 -0.068215341 -0.551710919 -0.0676472725 -0.5521663275 0.0152258721 0.1860252093
800295200.0 0.0541705714 0.1844823288 -0.0743046511 -0.5506547861 -0.07367294 -0.5513135241 0.0171962841 0.1859127216
805295170.0 0.0563496126 0.1838934986 -0.0799773536 -0.5499647933 -0.079916605 -0.5502658741 0.0189453237 0.1861990756
810295140.0 0.0583162671 0.1828625656 -0.0856402177 -0.5492555521 -0.0857416279 -0.5493507159 0.0210593455 0.1861614454
815295110.0 0.0602230144 0.1824387359 -0.0912736856 -0.5478157684 -0.0908872616 -0.5485642533 0.0226017559 0.1861237577
820295080.0 0.0619498784 0.1826346836 -0.0970192519 -0.5467702 -0.0970454309 -0.5472972809 0.0245567441 0.1860068224
825295050.0 0.0647284135 0.1816481098 -0.1026758166 -0.5457166788 -0.1029150199 -0.5463362534 0.026404087 0.1858149948
830295020.0 0.0664484587 0.1812766318 -0.1095408934 -0.5450402682 -0.1093591574 -0.5446776908 0.029180586 0.1860205619
