!Created with skrf (http://scikit-rf.org).
# Hz S RI R 50.0 
!freq ReS11 ImS11 ReS21 ImS21 ReS12 ImS12 ReS22 ImS22
300000.0 -0.2327441896 -0.1293604628 0.4662652947 0.0847455732 0.4669572508 0.0849945184 -0.2350330982 -0.1308691067
5299970.0 -0.2417098859 0.005410168 0.4749039212 0.006433387 0.4755474082 0.0058393217 -0.2441761878 0.0045655493
10299940.0 -0.238708841 0.0187226422 0.4772849779 0.0070420905 0.4771952401 0.0067861717 -0.2409343235 0.0171583619
15299910.0 -0.233568055 0.0285691733 0.4806467504 0.0079624805 0.4809894443 0.0081852371 -0.2368693961 0.0263726958
20299880.0 -0.2284823958 0.0367645915 0.4853322787 0.0080720601 0.4855080449 0.0082853322 -0.2320447685 0.0338311283
25299850.0 -0.2225516465 0.0436142758 0.4905565381 0.0076319141 0.4910929982 0.0073457713 -0.2271134429 0.0398587271
30299820.0 -0.2172581398 0.0486983041 0.4964772436 0.0051792384 0.4962445587 0.0047483769 -0.2214849042 0.0448085773
35299790.0 -0.2110174224 0.053012908 0.5010889786 0.001906662 0.5014983586 0.0019799014 -0.2168735583 0.049500087
40299760.0 -0.2062468555 0.0561905585 0.5065065708 -0.002011937 0.5063747164 -0.0021048409 -0.2119495131 0.0520911527
45299730.0 -0.2009862324 0.0588064641 0.5112829386 -0.0067466972 0.511362282 -0.0068449606 -0.2067925604 0.0546310197
50299700.0 -0.1959768529 0.0607494676 0.5149601436 -0.0124874183 0.515379169 -0.0131019606 -0.2025041843 0.0570616382
55299670.0 -0.1918729249 0.0625360041 0.5188575796 -0.0178211556 0.5190198528 -0.0185613718 -0.1989817861 0.0585078482
60299640.0 -0.1878049075 0.0639448784 0.5223833729 -0.0246387011 0.5222347392 -0.0245974808 -0.1950902935 0.0597843455
65299610.0 -0.1841689578 0.0651631759 0.525591145 -0.0306622343 0.5250293522 -0.0313090493 -0.1918220884 0.0609357815
70299580.0 -0.1807155981 0.0658976941 0.5273909145 -0.0375200986 0.5278333944 -0.0374261781 -0.1889517639 0.0618034883
75299550.0 -0.177714151 0.0666483187 0.5293765377 -0.0445622596 0.5297559602 -0.0446679493 -0.1861227769 0.0626609903
80299520.0 -0.1751562215 0.0677668371 0.5312213155 -0.0512785116 0.5313835774 -0.0514264858 -0.1838387341 0.0637648268
85299490.0 -0.1725853696 0.0683289909 0.5326661723 -0.0581335531 0.5329873044 -0.0581267629 -0.1815668745 0.0637418337
90299460.0 -0.1703616478 0.0692976474 0.5336655125 -0.0649047469 0.533477471 -0.064907876 -0.1790869001 0.0649573817
95299430.0 -0.1681504276 0.0697637291 0.534614781 -0.0723115245 0.5349682 -0.072401557 -0.177440046 0.0656353536
100299400.0 -0.165945344 0.0702671098 0.5348331646 -0.0785210719 0.5350516432 -0.0787534554 -0.1759254646 0.0663945989
105299370.0 -0.1639838565 0.0710578123 0.5354393642 -0.0859701917 0.535523562 -0.0858372934 -0.1738549209 0.066582214
110299340.0 -0.1621184906 0.0715334632 0.5352300176 -0.0922525518 0.5354954562 -0.0924934851 -0.1727061504 0.0672391281
115299310.0 -0.1611604699 0.0724319965 0.5354223351 -0.0990399523 0.535692631 -0.099108312 -0.1712851157 0.0681533871
120299280.0 -0.159543282 0.0733789364 0.5354805745 -0.1066567519 0.5351818145 -0.1068284308 -0.1698879278 0.0684344238
125299250.0 -0.1578446959 0.0740181374 0.5347516144 -0.1129729761 0.5348992551 -0.1129649938 -0.1688024072 0.0697212098
130299220.0 -0.1565581125 0.0744507427 0.5344056554 -0.1194640027 0.534168223 -0.1199060801 -0.1675683268 0.0704253289
135299190.0 -0.15571224 0.0759888072 0.5336653241 -0.1260635943 0.5338510665 -0.1267503 -0.1668199443 0.0709710339
140299160.0 -0.1544076445 0.0767601205 0.5331923288 -0.1327968841 0.5329584656 -0.1327682728 -0.1660693859 0.0717577706
145299130.0 -0.1533770427 0.07783722 0.5318580679 -0.1392516221 0.5321131781 -0.1396721138 -0.1649363844 0.0730017527
150299100.0 -0.1521156616 0.078889386 0.5305012334 -0.1461940773 0.530568497 -0.1458020491 -0.1640482285 0.0740207115
155299070.0 -0.1509988148 0.0799320472 0.5289192772 -0.1524288834 0.5295654321 -0.1523934239 -0.1630078552 0.0747095596
160299040.0 -0.1499945658 0.0813441781 0.5282542537 -0.1590621486 0.5278036012 -0.1591795139 -0.1626945833 0.0758567667
165299010.0 -0.1485308768 0.0820962877 0.526772051 -0.1654082841 0.526437997 -0.1654721397 -0.1615974515 0.0765995018
170298980.0 -0.1478534529 0.0835373411 0.524510613 -0.1714018296 0.5251381198 -0.1719062161 -0.1611229138 0.0777706586
175298950.0 -0.1467452127 0.084679512 0.5235168104 -0.1779165542 0.5237868724 -0.1780351131 -0.1605345948 0.0791815424
180298920.0 -0.1460069709 0.0860339591 0.5214557803 -0.1845071414 0.5217339577 -0.1844434463 -0.1595728351 0.0800688124
185298890.0 -0.1450546826 0.0873523231 0.5199917162 -0.190693857 0.5199380099 -0.1907511887 -0.1583260921 0.0812584925
190298860.0 -0.1436965115 0.0887607615 0.5174286617 -0.196834562 0.518201976 -0.1969411667 -0.1579047154 0.0821971603
195298830.0 -0.1432483868 0.090027103 0.516636092 -0.2028760668 0.5160320477 -0.2029493235 -0.1576567264 0.0836769276
200298800.0 -0.1420564761 0.091357997 0.5140854436 -0.2095674654 0.5137693154 -0.2095089475 -0.1561816972 0.0844569829
205298770.0 -0.1412122478 0.0924545739 0.5115990561 -0.2146243554 0.5118919974 -0.214531906 -0.155583841 0.0858252722
210298740.0 -0.1402425694 0.093888253 0.509809434 -0.2207511965 0.5092535073 -0.2209362863 -0.1553772728 0.0868293832
215298710.0 -0.1394129265 0.0952422052 0.5071615184 -0.2264537117 0.5073558402 -0.2269254833 -0.1541412267 0.0882409518
220298680.0 -0.1382521356 0.0969646749 0.5044798817 -0.2327970718 0.5047596767 -0.2330275871 -0.1534361932 0.0897141386
225298650.0 -0.1374021695 0.0981910285 0.5020661267 -0.2382951862 0.5025389297 -0.2380253923 -0.1528147905 0.0904850624
230298620.0 -0.1361850676 0.1001100134 0.4996203196 -0.2444906552 0.5001501215 -0.2443916497 -0.1521834483 0.0918700053
235298590.0 -0.1354290058 0.101359386 0.4972633143 -0.2507443913 0.4970850009 -0.2504537605 -0.1511325934 0.0934457702
240298560.0 -0.1342591201 0.1027298196 0.4944764348 -0.2559132191 0.494514911 -0.255876326 -0.1503694584 0.0943958954
245298530.0 -0.1330898913 0.1038746948 0.4914643765 -0.2614477707 0.491713117 -0.2618179316 -0.1498348787 0.0959335856
250298500.0 -0.1326252577 0.1054086277 0.4888360689 -0.2670844249 0.4889486198 -0.2670460349 -0.1489372659 0.0974353302
255298470.0 -0.1311789311 0.1071591974 0.4858280303 -0.2724284029 0.4864027661 -0.2728754227 -0.1480469943 0.0986841737
260298440.0 -0.1301866598 0.1081904856 0.4835751011 -0.2779038677 0.4830999333 -0.2779706325 -0.1475074539 0.0998590317
265298410.0 -0.1291585044 0.1098553523 0.4801951491 -0.283884115 0.4795502457 -0.2840721286 -0.1459639441 0.1008070548
270298380.0 -0.1282934346 0.111302344 0.4766760274 -0.2896454853 0.477190081 -0.2890135809 -0.1453940961 0.1028658695
275298350.0 -0.1268218001 0.1129162055 0.4733987352 -0.2943781965 0.4736380989 -0.2942559515 -0.1443413556 0.1038844762
280298320.0 -0.1261379484 0.114284799 0.4707301395 -0.2996543489 0.4708494258 -0.2998533772 -0.1433398029 0.1054809128
285298290.0 -0.1249473519 0.1158673841 0.4671622545 -0.3048502619 0.46743403 -0.3050405903 -0.1426389314 0.106750655
290298260.0 -0.1237916496 0.1173100342 0.4646024418 -0.3102884197 0.4641491597 -0.3105049317 -0.1417231355 0.1083053435
295298230.0 -0.1225154916 0.1185126393 0.4604194456 -0.3158246751 0.4608611744 -0.3161667255 -0.140739668 0.1092101647
300298200.0 -0.1213281512 0.1204680395 0.4573739703 -0.3210333656 0.4576168667 -0.3208236826 -0.1398631718 0.1103786634
305298170.0 -0.1199885816 0.1210935337 0.4540569069 -0.3266039776 0.454486603 -0.3266338231 -0.1387290855 0.1119105542
310298140.0 -0.1185419522 0.122512712 0.4503491932 -0.3311555906 0.4509381464 -0.3313243829 -0.1374464469 0.113195664
315298110.0 -0.1178170392 0.1235972627 0.4470800315 -0.3371108039 0.4468196585 -0.3366837611 -0.1365569693 0.1143672914
320298080.0 -0.1164032394 0.1251510322 0.4427179609 -0.3419278248 0.4434484558 -0.3421061316 -0.1357307371 0.1155886787
325298050.0 -0.1158111652 0.1260221828 0.4391896337 -0.346648508 0.4394276677 -0.3469326096 -0.1346244157 0.116599961
330298020.0 -0.114866726 0.1276948667 0.4355361012 -0.351860778 0.4356851404 -0.3521058622 -0.1341863224 0.1181689393
335297990.0 -0.1135199024 0.1289430617 0.4315484728 -0.3565308898 0.4315535368 -0.3567874003 -0.1330590425 0.1192451944
340297960.0 -0.1125604082 0.1302542473 0.4270071285 -0.3615851873 0.4270784415 -0.3613884974 -0.132022154 0.1208824008
345297930.0 -0.1110597509 0.1315520909 0.4229916988 -0.3664404049 0.4230854745 -0.3664272013 -0.1309379351 0.1221237254
350297900.0 -0.1098792171 0.1330079241 0.4194083621 -0.3708223135 0.4196036896 -0.3708554909 -0.1300947501 0.1231000347
355297870.0 -0.1086985392 0.1342685855 0.4148468454 -0.3747689519 0.4149829278 -0.3750459292 -0.1287215004 0.1245711284
360297840.0 -0.1073806336 0.1357932957 0.4106363923 -0.3799338146 0.4114096584 -0.380118523 -0.1281237868 0.1262283991
365297810.0 -0.1063443554 0.1372517749 0.406900411 -0.3842417617 0.4069077019 -0.3845037994 -0.127021579 0.1276312289
370297780.0 -0.1045349409 0.1383639364 0.4019426559 -0.3889869894 0.4025590852 -0.3886784483 -0.1256491408 0.1285720548
375297750.0 -0.1033151924 0.1396269138 0.3983795262 -0.3929685214 0.3982936488 -0.393301862 -0.1244696125 0.1301547832
380297720.0 -0.1023876035 0.1411017546 0.3939690974 -0.3978599291 0.3938072044 -0.3978142445 -0.123399477 0.1316349298
385297690.0 -0.1008278131 0.142209576 0.3894001891 -0.4018406124 0.3894849221 -0.40208762 -0.1219067521 0.1331046292
390297660.0 -0.0991721448 0.1433957792 0.3850282044 -0.4060346438 0.3850807062 -0.4061273479 -0.1205951566 0.1338975821
395297630.0 -0.097700032 0.1445775941 0.3807644932 -0.4096436951 0.3807132165 -0.4101483638 -0.1193609084 0.1353575972
400297600.0 -0.096352057 0.1459968997 0.3758646292 -0.4146456257 0.3764436445 -0.4143068343 -0.1181947252 0.1369370931
405297570.0 -0.0948337498 0.1465450977 0.3718664396 -0.4181152355 0.3720010602 -0.4186940338 -0.1169276643 0.1382009684
410297540.0 -0.0931645881 0.1481759444 0.3667687234 -0.4225726771 0.3673290397 -0.4225151833 -0.1155352587 0.1394605849
415297510.0 -0.0918941776 0.1493542234 0.3625195371 -0.4262656934 0.3628808224 -0.4265693242 -0.1142496523 0.1406070376
420297480.0 -0.0903521198 0.1500449802 0.3577749466 -0.4304338824 0.357832895 -0.4307469046 -0.1124941086 0.1422169512
425297450.0 -0.088338077 0.1513837149 0.3528712011 -0.4341922381 0.3528333959 -0.4345805474 -0.1111478363 0.1431281705
430297420.0 -0.0868467099 0.1525606408 0.3487268767 -0.4383432101 0.3484052604 -0.4379963352 -0.1098107809 0.1444874785
435297390.0 -0.0850949472 0.15361427 0.3432610119 -0.4426656538 0.3433982175 -0.4420182305 -0.1090940421 0.1457598116
440297360.0 -0.0835067416 0.1542622588 0.3385849825 -0.4459105577 0.3383136543 -0.4460648539 -0.1074194374 0.1470216695
445297330.0 -0.0817143437 0.1551348891 0.3335593075 -0.4491495232 0.3336361064 -0.4496634126 -0.1056995986 0.1482867708
450297300.0 -0.0800696213 0.1561380352 0.3285792955 -0.4528637031 0.3292015895 -0.4528579487 -0.1043749259 0.1493600355
455297270.0 -0.0788303892 0.1572018225 0.3238915445 -0.4563682352 0.3245368436 -0.4566971033 -0.103010232 0.1504748305
460297240.0 -0.0764027302 0.1584309251 0.3189002081 -0.460549056 0.3188659649 -0.4604422269 -0.1015367144 0.1514810943
465297210.0 -0.07497932 0.1590159317 0.3133460029 -0.4636130063 0.3133532884 -0.4640676525 -0.0997670061 0.1529601068
470297180.0 -0.0732145382 0.1602224721 0.3086461586 -0.4667891016 0.3087746619 -0.4669467339 -0.0982288848 0.1538637273
475297150.0 -0.0717192832 0.1613456327 0.3035753952 -0.4704380173 0.3038114151 -0.4701659052 -0.0970038646 0.1549775218
480297120.0 -0.0694812412 0.1623843323 0.2981437984 -0.4737378553 0.2983290096 -0.4735347456 -0.0954670259 0.1560462712
485297090.0 -0.0677762224 0.1626809098 0.292983282 -0.4769256389 0.2933108088 -0.4765866329 -0.0940800837 0.1569947004
490297060.0 -0.0654542784 0.1637613067 0.2874670929 -0.4800197227 0.288146952 -0.4803741434 -0.0923805626 0.1582150543
495297030.0 -0.0639075747 0.1642365253 0.2827232895 -0.4829973877 0.2824675728 -0.4834727109 -0.0904543075 0.1590746971
500297000.0 -0.0624692047 0.1654093609 0.2775308195 -0.4857379057 0.2774480415 -0.4861628679 -0.0890617341 0.1602713612
505296970.0 -0.0597818316 0.1663181349 0.2718143548 -0.4894796723 0.2716803218 -0.4887078349 -0.0875012978 0.1605708118
510296940.0 -0.0582126722 0.1670075672 0.2670593516 -0.4927734982 0.2670666819 -0.4923009359 -0.0855483498 0.1622565054
515296910.0 -0.0563060492 0.1680792198 0.2610718498 -0.4950472943 0.2610516471 -0.494649045 -0.0843621319 0.1628154465
520296880.0 -0.0544634327 0.1688259099 0.2559883385 -0.4976585876 0.2557951017 -0.4973981252 -0.0824385754 0.1643024891
525296850.0 -0.0521846951 0.1691063149 0.2503792341 -0.5004797153 0.2501029971 -0.4999831383 -0.0807527589 0.164918923
530296820.0 -0.050700061 0.1699270332 0.2448967191 -0.5032968321 0.244808808 -0.5031134524 -0.0790116435 0.1655405107
535296790.0 -0.0479445279 0.1706555843 0.2394038442 -0.5054421559 0.2395956013 -0.5054156461 -0.0772242953 0.1667082114
540296760.0 -0.0461605169 0.1713579748 0.2337911534 -0.5080874669 0.2336724284 -0.5080053324 -0.0758941316 0.1674399513
545296730.0 -0.0448480506 0.1723232279 0.2285456934 -0.5106048166 0.2280353336 -0.5102549593 -0.074050756 0.1683094414
550296700.0 -0.0423097743 0.1727249429 0.2230298653 -0.5131279328 0.2226406257 -0.5135069873 -0.072496312 0.1692114782
555296670.0 -0.0403442405 0.173557767 0.2170107994 -0.5155359602 0.2174190265 -0.515295919 -0.0710176826 0.1695443378
560296640.0 -0.0378176649 0.1740672491 0.2111822014 -0.5178539062 0.2120788719 -0.5175679125 -0.0691347037 0.1709172188
565296610.0 -0.0364970135 0.1746865323 0.2064364575 -0.520281859 0.206110535 -0.5198186013 -0.067286041 0.1719268776
570296580.0 -0.0343277718 0.1755281528 0.2003721299 -0.5222503244 0.2000794293 -0.5221366137 -0.0657480213 0.1722934812
575296550.0 -0.0322811134 0.1756147436 0.1947574411 -0.5241962195 0.1945922256 -0.5244105222 -0.0640645368 0.1730527091
580296520.0 -0.0300600479 0.1765814275 0.1889953001 -0.5261586399 0.1887827556 -0.526476042 -0.0627773645 0.1738142714
585296490.0 -0.0279918891 0.1771570976 0.1835268508 -0.5283722038 0.1827238526 -0.5284425142 -0.0602464707 0.1746037512
590296460.0 -0.0256256955 0.1774571203 0.1774556363 -0.530479386 0.1774791655 -0.5303577837 -0.0589483826 0.1754624483
595296430.0 -0.0237660641 0.1781712993 0.1711377592 -0.5321731725 0.1714082412 -0.5320100404 -0.0572572578 0.1756919588
600296400.0 -0.0215657638 0.1783502963 0.1654665565 -0.5336456884 0.1654472536 -0.533926773 -0.055411995 0.1765723891
605296370.0 -0.0201879466 0.1790224 0.160458871 -0.5352683995 0.1596358668 -0.5357578972 -0.0534056633 0.177550304
610296340.0 -0.0174923027 0.1796756288 0.1544119459 -0.5364092924 0.1545695536 -0.5368923678 -0.0518976837 0.1780745685
615296310.0 -0.0152713593 0.1801584379 0.1487453524 -0.5389241899 0.148033577 -0.5388681797 -0.0499433152 0.1787483675
620296280.0 -0.0134631333 0.1808231033 0.1424071355 -0.5402488063 0.1420317409 -0.5402925124 -0.0486452231 0.1794901089
625296250.0 -0.0115162995 0.1806807555 0.13665208 -0.541928269 0.1368492503 -0.5419498995 -0.0468582772 0.1798600718
630296220.0 -0.0093260378 0.1812954384 0.1306172968 -0.543184649 0.1303863046 -0.5433275749 -0.0447244622 0.1806206029
635296190.0 -0.0075914275 0.1818469999 0.1250842758 -0.5445669128 0.1247631763 -0.5443645209 -0.0431943934 0.1810275906
640296160.0 -0.0053018618 0.1822635432 0.1189949118 -0.5458785068 0.1190395245 -0.5460336678 -0.0417495081 0.1814729531
645296130.0 -0.0030662612 0.1825943481 0.1131810556 -0.5469685037 0.1131911431 -0.5469632597 -0.0401778799 0.1817758101
650296100.0 -0.0012108229 0.1827035885 0.1070693785 -0.5487837143 0.1069113356 -0.5486187374 -0.0372523827 0.1827505235
655296070.0 0.0006496617 0.1830131942 0.1011358439 -0.5494474942 0.1007249845 -0.5491724178 -0.0362351198 0.1834427702
660296040.0 0.0028445505 0.1833310589 0.0954767192 -0.5503057148 0.0953912505 -0.5506107525 -0.0342420327 0.1832326679
665296010.0 0.0051173622 0.1835444343 0.0887999945 -0.5511482839 0.0890641273 -0.5513054782 -0.0325727396 0.1840933048
670295980.0 0.0069478396 0.1838439814 0.0830354957 -0.5521939371 0.0832898937 -0.5518390355 -0.0313421556 0.1843813998
675295950.0 0.0091158606 0.1837228446 0.0772861727 -0.5529434817 0.077523762 -0.5532907219 -0.0291021863 0.1850281903
680295920.0 0.0111301413 0.1842041151 0.0714148697 -0.5534862036 0.0714207903 -0.5536300891 -0.0268921751 0.1850878029
685295890.0 0.0134164154 0.1844931334 0.0651391378 -0.5545695863 0.0655241786 -0.5549159872 -0.0253975019 0.1860529075
690295860.0 0.0150753173 0.1846507495 0.0595005022 -0.5552261309 0.0593353111 -0.5549721129 -0.0237204427 0.18598047
695295830.0 0.0172581108 0.1843298516 0.0535243588 -0.555949629 0.053431972 -0.5556644398 -0.0215933751 0.1868944814
700295800.0 0.0194054682 0.1847059191 0.0477607264 -0.5564509252 0.0476819722 -0.5565795226 -0.0197793035 0.1869254421
705295770.0 0.0209793791 0.1848489923 0.0415482909 -0.5567484736 0.0417102401 -0.5566996154 -0.0180000398 0.1876162154
710295740.0 0.0230947715 0.1846249633 0.0356515886 -0.5572538433 0.0354900423 -0.5573379999 -0.0161974394 0.187741937
715295710.0 0.0252415016 0.1848073898 0.0297603148 -0.557704437 0.0293501137 -0.5577448539 -0.0143358336 0.1878134837
720295680.0 0.0275872334 0.1846303399 0.0233752558 -0.5573315247 0.0234027451 -0.557891846 -0.0126491327 0.1878841915
725295650.0 0.0289762558 0.1850474082 0.0175588965 -0.5580759928 0.0175275388 -0.5580347372 -0.0109400757 0.1888033944
730295620.0 0.0306395381 0.1846030617 0.0114352001 -0.5579573987 0.011296772 -0.5575761125 -0.0092078504 0.1892168102
735295590.0 0.0329471943 0.1849736545 0.0058668446 -0.5581171375 0.0057905513 -0.558198312 -0.0073454019 0.1890181764
740295560.0 0.034772689 0.1842736406 -0.0006054139 -0.558314557 -0.0003953009 -0.5584879674 -0.0055229473 0.1897155191
745295530.0 0.0367223449 0.184298211 -0.0061960699 -0.5572512115 -0.0057446355 -0.5580997288 -0.004316349 0.1895876058
750295500.0 0.0385410975 0.1844581924 -0.0119185127 -0.5578744971 -0.0126702283 -0.5577834023 -0.0021361703 0.1898921377
755295470.0 0.0405371731 0.1842345714 -0.0181411365 -0.5579401439 -0.0183793751 -0.5582263313 -0.0001466345 0.1905721679
760295440.0 0.042394364 0.1842598814 -0.0243896416 -0.5574580969 -0.0245194461 -0.557034109 0.0019879721 0.1897074132
765295410.0 0.0448930159 0.1834657678 -0.0306378249 -0.5567513452 -0.0299899787 -0.556935934 0.0037395073 0.1902037004
770295380.0 0.046369758 0.1836919779 -0.035789599 -0.5566183907 -0.0364258787 -0.5571534997 0.0053466864 0.1904899322
775295350.0 0.0485512458 0.1831103529 -0.0419942209 -0.5562967918 -0.0423672513 -0.5559657936 0.0076217776 0.1906422106
780295320.0 0.0504174753 0.1829883987 -0.0477526742 -0.5555145381 -0.0481799718 -0.5557309704 0.0093795205 0.1906638342
785295290.0 0.0522521608 0.182606028 -0.0540750216 -0.5553926482 -0.0541756417 -0.555295847 0.0107414547 0.1912283151
790295260.0 0.0540593857 0.1818879575 -0.0596664845 -0.5548254838 -0.0598754491 -0.5549247151 0.0127674413 0.1913957306
795295230.0 0.0561501929 0.1814286469 -0.065948974 -0.5543203692 -0.0660841807 -0.5538717666 0.0143985512 0.1905092432
800295200.0 0.0575517568 0.1815560211 -0.0709880132 -0.5529075651 -0.0718446827 -0.5533199819 0.0161924898 0.1908650101
805295170.0 0.0595004611 0.1811291887 -0.0776300669 -0.5527108926 -0.077933375 -0.5527195168 0.0187492313 0.1909132235
810295140.0 0.0619849332 0.1805977236 -0.0837713807 -0.551112227 -0.0836953209 -0.5518198346 0.0203104549 0.1906594807
815295110.0 0.0635006107 0.1801178932 -0.089508028 -0.550160641 -0.0890802843 -0.550442685 0.0220432342 0.1907106275
820295080.0 0.0653645319 0.1794334224 -0.0953814779 -0.5491887463 -0.095207753 -0.5495618781 0.0232426515 0.1912701613
825295050.0 0.0672518925 0.1789372915 -0.1015111968 -0.5485604939 -0.1014356692 -0.5487092316 0.0260255127 0.1910716095
830295020.0 0.0691184818 0.1782666281 -0.1069827021 -0.5471421317 -0.1069206243 -0.5476154178 0.0273764459 0.1904584987
