!Created with skrf (http://scikit-rf.org).
# Hz S RI R 50.0 
!freq ReS11 ImS11 ReS21 ImS21 ReS12 ImS12 ReS22 ImS22
300000.0 -0.2432509824 -0.0822304154 0.4738014078 0.0548731597 0.4716855292 0.0496707076 -0.2423268878 -0.0880593115
5299970.0 -0.2450924923 0.0070153577 0.4750225745 0.0050336056 0.4750776396 0.004783063 -0.2415798177 0.0076759238
10299940.0 -0.2419384585 0.0181344491 0.4769350378 0.0059360011 0.477166246 0.006397758 -0.2381142415 0.0205327224
15299910.0 -0.2377453387 0.0268165375 0.480662734 0.0076447395 0.4804685667 0.0075521176 -0.2334653208 0.0300029124
20299880.0 -0.2327040091 0.0339442729 0.4850922716 0.0084283119 0.4850226699 0.0077983572 -0.2283347244 0.038100848
25299850.0 -0.2278963163 0.0402051072 0.4900403993 0.0070519329 0.4901498209 0.0072720011 -0.2221399987 0.04437351
30299820.0 -0.2225382883 0.0452634078 0.4958075041 0.0047254908 0.4954665442 0.0050392087 -0.2164952236 0.0498631585
35299790.0 -0.2177520657 0.0490316811 0.5010341843 0.0016565098 0.501074847 0.0017966015 -0.2109132817 0.0543445055
40299760.0 -0.2126564198 0.0523362731 0.5056811183 -0.0023911249 0.506061879 -0.001945071 -0.2054483055 0.056989554
45299730.0 -0.2079038677 0.0549352902 0.5105357141 -0.0070587313 0.5111189159 -0.0069195914 -0.2004522721 0.0600780107
50299700.0 -0.203866547 0.0567762999 0.5151313112 -0.0123258128 0.5152417696 -0.0122434469 -0.1957076288 0.0623226274
55299670.0 -0.1999557832 0.0585114741 0.5190669444 -0.0190282719 0.5188465517 -0.0183684122 -0.1913858017 0.0640162197
60299640.0 -0.1960448926 0.0598119798 0.5219764429 -0.0248115773 0.5223441387 -0.0245562976 -0.1874606962 0.0653026308
65299610.0 -0.1928958343 0.0609810999 0.5247015915 -0.0312721894 0.5248244218 -0.0309857048 -0.1839262349 0.0661114618
70299580.0 -0.1898083281 0.0619635618 0.5270690479 -0.0379239168 0.5273362172 -0.0374734552 -0.1807177571 0.0673070716
75299550.0 -0.1871257268 0.063056769 0.5289599086 -0.0445076338 0.5289950808 -0.0443903662 -0.1775668945 0.0680398897
80299520.0 -0.1845797711 0.0633766284 0.531153197 -0.0513228016 0.5312232158 -0.0512201369 -0.1748931748 0.0689383077
85299490.0 -0.1824727331 0.0643234558 0.5322510684 -0.0580786992 0.5326323038 -0.0578675214 -0.1729056772 0.0693508016
90299460.0 -0.1804979465 0.0647387188 0.5330054099 -0.0650796891 0.5335336009 -0.0649293238 -0.170063332 0.0705378638
95299430.0 -0.1780912569 0.0653639987 0.5343860115 -0.0720748166 0.5343352603 -0.071992268 -0.1682198736 0.0712587311
100299400.0 -0.1766996452 0.0664185913 0.5339349119 -0.078933723 0.5341991546 -0.0789273307 -0.1658426503 0.0716954374
105299370.0 -0.1748071183 0.066829877 0.5346087465 -0.0863110007 0.5348409179 -0.0856735424 -0.1639532372 0.0725035401
110299340.0 -0.1735764745 0.0672265185 0.5350905705 -0.0923446854 0.5347329396 -0.0922349644 -0.1627002291 0.0733245806
115299310.0 -0.1718378975 0.0682021224 0.5347250787 -0.0995531597 0.5349996178 -0.0995069433 -0.1609244906 0.0742781089
120299280.0 -0.1707104487 0.0685121328 0.5346251875 -0.1062601551 0.5345435774 -0.1063447534 -0.1596700386 0.0750235643
125299250.0 -0.169774686 0.0690713843 0.5341889167 -0.1125659439 0.5345217391 -0.1124791124 -0.158464349 0.0753298443
130299220.0 -0.1689250668 0.0701888665 0.5333856553 -0.1199300398 0.5339412352 -0.1197759963 -0.1573858895 0.0762898626
135299190.0 -0.1677503362 0.0712831932 0.5333038835 -0.1264601224 0.5330863687 -0.125971261 -0.1556142659 0.0770269075
140299160.0 -0.1667779096 0.0718704063 0.532278013 -0.1332159093 0.5326331219 -0.1330611845 -0.1548744887 0.0784313664
145299130.0 -0.1657816426 0.072980792 0.5316923029 -0.1395360326 0.5311686859 -0.1393068637 -0.1538710343 0.0794576816
150299100.0 -0.1645365495 0.0740390689 0.5299682369 -0.1454408272 0.5301475307 -0.1454723986 -0.1529529566 0.0805534231
155299070.0 -0.1639470115 0.0746747482 0.5291056123 -0.1530606408 0.5289360655 -0.1524024403 -0.1516040102 0.0815139245
160299040.0 -0.1629392001 0.0759773434 0.5277792357 -0.1591215309 0.527226474 -0.1589063938 -0.1511196588 0.0824039936
165299010.0 -0.162454786 0.0771261558 0.5264752699 -0.1656687272 0.5263459568 -0.1656138248 -0.1497632704 0.0839344717
170298980.0 -0.1616203922 0.0777513738 0.5243536744 -0.1717537623 0.5249369759 -0.1717999738 -0.148965667 0.0847645543
175298950.0 -0.1611712703 0.0789008883 0.5231974789 -0.177930071 0.5229035998 -0.1779919436 -0.1481386355 0.0861596226
180298920.0 -0.1602742918 0.0800532111 0.5215775237 -0.1843246344 0.5211857035 -0.1840021322 -0.1468629751 0.0875425887
185298890.0 -0.1589179766 0.0812726579 0.5192734741 -0.1904935137 0.519230544 -0.1905739373 -0.1460759439 0.0887266389
190298860.0 -0.1585742531 0.0824687279 0.517444818 -0.1966334185 0.5177704327 -0.1968898267 -0.1453616244 0.0896759559
195298830.0 -0.1579036044 0.0832730939 0.5155071357 -0.2028008757 0.5156317811 -0.2027837315 -0.1439429636 0.0908337352
200298800.0 -0.1569889476 0.0846872614 0.513611965 -0.2093006466 0.513737813 -0.2090520236 -0.1434729917 0.0920931525
205298770.0 -0.1562797351 0.0859514528 0.510881842 -0.2152387422 0.5108800353 -0.2149578741 -0.1422780208 0.0930063171
210298740.0 -0.1555853559 0.0867721436 0.5087004903 -0.220621121 0.5087777718 -0.2208773647 -0.141024936 0.0950434189
215298710.0 -0.1552595049 0.0883157279 0.5068550416 -0.2267110495 0.5064536166 -0.2269123331 -0.1405031077 0.0961017701
220298680.0 -0.1541743556 0.0893323174 0.5036780759 -0.2328792789 0.5038740225 -0.2327880713 -0.1397918264 0.0974381615
225298650.0 -0.1532817478 0.0906333793 0.5015250022 -0.2386220658 0.5019539954 -0.2385353289 -0.1389742175 0.0984722108
230298620.0 -0.1525916757 0.0922279407 0.4992098638 -0.2443227954 0.4998371404 -0.2444575175 -0.137955789 0.0999201266
235298590.0 -0.1518213417 0.0936067025 0.4965171445 -0.2498793974 0.4968248903 -0.249743379 -0.1369825358 0.1012065977
240298560.0 -0.151096049 0.0947570972 0.4941570178 -0.2560754472 0.4937106121 -0.2558189111 -0.1356787916 0.103139397
245298530.0 -0.1504411005 0.0961789181 0.4909151799 -0.2616418589 0.4913509321 -0.2616838347 -0.1345595936 0.1035518982
250298500.0 -0.1493335392 0.0976334223 0.4877701388 -0.2674529218 0.4877466437 -0.2667151013 -0.1336277409 0.1055182752
255298470.0 -0.1485118844 0.0984748501 0.4850459679 -0.2724881168 0.4855390949 -0.2726001143 -0.1326082875 0.1068387947
260298440.0 -0.148314424 0.099843711 0.4823204865 -0.2781784015 0.4826124863 -0.2781164885 -0.1315927518 0.1081745147
265298410.0 -0.1467998798 0.1018009829 0.4789704923 -0.2840127501 0.4795738518 -0.2833267872 -0.130247349 0.1096528114
270298380.0 -0.1458919128 0.1030624714 0.4765622447 -0.288947623 0.4761233855 -0.2886926358 -0.1293386615 0.1112955746
275298350.0 -0.1449201407 0.1042944333 0.4734486423 -0.2946986171 0.473552833 -0.294503712 -0.1282189453 0.1123819411
280298320.0 -0.1440554034 0.1057212032 0.4701905594 -0.3002982483 0.4701349232 -0.2999281717 -0.1265753708 0.113871661
285298290.0 -0.1432347568 0.1073921886 0.4668318521 -0.3053161774 0.4666506727 -0.3050990373 -0.1254365637 0.1152468836
290298260.0 -0.1420777784 0.1082911975 0.4636092451 -0.3102285208 0.4638274751 -0.3103141958 -0.1243474224 0.1169234403
295298230.0 -0.140918977 0.109841747 0.4601967556 -0.3158772237 0.4602074512 -0.3154381832 -0.1228542799 0.1181248865
300298200.0 -0.1403774035 0.1110120155 0.4570771453 -0.3210295053 0.4569899897 -0.3210140124 -0.1219747686 0.1193205056
305298170.0 -0.1390613839 0.1121737744 0.452925426 -0.3265214222 0.4532195137 -0.3263130428 -0.1200926566 0.1206898395
310298140.0 -0.1382367765 0.1137579536 0.4496323893 -0.3316012843 0.4499970479 -0.3313446193 -0.1190293102 0.1220387199
315298110.0 -0.1373594159 0.114711932 0.4462543354 -0.3364480035 0.4465150682 -0.3365562952 -0.1176783071 0.1230710412
320298080.0 -0.1360432399 0.1160442332 0.4418895171 -0.3421887328 0.4424268996 -0.34175927 -0.1168283201 0.1244007321
325298050.0 -0.1348485823 0.1173041422 0.4382627672 -0.3469454156 0.4384432005 -0.3467565157 -0.115819894 0.1256628974
330298020.0 -0.1342065149 0.1182361519 0.4339799909 -0.3513620229 0.4347485869 -0.3517481385 -0.1147448418 0.1270062547
335297990.0 -0.1333501523 0.1196100786 0.4303737685 -0.3565864211 0.4302166976 -0.3566432101 -0.1138489084 0.1287970885
340297960.0 -0.132625806 0.1210507256 0.4259896861 -0.3609678165 0.4258621278 -0.361208207 -0.1121762855 0.1299713392
345297930.0 -0.1316339879 0.1227462498 0.4218562324 -0.3664093765 0.4218548638 -0.3664676034 -0.110953557 0.1309966627
350297900.0 -0.1303353836 0.1240438047 0.4172344025 -0.3709532522 0.4177825717 -0.3707953441 -0.1099026539 0.132824739
355297870.0 -0.1292915493 0.125981368 0.4138177669 -0.3755151124 0.4139204968 -0.3752482913 -0.1087979884 0.1339563172
360297840.0 -0.1282962541 0.1267930493 0.4101476684 -0.3795914264 0.4104754713 -0.3796346759 -0.1072108271 0.1352228854
365297810.0 -0.1272793623 0.1283138112 0.4050914484 -0.3845091704 0.4058078548 -0.3846415246 -0.1055345587 0.1367160691
370297780.0 -0.1256714283 0.1294042238 0.4010957535 -0.3882486142 0.4013763147 -0.3882010245 -0.104189102 0.1380119266
375297750.0 -0.1243282742 0.1309969528 0.3968419462 -0.3934037275 0.3970594925 -0.39308134 -0.1027136288 0.1389042293
380297720.0 -0.1232380152 0.1319696084 0.3923337886 -0.3974190707 0.3927763605 -0.3970451756 -0.1016361637 0.1398860918
385297690.0 -0.1223561118 0.1334797668 0.3878747986 -0.401763239 0.3879207328 -0.4016600888 -0.0995155959 0.1416292208
390297660.0 -0.1210847056 0.1350457717 0.3835748613 -0.4062718609 0.3837782782 -0.4058343306 -0.0985427308 0.1428395915
395297630.0 -0.1198261794 0.1363995637 0.3792188959 -0.4101233999 0.3793357547 -0.4102118797 -0.0962447734 0.1440729419
400297600.0 -0.1189503708 0.1376068962 0.3742513443 -0.4146080253 0.3749641011 -0.4143482459 -0.0951631382 0.1454340717
405297570.0 -0.1175342533 0.138834673 0.3703877512 -0.4181681077 0.3704917949 -0.4181964898 -0.0936666948 0.146665486
410297540.0 -0.1160222449 0.1400482502 0.3660610221 -0.422440404 0.3660982846 -0.4224720688 -0.091953984 0.1480987095
415297510.0 -0.114348885 0.1411485222 0.3608900869 -0.4269264585 0.3614346432 -0.4264793124 -0.0904396577 0.149093424
420297480.0 -0.1135477294 0.142731553 0.3564086384 -0.4305585841 0.356132924 -0.4305032815 -0.0891089385 0.1500913454
425297450.0 -0.1121433012 0.1436444287 0.3516863242 -0.4342542404 0.3521326875 -0.4347199995 -0.0874632623 0.1517261984
430297420.0 -0.1107249202 0.1446575123 0.3466713552 -0.4375035732 0.3472601212 -0.437709227 -0.0861175536 0.152500846
435297390.0 -0.1096185974 0.146417306 0.3416797493 -0.441923139 0.3415104102 -0.4415814989 -0.0832804769 0.1534791466
440297360.0 -0.1079241143 0.1474070772 0.3370874293 -0.4451587783 0.3374731634 -0.4455312697 -0.0823731716 0.1545440343
445297330.0 -0.1067243064 0.1482211797 0.3325291818 -0.4490833231 0.3326037208 -0.4489988599 -0.0804707799 0.1552676944
450297300.0 -0.1051666674 0.1492901277 0.327336772 -0.4524861692 0.3275796603 -0.4529027059 -0.0788945491 0.1563655813
455297270.0 -0.1038451007 0.1507371286 0.3221089213 -0.4563046276 0.3227196424 -0.4565292403 -0.077208309 0.1576652078
460297240.0 -0.1024307122 0.1520238057 0.3174878642 -0.4594910385 0.3176118881 -0.4596899062 -0.075464923 0.158908257
465297210.0 -0.100833631 0.1532453662 0.3125421287 -0.4632975433 0.3121629693 -0.4634665883 -0.0735357324 0.1593718061
470297180.0 -0.099504139 0.1539022873 0.3072197712 -0.4662514672 0.3074772935 -0.466607838 -0.0718942629 0.1605308332
475297150.0 -0.0979445019 0.1549394666 0.301812884 -0.4693181888 0.3023550301 -0.4694063647 -0.0697517429 0.1613762099
480297120.0 -0.09637126 0.1564575462 0.2970485611 -0.4735768709 0.2967522081 -0.4729965477 -0.0679391021 0.1626629595
485297090.0 -0.0949033129 0.1573376727 0.2917646035 -0.4761269058 0.2921197187 -0.4759043419 -0.0663362032 0.1633156013
490297060.0 -0.0938796761 0.1584557887 0.2869914598 -0.4792877567 0.2867185661 -0.479487109 -0.0647192668 0.1644926204
495297030.0 -0.0918474847 0.1595216683 0.2813063097 -0.4823397561 0.2816408907 -0.4823030044 -0.06325356 0.1654052693
500297000.0 -0.0903148568 0.1606727607 0.276133377 -0.4850507828 0.2760464013 -0.4852250839 -0.0611182814 0.1665155957
505296970.0 -0.0890136286 0.1616379928 0.2709355296 -0.4882448005 0.2706841398 -0.4884914675 -0.0592909091 0.1669620517
510296940.0 -0.0874211079 0.1625667742 0.2654661179 -0.4914670746 0.265526267 -0.491438944 -0.0571873829 0.1678701287
515296910.0 -0.0857158538 0.1636126744 0.2598142335 -0.4941113932 0.2599412071 -0.4942661804 -0.0553676837 0.1683457035
520296880.0 -0.0842842555 0.1644205531 0.2549276657 -0.4971108634 0.2548828307 -0.4966968314 -0.0537728859 0.1693362372
525296850.0 -0.0825334823 0.164814116 0.2489675525 -0.4992549815 0.2494538416 -0.499612289 -0.0519881575 0.170063355
530296820.0 -0.0810314181 0.166248446 0.2434748594 -0.5024428385 0.2439490009 -0.5020664661 -0.050032643 0.1710809523
535296790.0 -0.0797084283 0.167230523 0.2387719937 -0.5047951357 0.2384371279 -0.504469927 -0.0479701489 0.1711203729
540296760.0 -0.0780153896 0.1681155018 0.23268339 -0.5078359483 0.2328708191 -0.5075932556 -0.0467124768 0.172320535
545296730.0 -0.0767129266 0.1690860902 0.2272076769 -0.5096791216 0.2271586716 -0.5098811727 -0.044854082 0.1727072881
550296700.0 -0.0740690573 0.1700728335 0.221295297 -0.5123731933 0.2217470198 -0.5125069029 -0.0429457712 0.1734386825
555296670.0 -0.0729547761 0.1706142266 0.2164410461 -0.5146326338 0.216361968 -0.5144860734 -0.0406430236 0.1743410324
560296640.0 -0.0710797267 0.1719111847 0.2101210932 -0.5172907461 0.2109152712 -0.5173405445 -0.0388474373 0.1745124997
565296610.0 -0.0698572052 0.1727002765 0.2047503039 -0.5193341009 0.2052864122 -0.5191041531 -0.0370532525 0.175079959
570296580.0 -0.0682310565 0.1732476785 0.1991918119 -0.5216521591 0.1987814896 -0.5215574767 -0.0349110204 0.1760874525
575296550.0 -0.0666767638 0.1743775275 0.1937456801 -0.5238033477 0.1935391652 -0.5235768387 -0.0325850281 0.1762753465
580296520.0 -0.0644610575 0.1749140726 0.1876526232 -0.5258664363 0.1879897474 -0.5253101901 -0.0306459552 0.1766244606
585296490.0 -0.0631936182 0.1751695109 0.1824434227 -0.527124406 0.1830566338 -0.5274725648 -0.0289159781 0.1773268019
590296460.0 -0.0611112297 0.1764643762 0.176456964 -0.528683104 0.1766099606 -0.5292132084 -0.0275053085 0.178040704
595296430.0 -0.0593340621 0.1772037875 0.1704139885 -0.5312963715 0.1703386887 -0.531183277 -0.0249381467 0.1777829443
600296400.0 -0.0581488593 0.1777583792 0.1648862934 -0.5329722956 0.1651240249 -0.5327888604 -0.0234239695 0.1784251603
605296370.0 -0.0560788776 0.1782753713 0.1590791991 -0.5345541666 0.1595513061 -0.5346509989 -0.0210237555 0.1790477566
610296340.0 -0.0546623592 0.1792144741 0.1530059573 -0.5362915346 0.1535807609 -0.5364819813 -0.0189360333 0.1794940733
615296310.0 -0.0524729993 0.1797208665 0.1474271379 -0.5377971703 0.14737741 -0.5384190855 -0.0168532257 0.1795984372
620296280.0 -0.0507543306 0.1802127498 0.1416959152 -0.5394399075 0.1416322793 -0.5392863494 -0.0152723228 0.1801576336
625296250.0 -0.0494248667 0.1807880589 0.1362798163 -0.5412948997 0.1361173378 -0.5412423499 -0.0124925769 0.1804146987
630296220.0 -0.0466041183 0.1817944177 0.1295782549 -0.5422648575 0.1295499879 -0.5421883569 -0.0111570858 0.1810287704
635296190.0 -0.045975751 0.1820241429 0.1242370999 -0.5436270524 0.1239848131 -0.5439372407 -0.0088819392 0.1811499666
640296160.0 -0.0439488462 0.182766278 0.1181648543 -0.544552582 0.1187669772 -0.5453436654 -0.0068069301 0.1814841295
645296130.0 -0.0423520062 0.1834910039 0.112508549 -0.5453682966 0.1123646188 -0.546265475 -0.0051181777 0.1818303023
650296100.0 -0.0400523609 0.183815369 0.1060889549 -0.5470180362 0.1065946041 -0.547236929 -0.0025428607 0.1815132418
655296070.0 -0.0388701926 0.1843538812 0.100828694 -0.5483616932 0.1007554238 -0.5484173718 -0.0006397347 0.1819059429
660296040.0 -0.037198241 0.1848034597 0.0946217615 -0.5495101832 0.0948226171 -0.549646349 0.0014796341 0.1822069024
665296010.0 -0.0347562764 0.1851217699 0.0882728302 -0.5502007454 0.0886759432 -0.5502896763 0.0036215461 0.1828143901
670295980.0 -0.0338413964 0.1860325704 0.0825166909 -0.55129707 0.0827141268 -0.5511310158 0.004882678 0.1824524672
675295950.0 -0.0316362878 0.1863479691 0.0770900131 -0.5517342687 0.0767697911 -0.5517257882 0.0068609714 0.1826394096
680295920.0 -0.0301341592 0.1864908367 0.0706946289 -0.5521793544 0.0703061498 -0.5532674083 0.0092699104 0.1832765475
685295890.0 -0.027852567 0.1876194449 0.0649259309 -0.553799147 0.0647436819 -0.5534080067 0.0110899197 0.1829097208
690295860.0 -0.0259821478 0.1877747941 0.0586155717 -0.55350172 0.0592398087 -0.5544328023 0.0131341052 0.1837766878
695295830.0 -0.0242885965 0.1879122689 0.0532003498 -0.5544299648 0.0529446941 -0.5543581049 0.0150864402 0.1831096488
700295800.0 -0.0223649351 0.1880311299 0.0465883601 -0.5548713439 0.04693171 -0.554781868 0.0169303369 0.1835489171
705295770.0 -0.0206631671 0.189297796 0.0406365768 -0.5553841208 0.0415660411 -0.5558425571 0.0189820764 0.1833550475
710295740.0 -0.0189076034 0.1891902088 0.0350192483 -0.5566456614 0.0353107289 -0.5561458438 0.0211199841 0.1827492505
715295710.0 -0.017611664 0.1894707227 0.0295845056 -0.5566723693 0.0290559872 -0.5562449419 0.0232581977 0.1825361089
720295680.0 -0.0154784512 0.1898013254 0.0230124172 -0.5566037715 0.0234843641 -0.5569746437 0.0253479187 0.1830318202
725295650.0 -0.0135719663 0.1898793485 0.0172825953 -0.5565553019 0.0173509177 -0.5571652582 0.0266981219 0.1831834291
730295620.0 -0.0115079572 0.1905987838 0.0111861541 -0.556579754 0.0113669783 -0.5571311137 0.02882036 0.1824870651
735295590.0 -0.0097470557 0.1906910177 0.0051448494 -0.5566996202 0.0049690337 -0.5569838272 0.0308598547 0.1819465794
740295560.0 -0.0082704377 0.1910081993 -0.0007719814 -0.5567112817 -0.0007207683 -0.5571413019 0.0335889915 0.1821637499
745295530.0 -0.0059721344 0.191283289 -0.0071122717 -0.5565922116 -0.0070906022 -0.5569527485 0.0353630227 0.1814136496
750295500.0 -0.0041065781 0.1913305657 -0.0130853389 -0.5564156729 -0.0123790749 -0.5571439191 0.0374085824 0.1815954843
755295470.0 -0.0022918455 0.191425814 -0.0183313785 -0.5567327066 -0.0188896885 -0.5567900769 0.0400134186 0.1808098142
760295440.0 -0.000634591 0.1917517875 -0.02457718 -0.556627156 -0.0246944758 -0.5566950352 0.0416255312 0.180841824
765295410.0 0.0012676721 0.1919098047 -0.0311949677 -0.5561016816 -0.0313974233 -0.5563584996 0.0436073805 0.1810213578
770295380.0 0.0031374133 0.192019842 -0.0368978292 -0.5553552385 -0.037188664 -0.5552491866 0.0456147463 0.180068753
775295350.0 0.0048787336 0.1916579569 -0.0430459489 -0.5544589299 -0.0425070516 -0.5552798255 0.0470778043 0.1798207755
780295320.0 0.0068716379 0.1920190371 -0.0490424215 -0.5543630334 -0.0482480808 -0.5544039031 0.0492174357 0.1791883845
785295290.0 0.0085071719 0.191774129 -0.0547516022 -0.5534790048 -0.0547565228 -0.5539970267 0.0517182766 0.1792277187
790295260.0 0.0112621403 0.1923768322 -0.0604784739 -0.5536102388 -0.0602199129 -0.5531585058 0.0537161205 0.1788708812
795295230.0 0.0126333111 0.1919643397 -0.0669631298 -0.5518370852 -0.066128988 -0.5524350851 0.0558989862 0.1785208193
800295200.0 0.0140888831 0.1922047435 -0.0727664567 -0.5515519796 -0.0723364367 -0.5515297491 0.0575888641 0.1778563703
805295170.0 0.0163626626 0.1923568294 -0.079054947 -0.5507619965 -0.0785001608 -0.5512639443 0.0594127404 0.1776815252
810295140.0 0.0181817439 0.191856817 -0.0844083898 -0.5499873667 -0.0838805645 -0.5494884587 0.0616980477 0.1770855067
815295110.0 0.019899398 0.1920133873 -0.0903605614 -0.5487686568 -0.0901274593 -0.5489537108 0.0635524352 0.1764643302
820295080.0 0.0213897176 0.1924244674 -0.0961566788 -0.547523565 -0.0957846937 -0.5480523247 0.0657586226 0.1762245067
825295050.0 0.0242137141 0.1919177809 -0.1020349534 -0.5464224899 -0.1016051987 -0.5469118195 0.0675022105 0.1757257041
830295020.0 0.0259195227 0.1918786386 -0.1083404993 -0.5453336454 -0.1078660513 -0.5457363208 0.070146317 0.1750885005
