!Created with skrf (http://scikit-rf.org).
# Hz S RI R 50.0 
!freq ReS11 ImS11 ReS21 ImS21 ReS12 ImS12 ReS22 ImS22
300000.0 -0.0954637299 -0.0962951077 0.6234128812 0.0884730871 0.6210886082 0.0908689407 -0.0956331825 -0.1023287369
5299970.0 -0.1014064368 0.0114055793 0.6305527186 0.0114534343 0.6308411859 0.0109143912 -0.1018535465 0.0114491638
10299940.0 -0.0969205283 0.0286271289 0.6344869993 0.0161989067 0.6344013342 0.0166072211 -0.0965784304 0.0287575154
15299910.0 -0.0893367711 0.0424261468 0.6406009887 0.0207585045 0.6410985857 0.0209866805 -0.0897933765 0.041855966
20299880.0 -0.0804041753 0.053616128 0.6490860929 0.0240234117 0.6489598091 0.0244877204 -0.0809525007 0.0529080154
25299850.0 -0.0703849543 0.0623786404 0.6587247323 0.0258961819 0.6583898807 0.0256822807 -0.0716521156 0.0618333573
30299820.0 -0.0608495957 0.0685401601 0.6679152659 0.0244781658 0.6679906213 0.0245208946 -0.0618778047 0.0682403036
35299790.0 -0.050733711 0.0735986363 0.677414417 0.0222344133 0.6774337296 0.0220202027 -0.0523576147 0.0737362656
40299760.0 -0.0413733847 0.0765549822 0.6867372555 0.0176492604 0.6871227331 0.0176912587 -0.0428404419 0.0768892971
45299730.0 -0.0317426448 0.0782286826 0.6957935702 0.0122444164 0.6964490036 0.0118605316 -0.0329594265 0.0793596361
50299700.0 -0.0228817237 0.0789889799 0.7040422415 0.0047171588 0.703763081 0.0049165497 -0.0246433578 0.0802802501
55299670.0 -0.0151301694 0.0787716704 0.7112949841 -0.0021764209 0.7111393655 -0.0024850027 -0.017219623 0.0805716928
60299640.0 -0.0076098802 0.0785185587 0.7178886531 -0.0111254885 0.7180923324 -0.0113277145 -0.0095703609 0.0795376227
65299610.0 -0.0013194333 0.0771678477 0.724592493 -0.0194353006 0.7241827478 -0.0196578243 -0.0028003593 0.0783970831
70299580.0 0.005280578 0.07510594 0.7289243967 -0.0289841577 0.7291603097 -0.0288842138 0.0028428646 0.0772186885
75299550.0 0.0101002967 0.0733661206 0.7333138042 -0.0388348077 0.7338661179 -0.0388789032 0.008648903 0.0753863581
80299520.0 0.0153730617 0.0712502962 0.7374482301 -0.0484002372 0.7380802317 -0.048676254 0.0138559609 0.073399761
85299490.0 0.020085206 0.0687639763 0.7409758809 -0.0589923646 0.7410046248 -0.0580651633 0.0178356759 0.070667772
90299460.0 0.0240298355 0.06675633 0.7433464106 -0.0691249189 0.7435819551 -0.0683688478 0.0224474688 0.0691331645
95299430.0 0.0279373531 0.0641206262 0.7461734398 -0.0784472209 0.7462763179 -0.0789242956 0.0256040339 0.0665825722
100299400.0 0.0314674741 0.0612654714 0.7478301068 -0.0890069562 0.7478168277 -0.0887592261 0.0289712187 0.0645857071
105299370.0 0.0342700743 0.0589332736 0.7491686909 -0.0984074036 0.7499012555 -0.0985813263 0.0326191339 0.061791513
110299340.0 0.03728713 0.0565919986 0.7510600139 -0.1086161461 0.7511856711 -0.1084483338 0.0350029479 0.0592972987
115299310.0 0.0395685495 0.0541398099 0.7517234369 -0.1188028657 0.7512285915 -0.1186176112 0.0372350923 0.0576935826
120299280.0 0.0415305412 0.0519085385 0.7522538219 -0.1294666693 0.7519597195 -0.1292337911 0.0396586653 0.0544328301
125299250.0 0.0439969896 0.0497787861 0.7524079759 -0.1392342793 0.7521348305 -0.1385932124 0.0419912835 0.0529039569
130299220.0 0.045743091 0.0468715436 0.752274726 -0.1490035481 0.7519131101 -0.1491016174 0.0437936347 0.0508980448
135299190.0 0.0469529882 0.0452915252 0.7520214809 -0.1582631251 0.7519238696 -0.1589488044 0.0452439206 0.0478993744
140299160.0 0.0486134414 0.0431564415 0.7520979247 -0.1687849978 0.7509654363 -0.1683503256 0.0460093116 0.0455389979
145299130.0 0.0494100948 0.0410496567 0.7504627124 -0.1782581755 0.7502376708 -0.1783655114 0.0480309351 0.0433715146
150299100.0 0.0508225356 0.0391080231 0.7491327907 -0.1880807392 0.7495605591 -0.1879569515 0.0493414518 0.0419853624
155299070.0 0.0526447703 0.0367702656 0.7477303303 -0.1973318627 0.7485275637 -0.1975783884 0.0503596166 0.0395986961
160299040.0 0.0533197972 0.0356555918 0.746872363 -0.2072630922 0.7466016846 -0.2072715155 0.0509886171 0.0382097697
165299010.0 0.0542760103 0.0335645975 0.7454143614 -0.2167723448 0.7448696674 -0.2166360088 0.0520219835 0.0358003605
170298980.0 0.0551767054 0.0319650115 0.743010396 -0.2257217849 0.7434331046 -0.226224292 0.0522430927 0.0339094585
175298950.0 0.0559251879 0.0302633815 0.7416622686 -0.2350585371 0.7419826336 -0.2356668551 0.0533602693 0.0325101506
180298920.0 0.0564871247 0.0288540694 0.7394921997 -0.2447382222 0.739683041 -0.244562661 0.0539828756 0.0310177896
185298890.0 0.0568153617 0.0273792709 0.7375581859 -0.2535336021 0.7372236779 -0.253403233 0.0550926856 0.0289352499
190298860.0 0.0579864921 0.0256409029 0.7344437287 -0.2629798897 0.7350281597 -0.2624365217 0.0551596115 0.027725154
195298830.0 0.0579641077 0.0241457282 0.7328423329 -0.2716898468 0.7324738688 -0.2716772063 0.0556751906 0.0257547368
200298800.0 0.0584238029 0.0222524335 0.729924262 -0.2810416985 0.7295611519 -0.2808083849 0.0559295171 0.0238465126
205298770.0 0.0585140462 0.0209652706 0.7266572159 -0.2893680148 0.7273762453 -0.2890710274 0.0567551535 0.0227294526
210298740.0 0.0590190075 0.0200352825 0.7243004161 -0.2982562198 0.7238559656 -0.2984590514 0.0565736893 0.0207652514
215298710.0 0.0594219644 0.0186241753 0.7209611918 -0.3070027582 0.7210510548 -0.3072003369 0.0570357943 0.0200049351
220298680.0 0.0596236768 0.0177455432 0.7170568274 -0.3155597485 0.7174361727 -0.3158213148 0.0572561939 0.018136702
225298650.0 0.0596198553 0.0162326903 0.7143833668 -0.3241143858 0.7142198381 -0.32381636 0.0573815132 0.0163979309
230298620.0 0.0604779877 0.0152963028 0.7108585314 -0.3328095489 0.7112985584 -0.3329215895 0.0572007723 0.0149969325
235298590.0 0.0598909798 0.01371913 0.7080939129 -0.3416212643 0.7078346106 -0.3408147916 0.057877902 0.0142256289
240298560.0 0.0604583897 0.012827745 0.7038484331 -0.3493640336 0.7042009776 -0.3496732844 0.0574647184 0.0129096158
245298530.0 0.0603244438 0.0113482491 0.7003868598 -0.3583679069 0.7001328755 -0.3577849485 0.0577872227 0.011633357
250298500.0 0.0602326237 0.0102537726 0.6969539162 -0.3662684003 0.6967830915 -0.3659542184 0.0577117916 0.0105871178
255298470.0 0.060726723 0.0096379361 0.6933896839 -0.3739191972 0.6932188275 -0.374502637 0.0578229212 0.009924093
260298440.0 0.0607428059 0.0083321819 0.6894565864 -0.3820102055 0.6890299273 -0.3826419567 0.0576584101 0.0078051615
265298410.0 0.0600673026 0.007740181 0.6847966615 -0.3907805211 0.6845851595 -0.3909526219 0.0588305987 0.0064851805
270298380.0 0.0602166419 0.0060061203 0.6802136085 -0.3982146417 0.6805851284 -0.3981369074 0.0581015575 0.0060394036
275298350.0 0.0605803496 0.0055594791 0.6753894105 -0.4057745386 0.6762170683 -0.4058290008 0.0578696541 0.0050047129
280298320.0 0.0597762616 0.0044100264 0.6714598885 -0.4138985878 0.6720571 -0.4146673663 0.0583123212 0.0039321878
285298290.0 0.0598598274 0.0036618499 0.6673056945 -0.4214788087 0.6678056789 -0.4217624847 0.057757813 0.0027740034
290298260.0 0.0598694472 0.0027013852 0.6637777893 -0.4298771044 0.6633236818 -0.4295781197 0.0579839477 0.0015786188
295298230.0 0.0599845543 0.0013781476 0.6585040664 -0.4376505722 0.6587381319 -0.4376287773 0.0578301088 -7.77788e-05
300298200.0 0.0599823744 0.0008144233 0.6538329525 -0.4447582205 0.6535723143 -0.4450872406 0.0576971604 -0.0005593508
305298170.0 0.0598314885 -0.0006162886 0.6495323115 -0.4536263695 0.6493039702 -0.4536003794 0.0576661771 -0.00216621
310298140.0 0.0604800154 -0.0015766532 0.6445320036 -0.4605301356 0.6445055078 -0.4599952542 0.0579610655 -0.0038587179
315298110.0 0.0598236759 -0.0031641209 0.6396067738 -0.4687807547 0.6390030697 -0.4685110979 0.0577499964 -0.0045420494
320298080.0 0.0594995261 -0.0039038156 0.6329789441 -0.4757941987 0.6342519838 -0.4760491063 0.057404188 -0.005563938
325298050.0 0.0588488504 -0.0050758266 0.6286674787 -0.4830145192 0.6288710202 -0.4830474105 0.0569780869 -0.0068883791
330298020.0 0.0572280367 -0.0059385193 0.6226157941 -0.4908701491 0.6232528748 -0.4905655676 0.0560185836 -0.0081768053
335297990.0 0.0576261984 -0.0067398782 0.6172312923 -0.4976099787 0.6173852703 -0.497860458 0.0555257641 -0.0088806196
340297960.0 0.0567840083 -0.0074987987 0.6114450065 -0.504601479 0.6109468316 -0.504815646 0.055389063 -0.0093484501
345297930.0 0.0563674549 -0.0086421303 0.6060043301 -0.5117918347 0.6054134671 -0.5122106962 0.0553564658 -0.0104607
350297900.0 0.0555828795 -0.0090990222 0.6008605201 -0.517834741 0.600448274 -0.5179705606 0.0545948585 -0.0114884649
355297870.0 0.0556482338 -0.0096610401 0.5943206971 -0.5243775424 0.5945510073 -0.5244576156 0.0543726218 -0.0120909322
360297840.0 0.055324913 -0.0102171965 0.5882325976 -0.5314486894 0.5884425558 -0.53194878 0.0535256849 -0.0123721539
365297810.0 0.0545833863 -0.010972381 0.5825268538 -0.5379538915 0.5823140944 -0.5382187051 0.0529180453 -0.0133115566
370297780.0 0.0546608088 -0.0113312387 0.575971093 -0.5446537731 0.5762640136 -0.5441043432 0.0528563756 -0.0143152138
375297750.0 0.0541340145 -0.0120696238 0.5703573286 -0.5508869745 0.5705784562 -0.5513255978 0.052696148 -0.0148622226
380297720.0 0.053284304 -0.0125514784 0.5647283223 -0.5575509103 0.56431061 -0.5575200244 0.0521570365 -0.0150409096
385297690.0 0.0531456127 -0.0137221802 0.5580695831 -0.5641423376 0.5584425842 -0.5640968257 0.0520850608 -0.0157492538
390297660.0 0.0529568356 -0.0144825549 0.5515749238 -0.5694169876 0.5523997787 -0.5700380691 0.0521252875 -0.0168246862
395297630.0 0.05296044 -0.0150634092 0.5459984348 -0.575157314 0.5457296989 -0.5754344787 0.0514369233 -0.0172179761
400297600.0 0.0520410068 -0.015672977 0.5394732636 -0.5822126022 0.5398100459 -0.58179121 0.0515308946 -0.0176199436
405297570.0 0.0518315878 -0.0167824585 0.5333008464 -0.587517496 0.533090547 -0.5882285777 0.0508142554 -0.0179911789
410297540.0 0.0513881143 -0.016649911 0.5269992617 -0.5943516648 0.5266099895 -0.594050182 0.050691918 -0.0189281434
415297510.0 0.050869891 -0.0174314422 0.5204136121 -0.5992946751 0.5206044148 -0.600210006 0.0506847623 -0.0192680618
420297480.0 0.0505073728 -0.0184715165 0.5135946743 -0.6056132246 0.5139303079 -0.6055181478 0.0500896205 -0.0196545224
425297450.0 0.0508160393 -0.0189187945 0.5068299074 -0.6109014588 0.5069281041 -0.611095342 0.0496883345 -0.0206702845
430297420.0 0.0499781122 -0.0192062173 0.5007035365 -0.6166611656 0.5008342432 -0.6164166531 0.0500762187 -0.0212023059
435297390.0 0.0497565973 -0.020344106 0.4932520593 -0.6229397973 0.4930300273 -0.6224993796 0.0485593763 -0.0213450372
440297360.0 0.0495746761 -0.0210541945 0.4858101065 -0.6279941814 0.4860532116 -0.6276197934 0.0484770753 -0.0219029403
445297330.0 0.0492544024 -0.0220549526 0.4795393644 -0.6324283779 0.4795386984 -0.6332017399 0.0481790037 -0.0224099681
450297300.0 0.0489425648 -0.0221621113 0.4726409772 -0.6378862388 0.4729498682 -0.6381038091 0.0478325845 -0.0228288145
455297270.0 0.0479196554 -0.0228826735 0.4657365277 -0.6431968226 0.4661514293 -0.6436004183 0.0477432308 -0.0236975982
460297240.0 0.048036568 -0.0232564265 0.458618248 -0.649430821 0.4586169624 -0.6489479474 0.0473968952 -0.0241676104
465297210.0 0.0478051287 -0.0240675249 0.4508138065 -0.6542063455 0.4508567638 -0.6542621678 0.0474628137 -0.0241651787
470297180.0 0.0470934114 -0.0248155785 0.4443954719 -0.6586464895 0.4445210479 -0.658423614 0.0467629624 -0.0252473017
475297150.0 0.046186132 -0.0249780935 0.4371600642 -0.6634498334 0.4371422503 -0.6638545313 0.046508195 -0.0259044663
480297120.0 0.0468015119 -0.0249966192 0.4292677172 -0.6682093143 0.4296797998 -0.6681423365 0.0459139726 -0.0263844969
485297090.0 0.0460955971 -0.0266351388 0.422358156 -0.6739046802 0.4225749127 -0.6730620695 0.0456724185 -0.0265091077
490297060.0 0.0462234136 -0.026562476 0.4140925934 -0.6780100168 0.4148328417 -0.6782849198 0.0452790262 -0.0271511968
495297030.0 0.0451244766 -0.0279906087 0.4075572466 -0.6821670451 0.407160829 -0.682734757 0.0453500293 -0.0278228131
500297000.0 0.0446142531 -0.0276760752 0.4001510334 -0.6864912816 0.3994689613 -0.6871178656 0.0447795836 -0.0277163079
505296970.0 0.044997371 -0.0282546933 0.3924973389 -0.6917425599 0.3924693185 -0.6911446039 0.0443049718 -0.0292278727
510296940.0 0.0441909971 -0.0292726417 0.3849027082 -0.6965630624 0.3851840679 -0.6961413887 0.04400215 -0.028922811
515296910.0 0.043907762 -0.0290759338 0.3763850857 -0.7002231189 0.3765987681 -0.6995907026 0.0435845592 -0.0304285253
520296880.0 0.0432693566 -0.0296604876 0.3697106489 -0.7039071119 0.369178076 -0.703154598 0.0436532458 -0.0298577577
525296850.0 0.0434016168 -0.0300785038 0.3618373326 -0.7079096525 0.3614304068 -0.7079814329 0.043532437 -0.0306766116
530296820.0 0.0425964224 -0.0310663152 0.3538736879 -0.7119621677 0.3540145188 -0.7118258186 0.0428553033 -0.0315467583
535296790.0 0.0428413117 -0.0312306202 0.3465169083 -0.7155964684 0.3462743538 -0.7158913242 0.0430124134 -0.0312428996
540296760.0 0.0420437438 -0.0314034397 0.3377241465 -0.7195365935 0.338525025 -0.7191662423 0.042376011 -0.0325197098
545296730.0 0.0409832202 -0.0317366082 0.330118259 -0.7227364823 0.3302013636 -0.7231283545 0.0416084525 -0.032884036
550296700.0 0.0416174584 -0.032241063 0.321853235 -0.7265557969 0.3222342282 -0.7268082177 0.0417862561 -0.033196227
555296670.0 0.040721141 -0.0325985655 0.3143538762 -0.7310150315 0.3149706615 -0.7302623785 0.0410919075 -0.034253269
560296640.0 0.041093759 -0.03323587 0.3063017658 -0.7333433838 0.3071742734 -0.7336464527 0.0404104461 -0.0338082728
565296610.0 0.0397613044 -0.0333182808 0.2990838219 -0.7372584787 0.2985929031 -0.7364771333 0.0401382099 -0.0343652358
570296580.0 0.0392086816 -0.0338739167 0.2898692907 -0.7400192202 0.290103556 -0.7403766763 0.039703157 -0.0353109037
575296550.0 0.0391204359 -0.0343391256 0.2826083907 -0.7437635193 0.2826896916 -0.7432670104 0.0391840717 -0.0353104118
580296520.0 0.0387413475 -0.0341246702 0.2741296267 -0.7464922492 0.2739968805 -0.7467682663 0.0383600095 -0.0359026612
585296490.0 0.0382311732 -0.0346268877 0.266127903 -0.7487813095 0.2656838567 -0.7491621145 0.03870069 -0.035673409
590296460.0 0.0385115896 -0.0351452879 0.2573300419 -0.7522899358 0.2577056175 -0.7529309515 0.0375048325 -0.0361194132
595296430.0 0.037774494 -0.035506358 0.2488688014 -0.7549026221 0.2491251283 -0.7550350504 0.0374786516 -0.0372162361
600296400.0 0.037661285 -0.0355267216 0.2407127905 -0.757611577 0.2407153797 -0.7580544696 0.0369731324 -0.0373633626
605296370.0 0.0363395352 -0.0359873561 0.2329124999 -0.7602030861 0.2326266994 -0.7606025793 0.0363435553 -0.0377723969
610296340.0 0.0362667957 -0.0357527705 0.2239027228 -0.7620592941 0.2253108457 -0.7624639079 0.0356068221 -0.0379520869
615296310.0 0.0361461547 -0.0362976475 0.216244837 -0.7656744468 0.2158885142 -0.7657161883 0.0353951068 -0.038067373
620296280.0 0.0350555733 -0.0359197284 0.2074912624 -0.7676321528 0.2074643873 -0.767546417 0.0345092768 -0.0382044801
625296250.0 0.0346538891 -0.03673854 0.1987588298 -0.7706373167 0.1992617666 -0.7705658621 0.0337643992 -0.0387614885
630296220.0 0.0344590623 -0.0365770657 0.1908700466 -0.7720160882 0.1910203479 -0.7719908382 0.0334902411 -0.0390647688
635296190.0 0.0330219758 -0.0365945277 0.1821385787 -0.7742932202 0.1827355612 -0.7736513217 0.0329036016 -0.0393613124
640296160.0 0.0329216726 -0.0369444919 0.1737376528 -0.7763344333 0.1738784517 -0.7760961807 0.0320225789 -0.0399435762
645296130.0 0.032737012 -0.0365065973 0.1652156242 -0.7774607823 0.1655541564 -0.7778616938 0.0315152446 -0.0406921914
650296100.0 0.0320312109 -0.0374206836 0.1569034274 -0.7799138204 0.1570538448 -0.7795834377 0.032043108 -0.0405619803
655296070.0 0.0316897347 -0.0375289963 0.1480630821 -0.7810221189 0.1485600305 -0.7813487437 0.0305576931 -0.0404930058
660296040.0 0.0311647227 -0.0373791285 0.1397385733 -0.7831882247 0.1400777563 -0.7828551043 0.0298240017 -0.041488649
665296010.0 0.0307259799 -0.0379300596 0.1309398488 -0.7838702633 0.131391872 -0.7844442701 0.0295935547 -0.0412769618
670295980.0 0.0302330545 -0.0374767791 0.1229510147 -0.785555665 0.1225833439 -0.7850921144 0.0283573916 -0.0418721276
675295950.0 0.029646266 -0.0378707018 0.1144219396 -0.7867435807 0.1140638116 -0.7869442129 0.0278875443 -0.0414093915
680295920.0 0.0291532109 -0.0377498476 0.1057676331 -0.7877260674 0.1059902632 -0.7878519821 0.0276372143 -0.0422835345
685295890.0 0.0286321319 -0.0375843388 0.0965629343 -0.7894891134 0.0974352911 -0.7892495231 0.027189619 -0.0419161956
690295860.0 0.0273959461 -0.037875562 0.0881872419 -0.7898964929 0.0878902153 -0.790578176 0.0264087786 -0.0425111242
695295830.0 0.0275044346 -0.0382252052 0.0797418807 -0.7908875438 0.0799447213 -0.7907387099 0.0257100434 -0.0423788
700295800.0 0.0269538858 -0.0380645517 0.0717126486 -0.7921648607 0.0712625547 -0.7917934112 0.0247761785 -0.0422311669
705295770.0 0.0255310304 -0.0380361773 0.0625607227 -0.7926131679 0.0626722035 -0.7923694555 0.0242737687 -0.0425202927
710295740.0 0.0254819225 -0.0383424163 0.0540921634 -0.7935846103 0.054343863 -0.7931842699 0.0242336462 -0.0425049824
715295710.0 0.0247592233 -0.0381095097 0.045636812 -0.7938073746 0.0457127664 -0.7940800806 0.0232019844 -0.0429458966
720295680.0 0.0246293157 -0.0380899251 0.0362762611 -0.7941203735 0.0367048257 -0.7943196829 0.0226495416 -0.042855235
725295650.0 0.0231735037 -0.0379580811 0.0281031457 -0.7947954715 0.0279163492 -0.7944454459 0.0213183028 -0.0425672312
730295620.0 0.0220913714 -0.0384516377 0.0189419844 -0.7946956445 0.0195238973 -0.7938105872 0.0210081877 -0.0425849545
735295590.0 0.0223743439 -0.0382430731 0.010955185 -0.7950998682 0.011427366 -0.7949270068 0.0201860273 -0.0434421779
740295560.0 0.0217914638 -0.0386549879 0.0021893819 -0.7950486458 0.0028879462 -0.7950245857 0.019316636 -0.0427054298
745295530.0 0.0208394305 -0.0382685621 -0.0062185876 -0.7945145049 -0.0054629158 -0.7944789575 0.0181107669 -0.0432731134
750295500.0 0.0201198019 -0.0381299356 -0.0148194588 -0.7945757483 -0.0156583837 -0.7947811882 0.018004178 -0.0429214253
755295470.0 0.019149163 -0.0383900939 -0.0234249739 -0.7951316218 -0.0232095206 -0.7948522399 0.0175519236 -0.0422335647
760295440.0 0.0187247999 -0.0377576744 -0.0330242928 -0.7945902353 -0.0321560536 -0.7934900833 0.0170907216 -0.043796557
765295410.0 0.0190459107 -0.0382509864 -0.0408610724 -0.7939773911 -0.0405584947 -0.7933581794 0.0163488708 -0.04325193
770295380.0 0.0181592915 -0.0378060024 -0.0490643599 -0.7930169173 -0.0490669541 -0.7936895324 0.0150906371 -0.0429300926
775295350.0 0.0171994125 -0.0383649461 -0.0578830511 -0.7930300629 -0.0577793932 -0.7917748149 0.0151009394 -0.0428053011
780295320.0 0.0163699856 -0.0377255457 -0.0664427117 -0.7914526075 -0.0662639046 -0.791908972 0.0144738659 -0.0432665801
785295290.0 0.0158134403 -0.0383585751 -0.0753293269 -0.7911393506 -0.0748066991 -0.7910551966 0.0131151328 -0.0423773518
790295260.0 0.015521316 -0.0382862515 -0.0834102315 -0.7901730879 -0.0834031191 -0.7907034325 0.0126584128 -0.0421203533
795295230.0 0.0146489783 -0.0384049345 -0.0923521206 -0.7897037321 -0.092194252 -0.789674958 0.0120928728 -0.0434653425
800295200.0 0.0135192177 -0.0375949011 -0.1004294188 -0.7873853164 -0.1003700224 -0.7884307708 0.011115533 -0.0424975232
805295170.0 0.0129206274 -0.0381587058 -0.1093212706 -0.7865082422 -0.1087147093 -0.787357307 0.0113992423 -0.042351506
810295140.0 0.0128935112 -0.0376659827 -0.118093807 -0.7855962421 -0.117649362 -0.785717873 0.0104070067 -0.042472851
815295110.0 0.0120632033 -0.0377338197 -0.126001969 -0.7846767856 -0.1259331205 -0.784750467 0.0094046804 -0.042481367
820295080.0 0.0115722684 -0.0375726909 -0.1341405802 -0.7827359104 -0.1343207919 -0.7833090324 0.0078098965 -0.0412296729
825295050.0 0.0105268962 -0.0376808582 -0.1433390063 -0.7814939101 -0.1432436128 -0.7812716376 0.0086449261 -0.0411116117
830295020.0 0.0097838749 -0.0376508024 -0.1515126888 -0.7798463264 -0.1513712629 -0.7802283118 0.0075638722 -0.0421430037
