!Created with skrf (http://scikit-rf.org).
# Hz S RI R 50.0 
!freq ReS11 ImS11 ReS21 ImS21 ReS12 ImS12 ReS22 ImS22
300000.0 -0.2081851836 -0.0990825371 -0.0011137291 -0.0024487202 0.0008974863 -0.0001306378 -0.7654423841 -0.1960974025
5299970.0 -0.215272021 0.0068728551 -0.0002080799 0.0003633677 -6.58279e-05 4.13421e-05 -0.7845927217 -0.0093489218
10299940.0 -0.2116036783 0.0203510271 -8.65175e-05 3.83017e-05 -0.0001124459 -9.57189e-05 -0.7872170411 -0.0056426477
15299910.0 -0.206224522 0.0300988852 -1.91149e-05 4.81998e-05 -1.16282e-05 -8.55804e-05 -0.7925720382 -0.0025832812
20299880.0 -0.2006250426 0.0379385809 9.1074e-05 -4.36041e-05 -5.71942e-05 1.099e-07 -0.7994922708 0.0014264009
25299850.0 -0.19402286 0.0448316214 -9.22829e-05 -0.0001164569 1.9413e-05 0.000164174 -0.8059931701 0.0074932235
30299820.0 -0.1875921451 0.0496892221 3.37054e-05 2.66173e-05 7.3703e-05 0.0002435367 -0.8118934038 0.0158074126
35299790.0 -0.1814188737 0.0534851684 -5.74208e-05 -0.0001999929 -0.0001854021 -0.0002434491 -0.8172571043 0.0246862587
40299760.0 -0.1752362546 0.0562399968 -0.0001937165 0.0002346637 3.95745e-05 -0.0001570755 -0.8208283724 0.0339177424
45299730.0 -0.1698163373 0.0581426694 1.38097e-05 0.0001270551 -0.0001693975 -7.29435e-05 -0.8242000358 0.043904968
50299700.0 -0.1642178109 0.0597825175 -6.45033e-05 -0.0001954455 0.0001670726 -0.0001227219 -0.8265743498 0.0534547358
55299670.0 -0.1597134925 0.060753419 2.73754e-05 0.0003357941 -4.48678e-05 -0.0001110372 -0.8284079568 0.063954198
60299640.0 -0.1551907761 0.0610529143 -6.4273e-05 -2.41823e-05 -9.51428e-05 9.065e-06 -0.8293066374 0.0739291051
65299610.0 -0.1508576726 0.0612749182 -8.09728e-05 -0.0001764075 -8.1023e-05 1.87788e-05 -0.8303047468 0.0841677289
70299580.0 -0.1480627482 0.0614322667 0.000105487 -8.09771e-05 0.0001710255 -0.0001667965 -0.8311410317 0.0941445964
75299550.0 -0.1445755443 0.0615290976 -1.6555e-05 0.0001711494 3.48943e-05 3.79653e-05 -0.8308077187 0.1040491429
80299520.0 -0.1418194187 0.0612375597 -0.0001072574 4.84477e-05 -7.14776e-05 0.0001304439 -0.8304873741 0.1142055237
85299490.0 -0.1387483492 0.0609454114 7.72381e-05 0.0002590837 -5.29954e-05 0.0001912231 -0.8297498792 0.1229391602
90299460.0 -0.1363785439 0.0608419122 3.94672e-05 4.388e-05 -5.93081e-05 0.0002306819 -0.8290529461 0.1323695934
95299430.0 -0.1342911402 0.0608815329 0.0002366248 -9.26382e-05 -5.95199e-05 0.0001263335 -0.8282831629 0.1425683326
100299400.0 -0.1323184248 0.0605920861 4.47211e-05 -0.0001752476 -0.0001308847 1.09869e-05 -0.8270319414 0.1518171505
105299370.0 -0.1304115279 0.0601395087 4.8617e-05 -3.17578e-05 1.65554e-05 -0.000122663 -0.8253807477 0.1606123956
110299340.0 -0.1287401787 0.05993166 0.0001972828 0.0001119916 0.0001498693 0.0001449048 -0.8240338679 0.1695454402
115299310.0 -0.1274766589 0.0598782062 -0.0001028532 0.0001539619 2.70374e-05 7.99678e-05 -0.8233453155 0.1789664506
120299280.0 -0.1260205169 0.060121116 6.5223e-05 0.0002123631 4.60185e-05 -3.4166e-05 -0.8212490944 0.1879241883
125299250.0 -0.1249622568 0.0597337336 5.62915e-05 -1.9524e-05 -9.94711e-05 4.2637e-05 -0.8196473068 0.1971971609
130299220.0 -0.1238708383 0.059743816 8.54875e-05 0.0001986329 0.0001133011 0.0001512453 -0.817616039 0.2055668871
135299190.0 -0.1224931863 0.0598881673 -5.97643e-05 1.77664e-05 0.0002719949 3.61528e-05 -0.8156928153 0.215147306
140299160.0 -0.1219579445 0.0603052419 -0.0001190822 3.50088e-05 -8.59358e-05 0.0002194127 -0.8136420845 0.2237664306
145299130.0 -0.1208902258 0.0607826324 7.11173e-05 0.0002748728 0.0001279329 -3.00836e-05 -0.8118274262 0.2323875887
150299100.0 -0.120191809 0.0606601673 2.71874e-05 0.0002320965 5.40615e-05 0.0002842982 -0.8094501904 0.2413435767
155299070.0 -0.1194656542 0.0611406853 0.000211662 2.7869e-05 7.2634e-06 5.70167e-05 -0.8070476389 0.2502635915
160299040.0 -0.1185067442 0.0613502252 0.0002563973 -1.21761e-05 0.0001871907 0.0002846045 -0.8045421391 0.2592530786
165299010.0 -0.1180058743 0.0620100643 -8.77158e-05 0.0002397313 8.97189e-05 0.0002122598 -0.8019686025 0.2671334362
170298980.0 -0.1174490102 0.0622675381 0.0001584345 0.0001020644 0.0002172024 0.0001254711 -0.7990080322 0.2757786747
175298950.0 -0.1166132989 0.0627168519 0.0002037301 -0.0001897475 7.34378e-05 6.35637e-05 -0.7959962797 0.2849878052
180298920.0 -0.1164194957 0.0630750086 0.0002010884 0.000133935 7.20548e-05 0.0003447741 -0.7933996981 0.2931069442
185298890.0 -0.1155205623 0.0636568639 0.0001110179 1.21694e-05 3.10653e-05 0.0001831726 -0.7903239638 0.3013931679
190298860.0 -0.1152591082 0.0647233468 1.72728e-05 0.0001677103 -0.0001106564 -7.25642e-05 -0.7873369039 0.3100798327
195298830.0 -0.1142440878 0.0651271457 9.82026e-05 0.0002227694 -4.3328e-05 -0.0001189622 -0.7842468283 0.3179610576
200298800.0 -0.1140278303 0.0654431976 1.62932e-05 0.0001138535 6.97903e-05 3.26831e-05 -0.7812866479 0.3266858084
205298770.0 -0.1139788302 0.0664874118 0.000206459 -0.0001563467 1.21167e-05 0.0002404722 -0.7775579496 0.3350537181
210298740.0 -0.1130187109 0.0670863219 0.0001639911 0.0002276449 0.0001177569 0.0002112543 -0.7740637709 0.3431245848
215298710.0 -0.1128211802 0.0677898615 -0.000111403 9.25246e-05 -2.43713e-05 0.0003117956 -0.7702954764 0.3516600191
220298680.0 -0.1122207321 0.0683825533 0.0001398717 0.0001669 -1.72e-06 6.2296e-05 -0.7665559198 0.3590174987
225298650.0 -0.1114836663 0.0694423285 -6.66816e-05 -1.01162e-05 0.0002512283 0.0002099093 -0.7625504666 0.3677479304
230298620.0 -0.1113422946 0.0702406606 -0.0001148077 9.90219e-05 0.0001275797 -0.0001474363 -0.7586971498 0.3758105264
235298590.0 -0.1107659959 0.0713140319 -0.0002335143 -5.93461e-05 -0.0001230862 -5.03549e-05 -0.7552829952 0.3830035993
240298560.0 -0.1102946671 0.0721221897 7.13462e-05 0.000171773 -1.99609e-05 3.23994e-05 -0.7508653348 0.3909459692
245298530.0 -0.1099690497 0.0728953646 1.50408e-05 4.59096e-05 0.0001981264 1.05166e-05 -0.7471416039 0.3990292802
250298500.0 -0.1093967274 0.0734783985 -1.74816e-05 -3.57554e-05 1.4153e-05 4.83672e-05 -0.74265908 0.4071176842
255298470.0 -0.109030281 0.0747834824 -0.0001763632 -0.0001583589 0.0001203672 0.0002970816 -0.7385236534 0.4143914739
260298440.0 -0.1084304077 0.0754447766 0.0003132715 5.03396e-05 9.54207e-05 1.96159e-05 -0.7342234472 0.4218630413
265298410.0 -0.1081835854 0.0763018787 9.69723e-05 0.0002109192 0.0001294514 0.000343214 -0.7296128992 0.429804017
270298380.0 -0.1077486726 0.0771287635 -3.3007e-06 2.2363e-05 4.52235e-05 2.58928e-05 -0.7252824401 0.4379727396
275298350.0 -0.1071048399 0.0784801223 1.24668e-05 2.1067e-06 -1.59466e-05 -0.0001167274 -0.7209421916 0.4453202667
280298320.0 -0.1067297897 0.0796187399 0.0001164429 -3.62288e-05 -7.65212e-05 0.0001439202 -0.7163862775 0.452919348
285298290.0 -0.1061990467 0.0803207177 6.2744e-06 0.0001098445 0.0001546269 5.93197e-05 -0.711297054 0.4601949557
290298260.0 -0.1053915864 0.0814267067 7.9129e-05 5.4592e-05 0.0001253108 0.0002503763 -0.7061043611 0.4674321471
295298230.0 -0.1052532127 0.0821344747 0.0002924939 4.71352e-05 6.80314e-05 -3.6322e-05 -0.7013676805 0.4748337784
300298200.0 -0.104618247 0.0831490076 0.0002070354 0.0001238164 0.000111779 0.0002194309 -0.6966792028 0.4822786963
305298170.0 -0.1041681308 0.08386272 0.0001674784 0.0001160174 2.44749e-05 6.77039e-05 -0.6914954682 0.4894205088
310298140.0 -0.1034588608 0.0845974097 4.1489e-05 8.01657e-05 -8.366e-06 3.96274e-05 -0.6861591067 0.4968444003
315298110.0 -0.1033043141 0.0855838825 0.0002117462 0.0001745292 0.0001101446 7.0324e-05 -0.6809586396 0.5034891299
320298080.0 -0.1023817748 0.0865901373 0.0002994959 8.061e-07 0.0001851132 0.0001324465 -0.6761027534 0.5105361615
325298050.0 -0.102482438 0.0870450326 7.10391e-05 0.0001452003 0.0003076321 -2.89919e-05 -0.670132613 0.5179848649
330298020.0 -0.1017338032 0.0885511572 0.0002119311 1.43647e-05 0.0003758453 0.0001194192 -0.66492506 0.5246423316
335297990.0 -0.101344177 0.0893103448 5.58903e-05 -7.76896e-05 7.70822e-05 7.29051e-05 -0.6593414714 0.5315641362
340297960.0 -0.1011672665 0.0906584384 9.42317e-05 -2.04039e-05 0.0002367202 1.25966e-05 -0.6543250459 0.53858768
345297930.0 -0.1004968557 0.0913645457 8.5086e-05 -0.0001964386 0.0001917124 0.0001698968 -0.6484987082 0.5452170141
350297900.0 -0.0998373614 0.0924715919 0.0001361354 2.87114e-05 0.0001577275 4.68816e-05 -0.6429400108 0.5510659869
355297870.0 -0.099198493 0.0931200357 -9.85696e-05 0.0002290443 9.07672e-05 0.0002075303 -0.6371024914 0.5588227468
360297840.0 -0.0986046517 0.0945437042 -3.89508e-05 6.80712e-05 7.53322e-05 1.42427e-05 -0.6308658238 0.5651759599
365297810.0 -0.0978864582 0.0956065 9.53308e-05 -0.0002408277 0.0001223797 0.0002098897 -0.6259356454 0.570288744
370297780.0 -0.097296155 0.0963568876 4.80898e-05 0.0001830687 9.24104e-05 -2.1601e-05 -0.6194253086 0.5779978121
375297750.0 -0.0967729431 0.097620085 0.0002142883 0.0002381221 -9.619e-07 0.000184464 -0.6134345236 0.5838805703
380297720.0 -0.0960661815 0.0986834688 9.88595e-05 -2.79667e-05 0.000261624 2.62585e-05 -0.6072391984 0.5902275055
385297690.0 -0.095459008 0.0995834932 -7.7518e-06 2.52231e-05 -3.95106e-05 8.67012e-05 -0.601127642 0.5965175947
390297660.0 -0.094363752 0.100420412 7.56596e-05 5.51706e-05 0.0001919654 -4.848e-05 -0.5946725642 0.6024119694
395297630.0 -0.0936888234 0.1013246177 9.16365e-05 0.000213042 0.0001806171 0.0002494279 -0.5877568789 0.6072876439
400297600.0 -0.0932398827 0.102432095 3.56092e-05 -7.7941e-06 0.0001293702 0.0001076093 -0.5821014445 0.613947263
405297570.0 -0.0924574078 0.1030166347 6.66269e-05 -8.08243e-05 9.88922e-05 0.0002401725 -0.5753775202 0.6200761475
410297540.0 -0.0914175884 0.1043300766 0.0001620428 0.0001436333 6.88806e-05 -5.6356e-05 -0.5693147315 0.6262740234
415297510.0 -0.0908375455 0.1049232834 0.0001187933 0.000106651 9.55114e-05 0.0001985403 -0.5631508386 0.6313830328
420297480.0 -0.0903296271 0.1057349916 0.0002545176 0.0001517651 0.0001610093 8.46519e-05 -0.5565285999 0.6381104613
425297450.0 -0.0888732748 0.1065591999 5.77871e-05 6.65114e-05 0.0002208736 0.0001429621 -0.5498475377 0.6428170608
430297420.0 -0.0883037778 0.1075968822 0.0001481348 0.0002269491 0.0001248714 3.7617e-06 -0.5428856731 0.6488835772
435297390.0 -0.0871909161 0.1086600744 3.16621e-05 4.87262e-05 0.0002843913 0.0003267003 -0.5362147947 0.6545423962
440297360.0 -0.0866556548 0.1094229003 7.66493e-05 6.44738e-05 0.0001631784 0.0001548814 -0.5305798284 0.659516412
445297330.0 -0.0855712592 0.110168741 0.0002764075 1.0784e-05 0.0001552502 0.0001088668 -0.5229034251 0.6654485305
450297300.0 -0.0847356615 0.1109420485 0.0004134773 0.0001211651 0.0001883438 0.0001587904 -0.5157952517 0.6694479736
455297270.0 -0.0840327642 0.1119785854 3.93585e-05 -7.17619e-05 0.0001964629 -2.97542e-05 -0.5091671901 0.6747185294
460297240.0 -0.0828544922 0.1132712115 4.86636e-05 0.0001099914 9.91539e-05 0.00013114 -0.5020479005 0.6800276085
465297210.0 -0.0816426977 0.1141559245 9.7181e-06 2.49683e-05 6.27744e-05 0.0002770889 -0.49539371 0.6858168462
470297180.0 -0.0808238997 0.1149014799 0.0001586474 9.19287e-05 0.0002645256 1.73352e-05 -0.4883649518 0.6904191394
475297150.0 -0.0799678311 0.115702837 0.0002951073 -0.0001164211 0.0001276643 0.0001568578 -0.4811513997 0.6951955036
480297120.0 -0.0786726071 0.1166812924 0.0001281202 4.83135e-05 0.000155659 8.4963e-05 -0.4740748351 0.7003877875
485297090.0 -0.0774280622 0.1173840861 0.0001916472 0.0001397347 0.0001742495 -6.49986e-05 -0.4672058367 0.7049232094
490297060.0 -0.0761264243 0.1183704585 4.41208e-05 -0.0001724932 0.0001355801 7.49158e-05 -0.4596464062 0.7093932037
495297030.0 -0.0752958896 0.1191607747 0.0001403345 -1.31461e-05 0.0002345093 1.92022e-05 -0.4525414722 0.7134372377
500297000.0 -0.074498341 0.1199518476 0.0001019695 4.3918e-05 4.99695e-05 4.31365e-05 -0.4451722951 0.7184926648
505296970.0 -0.0729596594 0.1206433736 0.000218866 0.0001134342 4.07583e-05 -3.00059e-05 -0.437393514 0.7227668662
510296940.0 -0.0718796631 0.1215014745 0.0001105083 5.22465e-05 8.48714e-05 0.0001607018 -0.43012618 0.7273105288
515296910.0 -0.0709638692 0.1226640363 0.0003785778 -4.505e-07 0.0002107088 3.17134e-05 -0.4229137961 0.7307772301
520296880.0 -0.0697961266 0.1232064831 0.0002780125 3.41171e-05 0.0002552676 4.71163e-05 -0.4153832373 0.7360171469
525296850.0 -0.0686681185 0.1238935794 0.0003455586 7.3523e-05 7.60737e-05 -0.0002072638 -0.4082943617 0.7391906888
530296820.0 -0.0675865321 0.1249640379 7.31802e-05 -3.93668e-05 0.0002539335 0.000140423 -0.4005127788 0.743076091
535296790.0 -0.0657166826 0.1258128227 0.0002195418 0.0001601954 0.0002196154 7.55376e-05 -0.3935301934 0.7477281632
540296760.0 -0.0647349564 0.1264388559 0.0003497699 9.07705e-05 -3.28026e-05 1.28054e-05 -0.3849096976 0.7513549924
545296730.0 -0.0637511954 0.1275482549 0.0002040431 -7.43846e-05 0.0002681704 0.0001375766 -0.3776925755 0.7556873651
550296700.0 -0.0622582674 0.1282103227 0.0001684038 -1.85966e-05 0.0002934294 -3.26014e-05 -0.3701713904 0.7591148462
555296670.0 -0.0610467583 0.1292971893 0.0002320822 0.0002094212 0.0001676645 -7.9048e-06 -0.3622967786 0.762258634
560296640.0 -0.0597707911 0.1297544191 5.18185e-05 0.0001082676 0.0004696219 0.0003304459 -0.3543095669 0.7663760165
565296610.0 -0.0588722191 0.1306159454 0.0002570011 -0.0001001004 0.0002027605 2.81866e-05 -0.3463122249 0.7698613376
570296580.0 -0.0575057011 0.1312165306 0.0003770486 0.0001334462 0.0002344259 0.0001042762 -0.3391577419 0.7729651446
575296550.0 -0.0557453422 0.1322496648 0.0002905145 7.95438e-05 0.0002077264 8.59507e-05 -0.3303917406 0.7761138294
580296520.0 -0.0547422152 0.1333318394 0.0001528042 7.15767e-05 0.0001092046 0.0001385977 -0.3231197364 0.7795003605
585296490.0 -0.0535708639 0.1339274543 0.0001592634 -0.000155278 0.0003670438 3.26669e-05 -0.3148225375 0.7832122408
590296460.0 -0.0518036303 0.1346112849 0.0001479427 2.85148e-05 0.0001921337 0.0002197532 -0.3076233077 0.7858585625
595296430.0 -0.0506160045 0.1352939915 8.59341e-05 5.91014e-05 0.0002346252 0.0001325841 -0.3000081887 0.7890663031
600296400.0 -0.0493525924 0.135882632 0.00018207 0.000104315 7.35492e-05 7.97973e-05 -0.2923004655 0.7916082081
605296370.0 -0.0481273786 0.137171346 0.0002436135 -8.37958e-05 0.0001850621 2.4023e-06 -0.2837153976 0.7952331021
610296340.0 -0.0465208298 0.1379295864 0.000113289 1.28855e-05 0.0002106747 -8.92731e-05 -0.2757029533 0.7975171789
615296310.0 -0.0452887824 0.138316379 0.0002147359 -8.00575e-05 0.0002395326 8.902e-06 -0.2675278437 0.8005219274
620296280.0 -0.043899115 0.1394072322 0.0002910497 9.60324e-05 0.0002429213 -7.43384e-05 -0.2592852574 0.8029568731
625296250.0 -0.0428625516 0.1398167404 0.0001546563 0.0001102666 0.0003074691 3.46123e-05 -0.2516160452 0.8050421658
630296220.0 -0.0411583564 0.1406933421 0.0003727521 -5.81498e-05 0.0001992129 0.0001341991 -0.2430107253 0.8074504034
635296190.0 -0.0398652183 0.1416712413 0.000222234 -7.0406e-05 0.0001716902 -3.79644e-05 -0.2357189004 0.8097591523
640296160.0 -0.0388474667 0.1420584622 0.0003309519 0.0001051565 0.000125075 -0.0001123673 -0.2274086311 0.8127257517
645296130.0 -0.0370214018 0.1430589237 0.0001075454 0.0001025588 0.0001964818 -8.98221e-05 -0.2195442905 0.8144472007
650296100.0 -0.0359139999 0.1432834147 0.0002688392 -0.0002621567 0.0002257489 -6.59447e-05 -0.210899019 0.8168713826
655296070.0 -0.0345445274 0.1439941776 8.60899e-05 0.0001525305 0.0001475246 1.10821e-05 -0.2033876889 0.8190219124
660296040.0 -0.0332537708 0.1446173146 0.0001955622 2.7276e-05 0.0002522163 0.0001889047 -0.1941351553 0.8208837783
665296010.0 -0.031807007 0.1457467998 0.0002552817 6.4911e-06 6.6459e-05 0.0002050799 -0.1862823334 0.8221640223
670295980.0 -0.0305062684 0.1460899682 0.000121408 -3.14504e-05 8.45089e-05 0.00010175 -0.1781743693 0.8241518691
675295950.0 -0.0290980992 0.1467406518 0.0002113842 -9.37631e-05 -8.24476e-05 3.42094e-05 -0.1697678439 0.826678608
680295920.0 -0.0281926219 0.147574388 0.0001500711 -4.88425e-05 0.0003492415 -1.1409e-05 -0.1613419399 0.8279981559
685295890.0 -0.026495074 0.1478906984 0.000215127 -0.0001043255 0.0003482356 -7.50648e-05 -0.1531657164 0.8295910728
690295860.0 -0.0251646979 0.1484747213 0.000255924 -0.0001695895 0.000276544 2.93272e-05 -0.1451750366 0.8310565825
695295830.0 -0.0239570416 0.1490526204 0.0002034923 -0.0001033872 0.0002304108 -8.0887e-06 -0.1366939788 0.8331548786
700295800.0 -0.0228057024 0.1499159087 0.000118295 -7.4146e-05 0.0003832168 -7.08473e-05 -0.128270044 0.8334469894
705295770.0 -0.0211515324 0.1501544146 0.0002801134 -0.0001636515 0.0002674664 -4.51956e-05 -0.1203117459 0.8355037255
710295740.0 -0.0198372649 0.150762826 8.93831e-05 -4.4184e-05 0.00041336 -4.35241e-05 -0.1112550098 0.8358475186
715295710.0 -0.0184026962 0.1510874477 0.0001955785 2.55903e-05 0.0003230602 0.0001370113 -0.1033338329 0.8369362231
720295680.0 -0.0167996659 0.1516529322 0.0001942375 -0.0001808696 0.0001523557 8.16712e-05 -0.0947652014 0.8375767294
725295650.0 -0.0156272376 0.1525388078 0.0002251869 -7.5065e-06 0.0004728133 6.96502e-05 -0.0868771592 0.8394201138
730295620.0 -0.014705578 0.152569637 3.76596e-05 0.0001780599 0.0002806248 4.98505e-05 -0.0790405697 0.8404472054
735295590.0 -0.0132778516 0.1531131567 5.12795e-05 -2.39515e-05 0.0003135437 -8.03374e-05 -0.0698003283 0.840469635
740295560.0 -0.0120336988 0.153700065 0.0002992066 6.85486e-05 0.000248717 0.0001212529 -0.0614677287 0.8416792569
745295530.0 -0.0105375076 0.154097748 7.71462e-05 -0.0001410296 0.000153167 -0.0001279295 -0.0538147499 0.8413656087
750295500.0 -0.0093524458 0.1546035523 0.0002105929 -0.0002203096 0.0002761755 3.20588e-05 -0.0447488385 0.842249138
755295470.0 -0.0077226633 0.1549486707 0.0001372967 0.0001477756 0.0001153137 0.0001002413 -0.0365050762 0.8434355318
760295440.0 -0.006664445 0.1553847031 0.0003248648 7.03456e-05 0.0003213722 1.15149e-05 -0.0283847421 0.8428024788
765295410.0 -0.0050449239 0.1554976656 0.0002132622 5.63684e-05 0.0001762837 -7.67657e-05 -0.0197265101 0.8432529676
770295380.0 -0.0038961772 0.1562437113 0.0003261171 -0.0001272549 0.0004027817 3.42879e-05 -0.0112060295 0.8430711951
775295350.0 -0.0023588939 0.1563228538 0.0003123636 -7.93055e-05 0.0002389264 -0.0001170152 -0.0033670475 0.8432816688
780295320.0 -0.0009093478 0.1566937098 0.0005040551 0.0001268091 0.0002487728 -0.0001495446 0.0056988639 0.8434336938
785295290.0 0.0001342922 0.1565843003 0.0002106868 -8.91861e-05 0.0003664294 -8.28871e-05 0.0133566107 0.8434501767
790295260.0 0.0013667603 0.1568415517 0.0002750879 1.26218e-05 0.0001734271 -0.0001512428 0.0216870818 0.8436056268
795295230.0 0.0027000638 0.1572690113 0.0002369589 -0.0001338286 0.0002076943 -0.0001746131 0.0299881018 0.8422203836
800295200.0 0.0041516296 0.1575111806 0.0003079736 5.72e-06 0.0002150921 2.9699e-06 0.0384078005 0.8419222362
805295170.0 0.0055434755 0.1577766074 0.0002222445 -6.5707e-06 0.0002477391 -7.4491e-05 0.0474209814 0.8418966115
810295140.0 0.0069008601 0.1582522375 0.000295262 4.87568e-05 0.0002268548 3.14024e-05 0.0556315461 0.8412545032
815295110.0 0.0081692775 0.1580147047 0.0002595478 -0.0001277946 0.0003183194 -0.000243636 0.0636760357 0.8406622817
820295080.0 0.0096351773 0.1580898436 0.0002392329 -1.96889e-05 0.000251358 -5.85935e-05 0.0713748197 0.8403363419
825295050.0 0.0107102568 0.1582451026 0.0001262712 -6.95965e-05 0.0003040256 0.0001739281 0.0797777848 0.8396957089
830295020.0 0.0123752378 0.1585374343 0.0002740931 0.0001704477 0.0001211657 -0.0002040587 0.0882739645 0.8380062024
835294990.0 0.0137877509 0.1581743857 0.0002911683 -6.56996e-05 0.0002395941 -2.15372e-05 0.0969320282 0.8376297992
840294960.0 0.0150255544 0.1584941721 0.0001093113 -3.4889e-06 6.56596e-05 -5.60669e-05 0.1058202838 0.8365030148
845294930.0 0.0165040731 0.1587970918 0.0001102276 -6.52584e-05 0.0002703832 -0.0001884925 0.1135872545 0.8352272312
850294900.0 0.0183694891 0.1584645048 0.0004103168 -2.95071e-05 0.0002233149 -0.0001726474 0.121433942 0.8347015882
