!Created with skrf (http://scikit-rf.org).
# Hz S RI R 50.0 
!freq ReS11 ImS11 ReS21 ImS21 ReS12 ImS12 ReS22 ImS22
300000.0 -0.2398818889 -0.071231767 0.4727827221 0.0479055516 0.4683032582 0.047837688 -0.2424653023 -0.0861844921
5299970.0 -0.2443249178 0.007402829 0.4735503304 0.0046268094 0.4739844337 0.0046680956 -0.2443150241 0.0078302908
10299940.0 -0.24135341 0.0188533409 0.475549432 0.0061238506 0.4758699554 0.0066179109 -0.2411866848 0.0205995853
15299910.0 -0.236827241 0.0278793549 0.4791335418 0.007730317 0.4794246679 0.0079280095 -0.2365758377 0.0295097815
20299880.0 -0.2323258382 0.0355989038 0.4839538563 0.00874638 0.4839827882 0.0082660502 -0.2312052107 0.0370400314
25299850.0 -0.2268739637 0.0418319344 0.4892746418 0.0074131804 0.4888803905 0.0077025524 -0.2253311265 0.043682125
30299820.0 -0.2216533688 0.0468495434 0.4944961492 0.0055935257 0.4946405769 0.0051305548 -0.2192638194 0.049127531
35299790.0 -0.2163385511 0.0514255576 0.4996935065 0.0020056341 0.5000427173 0.0021623524 -0.213758766 0.0529062373
40299760.0 -0.2114396677 0.0548394106 0.5050533697 -0.0017760112 0.5052484389 -0.0018307124 -0.2085182671 0.0558859159
45299730.0 -0.2066537711 0.0577138725 0.5095467404 -0.0065145839 0.5098610243 -0.0063310742 -0.2033429101 0.0584944907
50299700.0 -0.2023367849 0.0598560007 0.5142712756 -0.0118964802 0.514328634 -0.0116716005 -0.198826952 0.0602732612
55299670.0 -0.1984661138 0.0617702941 0.5180555944 -0.0184907571 0.5178994489 -0.0176271914 -0.1945628966 0.062137174
60299640.0 -0.1943587171 0.0635530742 0.5212686762 -0.0243079803 0.5216373446 -0.0238434616 -0.1904878165 0.0630215041
65299610.0 -0.1909737878 0.064758778 0.5241946327 -0.0305663748 0.5244257065 -0.0303797064 -0.1870474463 0.0638035316
70299580.0 -0.1878069477 0.0662585293 0.5263409313 -0.0371910385 0.5262440516 -0.0369407957 -0.1836153341 0.0648934486
75299550.0 -0.1850886023 0.0672415079 0.5284905904 -0.0440553062 0.5282428792 -0.0441591871 -0.1805272523 0.0653045189
80299520.0 -0.1824247552 0.068187867 0.5306503034 -0.0508708161 0.5305154497 -0.0508071541 -0.1782894476 0.065884875
85299490.0 -0.1802403945 0.0689433864 0.5315062677 -0.0574765424 0.5319017889 -0.0572787235 -0.175852202 0.0659086362
90299460.0 -0.1779430372 0.0695709353 0.5325466909 -0.0649675377 0.5330391566 -0.0649641342 -0.1734772052 0.066998303
95299430.0 -0.1755853548 0.0704092002 0.5340543845 -0.0716584784 0.5337542645 -0.0718341864 -0.1713262021 0.0675878892
100299400.0 -0.1739014014 0.0715290869 0.5339857739 -0.0783693588 0.5340403417 -0.0784314163 -0.1693081254 0.0676301309
105299370.0 -0.1719665432 0.0724017288 0.5343568986 -0.0854889095 0.5346368893 -0.0853045764 -0.1675245852 0.068218497
110299340.0 -0.1703647649 0.0732228129 0.5348208638 -0.0919545725 0.5345197761 -0.0919516849 -0.1662495436 0.0684546843
115299310.0 -0.1686880246 0.0738813993 0.5348384089 -0.0990969693 0.5345049037 -0.0988028176 -0.1648305316 0.0688934658
120299280.0 -0.1673738946 0.0743983787 0.5343293106 -0.1057136257 0.5343378521 -0.1056098688 -0.1632768081 0.0696621193
125299250.0 -0.1660726395 0.0755360877 0.533688267 -0.1124709108 0.5340692626 -0.1122673773 -0.1627692118 0.0699960492
130299220.0 -0.1650409923 0.076756101 0.5332710969 -0.1193795055 0.5331310219 -0.1191209597 -0.1613460994 0.0704906186
135299190.0 -0.1640174769 0.0777851988 0.5330074728 -0.1258662957 0.5327222452 -0.1255186023 -0.159967781 0.0714458398
140299160.0 -0.1625950106 0.0788682227 0.5318599043 -0.1329219145 0.5322780126 -0.1324066564 -0.1590343645 0.0726407841
145299130.0 -0.1614904385 0.080007128 0.5311771142 -0.1397457566 0.5309115436 -0.1390604804 -0.158275236 0.0729131255
150299100.0 -0.1602970381 0.0811142551 0.5299768711 -0.1449564198 0.5300261398 -0.1451953284 -0.1569891276 0.074000684
155299070.0 -0.1596154869 0.0820791184 0.5286361268 -0.1526965273 0.5288521873 -0.1524393165 -0.1564356595 0.0748156827
160299040.0 -0.1583624019 0.0834278485 0.527313073 -0.158813688 0.5270739874 -0.1585774479 -0.1561220339 0.0754419408
165299010.0 -0.1574353486 0.0846744111 0.5257486629 -0.16539121 0.5259240736 -0.1655714803 -0.1545497092 0.0766407663
170298980.0 -0.1567010844 0.0858029815 0.5243696245 -0.1713065266 0.5248115929 -0.1714521067 -0.1540057919 0.0778909096
175298950.0 -0.1557774015 0.0868395784 0.5228808765 -0.1773746883 0.5223752388 -0.1778164955 -0.1532154283 0.0789170194
180298920.0 -0.1548236498 0.0883036743 0.5207053678 -0.1840398743 0.5209019599 -0.1835660947 -0.1526107604 0.0797455005
185298890.0 -0.1534755327 0.0894132585 0.5194283249 -0.1900039533 0.5192543624 -0.1902702419 -0.1516191804 0.0808802026
190298860.0 -0.1525989148 0.0910838154 0.5174556783 -0.1965633508 0.5175275243 -0.1962347589 -0.1509988257 0.0815989932
195298830.0 -0.1519474731 0.0920243486 0.5155678755 -0.2025063146 0.5157613777 -0.2021914244 -0.1500654783 0.0830606792
200298800.0 -0.1506368688 0.093491749 0.5128801892 -0.2088656036 0.5132813677 -0.2089015657 -0.1497212216 0.0839505487
205298770.0 -0.14988112 0.0950112007 0.5106790856 -0.2149465692 0.5110599889 -0.2147238511 -0.1487228482 0.0848867682
210298740.0 -0.148832769 0.0961660526 0.5082787127 -0.2205174837 0.5088129768 -0.2203743636 -0.1478716806 0.0864028306
215298710.0 -0.148351699 0.0977660133 0.5064664395 -0.2266969763 0.5063219184 -0.2269113516 -0.1473745839 0.0875495013
220298680.0 -0.1471525359 0.0988084475 0.5035532147 -0.2325442283 0.5038589976 -0.23275805 -0.1468067881 0.0883173947
225298650.0 -0.146121889 0.1002971631 0.5012636357 -0.2387596358 0.5017175902 -0.2384426224 -0.1462773841 0.0893767867
230298620.0 -0.1451868507 0.1023432701 0.4990296213 -0.2441472999 0.499459376 -0.244150464 -0.1453917607 0.0907678023
235298590.0 -0.1442256364 0.1036235552 0.4964483562 -0.2497912386 0.4963069424 -0.2494730367 -0.144695647 0.0920524747
240298560.0 -0.1430644882 0.1051017364 0.4936990436 -0.2559488944 0.4937072336 -0.2557739806 -0.1437765786 0.0934066456
245298530.0 -0.1422876533 0.1063435125 0.4914065427 -0.2616232227 0.4907619847 -0.2615557677 -0.1425864227 0.094028202
250298500.0 -0.14088373 0.107867359 0.4875867559 -0.2675059766 0.4874904581 -0.266757249 -0.142308059 0.0956363587
255298470.0 -0.1400117979 0.1090521439 0.4846507435 -0.2724786857 0.4851120049 -0.2723339664 -0.1410834957 0.096824145
260298440.0 -0.1391078315 0.1104597113 0.4821553057 -0.2784881039 0.4820621969 -0.2784200424 -0.1403064279 0.0984573236
265298410.0 -0.1376720193 0.1123039699 0.4789826967 -0.2838567606 0.4795103247 -0.283371686 -0.1395778467 0.0993697939
270298380.0 -0.1365993403 0.1136935969 0.4761388983 -0.2892022327 0.4760958929 -0.2890432916 -0.1387736921 0.1008459372
275298350.0 -0.1353870426 0.1152666184 0.4728936616 -0.2945183327 0.4731893313 -0.2946319587 -0.1379629934 0.1020127783
280298320.0 -0.1341171511 0.1167126896 0.4702359015 -0.2998733256 0.4701057329 -0.2996745094 -0.136730088 0.1031802175
285298290.0 -0.1326968178 0.118161111 0.4666651545 -0.3054187897 0.4664734024 -0.3054286912 -0.1357451144 0.1044152904
290298260.0 -0.1315601069 0.1197721579 0.4631309191 -0.3103668983 0.4630784213 -0.3106779971 -0.1347066268 0.1060048621
295298230.0 -0.1303560361 0.1208718398 0.4600592528 -0.3156514102 0.4598054288 -0.3155514535 -0.133453176 0.1072213582
300298200.0 -0.1293218142 0.1224036232 0.4570684008 -0.3208803337 0.4568393738 -0.3212956918 -0.1330942164 0.108395753
305298170.0 -0.127772025 0.1236731864 0.4524346657 -0.3268811374 0.4529602768 -0.326383799 -0.1316569506 0.1090166321
310298140.0 -0.1266570723 0.1253317601 0.4496801469 -0.3315130727 0.4495385469 -0.3317880876 -0.1308205657 0.1105438246
315298110.0 -0.1252884807 0.126479381 0.4458480574 -0.3366906378 0.4458419649 -0.3367599974 -0.1297980179 0.11178756
320298080.0 -0.1237926023 0.1276456897 0.4417042408 -0.3420868443 0.4419030638 -0.3417565057 -0.1289577339 0.1131305406
325298050.0 -0.1227791108 0.129077183 0.4379513348 -0.3469954552 0.4384586553 -0.3469353127 -0.1282365111 0.1141217075
330298020.0 -0.1216341637 0.1301283704 0.4337945203 -0.3519939758 0.4341695312 -0.3522180406 -0.1275842254 0.1150434129
335297990.0 -0.120043408 0.1314042757 0.4298892282 -0.3566791403 0.4300332911 -0.3568920398 -0.1268818741 0.1171079652
340297960.0 -0.1194028377 0.1332801887 0.4259882854 -0.3616050642 0.4255426681 -0.3617504018 -0.1253368646 0.1182765845
345297930.0 -0.1181289744 0.1347728128 0.4218490371 -0.3659634228 0.4216526141 -0.3663150528 -0.1246379584 0.1193461813
350297900.0 -0.1164055534 0.1358529516 0.4168083442 -0.3711220925 0.4171344272 -0.3707773088 -0.1239593794 0.1208977795
355297870.0 -0.1152542294 0.1377901497 0.4136100993 -0.3754215967 0.4137273543 -0.3754751243 -0.1227494885 0.1220539771
360297840.0 -0.1136709467 0.1387838445 0.4099594215 -0.3794351606 0.4099678951 -0.3799674834 -0.121942718 0.1239324093
365297810.0 -0.1126078742 0.1403203437 0.4051174724 -0.3846746073 0.4056191236 -0.3845893129 -0.1204147309 0.1247586466
370297780.0 -0.1106838286 0.1415277377 0.4005499332 -0.3887984108 0.4012340618 -0.3884571007 -0.1193649439 0.1263801204
375297750.0 -0.1089762098 0.1430119076 0.3966530321 -0.3931853874 0.3970926759 -0.3932447545 -0.1180968693 0.1270959756
380297720.0 -0.1077053501 0.1440706376 0.3919230131 -0.3974399493 0.3922622997 -0.3970609672 -0.117554807 0.1283242001
385297690.0 -0.1064954585 0.1455788112 0.3871648786 -0.4019743731 0.387734393 -0.401810529 -0.1157684747 0.1301626172
390297660.0 -0.105035491 0.1469812344 0.3832971312 -0.4059452187 0.3830793436 -0.4055055602 -0.1149208258 0.131119586
395297630.0 -0.1033326028 0.1482756274 0.3788911642 -0.4104036063 0.3790683801 -0.4104169711 -0.112973599 0.1324352006
400297600.0 -0.1017671513 0.149597814 0.3738421901 -0.4148741436 0.3744088528 -0.4143547776 -0.1120242984 0.1336293123
405297570.0 -0.1005792733 0.1507210119 0.3699036184 -0.4181785891 0.3696747322 -0.4181419421 -0.1109556384 0.1347389859
410297540.0 -0.0985423631 0.1520032256 0.365480523 -0.4227149683 0.3658860488 -0.4228729277 -0.1098160704 0.1363269585
415297510.0 -0.0968842211 0.1530465788 0.360199775 -0.4269347534 0.360583435 -0.4266755905 -0.1086546576 0.1373892189
420297480.0 -0.0952847902 0.1547022425 0.3558778238 -0.4306651247 0.3559896716 -0.4307870768 -0.1076143152 0.1383538511
425297450.0 -0.0936176734 0.1553224136 0.3511740455 -0.4343273976 0.3517648416 -0.4345763063 -0.1064704843 0.1399461972
430297420.0 -0.0917296993 0.1565453659 0.3461877453 -0.4378223776 0.346325084 -0.4379725202 -0.1050751203 0.140849827
435297390.0 -0.090318275 0.1580258753 0.3411911243 -0.4420543096 0.3412410243 -0.4420036388 -0.1033134387 0.142255782
440297360.0 -0.0885469076 0.1590522072 0.3367794511 -0.445204926 0.3368162545 -0.4455034369 -0.1022932928 0.1428279702
445297330.0 -0.0868734476 0.1597818151 0.331866777 -0.4489302429 0.3320853335 -0.4490148762 -0.1007993665 0.1437724087
450297300.0 -0.08464569 0.1609164053 0.3269930004 -0.4526556746 0.3268895221 -0.4530199544 -0.0995319929 0.145154528
455297270.0 -0.0834052729 0.1621702842 0.322019658 -0.4565126566 0.3219090133 -0.4563292893 -0.097839022 0.1462090041
460297240.0 -0.0814435301 0.1633138271 0.3165046006 -0.459835297 0.3169458336 -0.4597230396 -0.0966282166 0.1475602629
465297210.0 -0.079592232 0.164388113 0.3118023405 -0.4634250578 0.3117687556 -0.4635138933 -0.0952427902 0.1483227292
470297180.0 -0.0777607981 0.1650456141 0.306300056 -0.4669490608 0.3067680303 -0.4667563164 -0.0935462696 0.1498501346
475297150.0 -0.0758801253 0.1658918306 0.3012341919 -0.4697273002 0.3018608531 -0.4694678062 -0.0916946701 0.1502303847
480297120.0 -0.0745655096 0.1674997309 0.2961801094 -0.4729610981 0.2964577854 -0.4732617025 -0.0906074264 0.1518033586
485297090.0 -0.0726774801 0.1681588945 0.2916160775 -0.4757965276 0.2915661663 -0.4761218751 -0.0891866354 0.1525290757
490297060.0 -0.0709061231 0.1692890108 0.2861204435 -0.4797287933 0.2865372212 -0.4791825616 -0.0876207462 0.153997968
495297030.0 -0.0687149453 0.1701902798 0.2804407106 -0.4825094924 0.2814102538 -0.4824761622 -0.0866671443 0.1545408232
500297000.0 -0.0668669356 0.1709359484 0.275332909 -0.4851028791 0.2750994266 -0.4851017707 -0.0848433974 0.1561291146
505296970.0 -0.0649524374 0.1716722933 0.2701787611 -0.4882457543 0.270146672 -0.4882811637 -0.0837480895 0.1567845559
510296940.0 -0.063176339 0.1727785959 0.2647870968 -0.4914189977 0.2647665198 -0.4917974065 -0.0818566267 0.1578927729
515296910.0 -0.0613026673 0.1735476017 0.2590686509 -0.4939155979 0.2595046191 -0.4939149463 -0.0803497982 0.1585673434
520296880.0 -0.0596886586 0.1744679188 0.2541631909 -0.4972719299 0.254253911 -0.4966249127 -0.0788409072 0.1592420342
525296850.0 -0.0572015148 0.1745795493 0.2482360729 -0.499428236 0.2487623695 -0.4993997804 -0.0774620158 0.1605436402
530296820.0 -0.0552992173 0.1761119145 0.2427357018 -0.5028248009 0.2429519079 -0.5023125449 -0.0760209101 0.1615201817
535296790.0 -0.0540322297 0.1766241317 0.2378943223 -0.5048347798 0.2381085961 -0.5042672623 -0.0745740053 0.1620058145
540296760.0 -0.0518195135 0.1774782868 0.232120535 -0.50772197 0.2323213205 -0.5078109765 -0.0729563 0.1633784788
545296730.0 -0.0496995337 0.1780420436 0.2262301168 -0.5098763573 0.2266005905 -0.5098697627 -0.0713970529 0.1638973996
550296700.0 -0.0474028401 0.1787766089 0.220803513 -0.5124127236 0.2211304167 -0.5124057394 -0.0699821552 0.1649238327
555296670.0 -0.0459162406 0.1794465737 0.2155070284 -0.5149658749 0.2157910806 -0.5146106587 -0.06824197 0.1657886916
560296640.0 -0.0435054596 0.1801112137 0.2095019318 -0.5173477925 0.2098659228 -0.5170489665 -0.0663086429 0.1662170836
565296610.0 -0.0421589105 0.1808086035 0.2041739 -0.5191691357 0.2046626153 -0.5190343692 -0.0650566293 0.166989935
570296580.0 -0.0400312713 0.1813610136 0.1988071155 -0.5219894335 0.1983199491 -0.5215580386 -0.0633132267 0.1684908674
575296550.0 -0.0381255714 0.182167819 0.193225157 -0.5241390656 0.1927591313 -0.5236072614 -0.0618043518 0.1688127423
580296520.0 -0.0359055245 0.1827530338 0.187289428 -0.5261762084 0.1874960489 -0.5255016105 -0.0601607891 0.1692917084
585296490.0 -0.0341228253 0.1827144731 0.1815161488 -0.5268160388 0.181806542 -0.5273696209 -0.058713746 0.169985574
590296460.0 -0.0315750445 0.1838168525 0.1755395239 -0.5292214175 0.176159209 -0.5292926959 -0.0572655909 0.1709810629
595296430.0 -0.0298863651 0.1841777963 0.1699877969 -0.531155413 0.1700791816 -0.5310723642 -0.0551980501 0.1713151385
600296400.0 -0.028187363 0.1845551168 0.1644479376 -0.5332182124 0.1641182719 -0.5327703989 -0.0536924957 0.1721940095
605296370.0 -0.025792601 0.1848535022 0.1584310962 -0.5344355455 0.1586297169 -0.5348915339 -0.0518964562 0.1730875222
610296340.0 -0.0238221483 0.1853780094 0.1525298957 -0.5363960131 0.1526972906 -0.5364389813 -0.0500829115 0.173295298
615296310.0 -0.021385072 0.1855425766 0.1466488311 -0.5377581145 0.1466929527 -0.5383276553 -0.0483094803 0.1741316828
620296280.0 -0.0196747975 0.1858073925 0.1408896293 -0.5393738908 0.1411724539 -0.5390787865 -0.0470442596 0.1750671974
625296250.0 -0.0177901946 0.1858803007 0.1356235508 -0.5409136583 0.1353152377 -0.5411804255 -0.0447624316 0.1754613587
630296220.0 -0.0149892463 0.1867427027 0.1287985006 -0.5424397501 0.1289242524 -0.5420550628 -0.0431657973 0.176390361
635296190.0 -0.0137703749 0.1868827176 0.1232210615 -0.5436977689 0.1232601094 -0.5438117398 -0.0415335982 0.1764549735
640296160.0 -0.0118180114 0.1870565215 0.1174704869 -0.5444548961 0.1177513159 -0.5449490384 -0.0399789662 0.1773916825
645296130.0 -0.0096378811 0.1877099243 0.1112746814 -0.5459349906 0.1118549243 -0.5459550451 -0.0380182071 0.1779432536
650296100.0 -0.0072639668 0.1876826677 0.1052385976 -0.5469205954 0.1058043743 -0.5472593469 -0.0358818955 0.1777143513
655296070.0 -0.0054955923 0.1877986605 0.0996356796 -0.5481145557 0.099890495 -0.5484932648 -0.0342269283 0.1786272666
660296040.0 -0.0036026003 0.1876296096 0.0938523004 -0.5494213122 0.0940748918 -0.5495597006 -0.0325140256 0.1794220855
665296010.0 -0.0009424908 0.1880848886 0.0874055248 -0.5500158701 0.0880364722 -0.5502462224 -0.0309955673 0.1798774261
670295980.0 0.0001853522 0.1885102387 0.0822866834 -0.5505384929 0.0819132628 -0.5514327685 -0.0295963295 0.1801109834
675295950.0 0.0028257277 0.1887633999 0.0758380353 -0.5515525957 0.0764865564 -0.551042973 -0.0282439823 0.1806159774
680295920.0 0.0047394512 0.1883770634 0.0696267461 -0.5522838805 0.0694859171 -0.5533771192 -0.0257666144 0.1818176443
685295890.0 0.0067053776 0.1894167031 0.064082775 -0.553284443 0.064041677 -0.5534802579 -0.0241377886 0.1815483101
690295860.0 0.0093075329 0.188898642 0.0577107345 -0.5536803948 0.0583723477 -0.554066503 -0.0226158784 0.1825048075
695295830.0 0.0111682176 0.1887395635 0.0522844536 -0.5541262163 0.0519308628 -0.5546013842 -0.0208191692 0.1827547549
700295800.0 0.0131978487 0.1889372596 0.045926653 -0.554768348 0.0457363573 -0.5549672391 -0.0191464168 0.1836060068
705295770.0 0.0151107361 0.1893167327 0.0397696891 -0.5553114063 0.0405058005 -0.5554986996 -0.0174242276 0.18371222
710295740.0 0.0174602799 0.1890899177 0.0338966511 -0.5566868639 0.0342410284 -0.5564449641 -0.0152839122 0.1835138397
715295710.0 0.0191646218 0.1886661421 0.0283301062 -0.5561273305 0.0277427909 -0.5562500497 -0.0133764886 0.1838208334
720295680.0 0.0216868929 0.1887385529 0.021999217 -0.5568197468 0.0223780695 -0.5564957997 -0.011630906 0.1845134771
725295650.0 0.0235586637 0.18881852 0.0163433972 -0.5566409006 0.016170778 -0.5569583788 -0.0103782888 0.1848964298
730295620.0 0.0257500822 0.1887634019 0.0101928653 -0.5563946004 0.0103794692 -0.5567453493 -0.0087640484 0.184805414
735295590.0 0.0275843083 0.1884465966 0.0043644985 -0.5571192658 0.0040670406 -0.5569292184 -0.0070868629 0.1845930149
740295560.0 0.0293163867 0.188183131 -0.0018590205 -0.5565293318 -0.0019129978 -0.5568481591 -0.0043509867 0.185460302
745295530.0 0.0315887828 0.1886265341 -0.0080440498 -0.5564209742 -0.0080230801 -0.556698265 -0.0028974049 0.1852045243
750295500.0 0.0340167767 0.1879737172 -0.0138079399 -0.55615891 -0.0137033026 -0.5566261787 -0.0009775999 0.1852156489
755295470.0 0.0362815854 0.1873346521 -0.0203254025 -0.5562917162 -0.01978915 -0.5566380737 0.0010383309 0.185242768
760295440.0 0.0377741831 0.1874730476 -0.0256894615 -0.5563224492 -0.025742755 -0.5563563291 0.0025703316 0.1855559081
765295410.0 0.0400408862 0.1873525604 -0.0321150942 -0.5560017221 -0.0318551377 -0.5558244672 0.0045723644 0.1858890431
770295380.0 0.0417003052 0.1869331236 -0.0378891273 -0.5552920842 -0.0379914234 -0.5550820796 0.0060582763 0.1857820139
775295350.0 0.0438866709 0.1861699357 -0.0440990217 -0.5544405235 -0.0435567708 -0.5548549837 0.0074477702 0.1860941714
780295320.0 0.0461931799 0.1859563477 -0.0500571725 -0.5539783304 -0.0493006258 -0.5543050296 0.0093072762 0.1855990543
785295290.0 0.0480655632 0.1852163283 -0.0560209751 -0.5530942915 -0.0553905086 -0.553358228 0.012048184 0.1861691294
790295260.0 0.0506040566 0.1853439082 -0.0616440732 -0.5525608128 -0.0607196571 -0.5525519133 0.0134703149 0.1860860176
795295230.0 0.0524039536 0.1846049963 -0.0677525381 -0.5519922997 -0.0674125761 -0.5523455272 0.015407422 0.1865628604
800295200.0 0.0541902053 0.1846914842 -0.0741160291 -0.5513489777 -0.0734157184 -0.5512849304 0.0172579032 0.1861712011
805295170.0 0.0563058466 0.1838310298 -0.0797426463 -0.550132974 -0.0795381678 -0.5505771393 0.0191075511 0.1865258399
810295140.0 0.058041879 0.1830357285 -0.0852294549 -0.5493171717 -0.0853566721 -0.5495865502 0.0214545862 0.1861965772
815295110.0 0.0604359051 0.1825832636 -0.0916346758 -0.5484080026 -0.0911649305 -0.5487655986 0.022645528 0.1863416252
820295080.0 0.0619125875 0.1827732629 -0.0970508907 -0.5475765436 -0.0966691584 -0.5478726458 0.024514055 0.1862165327
825295050.0 0.0648485329 0.1817633608 -0.1028310962 -0.5461383469 -0.1028982492 -0.5468632357 0.0265373355 0.1862291321
830295020.0 0.0662123994 0.1814593263 -0.1090051656 -0.5452242669 -0.1089686065 -0.5452349956 0.028763223 0.1862614892
