!Created with skrf (http://scikit-rf.org).
# Hz S RI R 50.0 
!freq ReS11 ImS11 ReS21 ImS21 ReS12 ImS12 ReS22 ImS22
300000.0 -0.2333308423 -0.1312572423 0.4669280259 0.0862158244 0.4681083916 0.0848869397 -0.2363500891 -0.1314785323
5299970.0 -0.241965296 0.0052343713 0.4747425462 0.0059700686 0.4751662667 0.0056779044 -0.2443035963 0.0046570887
10299940.0 -0.2388088385 0.0185328327 0.4772278573 0.0069244279 0.4770558184 0.0071205011 -0.2406480093 0.0173759624
15299910.0 -0.2337400075 0.0286242104 0.4806889646 0.008106645 0.4806454573 0.0082701507 -0.2367849408 0.0263439843
20299880.0 -0.2286356569 0.0369750108 0.4851272095 0.0081682381 0.4855618306 0.008302244 -0.2320855757 0.03390344
25299850.0 -0.2225953202 0.0434305315 0.4904996643 0.0076031453 0.4908476495 0.007345094 -0.2269006448 0.0400072766
30299820.0 -0.2172856725 0.0484665722 0.4961402992 0.0049551649 0.4960832172 0.004801735 -0.2217087903 0.0448292941
35299790.0 -0.2111423828 0.053032647 0.5007532446 0.0021801507 0.5015978858 0.0019948541 -0.2167688538 0.0493353381
40299760.0 -0.2060674454 0.0562118879 0.5064582319 -0.0022629663 0.5064139877 -0.0020986996 -0.2117832589 0.0520168856
45299730.0 -0.2011778288 0.0588110318 0.5111611773 -0.0069604879 0.5112701654 -0.0067508921 -0.2069272393 0.0546185207
50299700.0 -0.1960231525 0.0606470716 0.5151900322 -0.0126226959 0.5155137809 -0.0124652317 -0.2026982976 0.0571735691
55299670.0 -0.1918226432 0.0624462667 0.5192231118 -0.0181909798 0.5186925202 -0.018661697 -0.1994268574 0.0584364766
60299640.0 -0.1877267026 0.0642567075 0.5223727069 -0.0248106314 0.5223704357 -0.0246681872 -0.1954654706 0.0599348137
65299610.0 -0.1841292094 0.065338016 0.5255361522 -0.0307865639 0.5253448083 -0.0311305401 -0.1918838697 0.0608568388
70299580.0 -0.180869808 0.0657160742 0.5277345011 -0.0374512877 0.5279201872 -0.0377742068 -0.1892803336 0.0619668525
75299550.0 -0.1776951064 0.0667752853 0.529519635 -0.0445181506 0.529917998 -0.0445421164 -0.1862676301 0.0625921316
80299520.0 -0.1750525527 0.067878169 0.531354518 -0.0516348423 0.5316078837 -0.0514550916 -0.1838522882 0.0635778997
85299490.0 -0.1725408711 0.0683970483 0.5329792612 -0.0584571051 0.5331730674 -0.0581210002 -0.1813424321 0.0642752684
90299460.0 -0.1702756781 0.0690374003 0.5334551327 -0.0650079159 0.5336458092 -0.0650055849 -0.1792723118 0.0648322704
95299430.0 -0.1678221128 0.0695461422 0.5346136027 -0.0719375418 0.5346781854 -0.0719880164 -0.1776212122 0.06563405
100299400.0 -0.1660042362 0.0701620602 0.5347657362 -0.0789317676 0.5351328022 -0.0788187448 -0.1760037201 0.0664737811
105299370.0 -0.1642323366 0.0709386656 0.5352568384 -0.085525472 0.5356830993 -0.0858281775 -0.1738344447 0.0667782984
110299340.0 -0.1621982857 0.0712680654 0.5350058567 -0.0920865403 0.5359465596 -0.0923993352 -0.1727530591 0.0673907473
115299310.0 -0.1606046306 0.0724454176 0.5353173306 -0.0993472683 0.5352201756 -0.0993832734 -0.1715343991 0.0681402643
120299280.0 -0.1594382161 0.0732630395 0.5350496311 -0.1064650904 0.5350828504 -0.1066569155 -0.169979598 0.0686992598
125299250.0 -0.1580719246 0.0740639579 0.5346050219 -0.1128305256 0.5348597736 -0.1127324874 -0.1686506106 0.0695195876
130299220.0 -0.1566104734 0.0746649897 0.5344556433 -0.1199668781 0.5341915761 -0.1200005564 -0.1677689306 0.0704288057
135299190.0 -0.1556956516 0.0760560357 0.5337908129 -0.1260649271 0.5338714911 -0.1265896348 -0.1667178471 0.0710984329
140299160.0 -0.1542992468 0.0768236186 0.5328212229 -0.1330434747 0.5330272164 -0.1328539118 -0.1661133413 0.0717041942
145299130.0 -0.1533472287 0.0780743267 0.532088013 -0.1395153755 0.5319978197 -0.1393935636 -0.1649457055 0.0729870028
150299100.0 -0.1521373044 0.0785577429 0.5304496421 -0.145872238 0.5307227898 -0.14602995 -0.1642029213 0.0740019518
155299070.0 -0.1507276582 0.0799284978 0.5289759807 -0.1524619665 0.5295555522 -0.1527092854 -0.1633284027 0.0748703585
160299040.0 -0.1498831595 0.0812496198 0.5279043425 -0.1588286982 0.5280879745 -0.1592169711 -0.1627192595 0.0760733245
165299010.0 -0.1485565405 0.0822986654 0.5266807351 -0.1649992288 0.5264553338 -0.1654936223 -0.1615754619 0.0767990753
170298980.0 -0.1479069938 0.0834176902 0.5248978262 -0.1716750579 0.5251903015 -0.1720004784 -0.161149955 0.0777273432
175298950.0 -0.1468444189 0.0846856726 0.5237084532 -0.1780285998 0.5238668166 -0.1784990908 -0.1600088955 0.0791049721
180298920.0 -0.1462739132 0.0860089392 0.5215556777 -0.1844721091 0.5221159306 -0.1848917898 -0.1592619675 0.0803308624
185298890.0 -0.1450019614 0.0873570179 0.5201335629 -0.1905762472 0.5200778711 -0.1903692342 -0.1584411827 0.0809198164
190298860.0 -0.1437566183 0.0888656172 0.5175779886 -0.1971358202 0.5184685523 -0.1970402017 -0.1576790778 0.0823181346
195298830.0 -0.1428285337 0.0902638366 0.5161073035 -0.202706647 0.5162985534 -0.2026378659 -0.1572658935 0.0838192085
200298800.0 -0.141727159 0.0911368345 0.5138652332 -0.2091646722 0.5141378556 -0.2092357312 -0.1563724765 0.0846499029
205298770.0 -0.141472893 0.0925891405 0.5118880327 -0.2149947771 0.5121080765 -0.2148335014 -0.1554783535 0.0861187184
210298740.0 -0.1402394536 0.0942822665 0.5097555953 -0.2210739085 0.5094417908 -0.2211285655 -0.1549258567 0.0868742511
215298710.0 -0.1393615744 0.0954801119 0.5071554928 -0.2266318264 0.5074205371 -0.2270090378 -0.1543073225 0.0883508152
220298680.0 -0.1379618041 0.0969312849 0.504343987 -0.2330391748 0.5046612321 -0.2327621629 -0.1534464676 0.0893666836
225298650.0 -0.1371458511 0.0981763537 0.5020410298 -0.2383063362 0.5023418813 -0.2380352268 -0.152623574 0.0905999077
230298620.0 -0.1360840138 0.0998206698 0.4994374939 -0.2444789486 0.4998085598 -0.2445101302 -0.1521700159 0.0918416735
235298590.0 -0.1354884923 0.101426372 0.4975319774 -0.2505898313 0.4971515814 -0.2504179158 -0.150942548 0.0935511663
240298560.0 -0.1342161975 0.1026266926 0.4943663063 -0.2555931746 0.4946470677 -0.2558809115 -0.1508106023 0.0943610678
245298530.0 -0.1333916129 0.1038077393 0.4917788077 -0.261488527 0.491582204 -0.2617761177 -0.1496449018 0.095942036
250298500.0 -0.132332802 0.1053389992 0.4890781488 -0.2673381609 0.489019234 -0.2671543766 -0.1487104677 0.0973612192
255298470.0 -0.131309684 0.1071471506 0.486474742 -0.2725212837 0.4863696835 -0.2728681611 -0.148046757 0.0988538072
260298440.0 -0.1301619042 0.1084354812 0.4832450081 -0.2779723279 0.483164563 -0.2777060605 -0.1472129354 0.099675604
265298410.0 -0.1294180955 0.1100195727 0.4801144498 -0.2835476589 0.4801179013 -0.2840471572 -0.1459854612 0.1012221542
270298380.0 -0.1284219144 0.1113224942 0.4770648652 -0.2891574996 0.4772219416 -0.289026115 -0.1452958469 0.1027262261
275298350.0 -0.1271054592 0.1129649135 0.473446902 -0.294396783 0.4735116955 -0.2943720779 -0.144487686 0.1041495878
280298320.0 -0.1261307443 0.1144052911 0.47074534 -0.2994541746 0.471185128 -0.3002064344 -0.1435514383 0.1053982075
285298290.0 -0.1248808456 0.1159240243 0.4675276763 -0.3051115684 0.4678288217 -0.3045638233 -0.1426513002 0.1067765584
290298260.0 -0.123837719 0.1174618219 0.4647508095 -0.310450785 0.4642060843 -0.3103042304 -0.1418153625 0.1080033873
295298230.0 -0.1225757034 0.1183282854 0.4607922556 -0.3159772487 0.4609407627 -0.3160477717 -0.1406769348 0.1092034885
300298200.0 -0.1211160901 0.1202361712 0.4573830182 -0.3211673375 0.457846358 -0.3207204126 -0.1398453207 0.11078663
305298170.0 -0.1202469358 0.1211202302 0.4542570839 -0.3263496783 0.4542014361 -0.326282831 -0.1385318492 0.1117230848
310298140.0 -0.118424343 0.1225275835 0.4505327167 -0.3312130774 0.4506251379 -0.33134743 -0.1372849729 0.1130828574
315298110.0 -0.1176528234 0.1236336444 0.4472647165 -0.3369575238 0.4469781031 -0.3368366239 -0.136493726 0.1142043138
320298080.0 -0.1165225833 0.1251422336 0.442870002 -0.3419194809 0.4434291429 -0.3422321752 -0.1356382322 0.1153117019
325298050.0 -0.1156657218 0.1260719709 0.4390139317 -0.346663982 0.4396778762 -0.3469677546 -0.1344856938 0.1163944306
330298020.0 -0.1148634641 0.127669651 0.4354667184 -0.3518723959 0.4358337368 -0.3519673523 -0.133811527 0.1179904665
335297990.0 -0.1133043585 0.1290313004 0.4312993035 -0.3565168188 0.4315377778 -0.3568589838 -0.1330543983 0.1194379749
340297960.0 -0.1123339136 0.1302708722 0.4268204955 -0.361733648 0.4273237836 -0.3616588333 -0.1320901844 0.1208638713
345297930.0 -0.1112436362 0.1315983945 0.4233106265 -0.3664350437 0.4231865394 -0.3662967758 -0.1308388297 0.122064138
350297900.0 -0.1099717295 0.1327544809 0.4189507703 -0.3704366714 0.4195816342 -0.370664351 -0.1302585854 0.1230756269
355297870.0 -0.1088348303 0.1342889238 0.415302897 -0.3748561158 0.4148763853 -0.3751382358 -0.128490387 0.1247825747
360297840.0 -0.1073616005 0.1357858441 0.4105150958 -0.3798432124 0.4111683054 -0.3801736844 -0.1278214069 0.1261808807
365297810.0 -0.106165991 0.1370434919 0.406766094 -0.3842189482 0.406690025 -0.384600355 -0.1272551314 0.127487055
370297780.0 -0.1046998818 0.1383721134 0.4019406364 -0.3889655712 0.4027688559 -0.3884442903 -0.1258910218 0.1285985202
375297750.0 -0.1036575199 0.1397863723 0.398162253 -0.3929279404 0.398353883 -0.3930933639 -0.1245009528 0.1298487809
380297720.0 -0.1020077261 0.1409814912 0.3942412875 -0.3978160697 0.3935944574 -0.3977450054 -0.123342965 0.1316558153
385297690.0 -0.1008408523 0.1423508628 0.3888012994 -0.4017865238 0.3898096451 -0.4022395996 -0.1218909756 0.1332014522
390297660.0 -0.0990002523 0.1432648079 0.384828344 -0.405817508 0.3852927674 -0.4060979794 -0.1206451916 0.1341664105
395297630.0 -0.0974721122 0.1446800408 0.3806923251 -0.4098532352 0.3805135155 -0.4101248912 -0.1196381312 0.1355154578
400297600.0 -0.0964923854 0.1456868312 0.3765189595 -0.4141236818 0.3766199066 -0.4147011159 -0.1181211887 0.1368509418
405297570.0 -0.09475195 0.146591677 0.3715454044 -0.4183722401 0.3716724026 -0.4184873444 -0.1167296833 0.1383270786
410297540.0 -0.0930604854 0.1484647157 0.367052038 -0.4225712952 0.3671310219 -0.4223823436 -0.1155895465 0.1395018192
415297510.0 -0.0916714818 0.1491278167 0.362063643 -0.4263214935 0.3628697424 -0.4270504208 -0.1140233394 0.1410537793
420297480.0 -0.090322963 0.1501985674 0.3578753521 -0.4307551482 0.3578111025 -0.4304424053 -0.112570014 0.1421115269
425297450.0 -0.0882434423 0.1513131726 0.353019061 -0.4342739384 0.3529287304 -0.4345868807 -0.1115303803 0.1430915249
430297420.0 -0.0868899645 0.1525348429 0.3487604411 -0.4381464246 0.3485107199 -0.4378789842 -0.1098583151 0.1444866564
435297390.0 -0.0851297446 0.1536486388 0.3431989921 -0.4425952547 0.3434988209 -0.441788603 -0.1088195628 0.145990794
440297360.0 -0.0833937045 0.1543051534 0.3381360877 -0.4459252087 0.3384562821 -0.4459332817 -0.1075973422 0.147269718
445297330.0 -0.0816085116 0.1550264962 0.333531334 -0.4491490583 0.3340191106 -0.4498242389 -0.105911844 0.148269225
450297300.0 -0.0800631084 0.1566182331 0.3288538325 -0.4529616951 0.3289711858 -0.4527391662 -0.1041368144 0.1493853374
455297270.0 -0.0787573456 0.1573523865 0.324081384 -0.4566813295 0.3238764449 -0.456791953 -0.102915369 0.1508624949
460297240.0 -0.0765375942 0.1583464613 0.3189878306 -0.4605802372 0.3188799894 -0.4602846138 -0.1017285783 0.1514365272
465297210.0 -0.0748485583 0.1592458727 0.313672152 -0.4635720393 0.3135508859 -0.4636517552 -0.099912755 0.1532040371
470297180.0 -0.0733466801 0.1599748172 0.3086876096 -0.4666155162 0.3089574405 -0.467055434 -0.0983719604 0.1540936055
475297150.0 -0.0717593687 0.1612761285 0.3036954699 -0.4703057099 0.3037606984 -0.4706059685 -0.0968178755 0.154935852
480297120.0 -0.0691155239 0.1622217404 0.2985074789 -0.473458662 0.2987223805 -0.4737985561 -0.0955354994 0.1564279962
485297090.0 -0.0677182614 0.1627133462 0.2928697987 -0.4770007276 0.2931917251 -0.4764572966 -0.0939094216 0.1571140383
490297060.0 -0.0654115039 0.1636447967 0.2876285027 -0.4799976991 0.2880146762 -0.4798908965 -0.0926041066 0.1580274444
495297030.0 -0.0640284596 0.1642236666 0.2832010509 -0.4829336717 0.2824937158 -0.4830022951 -0.0905233387 0.158958958
500297000.0 -0.0623642497 0.1654779146 0.2778252646 -0.485860017 0.277827301 -0.4861323522 -0.0892226037 0.1603895079
505296970.0 -0.0599537334 0.1661560539 0.2721575623 -0.4893684149 0.27214618 -0.4886344392 -0.0874568082 0.1608333483
510296940.0 -0.0583624416 0.1670250404 0.2668032515 -0.4924379476 0.2673535318 -0.4924157227 -0.0857524762 0.1623753665
515296910.0 -0.056359277 0.1678884798 0.2612821352 -0.4948714053 0.2607530269 -0.4945814711 -0.084108593 0.1627599373
520296880.0 -0.0543113 0.1687358583 0.2564371506 -0.4973499076 0.2557625158 -0.4977387726 -0.0821277284 0.1644172735
525296850.0 -0.0525353203 0.1690744246 0.2506154872 -0.5001518716 0.2500998846 -0.5002024824 -0.0807693918 0.1650726617
530296820.0 -0.0507936008 0.1699963638 0.244967249 -0.5029797293 0.2449081674 -0.5029149886 -0.0792232522 0.1656717919
535296790.0 -0.0479486617 0.1706338864 0.2396635482 -0.5054936152 0.2397054007 -0.5055255684 -0.0771790134 0.1667279828
540296760.0 -0.0462719446 0.1715659074 0.2339673697 -0.5081232589 0.2338251313 -0.5081210383 -0.0760955712 0.1673294433
545296730.0 -0.0446215816 0.1724225873 0.2286012462 -0.5103525815 0.2283958995 -0.5103046655 -0.0742246485 0.1682128926
550296700.0 -0.0422462511 0.1726870649 0.2228722862 -0.513066724 0.2226176172 -0.5132734716 -0.0723875746 0.1691646628
555296670.0 -0.0403925501 0.1735042407 0.2172971241 -0.5156178773 0.2171456902 -0.5153982432 -0.071108689 0.1695809421
560296640.0 -0.0380017007 0.1739360858 0.2110130167 -0.5178969265 0.2117621283 -0.5178685923 -0.0691040621 0.1712391452
565296610.0 -0.0365312934 0.1745364606 0.206434024 -0.5196950031 0.2058657123 -0.5197432195 -0.0672573392 0.1721479297
570296580.0 -0.0345236928 0.1755805566 0.2002851141 -0.5220686441 0.2003001944 -0.5218123087 -0.0659125227 0.1723326674
575296550.0 -0.0320883451 0.1757079121 0.1951317651 -0.5242150846 0.1947865926 -0.5243186424 -0.0640361324 0.1731603941
580296520.0 -0.0300444309 0.1765116662 0.1888841038 -0.5261749395 0.1889930432 -0.5264124214 -0.0625359649 0.1737004073
585296490.0 -0.0281118694 0.1772010825 0.1837841272 -0.5284302661 0.1828806458 -0.5282413962 -0.0602292065 0.1748712628
590296460.0 -0.0252661848 0.1774547142 0.1774685493 -0.5300096169 0.1776651026 -0.5302811153 -0.0592201407 0.175366341
595296430.0 -0.023623326 0.1780767737 0.1713324165 -0.5318838389 0.1714081524 -0.5321804275 -0.0572754162 0.1758114908
600296400.0 -0.0214044106 0.1784514471 0.1657864069 -0.5337918457 0.1655969985 -0.5335280999 -0.0551908906 0.1767785684
605296370.0 -0.0199119693 0.1790350684 0.1604247792 -0.5352598188 0.1596409792 -0.5355814861 -0.0534897912 0.1772532452
610296340.0 -0.0173885802 0.1798042658 0.1544659311 -0.5369906804 0.1543165595 -0.5371304638 -0.0520896121 0.1781968313
615296310.0 -0.0151859558 0.1800138811 0.1486837996 -0.5389953121 0.147994936 -0.5387921249 -0.0498150335 0.1788424356
620296280.0 -0.0135648535 0.1806249764 0.1423058304 -0.5404740296 0.142220247 -0.540380586 -0.0489314156 0.1795824305
625296250.0 -0.0117294912 0.1807482712 0.1366328678 -0.5419904981 0.1367334988 -0.5421673333 -0.0471462883 0.1801119107
630296220.0 -0.0093143472 0.181246027 0.1304463631 -0.5436122936 0.1304180742 -0.5431124932 -0.0450006329 0.1807709295
635296190.0 -0.0075084297 0.1815405056 0.1248087571 -0.5441669624 0.1250112838 -0.5448253896 -0.04323311 0.181154174
640296160.0 -0.0052739777 0.1821141419 0.1189313533 -0.5461804676 0.1189144196 -0.5462013872 -0.0416941793 0.1817638834
645296130.0 -0.0028244665 0.1826934068 0.1129522488 -0.5469343024 0.1129458017 -0.5469119471 -0.0400341553 0.1818151639
650296100.0 -0.0012326886 0.1825926744 0.1074472556 -0.548649949 0.1066771471 -0.5484259297 -0.0369547553 0.1826450239
655296070.0 0.0007091108 0.1828173694 0.1011748949 -0.5494492785 0.100976244 -0.5489559203 -0.0361884546 0.1832449836
660296040.0 0.0031710788 0.1833372151 0.0952146977 -0.5507492963 0.0953370318 -0.550500578 -0.0343563993 0.1831496719
665296010.0 0.005178446 0.1838395955 0.0892587191 -0.5510543383 0.0888573614 -0.5511523113 -0.0323964652 0.1842607509
670295980.0 0.0072478098 0.1837749831 0.0832995721 -0.5523942434 0.0831775125 -0.5519499113 -0.0306963916 0.1843140628
675295950.0 0.0093316649 0.1836732099 0.0772773068 -0.5531067292 0.0775301217 -0.5531424128 -0.0288853869 0.1851415535
680295920.0 0.0109058661 0.1840761575 0.0716491892 -0.5536380461 0.0716953061 -0.5536862249 -0.0272245942 0.1849365814
685295890.0 0.0134971282 0.184484331 0.0649866223 -0.5548092133 0.0651981316 -0.5545276912 -0.0251155593 0.185969043
690295860.0 0.0151104402 0.1843972955 0.0594186978 -0.5550888518 0.0592048249 -0.5555099556 -0.0238176167 0.1863064208
695295830.0 0.0172128298 0.1844445933 0.0540282267 -0.5558022944 0.0533685231 -0.5558435708 -0.0217556064 0.1868478051
700295800.0 0.0194168849 0.1846840197 0.0476293729 -0.5559606216 0.047440111 -0.5562136104 -0.0198194282 0.1870013573
705295770.0 0.0212064575 0.1848060634 0.041896474 -0.5570098633 0.0414118837 -0.5567442389 -0.0182899267 0.1877536765
710295740.0 0.0230086015 0.184503675 0.0360284084 -0.5573662978 0.0355078451 -0.5576080513 -0.0161758118 0.1878114218
715295710.0 0.0251429621 0.1849602585 0.0295202971 -0.5578907789 0.0292318837 -0.557829752 -0.0144330903 0.1879662162
720295680.0 0.0277562815 0.1846749029 0.0233516493 -0.5574616187 0.0236541082 -0.5580948482 -0.0126030539 0.188327504
725295650.0 0.0289363496 0.1848364361 0.0180846841 -0.557837801 0.0176282274 -0.5579735317 -0.0111485113 0.1888492958
730295620.0 0.030604632 0.1845047807 0.0118266325 -0.5574860346 0.0116860739 -0.5578482257 -0.0092082135 0.1893435085
735295590.0 0.0330566922 0.184796337 0.0055885861 -0.5584162353 0.0055379495 -0.5579208799 -0.0075041856 0.1890189762
740295560.0 0.0348680473 0.1844205919 -0.0002728589 -0.5582687654 -0.000262578 -0.5582052543 -0.0056722273 0.189558635
745295530.0 0.0366225995 0.1842694693 -0.0060294968 -0.5571539664 -0.005632182 -0.5578064533 -0.0041388512 0.1898311272
750295500.0 0.0386618734 0.1843151173 -0.012326413 -0.5579887194 -0.0124851634 -0.5580328428 -0.0020645657 0.1899829428
755295470.0 0.0406097704 0.1841986671 -0.0177697448 -0.5583043446 -0.0183651668 -0.5581462699 3.27675e-05 0.1905186122
760295440.0 0.0426628525 0.1842325683 -0.0248458661 -0.5574420939 -0.0244119125 -0.5571440343 0.0020801747 0.1894989964
765295410.0 0.0447628528 0.1834987659 -0.0302509483 -0.5569694024 -0.0300520312 -0.5570358592 0.0036696681 0.19053736
770295380.0 0.0461969169 0.1835490872 -0.0355941058 -0.5564499448 -0.0362680128 -0.5570990534 0.0051349011 0.1904813634
775295350.0 0.0484023007 0.1830890646 -0.0419071644 -0.5565545276 -0.0420166688 -0.5560870382 0.0074063529 0.1906479996
780295320.0 0.0504537951 0.1829594735 -0.0477697223 -0.5553142209 -0.0480376046 -0.5560160227 0.0091243313 0.190700629
785295290.0 0.0521614623 0.1826036663 -0.0540156577 -0.555326803 -0.0537688644 -0.5554066145 0.0107182354 0.1912152284
790295260.0 0.0542333967 0.1818107183 -0.0597832249 -0.5548526539 -0.0596296708 -0.5548181977 0.0124550811 0.1915689454
795295230.0 0.0559386126 0.1814193524 -0.065733197 -0.5538630398 -0.0658298804 -0.5543818192 0.0145390883 0.1907341545
800295200.0 0.0575559816 0.1815478624 -0.0707240976 -0.552884125 -0.0717324483 -0.5533297498 0.0160083189 0.1910575082
805295170.0 0.0596151637 0.1810894684 -0.0777487969 -0.5523461453 -0.0780271057 -0.5524903454 0.0187883384 0.1911283859
810295140.0 0.0618758032 0.1806370185 -0.0835337079 -0.5517021815 -0.0833626684 -0.5517848545 0.0204603482 0.1909341501
815295110.0 0.0634516429 0.1801470293 -0.0894686125 -0.5506259274 -0.0892836187 -0.550588454 0.0217213215 0.190996583
820295080.0 0.0654887139 0.179502583 -0.0948602137 -0.5492493631 -0.0953145634 -0.5498258852 0.0229922913 0.1910915703
825295050.0 0.067019395 0.1787942752 -0.1007993793 -0.548222293 -0.1012436468 -0.5487383938 0.0259277402 0.1912518653
830295020.0 0.0691438976 0.1783092721 -0.1071552301 -0.5475051483 -0.1071351233 -0.5474030831 0.0277110679 0.1907423229
