!Created with skrf (http://scikit-rf.org).
# Hz S RI R 50.0 
!freq ReS11 ImS11 ReS21 ImS21 ReS12 ImS12 ReS22 ImS22
300000.0 -0.2330815158 -0.135104557 0.4663572433 0.0884582647 0.4663158322 0.0866712608 -0.2344984675 -0.1313172657
5299970.0 -0.2416140568 0.0053376252 0.4747968865 0.0058962148 0.475502459 0.0059592085 -0.2442613398 0.0045597992
10299940.0 -0.238661484 0.0186802362 0.4773325097 0.0069048721 0.477037189 0.0072974672 -0.2407066424 0.0173895599
15299910.0 -0.2337196866 0.0285945946 0.4805332178 0.0080838744 0.480819563 0.0082720662 -0.2368309647 0.0263464048
20299880.0 -0.2286327876 0.0367284678 0.4852882076 0.0078929455 0.4854588266 0.0083172398 -0.231868963 0.0339303253
25299850.0 -0.2224640055 0.0436837977 0.4907830496 0.0076466222 0.4907750356 0.0072463876 -0.2268413903 0.0402782975
30299820.0 -0.2171457769 0.0487980965 0.4963459395 0.0051769925 0.4962123816 0.0051381989 -0.2218386744 0.0449052875
35299790.0 -0.2113662201 0.0528502514 0.5010878817 0.0021112047 0.5015710797 0.0017103216 -0.2166263415 0.0493185662
40299760.0 -0.2059005395 0.0559504364 0.5061795398 -0.0022299067 0.5063685581 -0.0020974688 -0.2116372055 0.0522857882
45299730.0 -0.2010942239 0.0586342794 0.5110532734 -0.006547413 0.5113953017 -0.007257658 -0.2070612148 0.0550140722
50299700.0 -0.196164062 0.0606828418 0.5151952891 -0.0123398513 0.5152606475 -0.0127720916 -0.2024295169 0.0567715248
55299670.0 -0.1919292752 0.0625242161 0.518947227 -0.0178258373 0.5189681719 -0.0182857916 -0.1990616105 0.0586864436
60299640.0 -0.1877198182 0.0641752189 0.522553285 -0.0248304797 0.5224441187 -0.0249899184 -0.1949856807 0.05966432
65299610.0 -0.1840431443 0.0650101791 0.5255828116 -0.0307793413 0.5251679174 -0.0308080902 -0.1916792024 0.0608308827
70299580.0 -0.1806581264 0.065819466 0.5273813256 -0.0375836108 0.5278820828 -0.0376232352 -0.1889817362 0.0620602185
75299550.0 -0.177990206 0.0666381673 0.5294393038 -0.0443596154 0.5297341496 -0.0442589631 -0.1864582323 0.0626269977
80299520.0 -0.1753025432 0.0676513483 0.5316623831 -0.0512616918 0.5317766873 -0.051304489 -0.1836485367 0.0633538827
85299490.0 -0.172832087 0.0682194844 0.5329291675 -0.0580731645 0.5328118777 -0.0579077896 -0.181670739 0.0637658739
90299460.0 -0.170242447 0.0690890552 0.5334064794 -0.0651577017 0.5335822482 -0.0647782924 -0.1790859136 0.0648939033
95299430.0 -0.1678810228 0.0697201832 0.5346686274 -0.0719904917 0.534808343 -0.0726064645 -0.1775588215 0.0655823003
100299400.0 -0.1658826727 0.0701752963 0.5347699108 -0.0785398684 0.535061188 -0.0791476817 -0.175807739 0.066348959
105299370.0 -0.1640265614 0.0708025913 0.5350185058 -0.0854917981 0.535702738 -0.0857334956 -0.1739203555 0.0668360062
110299340.0 -0.1622503999 0.0714700863 0.5353485676 -0.0920905634 0.5358150524 -0.0923936259 -0.1728645937 0.0676628137
115299310.0 -0.160819453 0.0724097998 0.5352845364 -0.0990266987 0.5354598469 -0.0993995447 -0.171448202 0.0684190648
120299280.0 -0.1595037825 0.0733287478 0.5356273429 -0.1063983913 0.5355182304 -0.1064527467 -0.1701042709 0.0684009988
125299250.0 -0.1577481968 0.0740560755 0.5347998892 -0.112797992 0.5349545369 -0.1127042231 -0.168713716 0.0696731011
130299220.0 -0.1566901231 0.0746588374 0.5344370411 -0.1197388747 0.5341640412 -0.1201039392 -0.1676639983 0.0707621302
135299190.0 -0.1554331765 0.0760059599 0.5335665945 -0.1261904395 0.5336711667 -0.1263390706 -0.166603464 0.0712136214
140299160.0 -0.1543090769 0.0766374329 0.5330158501 -0.1332690401 0.5329087849 -0.1329407224 -0.1660367447 0.0721068039
145299130.0 -0.1534099766 0.0778659778 0.5319614085 -0.139314706 0.5320801618 -0.1394715892 -0.1648115056 0.0729039703
150299100.0 -0.1522551358 0.0789141845 0.5309717429 -0.1459682988 0.5307980804 -0.1461368274 -0.1639808899 0.074029291
155299070.0 -0.1509084601 0.0800907533 0.5291205881 -0.1526137846 0.5298110524 -0.1522821478 -0.1629532004 0.0749436513
160299040.0 -0.1498504293 0.0812008999 0.5281297329 -0.159019328 0.5283512252 -0.1592762214 -0.1626916809 0.0759836521
165299010.0 -0.1486455292 0.0821490253 0.5266348437 -0.1651915505 0.5267140762 -0.1655780618 -0.1613151044 0.0767718053
170298980.0 -0.1480809801 0.0833891965 0.5248274939 -0.1718327424 0.5249710688 -0.1719277971 -0.1608760327 0.0780586277
175298950.0 -0.1467545975 0.084581626 0.523734701 -0.1777347823 0.5240327035 -0.178303081 -0.1602679744 0.0793602999
180298920.0 -0.1459927083 0.0860450714 0.5216876129 -0.1843666213 0.5216947642 -0.1846274815 -0.1593464655 0.0800191719
185298890.0 -0.145013915 0.0870955113 0.5201054796 -0.1905527848 0.5198495085 -0.19064145 -0.1582882495 0.0811253074
190298860.0 -0.1436610887 0.0890087949 0.5176327852 -0.1968096634 0.5185249631 -0.1968524208 -0.1576624638 0.0823933638
195298830.0 -0.1428762959 0.0899492977 0.5161977153 -0.2024640311 0.5160900498 -0.2033516204 -0.1571358629 0.0833955473
200298800.0 -0.1418603373 0.091058332 0.5141750269 -0.2095428254 0.5139842629 -0.2091683905 -0.1563053324 0.0847925437
205298770.0 -0.1413307392 0.0923757579 0.511524519 -0.2147451008 0.5122398957 -0.2149810929 -0.1555079313 0.0860698035
210298740.0 -0.1401801122 0.0941599041 0.5094722643 -0.2206690074 0.5094113446 -0.2209550478 -0.1549547178 0.0873790664
215298710.0 -0.1391093434 0.0955305674 0.5071579838 -0.226609102 0.5073605614 -0.2269844582 -0.1538757586 0.0884725697
220298680.0 -0.1381247127 0.0968329722 0.5045897748 -0.2325884179 0.5046904093 -0.2330681377 -0.1533024771 0.0896500072
225298650.0 -0.1371819222 0.0983583104 0.5021485439 -0.2386173671 0.50266222 -0.2383023611 -0.1529073155 0.0907421043
230298620.0 -0.1358809518 0.0997598073 0.4997655626 -0.2445526207 0.4998173735 -0.2446286959 -0.1521187964 0.091851639
235298590.0 -0.1354188632 0.1011551043 0.4970010768 -0.2503177857 0.4974323406 -0.2504018315 -0.1509747165 0.0935324946
240298560.0 -0.1341897679 0.1028160761 0.4942714667 -0.255705237 0.4945857173 -0.2556314397 -0.150577977 0.0946579326
245298530.0 -0.1332165452 0.1041681069 0.4917410543 -0.2615953213 0.491899563 -0.2616834728 -0.1496637914 0.0957965721
250298500.0 -0.1323582243 0.1055408991 0.4886967305 -0.2669693262 0.4890216911 -0.2668571938 -0.1489873769 0.0975083469
255298470.0 -0.1312168893 0.107081254 0.4859827333 -0.2722752066 0.4865877871 -0.2726585129 -0.1480835103 0.099170015
260298440.0 -0.1302540781 0.108386669 0.4831748697 -0.2777149015 0.4833179522 -0.2778128204 -0.1473615932 0.0998196091
265298410.0 -0.1293115754 0.110088085 0.4801531221 -0.2839450535 0.4798564803 -0.2839230692 -0.1460681896 0.1010206331
270298380.0 -0.1280876389 0.1112750222 0.4770201918 -0.2891393498 0.4768063188 -0.2889942646 -0.1453264297 0.1025885371
275298350.0 -0.1268513922 0.1132004149 0.4732965184 -0.2943970894 0.4738668833 -0.2943641731 -0.1443054039 0.1041087211
280298320.0 -0.1260607725 0.1145247887 0.4706545323 -0.2995723269 0.4709284723 -0.3000442867 -0.143392666 0.1055999171
285298290.0 -0.1252622441 0.116028872 0.4675206439 -0.3046856259 0.4678957082 -0.3045122703 -0.1427363004 0.1069407606
290298260.0 -0.1237469514 0.1174598 0.4646628428 -0.3104189595 0.464410035 -0.310829179 -0.1415525261 0.1082842037
295298230.0 -0.1226377255 0.1185887938 0.4609070317 -0.3158277294 0.4611313291 -0.3160177626 -0.1405308617 0.1092873831
300298200.0 -0.1214393602 0.1203702794 0.4576869441 -0.3214049107 0.4573654012 -0.3208852411 -0.139705413 0.1107736297
305298170.0 -0.120139185 0.1212355969 0.4542645446 -0.326308975 0.4543403907 -0.3262919553 -0.1385501126 0.1118504028
310298140.0 -0.1185626066 0.1223282176 0.4506047237 -0.331204898 0.4508174199 -0.331380068 -0.1371774456 0.1129333454
315298110.0 -0.1178648456 0.1236065209 0.447272373 -0.3368912668 0.4473064596 -0.3365896919 -0.1365824696 0.1141130843
320298080.0 -0.1163252981 0.125185387 0.4426416379 -0.3418527301 0.4434942471 -0.3419712399 -0.1356638679 0.1154811212
325298050.0 -0.115870269 0.1257610537 0.4391096003 -0.3465796662 0.4397288561 -0.3469495225 -0.1343950635 0.1167966964
330298020.0 -0.1147807689 0.1277849201 0.4354320411 -0.351742559 0.435591176 -0.3516127797 -0.1340540782 0.117882179
335297990.0 -0.1135912474 0.1290608348 0.4312661362 -0.3567669285 0.4319042647 -0.3567597253 -0.1329574716 0.1194483236
340297960.0 -0.1124052036 0.1304148572 0.4271501831 -0.3616582748 0.426957971 -0.3613830701 -0.1319641767 0.1209516121
345297930.0 -0.1114395062 0.1312992135 0.4234452231 -0.3663569174 0.4232712473 -0.366263655 -0.1308407639 0.122149257
350297900.0 -0.1103079443 0.1331106397 0.4195880877 -0.3704245563 0.4196862069 -0.3706341329 -0.1300538607 0.1235384433
355297870.0 -0.1087285893 0.1341298766 0.4150202518 -0.3750089589 0.4151509286 -0.3750939101 -0.1286084811 0.1249601884
360297840.0 -0.1073683314 0.135894029 0.4108027386 -0.3796834272 0.4110511769 -0.3800928507 -0.1276151886 0.1265885563
365297810.0 -0.1061349472 0.1372467067 0.4065050915 -0.3842224099 0.4067383927 -0.3842599848 -0.1271385472 0.1275518426
370297780.0 -0.1047993692 0.1383052345 0.402190913 -0.3887010488 0.402502146 -0.3886638538 -0.1255214183 0.1287823054
375297750.0 -0.1034979261 0.139686021 0.3981169805 -0.39315716 0.3982600795 -0.3933945439 -0.1243416724 0.1303309698
380297720.0 -0.1021163558 0.1410637967 0.3940630915 -0.3977289911 0.3938651079 -0.397501801 -0.1231446143 0.1317583964
385297690.0 -0.1008191185 0.1421556293 0.3895471357 -0.401683662 0.3898144379 -0.4022995425 -0.1219190404 0.1333095671
390297660.0 -0.0990598378 0.1431239467 0.3848726109 -0.4054966491 0.3852550237 -0.4061482783 -0.1202771353 0.1340065609
395297630.0 -0.0975004968 0.144576429 0.3807092715 -0.4098063777 0.380956933 -0.4102182947 -0.1195033979 0.1354993984
400297600.0 -0.0965810648 0.1460212372 0.3759942873 -0.414475456 0.376657125 -0.414390654 -0.1182102458 0.136937046
405297570.0 -0.0946784357 0.1466975534 0.3714946899 -0.4180581753 0.3718648821 -0.418847218 -0.1167677366 0.1384273554
410297540.0 -0.0931026876 0.1481152378 0.3667554078 -0.4224655998 0.3674667252 -0.422636979 -0.1156110126 0.1395132396
415297510.0 -0.0920423378 0.1493146269 0.3624260577 -0.4264326848 0.362903435 -0.426652563 -0.1142254622 0.1408544603
420297480.0 -0.0902668118 0.1501457959 0.3578269045 -0.4304875677 0.3580492723 -0.4308186102 -0.1124331806 0.1421449809
425297450.0 -0.0882404146 0.1512554427 0.3532052979 -0.4340792127 0.3530238758 -0.4341525797 -0.1118758218 0.1431888461
430297420.0 -0.0870304968 0.1525251779 0.3488547337 -0.4384972414 0.348635018 -0.4377377812 -0.1098072723 0.1444318302
435297390.0 -0.0850765968 0.1534837213 0.3433390774 -0.442528928 0.3432888071 -0.4421515356 -0.1089986304 0.145972031
440297360.0 -0.0836016958 0.154372093 0.3385791161 -0.4459478717 0.33853612 -0.4456620186 -0.1073920193 0.1470613574
445297330.0 -0.0818709335 0.1549565819 0.3338058574 -0.4492044032 0.3336197805 -0.44974783 -0.1058853791 0.1483819834
450297300.0 -0.080178371 0.156378012 0.3290603648 -0.4528251541 0.3291832317 -0.4528359444 -0.1043603291 0.1496443651
455297270.0 -0.0786726981 0.1574585929 0.3242816377 -0.4564044256 0.3242825439 -0.4570037184 -0.1027299647 0.1507389643
460297240.0 -0.0765294078 0.1584139375 0.3190801248 -0.4602931688 0.3188570557 -0.4604237403 -0.1015499832 0.1515661287
465297210.0 -0.0750534737 0.1592539806 0.3133499238 -0.463956338 0.3135555843 -0.4640400151 -0.0997011203 0.1534442892
470297180.0 -0.0729921704 0.1599580548 0.3086209614 -0.4667647381 0.3089355884 -0.4669053579 -0.098115448 0.1539413827
475297150.0 -0.0716413031 0.1613430344 0.3035873963 -0.4702770796 0.3039086482 -0.4705236989 -0.0969037099 0.1552627314
480297120.0 -0.0693522313 0.1624501311 0.2984397035 -0.4736102054 0.2987465364 -0.4736980771 -0.0955627316 0.15604344
485297090.0 -0.0676530761 0.1625779437 0.2930479999 -0.4769799702 0.2931287578 -0.4765931314 -0.0940822852 0.157203204
490297060.0 -0.0654446185 0.1640216641 0.2878533388 -0.4800901612 0.2882211809 -0.4801692228 -0.0924503541 0.1582271272
495297030.0 -0.0640178451 0.1642996089 0.2827817178 -0.4832437546 0.2827061618 -0.4835321479 -0.090511936 0.1592985318
500297000.0 -0.0622209072 0.1653518702 0.2774853964 -0.4854553824 0.2775642519 -0.4862295053 -0.0888865812 0.1604775573
505296970.0 -0.0596792946 0.1661557609 0.2720631799 -0.4894665049 0.2723822502 -0.4890158527 -0.087456485 0.1610172734
510296940.0 -0.058056701 0.1669449555 0.2669956039 -0.4925593772 0.2673493231 -0.4924785176 -0.0854524952 0.1624824354
515296910.0 -0.0564593162 0.1677198002 0.2610890599 -0.4947872031 0.2611221429 -0.4946760376 -0.0843087986 0.1628915707
520296880.0 -0.0544387559 0.1684906392 0.2561174888 -0.4973917293 0.2560033227 -0.497347965 -0.0821683147 0.1642909145
525296850.0 -0.0522939558 0.1691893406 0.2502546999 -0.5003276046 0.2500665023 -0.5002484122 -0.0803927816 0.1651368356
530296820.0 -0.0506425477 0.1697594241 0.2446947236 -0.503226212 0.2452421937 -0.5030403015 -0.0791584627 0.1656919108
535296790.0 -0.0478308726 0.1704308737 0.2393849117 -0.5049923436 0.2397887914 -0.5059903707 -0.0775606872 0.1671893883
540296760.0 -0.0461316716 0.171556371 0.2338340286 -0.508207567 0.2336917913 -0.5080551906 -0.0755918721 0.1675267794
545296730.0 -0.0449496903 0.1724085737 0.2288421002 -0.5103010405 0.2284556327 -0.5105287416 -0.0741788892 0.1685888575
550296700.0 -0.0420443243 0.1726961266 0.2227666434 -0.5131133244 0.2228027386 -0.5135644578 -0.0721876982 0.1695262659
555296670.0 -0.0405301223 0.1733714303 0.2171956388 -0.5155559598 0.2175110887 -0.5154338184 -0.0709000651 0.1695644551
560296640.0 -0.0379147408 0.174126394 0.2117205284 -0.5178012243 0.2118518752 -0.5174793147 -0.0691580877 0.1709658109
565296610.0 -0.0363700616 0.1746129399 0.2063592644 -0.5200040707 0.2058719526 -0.5195599426 -0.0672235442 0.1720651908
570296580.0 -0.0343615568 0.1755041726 0.2002441865 -0.5219431571 0.200465782 -0.5222566607 -0.0654944459 0.1724581721
575296550.0 -0.0321641491 0.1756242966 0.1949987451 -0.5241799669 0.1947473085 -0.5242042048 -0.0639895782 0.1733231609
580296520.0 -0.0301079979 0.1764599539 0.1892195407 -0.5262895308 0.1888807962 -0.5262994564 -0.062719606 0.1738802354
585296490.0 -0.0281062823 0.1769937633 0.1834937187 -0.5281281815 0.1830329839 -0.5281672287 -0.0602904833 0.1750478478
590296460.0 -0.0254545209 0.1775359776 0.1775613183 -0.5301633951 0.1776841719 -0.5305047125 -0.0590402506 0.175542063
595296430.0 -0.0240440756 0.1784014263 0.1718804317 -0.5322544181 0.1715418857 -0.5322961934 -0.0573453848 0.1762986042
600296400.0 -0.0213795027 0.1784531055 0.1660896751 -0.5336609479 0.1652850157 -0.5341547383 -0.0550625385 0.1767354332
605296370.0 -0.0199287541 0.1791621445 0.1606917305 -0.5357401482 0.1598165032 -0.5354872492 -0.053517153 0.1777336415
610296340.0 -0.0174398421 0.1797629215 0.1544396961 -0.5369030955 0.1546095701 -0.5369984632 -0.052004069 0.1783483962
615296310.0 -0.0149652259 0.1799722205 0.148204507 -0.5388798093 0.1480851466 -0.5393997897 -0.0500471427 0.1792361254
620296280.0 -0.0134521838 0.1807494694 0.1426355063 -0.5404431522 0.142211262 -0.5401454233 -0.0482774522 0.1798347832
625296250.0 -0.0115609128 0.18073378 0.1365287711 -0.5421814677 0.1367768786 -0.5420136235 -0.0469083003 0.1800088209
630296220.0 -0.0092403362 0.1814590332 0.1306753653 -0.5433104526 0.1306302687 -0.5433248222 -0.0446336973 0.1806181661
635296190.0 -0.0073040424 0.1818521282 0.1249755001 -0.5445352448 0.1248098041 -0.5446286191 -0.0432020379 0.1813199469
640296160.0 -0.00524445 0.1820435352 0.119322192 -0.5461427316 0.118823431 -0.54608742 -0.0413663031 0.1816156201
645296130.0 -0.002862719 0.1824175985 0.112982855 -0.5469326284 0.1131269795 -0.5469331247 -0.0398308069 0.1818286857
650296100.0 -0.0010218902 0.1825073497 0.1073455845 -0.5484485472 0.1067483925 -0.5486171619 -0.0374761809 0.1827454421
655296070.0 0.0007759162 0.1829577375 0.1014447269 -0.54936609 0.1011041521 -0.5491045129 -0.0364151437 0.1834617419
660296040.0 0.002976368 0.1833778852 0.0957642125 -0.5503019679 0.0955280146 -0.5504944958 -0.0343823609 0.1833674361
665296010.0 0.0050601421 0.1834180851 0.0890532204 -0.5508267923 0.0891158735 -0.5512809645 -0.0325968408 0.1840526842
670295980.0 0.0070463676 0.184080811 0.0833677698 -0.5523011386 0.0833078715 -0.5517366866 -0.0309397511 0.1843862064
675295950.0 0.0091349096 0.183934245 0.077548137 -0.5529218953 0.0774790169 -0.5529859293 -0.0291053226 0.1854097944
680295920.0 0.0108777021 0.1841477271 0.0718451257 -0.5538055399 0.0715521347 -0.5536098326 -0.0271701819 0.1852040286
685295890.0 0.0132840917 0.1845222987 0.0655423242 -0.5545108325 0.0654316784 -0.5545164054 -0.0253612237 0.1860092199
690295860.0 0.0150878903 0.1847111417 0.0597608216 -0.5553242595 0.0591203568 -0.5553044121 -0.0234742073 0.1860191576
695295830.0 0.0172570734 0.184154066 0.0536066283 -0.5557159384 0.0534773437 -0.5559793534 -0.0218078563 0.1868255143
700295800.0 0.0192934329 0.1845987835 0.048099493 -0.5564146624 0.0476391991 -0.5564018034 -0.0197263871 0.1869667327
705295770.0 0.02105544 0.184906721 0.0414982863 -0.5570112684 0.0413064925 -0.556538195 -0.018141386 0.1875849863
710295740.0 0.0231192961 0.1847043531 0.036055944 -0.5573250662 0.0354310122 -0.5573544565 -0.0161485441 0.1877116329
715295710.0 0.0252290247 0.1849080879 0.0297370182 -0.5575525888 0.0293849414 -0.5574728814 -0.0144246697 0.1880770394
720295680.0 0.0277302323 0.1847442098 0.0237463423 -0.5574610686 0.023419044 -0.558115294 -0.0125261839 0.1885148372
725295650.0 0.0288586943 0.1848374083 0.0180243484 -0.5578191018 0.017745036 -0.5579134019 -0.0110322312 0.1889875787
730295620.0 0.0304501224 0.1845624253 0.0117203507 -0.5578992826 0.0115831279 -0.5577010489 -0.0092883485 0.1895828311
735295590.0 0.0330926606 0.1847121983 0.0056265027 -0.5582468679 0.0054962861 -0.5583010889 -0.0071908593 0.1893048578
740295560.0 0.0348585866 0.1842048628 -7.79253e-05 -0.558065477 0.0001319611 -0.5584902171 -0.0055415439 0.1898117247
745295530.0 0.0369854393 0.1844443186 -0.0061041602 -0.5572849193 -0.0057464765 -0.5577162991 -0.0039362197 0.1897974061
750295500.0 0.0385931999 0.1842628825 -0.011927386 -0.5574380728 -0.0126194672 -0.5580401741 -0.0020948611 0.1898345995
755295470.0 0.040712996 0.1841912166 -0.0177959399 -0.5576876916 -0.018219623 -0.5581675617 -5.22456e-05 0.190679724
760295440.0 0.0425863371 0.1843323315 -0.0244194274 -0.5576226507 -0.0245500633 -0.5569819257 0.0018438097 0.1899119757
765295410.0 0.0447994289 0.1834811694 -0.0297371709 -0.5570146318 -0.0301053839 -0.5571997642 0.0037955274 0.190445609
770295380.0 0.0462828047 0.1835869316 -0.0358441366 -0.5564125489 -0.0360509167 -0.5571087872 0.0050218623 0.1906913962
775295350.0 0.0483973274 0.1832146233 -0.0422206279 -0.5565854464 -0.0419096646 -0.5559893296 0.0072263679 0.1908693438
780295320.0 0.0506152345 0.1831590284 -0.0478562428 -0.5556684964 -0.0478017403 -0.5552218462 0.0094513488 0.1907881339
785295290.0 0.0521124473 0.1822644461 -0.0539077921 -0.5549745376 -0.0538648135 -0.5555062289 0.0102903611 0.1913684997
790295260.0 0.0544300968 0.1818215104 -0.0599432955 -0.5550937991 -0.0598070601 -0.5549416287 0.0125798761 0.1913293207
795295230.0 0.0562607109 0.1812513807 -0.0659473202 -0.5540813524 -0.065981877 -0.5542636425 0.0146739872 0.1905923724
800295200.0 0.057452482 0.1814921221 -0.071146127 -0.5530926152 -0.0720248309 -0.5534259032 0.0161301132 0.1910625532
805295170.0 0.0593924912 0.1808234116 -0.077688929 -0.5524863293 -0.0778781988 -0.552603965 0.0187593338 0.1909845297
810295140.0 0.0619126627 0.1806507488 -0.0835274761 -0.551247447 -0.0834502445 -0.5517045026 0.0202342471 0.1910769055
815295110.0 0.0632970047 0.1798759935 -0.0895260717 -0.5504997482 -0.0892458263 -0.5507405763 0.022102281 0.1913158495
820295080.0 0.0655931023 0.1796925305 -0.0948266643 -0.549357453 -0.0950517433 -0.5499690834 0.0234442773 0.1916856037
825295050.0 0.0670346475 0.1786537987 -0.1013806615 -0.5484530624 -0.1016789357 -0.5484373295 0.026240458 0.1912457851
830295020.0 0.0690101471 0.1781507272 -0.1071034917 -0.5473567665 -0.1072942448 -0.5476242059 0.0274793543 0.1907273551
