!Created with skrf (http://scikit-rf.org).
# Hz S RI R 50.0 
!freq ReS11 ImS11 ReS21 ImS21 ReS12 ImS12 ReS22 ImS22
300000.0 -0.2300525309 -0.1294712715 0.4655509385 0.0827728409 0.4665426524 0.0830498802 -0.2365137792 -0.1261870346
5299970.0 -0.241696557 0.0052348798 0.4747127971 0.0060836183 0.4752466221 0.0056836375 -0.2445469405 0.0047435803
10299940.0 -0.2386759142 0.0186864127 0.4774416053 0.0068836386 0.477191026 0.0071553007 -0.2409237964 0.0173709047
15299910.0 -0.2338754816 0.0289566502 0.4806079677 0.0078135239 0.4809570681 0.0080563977 -0.2368878715 0.0262177532
20299880.0 -0.2282663737 0.0366768864 0.4850001719 0.0078485649 0.4855726714 0.0082630764 -0.2320488053 0.0336978387
25299850.0 -0.2225658462 0.0435074208 0.4906313336 0.0076789516 0.4910099516 0.0073620945 -0.2268826916 0.0401406688
30299820.0 -0.2170781683 0.0488910644 0.4960027585 0.0049716786 0.4961830067 0.0049500631 -0.2218560699 0.0450883106
35299790.0 -0.2110962832 0.0530424852 0.5007383159 0.0017292697 0.5014096077 0.0016979082 -0.2167727068 0.0492903169
40299760.0 -0.2062995138 0.0558926571 0.5066941244 -0.0019405165 0.5066495659 -0.0020169439 -0.2121370458 0.0520385243
45299730.0 -0.2010302453 0.0589366667 0.5112851011 -0.006821651 0.5114820039 -0.0067474518 -0.2071253862 0.0548611172
50299700.0 -0.1958911469 0.0608411904 0.5152895456 -0.0122319104 0.5150572199 -0.0125702304 -0.2025767953 0.056986738
55299670.0 -0.1919171761 0.0622292422 0.5189014201 -0.0178006001 0.5186619892 -0.0182466968 -0.1991527512 0.0585244402
60299640.0 -0.1876352369 0.0642001252 0.5222058146 -0.0246457999 0.5223641249 -0.0245134456 -0.1955838669 0.0596554321
65299610.0 -0.1841997196 0.0652384834 0.5256722002 -0.0310510163 0.5256393702 -0.0310613664 -0.1918450946 0.0609961634
70299580.0 -0.1807699439 0.0656050448 0.5275195847 -0.0368844301 0.528024728 -0.0376606461 -0.1893121024 0.0623315818
75299550.0 -0.1779190268 0.0667291081 0.5292539684 -0.0444711577 0.5297342435 -0.0446485611 -0.1863591009 0.0624381636
80299520.0 -0.1751561799 0.0676795001 0.5313761505 -0.051341594 0.5318893074 -0.0514229932 -0.1837238408 0.0639316266
85299490.0 -0.1726482257 0.0683093926 0.5326551302 -0.0584311508 0.5331950143 -0.0582624208 -0.1815252634 0.0641336891
90299460.0 -0.1701908296 0.0693105768 0.5338831872 -0.0651362635 0.5337063268 -0.0650742915 -0.1795373459 0.065016153
95299430.0 -0.168031441 0.0695658283 0.5344208604 -0.0721564788 0.5351841989 -0.0723864514 -0.1777367363 0.0657619445
100299400.0 -0.1659178254 0.0703304261 0.5349878425 -0.0785917722 0.5351955524 -0.0788946594 -0.1760185696 0.0666458974
105299370.0 -0.1641361415 0.0709503515 0.5351413564 -0.0858674868 0.5357850962 -0.0858383096 -0.1738316607 0.0666169948
110299340.0 -0.1624606697 0.0715885437 0.5352514348 -0.0918152872 0.5354898215 -0.092427466 -0.1728997431 0.0672421756
115299310.0 -0.1611996927 0.0724302975 0.5354041277 -0.0992613512 0.5356087722 -0.0990573407 -0.1716420054 0.0683953379
120299280.0 -0.1595847867 0.0731845505 0.5353601301 -0.1065269126 0.5353829849 -0.1065480976 -0.170334808 0.0686896127
125299250.0 -0.1578385779 0.073902016 0.5347079861 -0.112763637 0.5345610657 -0.1127905052 -0.1687587708 0.0696623164
130299220.0 -0.1565640871 0.074444938 0.53432253 -0.1195003544 0.5339919795 -0.1201881866 -0.1678489715 0.070211526
135299190.0 -0.1556135029 0.0757424507 0.5340324891 -0.1258284277 0.533608674 -0.1265749262 -0.1665089375 0.0709439946
140299160.0 -0.1543121051 0.0768427437 0.5331971741 -0.1334144402 0.5329505436 -0.132901671 -0.1663702787 0.0717747671
145299130.0 -0.1533016978 0.0779236951 0.5320766306 -0.1392652857 0.5318886878 -0.1395019854 -0.1649220621 0.0726418169
150299100.0 -0.1522118669 0.0792505571 0.5307118657 -0.1459164456 0.5305337839 -0.1461052839 -0.164011264 0.0740082338
155299070.0 -0.1507760673 0.0800054038 0.5288612499 -0.1527562336 0.5297367145 -0.1526310321 -0.1634184191 0.0745577267
160299040.0 -0.1499291241 0.0814197541 0.5280216638 -0.1593056184 0.5283816413 -0.1590776698 -0.1625157496 0.0759206456
165299010.0 -0.1487807158 0.082290587 0.5269816394 -0.1648334721 0.5265123583 -0.1654703928 -0.1614251722 0.0765644892
170298980.0 -0.1477957497 0.0834882572 0.5246280366 -0.171718696 0.5252382787 -0.1718304087 -0.1612285824 0.0773954524
175298950.0 -0.1468046286 0.0847414158 0.5234067651 -0.177813728 0.5239105641 -0.1783813484 -0.1602946401 0.0790908844
180298920.0 -0.1462413514 0.0861383208 0.5217721052 -0.1844439783 0.5218132667 -0.1846160421 -0.1595434009 0.080044575
185298890.0 -0.1451289074 0.0872095134 0.5203598483 -0.1903599257 0.5198787851 -0.1906515857 -0.1585877746 0.081110433
190298860.0 -0.143715785 0.0889841958 0.5174409126 -0.1967914681 0.5181740216 -0.1966937495 -0.1580505089 0.0820764541
195298830.0 -0.1429092065 0.0901224875 0.5160469813 -0.2025478733 0.5162300952 -0.2027379245 -0.1574305363 0.0833598823
200298800.0 -0.1419796677 0.0911445434 0.5138987751 -0.2093314552 0.5140677109 -0.2092472498 -0.1563752057 0.0847533383
205298770.0 -0.1413874578 0.0925799826 0.5114413117 -0.2149821003 0.511789808 -0.2151124898 -0.1554852342 0.0859562812
210298740.0 -0.1402725197 0.0941652757 0.5097207597 -0.2208841991 0.5091378131 -0.2208805246 -0.1552344556 0.0868846607
215298710.0 -0.1392772118 0.0954724616 0.5070380952 -0.226462674 0.5072293069 -0.2270696505 -0.1542234557 0.0883996143
220298680.0 -0.1382230989 0.0968935714 0.5046565828 -0.2326937732 0.5045711863 -0.2328006813 -0.1533997188 0.089378224
225298650.0 -0.1371540941 0.0983440032 0.5019933175 -0.2385072919 0.5022301531 -0.2382567726 -0.1527480816 0.0904951049
230298620.0 -0.13621824 0.0998644086 0.4997465181 -0.2444863778 0.5001357144 -0.2444998353 -0.1521684252 0.0918185707
235298590.0 -0.1353224862 0.1012119239 0.4975346274 -0.2504215303 0.4968999482 -0.2501589478 -0.1512514386 0.0933293029
240298560.0 -0.1342398765 0.1027852873 0.494316167 -0.2558733164 0.4945418533 -0.2556081176 -0.1503583485 0.0943080861
245298530.0 -0.1335288392 0.1041196945 0.4915324171 -0.2616495087 0.4917296605 -0.2617915685 -0.1495478124 0.0957911933
250298500.0 -0.1326180401 0.1054616955 0.4889735961 -0.2670150612 0.4889140163 -0.2671945226 -0.1489541196 0.097527384
255298470.0 -0.1310978538 0.107182586 0.4858387905 -0.272752164 0.4864916778 -0.2729387174 -0.1481426329 0.0988070189
260298440.0 -0.1301005095 0.1083585608 0.4832853156 -0.2778874899 0.4832224625 -0.2780891891 -0.1474221514 0.09985062
265298410.0 -0.1294854432 0.109923262 0.4799693428 -0.2837639291 0.4798936631 -0.2840485294 -0.1458932059 0.1011321087
270298380.0 -0.1282785867 0.1114449216 0.4769077751 -0.2891259147 0.4770699791 -0.2890594778 -0.1451737168 0.1025531684
275298350.0 -0.1269214418 0.1129623285 0.4733594982 -0.2945817081 0.4737158346 -0.2944851261 -0.1443268378 0.1038500581
280298320.0 -0.1264154736 0.1144308515 0.4709707102 -0.2993315295 0.4710467049 -0.3001264531 -0.1435754495 0.1053666143
285298290.0 -0.1249500379 0.1157289378 0.4670866068 -0.304843872 0.4679860414 -0.304952674 -0.1428723325 0.1068909315
290298260.0 -0.1235170579 0.1175826181 0.4647688596 -0.3105136171 0.4643086857 -0.3106676185 -0.1417461875 0.1080724386
295298230.0 -0.1228067615 0.1184381492 0.4606654151 -0.3161492534 0.4607380836 -0.3159904339 -0.1407633699 0.1091299091
300298200.0 -0.121339027 0.1202238338 0.4572649777 -0.3208081959 0.4575860071 -0.3208998533 -0.1398067421 0.1103137652
305298170.0 -0.1202960194 0.1211369505 0.4539273484 -0.3261738047 0.4546488347 -0.326464216 -0.1387002232 0.111600364
310298140.0 -0.118528974 0.1224973076 0.4505314929 -0.3310643127 0.4507770523 -0.3312813043 -0.1375798791 0.1128451016
315298110.0 -0.1176242438 0.1236424186 0.4472778844 -0.336748085 0.4471922709 -0.3368476801 -0.1365548026 0.1141811475
320298080.0 -0.1164185749 0.1249513056 0.4427464185 -0.3419014061 0.4435329125 -0.3420419954 -0.1358118398 0.11547792
325298050.0 -0.115760188 0.1259081199 0.4391586983 -0.3466241238 0.4393290784 -0.3470549 -0.1343922208 0.1165690385
330298020.0 -0.1147435218 0.1277701822 0.4351096542 -0.3518485009 0.4357760011 -0.3521013006 -0.1341281824 0.1178024933
335297990.0 -0.1135170336 0.129018791 0.4313154443 -0.3566247824 0.4315517547 -0.3566657008 -0.1328765317 0.1191053094
340297960.0 -0.1123808182 0.1303516968 0.4267781905 -0.3617273416 0.4269037778 -0.3615756306 -0.1318744773 0.1209425854
345297930.0 -0.1112815908 0.1319327967 0.4231592922 -0.3666418504 0.4230987443 -0.3663405755 -0.1311057383 0.1219810861
350297900.0 -0.1102474598 0.1329329427 0.4193147306 -0.3705117517 0.4195853931 -0.370658391 -0.1301636483 0.1232349249
355297870.0 -0.1089863637 0.1344216759 0.4150046293 -0.3749746558 0.4150097839 -0.3749714805 -0.1289206496 0.1248592374
360297840.0 -0.107392848 0.1358335828 0.4106671529 -0.3799765193 0.4113314927 -0.3802553617 -0.1279449824 0.1262231291
365297810.0 -0.1063244084 0.1372444197 0.406892309 -0.3842031304 0.4065118187 -0.3843698147 -0.1270591985 0.127220122
370297780.0 -0.1046499813 0.1386001427 0.4018243136 -0.3887884953 0.4024093442 -0.3888438393 -0.1257676259 0.1285240908
375297750.0 -0.1034419994 0.1396937533 0.3984557786 -0.393195489 0.3982387077 -0.3934704136 -0.1244281811 0.1302001121
380297720.0 -0.1024439102 0.1411920923 0.3942526914 -0.3980110026 0.3935838127 -0.3977124696 -0.1233388583 0.1317789126
385297690.0 -0.1010598466 0.142092646 0.3893509157 -0.4017315347 0.3896396476 -0.402091144 -0.1220171088 0.1331285196
390297660.0 -0.0989880505 0.1432304603 0.3848204688 -0.4055430054 0.3852589511 -0.4059266384 -0.1205365285 0.1339657837
395297630.0 -0.0974308422 0.144751765 0.3806047351 -0.410081215 0.3806962373 -0.4100968414 -0.1195509697 0.1351873597
400297600.0 -0.0964041808 0.1456732999 0.3762352577 -0.4143624463 0.3763492236 -0.4142363664 -0.1181427834 0.1368112069
405297570.0 -0.0948757486 0.1465678447 0.3714702347 -0.4182178382 0.3719446028 -0.4185643678 -0.1167238497 0.1382768662
410297540.0 -0.0931118017 0.1483246281 0.3671352927 -0.4228452767 0.3670951882 -0.4224198376 -0.1157660022 0.1393271231
415297510.0 -0.0917950992 0.1494100971 0.3624480012 -0.4264969907 0.3626562487 -0.4268756525 -0.1137078372 0.1407850537
420297480.0 -0.0902095663 0.1500313863 0.3577319205 -0.4304622999 0.3577587255 -0.4303995298 -0.1123418836 0.1421774285
425297450.0 -0.0880994227 0.1514493476 0.3529100201 -0.4341087659 0.3531547744 -0.4344709762 -0.1113331877 0.1428641692
430297420.0 -0.0868292456 0.1524437812 0.3487131229 -0.4385346778 0.3485703571 -0.4377518692 -0.1098608078 0.1441334434
435297390.0 -0.0851199847 0.15354263 0.3432139626 -0.442280571 0.3431871143 -0.4421649356 -0.1088763056 0.145852388
440297360.0 -0.0833318942 0.1542766826 0.3383634435 -0.445940789 0.3386425743 -0.4457245927 -0.1073942243 0.1470076502
445297330.0 -0.0817502158 0.1550837541 0.334077387 -0.4489748626 0.3338045453 -0.4496701979 -0.1058441884 0.1481472743
450297300.0 -0.0801928207 0.1563993602 0.3287987775 -0.4526654005 0.3288786045 -0.4526413776 -0.1042891914 0.1492651012
455297270.0 -0.0786640687 0.1572931627 0.3238212886 -0.4564320811 0.3241107094 -0.4564228753 -0.1029326092 0.1505424952
460297240.0 -0.0765238577 0.1584829933 0.318729885 -0.4606617456 0.3187740602 -0.4604233575 -0.1014984101 0.1513435391
465297210.0 -0.0747945143 0.1592065294 0.3133997487 -0.4638930156 0.3133426351 -0.4639536777 -0.0997239132 0.1529757079
470297180.0 -0.0732573072 0.1599713484 0.3084358737 -0.466799069 0.3087141255 -0.4665070627 -0.0982860334 0.1537020091
475297150.0 -0.0716614844 0.1611981385 0.3034693931 -0.4703909357 0.3032510834 -0.4704304626 -0.0967459536 0.154638208
480297120.0 -0.0692557844 0.162199688 0.2981611171 -0.4737317049 0.298420366 -0.4732202425 -0.0955259999 0.1558213413
485297090.0 -0.0678679556 0.1624649044 0.2929741437 -0.4768076643 0.2928277096 -0.4765338492 -0.093854724 0.1570148503
490297060.0 -0.0651311014 0.1638861409 0.2873173641 -0.4800384378 0.2879246732 -0.4796794346 -0.0925026409 0.1581178603
495297030.0 -0.0639573113 0.1645502063 0.2830389844 -0.4830312169 0.2825129908 -0.4829554051 -0.0904497865 0.1588638784
500297000.0 -0.0621126791 0.1651866246 0.2771284903 -0.4859443207 0.2775484034 -0.4861769159 -0.0891256987 0.1604805761
505296970.0 -0.0598353757 0.1661767397 0.2723884789 -0.4891300032 0.2721422268 -0.4888407407 -0.0876299856 0.160676578
510296940.0 -0.0582273002 0.1671433185 0.2668198597 -0.4928139548 0.266991103 -0.4923388593 -0.085878133 0.1622091099
515296910.0 -0.0563975647 0.1679954788 0.2609959098 -0.4948431668 0.2609011499 -0.4946804427 -0.0844411174 0.1627067734
520296880.0 -0.0543287198 0.168412645 0.2560303485 -0.4975941206 0.2558552476 -0.4975827152 -0.0822024436 0.1640343733
525296850.0 -0.0522198236 0.1690948859 0.2502390623 -0.5000295221 0.2503049185 -0.5001989297 -0.0807970574 0.1649116408
530296820.0 -0.0508922509 0.1698947267 0.2450287269 -0.502987934 0.2451003153 -0.5028372066 -0.0790153175 0.1655198466
535296790.0 -0.0479854109 0.1705247047 0.2393367701 -0.5053787564 0.2395264592 -0.5055764014 -0.0770978629 0.166834126
540296760.0 -0.0462634234 0.1716421241 0.2336230756 -0.5082260688 0.2337182256 -0.5079381839 -0.0757110418 0.167139937
545296730.0 -0.0447243064 0.1724341246 0.2286351546 -0.510504568 0.2282581233 -0.5103754436 -0.073987351 0.1684592612
550296700.0 -0.0420381606 0.1729654984 0.2226324286 -0.5133404296 0.2225537097 -0.5133208768 -0.0724391985 0.1693511446
555296670.0 -0.0403861292 0.1735381356 0.2175926938 -0.5156128438 0.2171108996 -0.5152660284 -0.0708833264 0.1695446615
560296640.0 -0.0378893804 0.1737255518 0.2111060221 -0.5175018918 0.2117243667 -0.5179890372 -0.0691252994 0.1710550885
565296610.0 -0.0364609802 0.1747654366 0.2062511444 -0.5200429644 0.2058901232 -0.5194870267 -0.0671077625 0.1718628885
570296580.0 -0.0344424298 0.1755746583 0.2004298294 -0.5220425447 0.200392714 -0.5223268971 -0.0657363692 0.1722851258
575296550.0 -0.0322470965 0.1758749412 0.1950832277 -0.5242005652 0.1945447593 -0.5241618439 -0.0638678243 0.172874218
580296520.0 -0.029982901 0.1767570213 0.189082599 -0.5264015451 0.1888124198 -0.526292412 -0.0623698702 0.1737503999
585296490.0 -0.0281560836 0.1771040106 0.1834591909 -0.527810809 0.1827689251 -0.5279410688 -0.0603152297 0.174869839
590296460.0 -0.0256345578 0.1775394903 0.17749088 -0.5303483809 0.1772767652 -0.5305197297 -0.0589856993 0.1755188828
595296430.0 -0.0235481771 0.1781292438 0.1713587087 -0.5320762534 0.1710866962 -0.5318875246 -0.0572309368 0.1756937907
600296400.0 -0.0216509858 0.1784672355 0.1658795437 -0.5335616456 0.1657539137 -0.5339004221 -0.0553099549 0.1763588994
605296370.0 -0.0198647005 0.1792967469 0.1606257683 -0.5355203094 0.159713422 -0.5358199941 -0.0535518224 0.1774045251
610296340.0 -0.0175822667 0.1797916656 0.1543003749 -0.5367934238 0.1542589118 -0.5372904897 -0.0521800786 0.1780780614
615296310.0 -0.0150509586 0.1797280204 0.1478688529 -0.5391751233 0.1480252322 -0.5390731605 -0.0499394852 0.1789517611
620296280.0 -0.0136744975 0.1807165098 0.1423147378 -0.5407143134 0.1423952325 -0.5402261574 -0.0486006142 0.1796445929
625296250.0 -0.0114979098 0.1807324988 0.1364178305 -0.5418250232 0.1366316405 -0.5417732294 -0.0467933809 0.1799410384
630296220.0 -0.0091945328 0.1813049115 0.1305902626 -0.5432861864 0.1305187128 -0.5431616416 -0.0448284934 0.1806252469
635296190.0 -0.0075947771 0.181656438 0.1253142819 -0.5444607142 0.1249822307 -0.5443117785 -0.0431006308 0.1809976046
640296160.0 -0.0052549156 0.1819951782 0.1191916973 -0.5463880857 0.1185281687 -0.5460764209 -0.0413744504 0.1816203201
645296130.0 -0.002954625 0.1825406113 0.1130841596 -0.5470247096 0.1129903624 -0.5468270338 -0.0397602627 0.1817494109
650296100.0 -0.0010781677 0.1826196973 0.1072969632 -0.5485884545 0.1068653561 -0.5485693957 -0.0373305971 0.1826451415
655296070.0 0.0008682606 0.1829480203 0.1009116301 -0.5494030477 0.1010912107 -0.5492775081 -0.0364905625 0.1834655253
660296040.0 0.0029517832 0.1834670768 0.0952627754 -0.550660539 0.0951952458 -0.5505818563 -0.0342494186 0.1834345539
665296010.0 0.0051016799 0.1833941949 0.0887043839 -0.5509831398 0.088453 -0.5512253655 -0.0324504888 0.183819133
670295980.0 0.0070635739 0.1836887434 0.0829692966 -0.5520691035 0.083125635 -0.5517269164 -0.0309247767 0.1844104474
675295950.0 0.0089517107 0.1836932287 0.0772510076 -0.5530472084 0.0775345696 -0.5532146921 -0.0291492941 0.1851034452
680295920.0 0.0110334992 0.1843025744 0.071441086 -0.5539217913 0.0715299451 -0.553448724 -0.0270127842 0.1848181664
685295890.0 0.0130350528 0.1845509275 0.065721437 -0.554825705 0.0652856414 -0.554846922 -0.0252524265 0.1858857441
690295860.0 0.014890361 0.184369269 0.0591895837 -0.5551019132 0.0591953875 -0.5553439617 -0.0237713174 0.1861265676
695295830.0 0.0171611719 0.184462245 0.0539912019 -0.5559913199 0.0534325285 -0.5557556052 -0.0220244383 0.1867795281
700295800.0 0.0194693298 0.1847031826 0.0476335022 -0.5559736726 0.0474401345 -0.5562292901 -0.0200070478 0.1870478421
705295770.0 0.0208486583 0.1846999789 0.0416668592 -0.5570742369 0.041364519 -0.5568140998 -0.0183158707 0.1874318683
710295740.0 0.0231960604 0.1844654284 0.0353531834 -0.5569307398 0.035215392 -0.5575820123 -0.0162739458 0.1878193452
715295710.0 0.0255205669 0.1848755857 0.0294732161 -0.5576936688 0.0295976183 -0.5572764572 -0.0144132891 0.1877921637
720295680.0 0.027719051 0.1847768123 0.0235854155 -0.5575691399 0.023340101 -0.5579558084 -0.0125295328 0.1883493571
725295650.0 0.0289344793 0.1847728477 0.0178311388 -0.5579265763 0.0174999387 -0.5581696475 -0.0109020275 0.1890272982
730295620.0 0.030581399 0.1847767719 0.0120741829 -0.5573677185 0.0110186004 -0.5576052508 -0.0091803844 0.1894423372
735295590.0 0.033425608 0.1845610501 0.0055783311 -0.5580854937 0.0056525761 -0.5581385262 -0.0073957425 0.1889662809
740295560.0 0.0348697764 0.1844077618 -0.0003314258 -0.5582130257 -0.0002306087 -0.558176623 -0.0056098645 0.1894783126
745295530.0 0.0369827825 0.1845677275 -0.0061957981 -0.5575397477 -0.0058089035 -0.5581798375 -0.0041890052 0.1896537592
750295500.0 0.0385439858 0.1844707289 -0.0120408706 -0.5576723468 -0.0123870025 -0.5581737318 -0.0021274571 0.1899177888
755295470.0 0.0407396467 0.1839549612 -0.0181665804 -0.557766448 -0.0183498919 -0.5579814485 -4.72689e-05 0.1904789231
760295440.0 0.0423327616 0.184180092 -0.0244701058 -0.5574066103 -0.0244187932 -0.5572366531 0.0017635685 0.1896421886
765295410.0 0.0448510041 0.1836269446 -0.0299086655 -0.5570250785 -0.0299640718 -0.5572698725 0.0038189996 0.1903099757
770295380.0 0.0465584058 0.1836209198 -0.0361059213 -0.5563686721 -0.03611657 -0.5568443512 0.0051749267 0.1904898807
775295350.0 0.048248095 0.1832904145 -0.0419676478 -0.5564634589 -0.0420775831 -0.5560150783 0.0076794371 0.1906498704
780295320.0 0.0503729587 0.1828750508 -0.048168647 -0.5551454649 -0.0477481873 -0.5556985001 0.0092779168 0.1905366579
785295290.0 0.0521054764 0.1824901815 -0.0538976986 -0.5551513724 -0.0540421825 -0.5553754012 0.0107387404 0.1911304691
790295260.0 0.0543320819 0.181942848 -0.0601813254 -0.5548245233 -0.0601050188 -0.5551557495 0.0126454547 0.1913243555
795295230.0 0.0559749659 0.1814555756 -0.0660096726 -0.5540704267 -0.0658187317 -0.5539607635 0.0144322232 0.1906549209
800295200.0 0.0577333094 0.1815873737 -0.0714165813 -0.553047096 -0.0718998106 -0.5532444246 0.0162002138 0.1908119496
805295170.0 0.0596372405 0.1810939172 -0.0777990376 -0.5524036833 -0.0775422625 -0.5526095258 0.0187154059 0.1908805462
810295140.0 0.061969423 0.1808465208 -0.0837524394 -0.5513912625 -0.0838041769 -0.5513273405 0.0204557435 0.1909860742
815295110.0 0.0634314858 0.1801770008 -0.0896311613 -0.550530083 -0.089316706 -0.5507262725 0.0219164134 0.1908762964
820295080.0 0.0654062487 0.1793674863 -0.0952596329 -0.5490874435 -0.0949928546 -0.5496114096 0.0232274812 0.191432212
825295050.0 0.0669628574 0.1789417222 -0.1010084846 -0.5487722993 -0.1013569897 -0.548458711 0.0257912978 0.1910751653
830295020.0 0.0689534087 0.1783385713 -0.1071945661 -0.5472649043 -0.1072591488 -0.5476090702 0.0275940938 0.1904313149
