!Created with skrf (http://scikit-rf.org).
# Hz S RI R 50.0 
!freq ReS11 ImS11 ReS21 ImS21 ReS12 ImS12 ReS22 ImS22
300000.0 -0.0475759307 -0.0596589414 -0.0006484324 0.0013013982 -9.24763e-05 -0.0001904855 -0.7704762114 -0.169082382
5299970.0 -0.0494240643 0.0155111054 -6.37063e-05 4.33948e-05 8.32355e-05 -0.0001309467 -0.7850403893 -0.0086559761
10299940.0 -0.0431776614 0.0333073952 -0.0001819 -0.0001861088 -3.09633e-05 3.82512e-05 -0.7883867334 -0.005142537
15299910.0 -0.034840319 0.0479947508 -0.0002324889 0.0001040153 -3.64518e-05 -0.0001201455 -0.7934754426 -0.0031781016
20299880.0 -0.0245772467 0.0599596591 -0.0001192458 -9.09507e-05 -8.77937e-05 -0.0001801875 -0.8004230438 0.0016779206
25299850.0 -0.013266145 0.0690193504 -2.33093e-05 -3.1915e-06 4.97948e-05 -0.0001049528 -0.8070266084 0.0071080405
30299820.0 -0.0013990439 0.075886791 8.2181e-05 -0.0001831323 1.89527e-05 -0.0001241142 -0.8130952869 0.0148796374
35299790.0 0.0102828468 0.0806593877 3.03981e-05 -2.01594e-05 -1.81337e-05 -0.0001346993 -0.8181369382 0.0238754893
40299760.0 0.0219102585 0.0831341627 -8.66571e-05 -0.0001639671 8.02085e-05 3.86645e-05 -0.8214107881 0.0328655723
45299730.0 0.0326699076 0.0846989096 -0.0002977542 0.0001561457 -0.000191666 -6.88635e-05 -0.8250473493 0.042051099
50299700.0 0.0428992403 0.0844023081 -0.0001621899 6.43521e-05 -2.61588e-05 5.0583e-05 -0.8281228313 0.0527163952
55299670.0 0.0522006074 0.0831934046 -4.11503e-05 2.56572e-05 0.0001139899 0.0001234862 -0.8300745857 0.0630976274
60299640.0 0.0606502891 0.0813065799 0.0001016498 -7.84157e-05 -0.0001462836 -5.175e-07 -0.830532473 0.0727810018
65299610.0 0.0686776393 0.0787977986 -0.0001307847 5.601e-05 5.89124e-05 0.0001285951 -0.8313839546 0.0826555524
70299580.0 0.0756689299 0.0755998174 -4.07137e-05 1.90384e-05 3.95024e-05 5.43324e-05 -0.8318594233 0.0927959416
75299550.0 0.0821161119 0.0721116649 -0.0001276522 1.05692e-05 0.0001924796 -2.367e-07 -0.8327617572 0.1026315515
80299520.0 0.0875592068 0.0687623241 7.21656e-05 -0.0002537812 -6.06182e-05 4.69886e-05 -0.8315042919 0.111900027
85299490.0 0.0930714486 0.0647089548 0.000125231 -7.8443e-05 -8.04579e-05 7.84251e-05 -0.8314579238 0.1216698877
90299460.0 0.0973248105 0.0607480688 -1.28572e-05 4.9232e-05 -2.05003e-05 9.74141e-05 -0.8314276983 0.13112477
95299430.0 0.1013644656 0.0568490053 -0.0001237422 -0.0001459163 0.0001206915 8.04405e-05 -0.8300845912 0.1410416463
100299400.0 0.1049225916 0.0531607227 -1.9589e-05 -0.0002232059 -3.92014e-05 5.93727e-05 -0.8285188431 0.1495816909
105299370.0 0.1083862758 0.0488352713 0.0001110884 7.29158e-05 5.54869e-05 0.0001567829 -0.8274855431 0.1592374871
110299340.0 0.1108911666 0.0448909531 3.25671e-05 -0.0001009669 9.44808e-05 6.81257e-05 -0.8265863261 0.1679283453
115299310.0 0.1132854141 0.0402883088 -1.53398e-05 0.0001724366 2.86426e-05 0.0001873637 -0.8250879662 0.1771237802
120299280.0 0.1154313589 0.0368083393 0.0001418999 0.0001906943 -1.01817e-05 -9.28246e-05 -0.8231378748 0.1863723837
125299250.0 0.1174461209 0.0325608278 4.09287e-05 5.17595e-05 0.0001361132 -0.0001429118 -0.8219432351 0.1953817348
130299220.0 0.1191824747 0.0291260198 0.0002546642 9.45158e-05 0.0003077282 -0.0001201456 -0.8200749489 0.2039124708
135299190.0 0.1204895183 0.0250160689 0.0001554171 8.6462e-06 0.000202515 0.000105368 -0.8183223734 0.2125679242
140299160.0 0.1221648096 0.0214264815 -0.0001193127 -3.48204e-05 9.97858e-05 3.94071e-05 -0.8157065738 0.221401798
145299130.0 0.12325914 0.0177288824 -5.7354e-06 2.58526e-05 0.0001291075 8.52832e-05 -0.8136890147 0.2297964557
150299100.0 0.123830148 0.0141015715 -2.85893e-05 -0.0001146018 -2.50398e-05 -7.6407e-06 -0.8116082893 0.2384562117
155299070.0 0.1246066698 0.0108673842 1.98408e-05 4.62681e-05 0.0001586999 3.0662e-05 -0.8095520584 0.2475048994
160299040.0 0.1249878864 0.0075994288 -0.000293579 0.0001235909 2.34926e-05 5.88858e-05 -0.8073959747 0.2565633482
165299010.0 0.1254490718 0.0043329533 -7.3689e-05 -5.79856e-05 -5.34923e-05 9.85556e-05 -0.8041167018 0.2650904795
170298980.0 0.1257477785 0.0008356454 -3.09861e-05 -2.75588e-05 1.93112e-05 0.0001312169 -0.8021406226 0.2738301998
175298950.0 0.1262106889 -0.0018789356 -4.16395e-05 1.20022e-05 9.27071e-05 0.0001332061 -0.7993478032 0.2823950818
180298920.0 0.1260645902 -0.0050976612 2.89349e-05 0.0001596071 -9.6129e-06 0.0002577263 -0.7953758808 0.290504834
185298890.0 0.1259556434 -0.0083222985 8.363e-05 -0.0001217205 -4.78523e-05 2.56087e-05 -0.7929378667 0.2980126916
190298860.0 0.1262516421 -0.0115122884 -6.2965e-05 -8.53058e-05 -4.91058e-05 -1.039e-05 -0.7894904285 0.3071908843
195298830.0 0.126069095 -0.0143441217 0.0001527513 3.62391e-05 6.78023e-05 1.27892e-05 -0.7867163298 0.315631301
200298800.0 0.1256435713 -0.0170206534 -4.04529e-05 8.32554e-05 0.0001053374 -0.0001511116 -0.7837907428 0.3241145774
205298770.0 0.1254316912 -0.0196728134 0.0002468533 5.00828e-05 0.0001725033 -1.71332e-05 -0.7801955633 0.3317937199
210298740.0 0.1251920192 -0.0222524023 -5.05722e-05 0.0001206123 3.95513e-05 7.1058e-06 -0.7766735427 0.3406504503
215298710.0 0.1245578906 -0.024808952 6.78562e-05 -1.4856e-05 5.85148e-05 -8.171e-06 -0.7735118287 0.3480990343
220298680.0 0.1242110627 -0.0275804606 1.0347e-05 -0.0001765692 1.61655e-05 1.37388e-05 -0.7693562178 0.3568816553
225298650.0 0.1236587667 -0.0300680392 4.31013e-05 -0.0001422942 8.05285e-05 -4.40137e-05 -0.7658429822 0.3646720421
230298620.0 0.1229625363 -0.0324567373 3.55844e-05 8.66572e-05 -0.0001399265 0.0001748638 -0.7617887806 0.3726508666
235298590.0 0.1224148391 -0.0349672302 9.96582e-05 6.70994e-05 0.0001319413 0.0001201777 -0.7575457471 0.3805644423
240298560.0 0.1217128732 -0.0374425333 -4.67968e-05 1.73663e-05 0.0001152802 0.0001689715 -0.7542506385 0.3885228532
245298530.0 0.120989368 -0.0395852176 7.22741e-05 0.0001983312 -3.16405e-05 3.17968e-05 -0.7502947664 0.3967377035
250298500.0 0.1202374312 -0.041801459 -7.75298e-05 -0.0001674278 -7.7609e-05 -7.73933e-05 -0.7460855983 0.4040968129
255298470.0 0.1193727875 -0.0442159115 0.0002047705 9.81736e-05 0.0003075176 7.17779e-05 -0.7414822253 0.4125087108
260298440.0 0.1185651484 -0.0459811684 -1.969e-05 1.10911e-05 -3.9288e-05 -1.00026e-05 -0.7373265729 0.4197460768
265298410.0 0.1177035577 -0.0483244397 4.58097e-05 0.0003220424 0.000361535 -8.44014e-05 -0.7328342523 0.4275194496
270298380.0 0.1169352666 -0.0501777553 7.3738e-06 6.4e-07 3.67831e-05 0.0001917934 -0.727384489 0.4353259456
275298350.0 0.1160062625 -0.0521066649 2.0718e-05 -7.2288e-05 9.22752e-05 0.0001118155 -0.7230108215 0.4429876717
280298320.0 0.1152142264 -0.0542063239 -4.25024e-05 1.35382e-05 9.71162e-05 8.44622e-05 -0.7187206053 0.4503097869
285298290.0 0.1142013986 -0.0559628479 -1.4929e-06 -2.34571e-05 0.0001476704 3.74815e-05 -0.7135196642 0.4578428747
290298260.0 0.1133078355 -0.0579164694 0.0003098812 6.90082e-05 1.98026e-05 4.1589e-05 -0.7087418544 0.4657737816
295298230.0 0.1123884839 -0.0602107298 0.0001153783 -0.0002324945 0.0003074852 0.0001457569 -0.7041938178 0.4729775277
300298200.0 0.1110581964 -0.0625474659 0.0001262959 5.86577e-05 0.0002132609 7.35241e-05 -0.6987368531 0.4799863635
305298170.0 0.110596284 -0.0641234175 0.0002107366 0.0002728096 4.68826e-05 0.0002147945 -0.6933961204 0.4876136766
310298140.0 0.109385079 -0.0664102622 -9.00576e-05 0.0003000694 -7.9404e-06 3.59558e-05 -0.6887359614 0.4949984914
315298110.0 0.1078164226 -0.0682819395 8.06827e-05 0.0001703401 -4.54179e-05 1.99771e-05 -0.6834135357 0.5019991425
320298080.0 0.1065979045 -0.0701055409 -1.19352e-05 -0.0001190208 6.39658e-05 -6.65834e-05 -0.6778091961 0.5091161911
325298050.0 0.1050586067 -0.0719052167 -0.0002098592 -0.00020469 6.41382e-05 1.90589e-05 -0.672487749 0.5162223441
330298020.0 0.1034411593 -0.0734232529 0.0001384904 0.0002155081 -6.67976e-05 9.69258e-05 -0.6670315027 0.5230224096
335297990.0 0.1022118383 -0.0751069949 6.76917e-05 0.0001745621 0.0002750609 -8.5866e-06 -0.6611624777 0.5300355434
340297960.0 0.1005218466 -0.0764105341 6.95784e-05 -5.41286e-05 0.0001168002 0.0001044427 -0.6555435284 0.5372355475
345297930.0 0.0991269262 -0.0779021877 0.0001303235 0.0001729047 7.57412e-05 2.59434e-05 -0.6500016674 0.5434891991
350297900.0 0.0979220329 -0.0793351386 0.0001627814 -4.86637e-05 3.47896e-05 0.0001690428 -0.6440553217 0.5509491563
355297870.0 0.0962128097 -0.0808367773 0.0001491678 0.0002230622 4.82494e-05 1.84825e-05 -0.6382029767 0.5571036601
360297840.0 0.0951424605 -0.0822224385 0.0001725688 0.0001581731 0.0001402733 0.0001868089 -0.6322513369 0.5634856477
365297810.0 0.0936335158 -0.0834426762 0.0001868276 0.0002022345 -6.05831e-05 0.0001237558 -0.6261056373 0.5707884645
370297780.0 0.0925047871 -0.0848125902 0.0001284425 9.17319e-05 0.0002482667 -3.33415e-05 -0.6206008399 0.5763689832
375297750.0 0.0911049278 -0.0860401587 5.68396e-05 0.0001397172 -2.61319e-05 0.0001177841 -0.6142364286 0.5833925621
380297720.0 0.0901210499 -0.0874606119 0.0003487329 -1.39125e-05 0.0001239413 -2.54598e-05 -0.6078948784 0.5901155764
385297690.0 0.0882169101 -0.0883332253 0.0003939322 8.47566e-05 0.0001025103 8.31037e-05 -0.601949982 0.5962612136
390297660.0 0.0869243304 -0.0897967094 0.0001885329 0.0001253072 -6.58886e-05 0.0001163958 -0.5956306114 0.6014706937
395297630.0 0.0853809149 -0.0909255054 0.0003266626 -0.0002062144 9.52222e-05 2.13348e-05 -0.5891283215 0.6082397543
400297600.0 0.0838098986 -0.0919913741 3.257e-06 5.4994e-06 2.03851e-05 -4.36085e-05 -0.5832540347 0.6143636782
405297570.0 0.0825309212 -0.0930843563 -9.07437e-05 0.0001513246 0.0002522078 6.71832e-05 -0.5772719549 0.6198333289
410297540.0 0.0808360555 -0.0944197725 7.48683e-05 -0.0001496828 0.0001790334 -4.41145e-05 -0.5696579865 0.6253074556
415297510.0 0.079762853 -0.0956388558 0.000202375 -1.79785e-05 2.0991e-06 0.0002108327 -0.5636953008 0.6322252499
420297480.0 0.0778036443 -0.0965684191 0.0001904804 0.0001159085 0.000181014 0.0001771024 -0.5572482432 0.6367055558
425297450.0 0.0766178235 -0.0979199182 0.000230238 4.08174e-05 -4.6094e-06 -8.92697e-05 -0.5498868967 0.6434141654
430297420.0 0.0748274613 -0.0985578286 0.0001979397 1.0052e-05 0.0001117739 -2.2215e-05 -0.5440509363 0.6486542697
435297390.0 0.0735775285 -0.0997391809 0.0003113704 -5.76032e-05 8.53615e-05 0.0001782028 -0.5368489772 0.6536776979
440297360.0 0.0720240355 -0.1006633605 -4.42888e-05 0.0001010639 0.0002710824 0.000106798 -0.5303089855 0.6589435299
445297330.0 0.0704865918 -0.1015152438 0.0001633567 -5.99934e-05 -0.0001276145 9.91568e-05 -0.5240856251 0.6641344415
450297300.0 0.0688394663 -0.1025341946 0.0002612213 -7.02166e-05 -3.7341e-06 1.39307e-05 -0.5169125396 0.6696977729
455297270.0 0.0671050821 -0.1031347812 2.76216e-05 -5.7446e-05 0.0001601753 -3.52072e-05 -0.5097019956 0.6749042772
460297240.0 0.0656687809 -0.1039396597 9.09829e-05 0.0001269679 0.0001215981 -6.30322e-05 -0.5026656108 0.6804418476
465297210.0 0.0643709794 -0.1048495367 -3.55331e-05 1.57047e-05 7.13356e-05 6.224e-05 -0.4962749537 0.6851359153
470297180.0 0.0624382807 -0.1054853584 6.30979e-05 -6.467e-06 0.0003181251 -2.3632e-06 -0.4894158791 0.6895897057
475297150.0 0.0609806663 -0.1066551333 0.0002147721 0.0001029799 -4.07857e-05 -0.0001294412 -0.4819265758 0.6949283427
480297120.0 0.0592663347 -0.1074504031 8.0634e-05 0.0001132769 -5.115e-06 1.46422e-05 -0.4756220197 0.699914659
485297090.0 0.0575591645 -0.1079254877 -3.40348e-05 0.0001401281 -8.68703e-05 0.0002756832 -0.4681850562 0.7041198269
490297060.0 0.0561886768 -0.1090972588 8.5481e-05 -2.6748e-06 0.0001703513 0.0001358547 -0.4609111415 0.7083151712
495297030.0 0.054541136 -0.1093787015 0.0001596983 5.32568e-05 -8.2248e-06 -7.86445e-05 -0.4531727488 0.7127350681
500297000.0 0.0530779564 -0.1102264799 8.14228e-05 2.06862e-05 4.73965e-05 0.0001192797 -0.4465187193 0.7178630115
505296970.0 0.0509269544 -0.1106305406 0.0002371406 0.0001056399 7.6718e-05 0.0002125603 -0.4402373614 0.7218354503
510296940.0 0.0494998519 -0.1111723433 2.11261e-05 1.40918e-05 -5.18534e-05 2.69734e-05 -0.4320736594 0.7259352528
515296910.0 0.0476644036 -0.1115430548 0.0001901856 -8.8118e-06 3.0853e-06 7.64251e-05 -0.424620445 0.7305575731
520296880.0 0.0463557415 -0.112481503 0.0003569233 -9.72297e-05 -0.0001981538 8.17906e-05 -0.4178668965 0.7346827946
525296850.0 0.0444801821 -0.1127584751 0.0002440942 0.0001245156 0.0001956673 -9.66712e-05 -0.4099643065 0.7397293652
530296820.0 0.0430121369 -0.1134215979 0.0001146358 0.0001165645 0.0001218837 2.07707e-05 -0.4035985737 0.7429819562
535296790.0 0.0412770433 -0.113677857 8.37652e-05 5.81887e-05 0.0001261837 -0.0001942328 -0.3957580293 0.7467333316
540296760.0 0.0394132254 -0.1146601706 0.0005724602 6.67598e-05 0.0001037387 9.13265e-05 -0.3884727904 0.7509328669
545296730.0 0.0380471013 -0.1148215815 0.0003470645 8.1312e-05 -7.97824e-05 1.7498e-05 -0.3807546541 0.7542835294
550296700.0 0.0359515737 -0.1151315949 0.0002167331 0.0002704132 8.09392e-05 -1.97998e-05 -0.3733632557 0.7583433162
555296670.0 0.0348127819 -0.1157130966 3.76166e-05 7.39906e-05 0.0003780928 3.79615e-05 -0.3656812084 0.7619253454
560296640.0 0.0330220818 -0.1163879177 0.0001675669 4.6642e-05 -3.1417e-06 6.01965e-05 -0.3578770489 0.7653361646
565296610.0 0.0312345305 -0.1162184692 1.87167e-05 0.0001373108 0.000200379 9.35569e-05 -0.3505284695 0.7686267904
570296580.0 0.0296801482 -0.1168539552 -4.75675e-05 5.2919e-06 5.2139e-05 2.62804e-05 -0.3432306799 0.7726420031
575296550.0 0.0281814207 -0.1170443201 0.0002903965 7.65275e-05 0.0002199274 0.0001674336 -0.3350469454 0.7759039774
580296520.0 0.0263266217 -0.1172046593 0.0002144228 -0.0002444189 0.0002246544 0.0001007115 -0.3276608834 0.7791305972
585296490.0 0.0244859331 -0.1173739204 0.0001657369 -5.46694e-05 0.0004419901 -0.0001826489 -0.3196014465 0.7818991501
590296460.0 0.022370471 -0.1175590869 2.20916e-05 1.18876e-05 8.48025e-05 -0.0001334486 -0.3114973198 0.7846725989
595296430.0 0.0212055385 -0.1177142429 0.0002402817 0.0001778355 0.0003593781 -0.000135389 -0.3038780586 0.7874392699
600296400.0 0.0193296356 -0.1180089747 0.0001223501 -2.29603e-05 1.85352e-05 -1.41605e-05 -0.296271381 0.791000284
605296370.0 0.0178373617 -0.1181162415 8.99317e-05 -0.0001326924 3.52618e-05 -2.67557e-05 -0.2884790821 0.7941645866
610296340.0 0.0160364522 -0.1185023785 5.1177e-05 6.3176e-06 -8.20497e-05 0.0001256193 -0.2805622637 0.797020714
615296310.0 0.0143766868 -0.1182426513 0.0001076214 4.71813e-05 -1.32814e-05 -7.72091e-05 -0.2726083438 0.7997419592
620296280.0 0.0126350451 -0.1183999877 0.0002480706 0.0001736703 9.0146e-06 0.0001071429 -0.2646300679 0.8018874998
625296250.0 0.0111047472 -0.1186320874 0.0002392607 -2.03415e-05 0.0002394788 -0.0002209506 -0.2570202451 0.8047137191
630296220.0 0.0092113551 -0.1186653144 0.0002760556 -8.51235e-05 -7.95028e-05 -4.44261e-05 -0.2488631203 0.8074197512
635296190.0 0.0075960314 -0.1182547086 0.0001322739 3.0363e-06 6.67618e-05 -6.60443e-05 -0.2407647572 0.8093939565
640296160.0 0.0060428676 -0.1184151067 -0.0001621868 -6.63692e-05 0.0003608844 0.0001759693 -0.2323665547 0.8115523794
645296130.0 0.0040615129 -0.1182563292 0.0001751462 0.0001782653 0.000185269 -4.61067e-05 -0.2247479482 0.814323404
650296100.0 0.0026354071 -0.1179982976 0.0001342372 -0.0001075179 0.0001734633 -0.0002463676 -0.2168691178 0.8160903376
655296070.0 0.0009454514 -0.1182389613 8.94029e-05 -5.15505e-05 0.0002063244 0.0001448022 -0.2085982956 0.8180597252
660296040.0 -0.000981559 -0.117865237 0.0001062205 2.11155e-05 -0.0002258914 1.12224e-05 -0.20087447 0.8198741659
665296010.0 -0.0024365857 -0.1180694654 0.0002735449 -0.000142746 3.64481e-05 -0.0001151961 -0.1929269484 0.8217468543
670295980.0 -0.0043429969 -0.1177951483 0.0002197744 -5.04422e-05 0.0001902371 0.0001345636 -0.1850133374 0.8238504368
675295950.0 -0.0057536869 -0.1177130811 0.0002920352 -0.0001097783 0.0001536815 0.0001521618 -0.1763941607 0.8261058354
680295920.0 -0.0074478931 -0.1172763188 0.000218333 0.000151286 0.0001134342 3.74364e-05 -0.1679802526 0.8281308602
685295890.0 -0.009002764 -0.116904907 0.0001838745 -0.0001395705 2.7699e-06 2.12349e-05 -0.1600050122 0.8295834154
690295860.0 -0.0106136363 -0.1170008456 0.0002087225 -0.0001740974 0.0003000309 -2.63083e-05 -0.1516896024 0.8307444759
695295830.0 -0.0122624258 -0.1165577828 6.90367e-05 4.46684e-05 8.56655e-05 -3.2254e-06 -0.1435617477 0.8324711656
700295800.0 -0.0141142198 -0.1163625486 0.0001325129 -5.75368e-05 0.0001182984 7.81054e-05 -0.1351915069 0.8334230783
705295770.0 -0.015655309 -0.1158048608 0.0001044876 1.94394e-05 0.0001315454 -5.58834e-05 -0.1279200122 0.8351717917
710295740.0 -0.0174472965 -0.1156422271 0.0002437256 4.90716e-05 9.39757e-05 6.90549e-05 -0.1197133871 0.8363042869
715295710.0 -0.0191408321 -0.1149934638 0.0002061848 -8.92995e-05 0.0002005185 5.49024e-05 -0.1104894843 0.8369709831
720295680.0 -0.0205332446 -0.1148088125 0.000101829 3.39089e-05 0.0001285134 -0.0001433698 -0.1025175732 0.8383418343
725295650.0 -0.0221382204 -0.1141233172 0.0001002121 8.71405e-05 0.0002692402 -5.7107e-06 -0.0936878817 0.8395208082
730295620.0 -0.0238307039 -0.1140963269 -4.87998e-05 -0.0001898927 0.0001051323 8.88025e-05 -0.0853257297 0.8403910664
735295590.0 -0.0253341545 -0.1132256806 9.21509e-05 -8.1635e-06 0.0001699 4.96216e-05 -0.0770692916 0.8407132995
740295560.0 -0.0271842084 -0.1129300859 9.75205e-05 1.29127e-05 1.88968e-05 0.000173217 -0.0692181285 0.8413437726
745295530.0 -0.0286492673 -0.1125189238 0.0001401427 -0.0002205936 0.0001454746 7.26118e-05 -0.0607002543 0.8425356763
750295500.0 -0.0302235709 -0.1119337807 0.0002977674 0.0001662415 2.24173e-05 2.23388e-05 -0.052192915 0.8424121995
755295470.0 -0.031634025 -0.1113598946 8.82297e-05 -0.0002306932 1.06806e-05 -3.35034e-05 -0.0443023944 0.8439187211
760295440.0 -0.0333508325 -0.1105956578 0.0003147619 -5.82313e-05 8.94358e-05 3.5872e-05 -0.0364087234 0.8431679415
765295410.0 -0.0349874652 -0.1102886264 0.0004240797 0.0001021807 0.0001548586 3.501e-05 -0.0274024929 0.8442232063
770295380.0 -0.0364771206 -0.1096220287 7.37854e-05 0.0001258164 9.41622e-05 -0.0001738012 -0.0191258373 0.8441494185
775295350.0 -0.0381526888 -0.1089875755 5.66844e-05 0.0001682507 0.0001650968 -0.0002160066 -0.0114578418 0.8439131306
780295320.0 -0.0397045903 -0.1084609156 2.74548e-05 -0.000246996 0.0001567104 2.70276e-05 -0.0028674807 0.8446772085
785295290.0 -0.0412241505 -0.1077905063 0.0003431028 -4.96615e-05 0.0002454261 0.0001777851 0.0050318926 0.844629075
790295260.0 -0.0426412509 -0.1071158145 0.0001098211 -4.03079e-05 7.59404e-05 0.0001468537 0.0141288516 0.8445081906
795295230.0 -0.0442006828 -0.106288227 0.0002241747 -8.00643e-05 0.0002070118 4.3963e-06 0.0223288133 0.8443722743
800295200.0 -0.045582912 -0.1053859021 7.07633e-05 -0.0003592956 0.0001457764 0.0001040451 0.0304477293 0.843855822
805295170.0 -0.0472783111 -0.1048485413 0.0001868786 -1.48106e-05 9.70129e-05 -2.3536e-06 0.0382726166 0.8435355974
810295140.0 -0.0487078972 -0.1039477799 0.0001745498 -0.0001296436 0.0002866924 -3.89914e-05 0.0466507621 0.8439195808
815295110.0 -0.0504385803 -0.1028360547 0.0002343417 -0.0002395208 0.0003057717 -0.0001148535 0.0550203787 0.8430880226
820295080.0 -0.0517226015 -0.1023876221 6.22849e-05 -0.000326687 5.90024e-05 7.02673e-05 0.0630809624 0.841935112
825295050.0 -0.0530130144 -0.1013735781 0.0003893798 -0.0001642754 0.0001267144 -6.4363e-06 0.071566307 0.8416748687
830295020.0 -0.0543884543 -0.1006226503 0.000110028 -0.0004195829 0.0002842027 -0.0001332123 0.0795783725 0.8405705245
835294990.0 -0.055886975 -0.0997651948 3.10089e-05 -9.6616e-06 0.0001481893 -2.75163e-05 0.0877312445 0.8400441055
840294960.0 -0.0570732064 -0.0989268407 0.0002025185 -0.0002066772 0.0003126676 -0.0002809948 0.0960983059 0.8397245413
845294930.0 -0.0588630946 -0.0978109666 5.9628e-05 7.85673e-05 0.0001654456 -0.0002721879 0.1044100973 0.8379834435
850294900.0 -0.060317649 -0.09707102 0.0001619987 -0.0001012861 0.0001893435 -8.52478e-05 0.1123322448 0.8370412724
