!Created with skrf (http://scikit-rf.org).
# Hz S RI R 50.0 
!freq ReS11 ImS11 ReS21 ImS21 ReS12 ImS12 ReS22 ImS22
300000.0 -0.7624563445 -0.1721892138 -0.0021804011 0.0007323709 0.00061154 -0.0012242743 -0.0476041506 -0.0771108804
5299970.0 -0.7861808567 -0.0090173566 0.0001564431 0.0001164398 -0.00018356 -0.0001379403 -0.0477900016 0.0138344296
10299940.0 -0.7891862431 -0.0058783146 0.000104875 -1.80332e-05 4.55188e-05 -4.71397e-05 -0.0419385563 0.0318913651
15299910.0 -0.7945305695 -0.0033541876 0.0002368783 9.45377e-05 2.86467e-05 -0.0001564564 -0.0339387692 0.0454329337
20299880.0 -0.8009381524 0.0004903297 -2.36083e-05 4.7449e-05 -5.65039e-05 0.0001003446 -0.0243943167 0.057241829
25299850.0 -0.8077078657 0.0071725877 1.16558e-05 6.87664e-05 -1.23521e-05 -0.0001642668 -0.0135215196 0.0662581286
30299820.0 -0.8138087241 0.0140772602 -3.14099e-05 -1.88153e-05 -7.76242e-05 5.93139e-05 -0.0020373132 0.0727878474
35299790.0 -0.8184233244 0.0231309966 -0.0001305322 -0.0001078831 -0.0001249702 -0.0001085378 0.0089611729 0.0772318403
40299760.0 -0.8233357012 0.032341707 -7.26065e-05 0.0001162071 1.83849e-05 9.3799e-05 0.0201622045 0.0800251775
45299730.0 -0.8264924927 0.0417576098 0.0003414795 3.40648e-05 -4.1098e-06 9.31137e-05 0.0305204976 0.0811345986
50299700.0 -0.8292681345 0.0518984465 -1.55773e-05 -5.43909e-05 -5.78533e-05 -5.87337e-05 0.0404569749 0.0815492048
55299670.0 -0.8315070202 0.0615230069 -6.32811e-05 -3.07495e-05 -0.0001136451 6.8418e-05 0.0493616901 0.0802598545
60299640.0 -0.8323544153 0.0719768684 3.2927e-05 0.0001558877 2.3077e-05 -0.0002663355 0.0576825906 0.0783243716
65299610.0 -0.8334507305 0.0818283741 -2.91647e-05 0.0001027837 5.93706e-05 9.6488e-05 0.0651490727 0.0758910593
70299580.0 -0.8333888024 0.0912821267 -8.47627e-05 6.98388e-05 -2.78719e-05 4.26439e-05 0.0721050184 0.0731883156
75299550.0 -0.8337123639 0.1013406314 0.0002065236 -1.33062e-05 3.61235e-05 3.91081e-05 0.0786683583 0.0698168298
80299520.0 -0.8339159741 0.112038483 4.11451e-05 -5.86718e-05 -0.0001471258 -1.84212e-05 0.0841384421 0.0662690946
85299490.0 -0.8323531811 0.1212803653 0.000111583 0.0001022192 5.52538e-05 -5.33548e-05 0.0889066738 0.0625255726
90299460.0 -0.8320275046 0.1314091261 9.25663e-05 -3.47307e-05 7.84803e-05 2.1923e-06 0.0932840514 0.0586273261
95299430.0 -0.830847475 0.1405796345 5.98473e-05 -9.06484e-05 4.44515e-05 -1.42718e-05 0.0972815126 0.0550381282
100299400.0 -0.8305696864 0.149991901 -9.43067e-05 1.57609e-05 0.0001237892 0.0001478018 0.100985009 0.0512070309
105299370.0 -0.8287635876 0.1593861216 -1.89768e-05 3.1433e-05 -0.0001451325 -0.0001060616 0.1041496813 0.0468710541
110299340.0 -0.827865972 0.1680795717 0.0002618292 7.36647e-05 7.0158e-06 -3.56243e-05 0.1066831148 0.0429198149
115299310.0 -0.8260978407 0.1778014737 3.2891e-06 -7.33366e-05 6.36288e-05 0.0001689537 0.1090245012 0.0389549863
120299280.0 -0.8241135565 0.1868849515 0.0001647025 2.737e-05 -0.0001017523 -1.09034e-05 0.111167594 0.0348567362
125299250.0 -0.8224883107 0.195549914 -0.0001377033 -7.66184e-05 -0.0001009357 1.48234e-05 0.1134085708 0.031071027
130299220.0 -0.8211260546 0.2055571033 0.0001577538 0.0002639091 5.17954e-05 9.059e-06 0.1148560128 0.0276103215
135299190.0 -0.8184405871 0.2141790059 -7.9176e-06 6.38507e-05 -0.0001287061 -2.0596e-06 0.1164765817 0.0236518116
140299160.0 -0.8175240497 0.2234275002 -0.0001793422 3.00606e-05 2.09285e-05 0.0002092595 0.1173063332 0.0203129774
145299130.0 -0.8146060365 0.2321658774 -0.000155359 4.08802e-05 -0.000163212 -6.68029e-05 0.1184215505 0.0167678976
150299100.0 -0.8124147992 0.2406590616 0.0001876684 -3.46187e-05 -7.80929e-05 1.20611e-05 0.1189907034 0.0132318868
155299070.0 -0.8101700176 0.2506346866 1.36242e-05 -5.1302e-06 4.93712e-05 -1.56816e-05 0.1199304689 0.0100754078
160299040.0 -0.807659831 0.2591966182 2.43937e-05 -4.8463e-05 0.0001287965 4.0584e-06 0.1202127477 0.0067338533
165299010.0 -0.8042777576 0.2674015079 0.0001880789 4.00448e-05 -1.55045e-05 -3.59878e-05 0.1208598397 0.0032042101
170298980.0 -0.8012656403 0.2759036154 2.05742e-05 4.98144e-05 9.76906e-05 0.0001703572 0.1210902848 0.0004266746
175298950.0 -0.7986584423 0.2846408624 -0.0001884025 -0.0001153278 3.58733e-05 0.0001191034 0.1212835531 -0.0025703767
180298920.0 -0.7959867947 0.2933205508 9.48575e-05 -0.0001514396 -6.6678e-06 4.09676e-05 0.1217165508 -0.0058947315
185298890.0 -0.7931793854 0.3024256404 5.23907e-05 4.73571e-05 -1.05999e-05 6.83123e-05 0.1213945111 -0.00864021
190298860.0 -0.7898034322 0.3110511837 0.0001185252 7.92448e-05 -6.71042e-05 0.0001646269 0.1211188769 -0.0115882872
195298830.0 -0.78630839 0.3190181995 -0.0001059456 -0.0001565307 0.0002228571 6.70381e-05 0.121242547 -0.0141836081
200298800.0 -0.7830789228 0.3278666125 0.0001517367 -0.0001264321 4.58728e-05 9.45154e-05 0.1208747464 -0.0171096329
205298770.0 -0.7795143984 0.3360738087 -3.43488e-05 -0.0001122662 0.0002058442 0.0002139261 0.1204728566 -0.0197440296
210298740.0 -0.776162497 0.3449172117 -3.275e-06 0.0001754199 0.0001475283 8.72995e-05 0.1199373973 -0.0225562302
215298710.0 -0.7724341337 0.3532456807 0.0002135948 0.0001392312 0.0001076328 7.4446e-05 0.1195883718 -0.0250221201
220298680.0 -0.7686007498 0.3612715655 2.65106e-05 -1.96799e-05 9.36431e-05 4.78266e-05 0.1192360479 -0.027458903
225298650.0 -0.7648638171 0.3696219772 -0.0001327174 4.3873e-05 5.7666e-05 4.94288e-05 0.1186733724 -0.0299126496
230298620.0 -0.7612567545 0.3777549303 0.0001166383 0.0001417921 -8.77749e-05 0.0001146323 0.1177254444 -0.0324409499
235298590.0 -0.757662264 0.3858427102 -4.46731e-05 0.0001480517 0.0001550822 8.92122e-05 0.1174217092 -0.0344143721
240298560.0 -0.7527862238 0.3934719167 0.0002221964 -0.0001972279 -6.20369e-05 -6.0712e-05 0.1166057683 -0.0369677895
245298530.0 -0.7487031758 0.4018189171 0.0002411833 -7.39339e-05 0.0001181997 8.20393e-05 0.116073141 -0.0393122585
250298500.0 -0.7447100676 0.4095012702 3.36679e-05 7.85128e-05 0.0001013073 0.0001613693 0.1149724393 -0.0412675262
255298470.0 -0.7408881666 0.4175115022 0.0001420976 -0.0001349522 -7.51067e-05 -5.09005e-05 0.1142547799 -0.0439532738
260298440.0 -0.736623939 0.4247886797 6.3168e-06 0.0001051578 -3.27082e-05 0.0001150632 0.1130766683 -0.0456453971
265298410.0 -0.732011793 0.4328827544 -0.0001181641 0.00023001 0.0001011759 -0.0001495048 0.1128555241 -0.047861566
270298380.0 -0.7271757415 0.4405543593 0.0002182186 3.03404e-05 0.0002891719 6.59982e-05 0.1119002266 -0.0497463844
275298350.0 -0.7230847648 0.4474907029 5.67903e-05 -7.93193e-05 0.0001321979 0.0001219076 0.1111197891 -0.0518308161
280298320.0 -0.7179259272 0.4555244638 4.39708e-05 -0.0001360993 -2.75241e-05 0.0001681006 0.109715544 -0.0535485615
285298290.0 -0.7135233764 0.4633674805 -0.000122187 8.58338e-05 0.0001178517 4.24267e-05 0.1090033813 -0.0552635611
290298260.0 -0.7081200752 0.4712589854 0.0001042696 -0.0002095943 9.55041e-05 0.00017757 0.1078629648 -0.0571645467
295298230.0 -0.7039895504 0.4782297219 0.0002085344 0.0001008758 -2.3488e-05 -6.93668e-05 0.1069468553 -0.0592708351
300298200.0 -0.6991181803 0.4855591202 0.0001489463 -1.11859e-05 -0.0001565809 0.0001074981 0.1058237917 -0.0612935707
305298170.0 -0.6947469998 0.492331551 3.42941e-05 1.17844e-05 9.82017e-05 8.09646e-05 0.105045848 -0.0630718253
310298140.0 -0.6887961956 0.4995691865 1.9333e-05 3.38606e-05 0.0002513664 4.72454e-05 0.1040630999 -0.0646511186
315298110.0 -0.6845285434 0.5072479399 1.20458e-05 -0.0001174134 0.0002542832 -3.8069e-05 0.1029531762 -0.0663045943
320298080.0 -0.6788572033 0.5139261179 0.0002258718 4.61779e-05 0.0001489885 2.15724e-05 0.1016358358 -0.0685227907
325298050.0 -0.6732978221 0.5210645948 -8.7222e-05 0.0001309335 0.0001526843 6.62366e-05 0.1005045224 -0.0704493427
330298020.0 -0.6682572825 0.527591853 0.0001467039 -3.5771e-06 0.0001551983 -1.09695e-05 0.0992796744 -0.0721783421
335297990.0 -0.6626108173 0.5348713947 0.0001474355 -2.63898e-05 -9.70074e-05 0.0001985887 0.0975122337 -0.0737784004
340297960.0 -0.6574584195 0.5417447389 3.90453e-05 4.00469e-05 9.02975e-05 7.91308e-05 0.0964460495 -0.0750105094
345297930.0 -0.6517378153 0.5481251994 -5.26351e-05 0.0004216081 0.000215448 -1.96517e-05 0.0946999881 -0.0768071798
350297900.0 -0.645981617 0.5550780484 -1.07136e-05 3.56218e-05 -0.0001133733 3.44837e-05 0.0932286085 -0.0781714363
355297870.0 -0.6404082482 0.5615798709 9.98937e-05 -0.0001154271 4.52621e-05 5.0297e-05 0.0919713408 -0.0796136275
360297840.0 -0.634784039 0.568100321 2.31771e-05 5.59078e-05 0.0001798712 -0.0001680464 0.0905538019 -0.0809505865
365297810.0 -0.629720151 0.5750288481 0.0001106694 0.0001610888 1.86187e-05 8.94802e-05 0.0890035265 -0.0822441375
370297780.0 -0.6236279208 0.5803099459 0.0002569926 0.0002259434 0.0002103454 -6.74338e-05 0.0876106062 -0.083285772
375297750.0 -0.6178047272 0.5871623341 0.0002158105 5.5509e-06 0.0001042861 6.94556e-05 0.0862820726 -0.0847649222
380297720.0 -0.612172771 0.5933627318 1.16171e-05 -8.85277e-05 -4.65615e-05 -1.7747e-06 0.0848636708 -0.0857275845
385297690.0 -0.6063895214 0.5999768513 -0.0001058523 0.0001502939 0.0001954035 0.0001170893 0.0831814519 -0.0869930978
390297660.0 -0.5985059765 0.6054629358 0.0001512695 1.74843e-05 0.0001236098 -0.0002460989 0.0817699559 -0.0881788062
395297630.0 -0.5933269604 0.6120258388 4.79133e-05 -3.03738e-05 -5.462e-06 0.0001346946 0.0803954276 -0.0894564932
400297600.0 -0.5867414839 0.6179203075 -2.78282e-05 1.49572e-05 -4.73731e-05 4.84075e-05 0.0789746509 -0.090316452
405297570.0 -0.5806395033 0.6230094395 -0.0001755795 -8.54731e-05 9.00723e-05 -8.872e-07 0.0776510381 -0.0915531041
410297540.0 -0.5732462487 0.6300207346 0.0002102074 -0.0001612294 9.00655e-05 7.53206e-05 0.076185376 -0.0925091182
415297510.0 -0.5678000287 0.6352876644 5.1153e-06 9.3757e-05 8.73632e-05 -4.76885e-05 0.074587992 -0.0938834224
420297480.0 -0.5608955514 0.6411245694 0.0004184792 2.34353e-05 0.0002062384 0.000137328 0.0735551337 -0.0946799581
425297450.0 -0.5543988281 0.6464558932 8.44092e-05 -3.4835e-06 0.0001058149 9.7624e-05 0.0719353032 -0.0957264579
430297420.0 -0.5477245495 0.6515543288 0.0001262913 -9.23547e-05 0.0001472441 0.0001541677 0.0702163666 -0.0968309438
435297390.0 -0.5412845509 0.6572542493 0.0003841628 0.0002239467 1.06209e-05 6.63313e-05 0.0684523843 -0.0974105517
440297360.0 -0.5338218721 0.6631495304 1.57547e-05 1.24999e-05 0.0001564737 -0.000119516 0.067273595 -0.0983587938
445297330.0 -0.5271132455 0.6679958819 0.0001681119 -9.41015e-05 1.1102e-05 5.22326e-05 0.0656469984 -0.0993952646
450297300.0 -0.5202563913 0.6736643336 0.0001089309 8.68108e-05 0.0002226347 2.12762e-05 0.0642022258 -0.1001890177
455297270.0 -0.513479707 0.6783833114 -0.000123126 4.1373e-05 0.0001654782 -0.0001041044 0.0626429222 -0.1012765418
460297240.0 -0.5058426448 0.6841474894 -0.000127523 6.48025e-05 0.0001097202 0.0001667583 0.0608310167 -0.1018992307
465297210.0 -0.4992639622 0.6887848355 0.0002098616 0.0001020205 0.0002492697 -1.83658e-05 0.0595373191 -0.1023730412
470297180.0 -0.4917203702 0.6938498541 0.0001667324 0.0002748516 0.000170784 -0.0001117575 0.0578379056 -0.1036637474
475297150.0 -0.4845772128 0.6989967371 8.96864e-05 -0.0001849573 1.55084e-05 -4.39419e-05 0.0564230643 -0.1040651982
480297120.0 -0.4770338168 0.7041802161 6.36883e-05 4.2713e-06 0.0001493769 0.0001134969 0.0544812417 -0.1048793422
485297090.0 -0.4697891601 0.7084664016 0.0001056077 -0.000114603 0.0001629247 -7.12088e-05 0.0529347108 -0.1055142202
490297060.0 -0.4618849268 0.7140552867 0.0001184176 -7.8811e-05 9.74042e-05 -8.05719e-05 0.0514551607 -0.1064662
495297030.0 -0.4545491327 0.7179947457 -8.5267e-05 4.82412e-05 0.000399572 -6.86636e-05 0.0501129909 -0.1071166466
500297000.0 -0.4477340602 0.7223214595 0.0001425176 0.0001109109 -7.31e-06 -4.5895e-05 0.0483335184 -0.107536442
505296970.0 -0.4397542168 0.7263757317 2.52504e-05 4.3191e-05 -1.86902e-05 -0.000207796 0.0466046855 -0.1083958902
510296940.0 -0.4318955008 0.7314990512 0.0001354856 0.0001382898 0.0001233072 9.39006e-05 0.0450692676 -0.1085244666
515296910.0 -0.4244733788 0.735709601 9.32184e-05 0.0001860185 0.000204796 -0.0001827355 0.0431621848 -0.10955135
520296880.0 -0.4164968549 0.740074006 0.0001687248 0.0001585461 1.76251e-05 -3.76506e-05 0.0417936433 -0.1097314511
525296850.0 -0.4088335228 0.7440832806 0.000255809 -6.2391e-06 0.0001973107 -0.000163538 0.0399309778 -0.1101991874
530296820.0 -0.4009361491 0.7479657491 6.18741e-05 -1.81445e-05 0.0001283517 3.90132e-05 0.0382588646 -0.1108688525
535296790.0 -0.3925185881 0.7518146899 0.0001462518 -0.0003056295 9.90123e-05 -8.47125e-05 0.0370659286 -0.1111630037
540296760.0 -0.3849384371 0.7558767473 0.0001435628 -1.20223e-05 -3.70563e-05 1.7744e-06 0.0353047313 -0.1119137669
545296730.0 -0.3777482521 0.7599027618 6.97326e-05 -2.05878e-05 -3.88834e-05 0.0001154545 0.03359673 -0.1120321082
550296700.0 -0.3690605578 0.7637406451 7.53249e-05 -0.0001469576 -2.60598e-05 0.0001183311 0.0317570037 -0.1123962884
555296670.0 -0.3620241011 0.7675216897 0.0001858493 -5.1026e-06 0.0002426804 0.0001694809 0.0299858533 -0.1130761294
560296640.0 -0.3531451784 0.7707787382 0.0001565002 3.4454e-05 7.88249e-05 -5.58392e-05 0.0283719674 -0.1130707724
565296610.0 -0.3461340503 0.7742590839 7.63367e-05 8.06648e-05 4.34769e-05 -4.60025e-05 0.0271603009 -0.1133615772
570296580.0 -0.3375661102 0.7780673952 0.0001533231 -0.00013137 0.000112048 -0.0001287839 0.0252916666 -0.1138139162
575296550.0 -0.3281484359 0.7812553114 0.0002241772 -3.357e-05 0.0002429363 -0.0002225383 0.0236130666 -0.1142497688
580296520.0 -0.3210757558 0.7847092268 0.0002667374 0.0001640171 0.0003533692 -0.0002015648 0.0217775452 -0.114358179
585296490.0 -0.3125795066 0.7876165626 3.81765e-05 9.21867e-05 0.0001420055 4.9288e-06 0.0202946136 -0.1143102632
590296460.0 -0.303674988 0.7907576139 -1.9959e-06 -0.0002286388 0.0002230038 -7.89258e-05 0.0183575564 -0.1145975159
595296430.0 -0.29634448 0.7936830127 -0.0001089288 -0.0001237409 0.0002325609 2.02159e-05 0.0168824276 -0.1146445479
600296400.0 -0.2884269761 0.7967871632 0.000401683 5.3412e-06 0.000224644 7.8822e-06 0.015047834 -0.1152028163
605296370.0 -0.2797245451 0.7996051326 0.0001145467 0.0001527084 7.03014e-05 0.000119036 0.0135603817 -0.115177345
610296340.0 -0.2717928458 0.8027618787 0.0001119751 3.38577e-05 9.52498e-05 -0.0001103228 0.0117437286 -0.1150384958
615296310.0 -0.2630070376 0.8051572374 0.0001931578 -0.0001686284 0.0002516396 2.46909e-05 0.0100764655 -0.1151020476
620296280.0 -0.2554321063 0.8081986738 -7.24599e-05 -0.0001744978 5.3496e-06 -7.786e-07 0.0084583708 -0.1149504275
625296250.0 -0.2473971585 0.8100485934 1.05471e-05 -0.0002184545 7.93286e-05 9.14933e-05 0.0065368563 -0.115379993
630296220.0 -0.2388541642 0.8126219006 -0.000127156 2.16192e-05 6.91709e-05 1.13068e-05 0.0051836209 -0.1149238954
635296190.0 -0.2307164618 0.8157290966 5.05483e-05 2.34456e-05 0.0001309234 -3.02742e-05 0.0032334463 -0.1150104112
640296160.0 -0.2218327273 0.8176795599 -8.11391e-05 -0.0002398408 0.0001511202 9.03118e-05 0.0015584182 -0.1151179726
645296130.0 -0.2140457809 0.8205969367 0.0001324201 -6.60306e-05 0.0002675675 -7.87268e-05 -0.0002786336 -0.1149918161
650296100.0 -0.2052597449 0.8219024504 0.0002464677 -4.9324e-06 9.36724e-05 -1.93387e-05 -0.0016565594 -0.1147400015
655296070.0 -0.19751353 0.8243959547 7.45919e-05 -8.5816e-05 8.98039e-05 9.26998e-05 -0.0035155412 -0.1146661995
660296040.0 -0.1891076992 0.826237717 3.9456e-06 -0.0001367206 0.0002170956 -0.0001226969 -0.005101092 -0.11475413
665296010.0 -0.1809968479 0.8280284842 0.0001926311 6.70025e-05 0.0001530532 1.5465e-05 -0.006632517 -0.1144371338
670295980.0 -0.1724909769 0.8302880054 -3.47436e-05 -6.96709e-05 5.45073e-05 1.33263e-05 -0.0085182071 -0.1143976059
675295950.0 -0.1641151088 0.8322298774 0.0002518527 -0.000146536 0.000363245 3.98055e-05 -0.0101483438 -0.1137899465
680295920.0 -0.1569523679 0.8333616564 6.29987e-05 -0.0001389572 0.000352022 -2.93395e-05 -0.0117531025 -0.1137538962
685295890.0 -0.1477097129 0.8354359376 0.0002669471 -7.80847e-05 9.87105e-05 -6.52315e-05 -0.0133520017 -0.1133263802
690295860.0 -0.1392555188 0.8366233409 3.52331e-05 3.09342e-05 0.0002024402 -0.0001282319 -0.0152459237 -0.1131193125
695295830.0 -0.1309583404 0.8386928062 0.0001293397 0.0001087516 0.0001539241 0.0001567551 -0.0166030376 -0.1129285769
700295800.0 -0.1226882857 0.8390438627 7.44344e-05 5.60573e-05 0.0002404886 0.000122189 -0.0181451865 -0.1124316013
705295770.0 -0.1146153407 0.841171686 0.000196604 -7.91618e-05 -1.2997e-06 -4.67599e-05 -0.0201215137 -0.1121173735
710295740.0 -0.1071030513 0.8418759035 -2.84247e-05 -5.43519e-05 0.0001607122 8.59129e-05 -0.0217173667 -0.1118121178
715295710.0 -0.0979513457 0.8434911593 0.0003785268 8.86106e-05 0.0001871208 -0.0002629649 -0.0231552844 -0.1117719926
720295680.0 -0.0887689532 0.844072849 0.0001288319 -0.0001444578 0.0001393108 1.43688e-05 -0.0247625635 -0.1109060964
725295650.0 -0.0810620483 0.8459501053 -2.62294e-05 -9.11048e-05 9.2298e-05 0.0001563272 -0.0265867596 -0.1101832111
730295620.0 -0.0735809444 0.8468766117 -8.01388e-05 -0.000205901 0.0001466006 -3.06373e-05 -0.0278343039 -0.1100130791
735295590.0 -0.0657797523 0.8475443928 0.0001558176 -0.0001593759 9.52496e-05 6.6846e-05 -0.0293038463 -0.1094215443
740295560.0 -0.0578074299 0.8474269812 0.0001454355 0.0001595825 0.0003058123 -4.30778e-05 -0.0310046229 -0.1088017112
745295530.0 -0.048747747 0.8479319346 0.0002479976 -0.0001536076 0.0002383341 -0.000108113 -0.0329005349 -0.1081348287
750295500.0 -0.0409437628 0.8489117767 0.0001551747 0.0002586707 0.0003621347 2.8364e-05 -0.0344270674 -0.1078636904
755295470.0 -0.0320791148 0.8495117561 9.93387e-05 8.30964e-05 0.000217698 -3.602e-07 -0.0360513819 -0.1070011985
760295440.0 -0.0244294414 0.8508766036 0.0001912769 -0.000196389 0.0001954924 0.0001278013 -0.0372293174 -0.106926154
765295410.0 -0.0163604889 0.8509319581 -2.95855e-05 -4.33156e-05 0.0003604851 -4.4083e-05 -0.0389787479 -0.106141179
770295380.0 -0.008257898 0.8508023542 0.0002611813 -0.0001192977 0.0001841647 2.78624e-05 -0.0407811831 -0.1056675771
775295350.0 -5.47354e-05 0.8513196868 0.0001394819 0.0001765547 2.97647e-05 -0.0001504319 -0.0420986501 -0.1049164178
780295320.0 0.0088056762 0.8512291207 0.0001717446 -0.0001343208 0.0001565632 6.79649e-05 -0.0437186668 -0.1041731918
785295290.0 0.0169740445 0.8509802273 0.0001796973 0.0001821467 0.0001477936 -6.40731e-05 -0.0454054099 -0.1032024285
790295260.0 0.0248842505 0.8508211603 0.0001229597 -0.0003118856 0.0001551947 0.0001115653 -0.0466034565 -0.1025716407
795295230.0 0.03293292 0.8506649558 8.98655e-05 8.85694e-05 0.0002491223 -6.25797e-05 -0.0486143186 -0.1022812153
800295200.0 0.0408753844 0.8503942699 -0.000221077 -0.0001850888 0.0003366901 -7.80413e-05 -0.0499108515 -0.1011422347
805295170.0 0.0490824333 0.850388723 8.95709e-05 -0.0001149195 0.0002365384 -0.000108802 -0.0511078796 -0.1004784008
810295140.0 0.0574350075 0.8502950163 0.0003349485 6.89206e-05 0.0001155044 0.0001114858 -0.0524614207 -0.0995232627
815295110.0 0.0651430843 0.849845008 8.14762e-05 4.69887e-05 1.0669e-05 -4.19025e-05 -0.0543624254 -0.0987443176
820295080.0 0.0733236856 0.84922768 8.60219e-05 -6.73351e-05 -3.4042e-06 -1.837e-07 -0.0558319314 -0.0976476962
825295050.0 0.0819584683 0.8482149702 4.00782e-05 0.0001053603 0.0002440708 5.64565e-05 -0.0569530708 -0.0970679923
830295020.0 0.0905791763 0.8478809364 3.12107e-05 -0.0001228275 0.000181912 -0.0001139585 -0.058878715 -0.0962800716
835294990.0 0.0978945213 0.84649026 1.49696e-05 -3.22225e-05 0.0001842525 2.13688e-05 -0.0596506032 -0.0948860594
840294960.0 0.1066173569 0.8452855559 0.0002678582 -5.91601e-05 0.0001346388 3.6575e-06 -0.0612907857 -0.0944513215
845294930.0 0.1144557777 0.8444870686 0.0001757867 -0.0001864728 0.000140567 1.98545e-05 -0.0629711742 -0.0931401037
850294900.0 0.1239976713 0.8436017617 4.7191e-05 0.0001545794 8.39079e-05 8.90805e-05 -0.0641156586 -0.0923809464
