!Created with skrf (http://scikit-rf.org).
# Hz S RI R 50.0 
!freq ReS11 ImS11 ReS21 ImS21 ReS12 ImS12 ReS22 ImS22
300000.0 -0.7755776333 -0.1697823793 -0.0003817488 0.0015428916 0.0002326608 0.0010504066 -0.7660376984 -0.1915191361
5299970.0 -0.7859601178 -0.0092465338 0.0001163183 -8.4132e-05 -0.0002525749 3.91232e-05 -0.7852299253 -0.0096373823
10299940.0 -0.78921126 -0.005860978 -2.97374e-05 3.9004e-05 8.09558e-05 1.10498e-05 -0.7877542308 -0.0057318132
15299910.0 -0.7943385751 -0.0032603015 -9.20272e-05 -0.0001156353 -4.66474e-05 -0.0001452902 -0.7931358403 -0.0027464784
20299880.0 -0.8008620228 0.0008719426 0.0001708841 0.0002229492 -4.88165e-05 3.32162e-05 -0.7999403793 0.0015937231
25299850.0 -0.8071101879 0.0069079986 2.9595e-05 0.0001570848 1.56162e-05 9.07203e-05 -0.8059186755 0.0081479636
30299820.0 -0.8137543646 0.013629291 -4.63421e-05 -1.81552e-05 8.2812e-06 0.0001156938 -0.811952387 0.0157302782
35299790.0 -0.8187540804 0.0230797101 0.0003532477 0.0001565463 0.000192375 0.0001095233 -0.8169323549 0.0249833619
40299760.0 -0.8237463864 0.0320108138 7.01703e-05 -0.0001445391 5.57239e-05 -0.0002548893 -0.8212228982 0.0337574278
45299730.0 -0.826672351 0.0418656291 9.94948e-05 0.0003034806 -5.13681e-05 -2.76643e-05 -0.8242795005 0.0439317525
50299700.0 -0.8294939529 0.0521135313 -6.40615e-05 3.51817e-05 -0.0001081806 -0.0002035979 -0.8264412037 0.05403737
55299670.0 -0.8313255655 0.0611854511 1.18512e-05 -1.82535e-05 -1.70183e-05 -0.0001571426 -0.8289801158 0.0637736646
60299640.0 -0.8322993655 0.0717886543 -0.0001235065 -0.0001811449 8.76805e-05 4.93326e-05 -0.8297484066 0.0742334634
65299610.0 -0.833683845 0.0817449949 -0.0001144484 -9.41022e-05 5.34949e-05 -5.6716e-06 -0.8304074243 0.0839515164
70299580.0 -0.8339863455 0.0916888259 -6.87186e-05 -0.0001830645 -0.0001152488 0.0001553111 -0.8310489374 0.0938498496
75299550.0 -0.8339330091 0.1019069272 2.38343e-05 -5.03707e-05 -0.000262892 -0.0001647484 -0.831246633 0.1038896043
80299520.0 -0.833867721 0.111560486 3.9817e-06 -0.0001101174 -2.56005e-05 -0.0001124828 -0.8308525627 0.1140305192
85299490.0 -0.832687782 0.1215070191 -0.0001953347 -1.55344e-05 4.85579e-05 -7.88885e-05 -0.8303269275 0.1230740616
90299460.0 -0.8318040042 0.1319224922 0.0002239581 -7.63661e-05 -6.34524e-05 -0.0001894814 -0.8290391154 0.13301841
95299430.0 -0.8315258702 0.1402647388 -3.84945e-05 -0.0001011972 7.73968e-05 -3.8108e-06 -0.8281719044 0.142394762
100299400.0 -0.8303770805 0.150352282 7.23726e-05 0.0001895886 2.74423e-05 7.69137e-05 -0.8272491412 0.1516497384
105299370.0 -0.8287540127 0.1594640689 -0.000143401 -0.0001723534 2.54704e-05 -0.0001046268 -0.825836102 0.1610053373
110299340.0 -0.827667281 0.1683506029 8.6076e-06 9.81679e-05 -0.0001273166 -4.90005e-05 -0.8245881366 0.1696450119
115299310.0 -0.8256450373 0.1780371399 6.63457e-05 3.71624e-05 -0.0001180806 -7.1257e-05 -0.8232934076 0.1791849104
120299280.0 -0.8243808285 0.1864708034 -0.0001186062 4.11837e-05 -8.40142e-05 -5.44123e-05 -0.8210655827 0.1875478605
125299250.0 -0.8220875577 0.1952932174 0.000106531 -4.47844e-05 -5.7727e-05 -4.91925e-05 -0.8198636204 0.1973379433
130299220.0 -0.8208380456 0.204833032 -0.0002149321 -3.80214e-05 2.45338e-05 -2.01734e-05 -0.8177551129 0.2061914581
135299190.0 -0.8188777462 0.2137102646 0.0002502237 -9.77248e-05 6.19863e-05 6.2196e-05 -0.8162154504 0.2151214878
140299160.0 -0.8174057239 0.2233666224 2.43526e-05 3.16244e-05 6.48602e-05 -1.65676e-05 -0.8139382124 0.2232356826
145299130.0 -0.8150281978 0.2321583189 -1.01095e-05 -0.0003037401 -2.38021e-05 -8.57193e-05 -0.8123198038 0.232501133
150299100.0 -0.8120427215 0.2406414624 0.0001453834 0.0001305889 -0.0001936128 -9.3354e-05 -0.8095245376 0.2417795714
155299070.0 -0.8099900827 0.2502701855 -3.41614e-05 -1.20359e-05 0.0001064284 1.65805e-05 -0.8072177342 0.2505504211
160299040.0 -0.8078960288 0.2590382294 5.70715e-05 -7.78893e-05 4.38423e-05 -0.0001059486 -0.8047456195 0.2588313619
165299010.0 -0.8043477614 0.2675669935 -2.32795e-05 -5.57163e-05 6.28551e-05 0.0001087295 -0.8021674182 0.2674756261
170298980.0 -0.8015230296 0.2757587473 -0.000194208 6.83468e-05 7.37174e-05 -0.0001980524 -0.7993796673 0.2760052308
175298950.0 -0.7988418582 0.2846573035 -1.9388e-06 -2.15968e-05 0.0001590326 -0.0001813915 -0.7967411666 0.2840182024
180298920.0 -0.7958404411 0.2935037968 0.0001766225 0.0001227023 -8.50867e-05 4.82272e-05 -0.7936390039 0.2932395439
185298890.0 -0.7930799019 0.3024798548 8.13551e-05 -9.90617e-05 0.0002095325 3.10256e-05 -0.7906176076 0.3016987491
190298860.0 -0.789095382 0.3111352102 6.50293e-05 -0.000160294 6.13788e-05 9.06965e-05 -0.7872190118 0.3100281696
195298830.0 -0.7863996537 0.3191463645 -0.0001624843 0.0001691355 0.0001455554 8.351e-05 -0.78431076 0.3179516683
200298800.0 -0.7829774364 0.3283916488 -1.16688e-05 0.0001763348 0.0002439186 -0.0001178675 -0.7811119542 0.3266212903
205298770.0 -0.7792934016 0.336369587 -9.65041e-05 1.67362e-05 -0.0001267808 -0.0001449471 -0.777779403 0.3349135596
210298740.0 -0.7760254771 0.3446376336 0.0001571011 0.0001104745 0.0001022585 9.81236e-05 -0.7743458731 0.3431733424
215298710.0 -0.7720113624 0.3531329578 -0.0002513298 1.5565e-06 -0.0001517206 -0.0001121489 -0.7704085325 0.3514080574
220298680.0 -0.7684922713 0.3610002064 -0.0002536146 6.7094e-06 -8.41227e-05 -1.78884e-05 -0.7667587031 0.3593762846
225298650.0 -0.7649773365 0.3694723416 -0.0002982369 -0.0002064948 -0.0001178748 -0.0001550909 -0.7631760141 0.3675041222
230298620.0 -0.7610576061 0.3776520707 4.5922e-06 6.58767e-05 -0.0001277938 8.20438e-05 -0.7588319097 0.3755828023
235298590.0 -0.7572055565 0.3855235585 0.0001395965 -0.0001310269 6.84933e-05 -8.81492e-05 -0.7552581897 0.3835997646
240298560.0 -0.7528608852 0.3936288034 -8.62716e-05 9.65339e-05 -0.0001117176 9.83048e-05 -0.7514193716 0.3909365939
245298530.0 -0.7490513148 0.4016340062 0.0001139062 1.69225e-05 -3.96469e-05 3.82831e-05 -0.7474117959 0.3990084521
250298500.0 -0.7446424547 0.4094225887 3.69521e-05 -3.87557e-05 -6.59047e-05 -6.319e-07 -0.7429770049 0.4071624081
255298470.0 -0.7411487927 0.417759499 -0.0001118152 -6.07097e-05 -1.13226e-05 0.0001892944 -0.7390190796 0.4144846894
260298440.0 -0.7361592849 0.4248540403 0.0001062234 0.0001133578 -7.84673e-05 0.0001289146 -0.7341289371 0.4219891031
265298410.0 -0.7319839981 0.4328953549 4.24974e-05 1.94827e-05 0.0001146945 2.23161e-05 -0.7301146421 0.4301199106
270298380.0 -0.7273692023 0.4405918055 5.10953e-05 -1.97333e-05 -4.99011e-05 -5.1076e-05 -0.7249707326 0.4379783883
275298350.0 -0.7230506753 0.4481271473 -4.5705e-05 7.85159e-05 3.1575e-06 -0.0001597483 -0.7207120083 0.4452592914
280298320.0 -0.7184062384 0.4554533523 0.0001390526 0.0001720311 2.82749e-05 -1.59902e-05 -0.7163083263 0.452706258
285298290.0 -0.7134494399 0.4629882204 -4.88808e-05 0.0001261911 8.43426e-05 -0.0001955396 -0.7117211335 0.4604285615
290298260.0 -0.7086491808 0.4710326366 0.0001292724 -9.43959e-05 9.55245e-05 -4.12458e-05 -0.7065146426 0.4673033837
295298230.0 -0.7038533165 0.4782108197 7.23176e-05 -9.43e-06 1.98588e-05 5.12226e-05 -0.7014836158 0.4748169188
300298200.0 -0.6997294651 0.4851822578 -0.0001551422 1.82895e-05 2.81424e-05 -7.05245e-05 -0.6965958152 0.482288839
305298170.0 -0.6945503868 0.4923504979 5.09511e-05 -3.35772e-05 -1.45862e-05 5.27096e-05 -0.6913930949 0.489379031
310298140.0 -0.6890528363 0.4997125672 -0.0001603379 -8.9376e-05 4.06171e-05 9.23749e-05 -0.6864663041 0.4971313679
315298110.0 -0.6842916169 0.5071011064 0.0001489781 2.98647e-05 0.0002181119 -3.71875e-05 -0.6814800902 0.5038117931
320298080.0 -0.6789415522 0.514341965 -7.89664e-05 4.49379e-05 6.27501e-05 -2.96143e-05 -0.6760930321 0.5103710074
325298050.0 -0.673364114 0.5209452152 -6.26097e-05 8.77328e-05 -0.000203839 0.0001128646 -0.669997912 0.5177780277
330298020.0 -0.6679202555 0.5278695253 -8.67044e-05 -0.0001032792 6.61947e-05 1.7539e-05 -0.6651835317 0.5242777285
335297990.0 -0.6628615117 0.534399535 -0.0001532713 -0.000168508 0.0002874996 0.0001921281 -0.6591794353 0.5318833052
340297960.0 -0.6577184475 0.5410110453 -5.58771e-05 -4.83125e-05 4.41879e-05 -8.22173e-05 -0.6543146885 0.5381948885
345297930.0 -0.6521405675 0.5478059741 -0.0001732115 0.0001080606 2.68776e-05 -2.75752e-05 -0.6490364055 0.5447263945
350297900.0 -0.646495499 0.5551690993 -5.43767e-05 -3.3295e-06 -4.88696e-05 2.71077e-05 -0.6433079734 0.5512403553
355297870.0 -0.6409990224 0.560912129 9.42831e-05 1.78335e-05 7.8587e-06 4.0911e-06 -0.636676664 0.5584715185
360297840.0 -0.6343451607 0.5682131621 3.58134e-05 2.11482e-05 7.59669e-05 -8.78978e-05 -0.6302041253 0.5647165721
365297810.0 -0.6293245983 0.5748210266 -1.32105e-05 -9.8868e-06 -0.0001411478 6.43817e-05 -0.6258344226 0.5709894286
370297780.0 -0.6233009696 0.5805324946 0.0001415686 0.0001149895 1.08056e-05 -3.85345e-05 -0.6195600129 0.5771346464
375297750.0 -0.617900352 0.5869754552 -0.000186758 -3.32687e-05 4.00442e-05 -7.8345e-05 -0.6134590268 0.5840941969
380297720.0 -0.6117005566 0.5936568145 6.975e-06 -9.78047e-05 0.0001422449 1.1968e-06 -0.606564271 0.5901515263
385297690.0 -0.6061210094 0.5988028901 -4.52506e-05 -2.4993e-06 -7.21047e-05 1.91833e-05 -0.6015493752 0.596359039
390297660.0 -0.5987251084 0.6051047301 -1.55936e-05 0.00017801 -4.37865e-05 -0.0002444374 -0.5947776807 0.6020008863
395297630.0 -0.5928384808 0.61182761 7.13238e-05 0.0001682167 0.0002106384 -0.0002053788 -0.5879154484 0.6079986237
400297600.0 -0.5868705372 0.6182461935 -2.2354e-06 8.96485e-05 0.0001037214 5.25378e-05 -0.583098871 0.6140275646
405297570.0 -0.5802197044 0.6228533636 0.0002077467 -0.0001657681 -2.515e-06 -0.0001039589 -0.5757481327 0.6201556314
410297540.0 -0.5736831429 0.629668484 -2.7011e-06 0.0001130256 -6.75605e-05 3.02455e-05 -0.5692062918 0.6260403359
415297510.0 -0.5677129604 0.6354250292 -0.0002442587 0.0002312534 -5.389e-07 -0.0001636247 -0.5629641906 0.6312142245
420297480.0 -0.5607338057 0.6406265615 6.02969e-05 5.16336e-05 -0.0001350052 9.5769e-05 -0.5560587082 0.6379557808
425297450.0 -0.554270953 0.6464741266 -0.000163383 -0.000221532 0.0001613532 -8.7451e-06 -0.5499476645 0.6424979128
430297420.0 -0.5481895805 0.6515596783 0.0001404302 -9.05778e-05 7.49218e-05 -4.46674e-05 -0.5429998197 0.6488506232
435297390.0 -0.5410898328 0.6574939908 -0.0002341015 0.0001267695 -3.8493e-06 -3.98718e-05 -0.5366069347 0.654142879
440297360.0 -0.5339169836 0.6629156789 9.40886e-05 -0.0001073449 -4.52776e-05 -0.0001127508 -0.5301660064 0.6597810881
445297330.0 -0.5268367815 0.6685619288 -1.75673e-05 6.32142e-05 9.05252e-05 7.0584e-05 -0.5231965245 0.6652108584
450297300.0 -0.5200442776 0.6735739206 -1.33501e-05 -0.0002017946 -8.06711e-05 4.95947e-05 -0.5162881216 0.6697884811
455297270.0 -0.5132024765 0.6783991796 -0.0001730663 0.00016829 0.0002251209 -9.71588e-05 -0.5091144146 0.6749128826
460297240.0 -0.5056062597 0.6841210373 -5.90609e-05 -2.635e-06 -7.33352e-05 2.81116e-05 -0.5024422445 0.6799325248
465297210.0 -0.49868088 0.6889231683 -3.59214e-05 -0.0002850088 8.68499e-05 0.0001767064 -0.4956032374 0.6857540982
470297180.0 -0.4918636006 0.6938139588 5.253e-07 -0.0001856216 7.12533e-05 -0.000147657 -0.487985476 0.6904643368
475297150.0 -0.4849148496 0.6989399843 1.06151e-05 -4.11756e-05 -0.0001735777 -0.0001876373 -0.4810479156 0.6949888497
480297120.0 -0.4767137001 0.703910121 6.09688e-05 -0.0001256775 0.0001343036 3.3081e-06 -0.474507488 0.6998039153
485297090.0 -0.4695059248 0.7081202619 0.0002194013 -0.000125222 -3.37417e-05 8.64039e-05 -0.4670905132 0.7045527153
490297060.0 -0.4620910586 0.713630704 -5.1881e-06 -2.36166e-05 5.43834e-05 0.0001150448 -0.4598316138 0.7092775187
495297030.0 -0.4548646276 0.7179771988 -3.04419e-05 -0.0001077085 -1.23827e-05 -0.0001267408 -0.4523217964 0.7139015037
500297000.0 -0.4476061615 0.7220224242 2.17218e-05 -0.0001437841 -5.00678e-05 3.57214e-05 -0.4452672156 0.7184627744
505296970.0 -0.4392243712 0.7267336937 -7.4315e-06 -7.0113e-05 4.64138e-05 -9.1107e-05 -0.437480269 0.722844299
510296940.0 -0.4323158442 0.7312582464 -0.0001478626 -3.50441e-05 7.48914e-05 7.48439e-05 -0.4298613514 0.7270664626
515296910.0 -0.4240322322 0.735531293 -0.0001015474 -0.0001153119 -8.22056e-05 4.1106e-06 -0.4231916364 0.7311017514
520296880.0 -0.4161487891 0.7399107352 -0.0001670913 3.387e-05 3.34826e-05 -0.0002153124 -0.4155193887 0.7357628449
525296850.0 -0.408678676 0.7439359346 0.0001016848 9.38603e-05 -0.0001004817 -0.0001133423 -0.4085963037 0.7397322315
530296820.0 -0.4016274149 0.7479212945 0.0001563883 -2.64765e-05 0.0001804492 0.0002192809 -0.4005171166 0.7436093967
535296790.0 -0.392851236 0.7520530391 0.0001315735 6.64843e-05 6.3382e-05 0.0001963313 -0.3932635804 0.7480994781
540296760.0 -0.3855956983 0.7558379293 -0.0001127007 -4.75887e-05 0.0001234734 0.0001093299 -0.3853539712 0.7512860067
545296730.0 -0.3776249451 0.7599232348 5.55654e-05 -0.0001920529 -8.2502e-06 -2.74543e-05 -0.3781963901 0.7555880819
550296700.0 -0.3691741511 0.7636394678 3.9866e-05 1.68727e-05 4.22964e-05 7.0626e-06 -0.3699029707 0.759053226
555296670.0 -0.3611205341 0.7675677298 -9.90432e-05 2.08051e-05 0.0001254339 9.665e-05 -0.3623650545 0.7619676628
560296640.0 -0.35332361 0.7706368952 2.58957e-05 8.9634e-05 -0.0001346718 0.0001093 -0.3545998388 0.7663541742
565296610.0 -0.3457691729 0.7739676229 -0.0001987532 -1.39246e-05 -0.0001230719 4.00883e-05 -0.3465582549 0.7698968391
570296580.0 -0.3371638124 0.7779870387 0.0001435514 -4.89712e-05 -0.0001305442 6.2002e-06 -0.3386724213 0.7727267023
575296550.0 -0.327899786 0.7812818557 5.69307e-05 -8.22422e-05 -3.75985e-05 6.4611e-05 -0.3308217865 0.7763712628
580296520.0 -0.3212988678 0.7843125245 -4.39665e-05 -8.10183e-05 0.0001145918 4.95809e-05 -0.3235891343 0.7794947007
585296490.0 -0.3126831927 0.7876367575 -5.89902e-05 0.0001194421 -7.87773e-05 5.44723e-05 -0.3155711008 0.7834706964
590296460.0 -0.304076301 0.7906422507 0.0001068697 1.38216e-05 7.9418e-06 0.0001277004 -0.3074478758 0.7859415069
595296430.0 -0.2959942229 0.7940279622 -0.0001575566 -0.0003009869 4.11781e-05 -4.45461e-05 -0.3000881428 0.7893135763
600296400.0 -0.2882392018 0.796825497 -0.0001675053 8.64977e-05 -0.0002622155 4.5931e-06 -0.291788583 0.7917499341
605296370.0 -0.2794118149 0.7994857624 5.70345e-05 9.5616e-05 0.0001129391 -0.0001559528 -0.2835433017 0.7951334846
610296340.0 -0.2716910606 0.802815217 4.33734e-05 -7.87659e-05 0.0001716955 2.97618e-05 -0.276211007 0.7974471037
615296310.0 -0.2624999503 0.8058535917 0.000131963 -1.01971e-05 8.0208e-05 7.20335e-05 -0.2674693149 0.8001601021
620296280.0 -0.2554979969 0.8080961839 0.0001564305 0.000163302 -5.02077e-05 1.09366e-05 -0.2597429153 0.8032122234
625296250.0 -0.2474817902 0.8097633232 7.19853e-05 -1.99449e-05 -0.000143876 8.28019e-05 -0.2519493309 0.8054124132
630296220.0 -0.2387797518 0.8130678816 -0.0001389213 -0.0001377837 -1.5839e-06 2.27358e-05 -0.2435692868 0.8080654829
635296190.0 -0.2302233321 0.814962766 6.02403e-05 0.0001846225 4.44477e-05 0.0001119883 -0.2352452388 0.8098447337
640296160.0 -0.2219321301 0.8174523199 5.98834e-05 -3.62167e-05 -3.55835e-05 -7.2798e-05 -0.2275766089 0.8129043859
645296130.0 -0.2137108589 0.8202424865 0.0001415466 -1.28897e-05 7.67408e-05 4.41892e-05 -0.2194576213 0.8145298849
650296100.0 -0.2054311186 0.8218249526 -0.0001081536 -4.471e-05 1.24409e-05 -0.0002927328 -0.2106450014 0.8168060799
655296070.0 -0.1976592287 0.8238522666 0.0001073701 2.64527e-05 0.0001304187 -0.0002287287 -0.2031985266 0.8187884947
660296040.0 -0.1888229768 0.8261871342 -1.68209e-05 -6.49508e-05 -9.04593e-05 -0.0001805193 -0.1943601234 0.8208653752
665296010.0 -0.1813123325 0.8282039489 0.0001280599 -0.0001519425 0.0001912839 1.79909e-05 -0.1865299147 0.8219736338
670295980.0 -0.172615071 0.8309532862 3.00616e-05 -8.536e-05 0.0001041756 -3.53427e-05 -0.1785418652 0.8243963158
675295950.0 -0.164414284 0.8322867809 0.0001179964 -7.56133e-05 0.0002012475 -9.2347e-06 -0.1699491512 0.82663462
680295920.0 -0.1570053431 0.8336285255 0.0001072523 -7.25367e-05 0.0001682304 0.0001061937 -0.1611151718 0.8274932208
685295890.0 -0.1476385598 0.8357765775 5.96896e-05 -7.71754e-05 -1.8411e-05 6.31057e-05 -0.1536767176 0.8297743702
690295860.0 -0.1392407861 0.8362654178 -8.85871e-05 1.39459e-05 -3.45683e-05 -0.0001039964 -0.144863392 0.8312855232
695295830.0 -0.130977099 0.8382859752 7.0608e-05 5.81237e-05 2.25951e-05 0.0001140993 -0.1370009821 0.8328775633
700295800.0 -0.1228394294 0.8399838695 -6.92827e-05 0.0002365605 3.00015e-05 2.61072e-05 -0.1289379891 0.8332497942
705295770.0 -0.114865613 0.8413258432 0.0001053378 -6.6709e-06 -7.18956e-05 5.34373e-05 -0.1199792833 0.8354630074
710295740.0 -0.1071271075 0.8418944 -0.000292479 8.66262e-05 -8.96276e-05 2.88777e-05 -0.1116368827 0.8362680907
715295710.0 -0.0977414861 0.8431245615 1.66838e-05 1.78456e-05 6.46515e-05 4.57258e-05 -0.1031870797 0.8364280886
720295680.0 -0.0892991611 0.8443983661 -0.0001730801 -0.0002529311 -0.0001345107 -4.4451e-06 -0.0944133888 0.83791693
725295650.0 -0.0812928735 0.8453811528 -1.18553e-05 2.29894e-05 6.52484e-05 -9.1386e-06 -0.086808523 0.8392347906
730295620.0 -0.0741189955 0.8460863111 2.0005e-06 -0.000178711 -9.7965e-05 -8.34681e-05 -0.0791404349 0.84019573
735295590.0 -0.065563152 0.8473643256 0.0001612835 3.56511e-05 6.24059e-05 -4.93226e-05 -0.0698584796 0.8402867325
740295560.0 -0.058006432 0.8474507053 5.22402e-05 -0.0001131805 5.03382e-05 -1.44211e-05 -0.061853277 0.8411594098
745295530.0 -0.048712709 0.8489212348 -2.56869e-05 0.000213704 4.59666e-05 0.000174335 -0.0539826557 0.8422899227
750295500.0 -0.0407307933 0.8488110456 -0.0001001831 -8.00718e-05 5.40749e-05 -2.21496e-05 -0.0449157288 0.842391129
755295470.0 -0.0324271182 0.8499965204 7.89744e-05 -4.22786e-05 0.0001189262 -0.000154172 -0.0370417447 0.8428961836
760295440.0 -0.0242550824 0.8506531672 7.31636e-05 -0.0001772245 -2.9367e-05 0.0003204965 -0.0280161883 0.8426340866
765295410.0 -0.0163559606 0.85044037 -7.6796e-05 0.0002199365 -6.37198e-05 4.40466e-05 -0.0196370234 0.8437215995
770295380.0 -0.0080842425 0.8509848173 -0.0001380514 -7.96285e-05 3.56802e-05 -3.94819e-05 -0.0113687628 0.8430606784
775295350.0 6.02273e-05 0.8510871556 -2.8884e-05 5.55353e-05 6.3544e-05 -8.97179e-05 -0.0032896923 0.8432440987
780295320.0 0.0087532137 0.8514526575 2.4416e-06 -1.82649e-05 0.0002493424 8.21886e-05 0.0055258775 0.8431816993
785295290.0 0.0172208301 0.8511719074 -0.0001155557 2.75435e-05 -0.000135211 -7.25455e-05 0.0130189527 0.8431963256
790295260.0 0.025191992 0.8509935478 0.000174754 -0.0001117406 0.0001013439 6.06364e-05 0.0218146011 0.8432899457
795295230.0 0.0333254517 0.8505598273 6.54547e-05 4.03412e-05 -0.0001285426 0.0001109491 0.030025268 0.8421817168
800295200.0 0.0412706046 0.8500171878 -4.66786e-05 1.78878e-05 3.00223e-05 4.89283e-05 0.0385566951 0.8423136962
805295170.0 0.0494119956 0.8505223294 -5.90288e-05 -6.63043e-05 5.05605e-05 0.0001551374 0.0471429051 0.8421076339
810295140.0 0.058239426 0.8504161894 0.0001446519 5.86613e-05 0.0001199842 -4.95149e-05 0.0558535455 0.8412409694
815295110.0 0.0657089003 0.8497803419 -1.15546e-05 2.50094e-05 0.0001730932 0.0001541771 0.0632756272 0.8411178213
820295080.0 0.073443654 0.8487314194 3.43712e-05 -3.69155e-05 9.07513e-05 4.86734e-05 0.0709402232 0.8407335692
825295050.0 0.0818276912 0.8483260292 -0.0001177613 -8.16194e-05 -7.35965e-05 -9.50757e-05 0.0802604305 0.8395364766
830295020.0 0.0909205594 0.8472755859 -4.10819e-05 0.0001329775 -0.0001068368 4.11053e-05 0.0879846354 0.8380043548
835294990.0 0.098140681 0.8466632609 -3.21691e-05 3.14676e-05 0.0001682423 -1.37694e-05 0.0965868851 0.8381581178
840294960.0 0.1068150452 0.8456823277 0.0001018591 -0.0002297605 1.65402e-05 -7.50658e-05 0.1052345002 0.8367888764
845294930.0 0.1142225899 0.8444321386 0.0003071724 -2.99472e-05 9.73983e-05 0.0001396104 0.1139592256 0.8356929639
850294900.0 0.1238323961 0.8430626923 -5.05406e-05 4.34494e-05 1.14846e-05 9.6917e-06 0.1216910312 0.8346587604
