!Created with skrf (http://scikit-rf.org).
# Hz S RI R 50.0 
!freq ReS11 ImS11 ReS21 ImS21 ReS12 ImS12 ReS22 ImS22
300000.0 -0.2392043291 -0.0979702739 0.4663656827 0.0656366819 0.468082211 0.0706036571 -0.2360936606 -0.1124208408
5299970.0 -0.243694103 0.0069036345 0.4739483815 0.0052528808 0.4738747926 0.0057779557 -0.243796503 0.0059230361
10299940.0 -0.2403742198 0.0198872597 0.4760132579 0.0062498472 0.4756999766 0.0066417807 -0.2406065378 0.0184068341
15299910.0 -0.2360096173 0.0292990342 0.4794080916 0.0076939634 0.4793551432 0.0080614472 -0.2367070574 0.0273628545
20299880.0 -0.2306001246 0.0372152984 0.4841602529 0.0083268632 0.4843087072 0.0081519045 -0.2319392512 0.0354963962
25299850.0 -0.2246821953 0.0435410474 0.4895690073 0.0071431843 0.4892748249 0.0073542772 -0.2268130008 0.0418083416
30299820.0 -0.218697947 0.0484052983 0.4950657931 0.0056499175 0.4947597486 0.0055480528 -0.2216807506 0.0469109845
35299790.0 -0.212947282 0.0529238789 0.5004873534 0.0018283167 0.5001462135 0.0023523933 -0.2160708636 0.0512087788
40299760.0 -0.2075564357 0.0558010992 0.5054860359 -0.001755451 0.5054132901 -0.001771393 -0.2114595433 0.0548016302
45299730.0 -0.2024006972 0.0585046608 0.5103384334 -0.0066521111 0.5103342345 -0.0065444309 -0.2067713488 0.0574649195
50299700.0 -0.1973848037 0.060149535 0.5138981089 -0.0123298025 0.5144592044 -0.0123874949 -0.201862879 0.0597984852
55299670.0 -0.1935682004 0.0616294843 0.5175164483 -0.0181990072 0.5182404369 -0.0182397299 -0.1981105395 0.0616095827
60299640.0 -0.1894934181 0.0627832001 0.5211020513 -0.0239773578 0.5213742371 -0.0244146354 -0.1945704938 0.0636967596
65299610.0 -0.1860223377 0.0640786967 0.5243100621 -0.0303839347 0.5247321977 -0.0306093546 -0.1911303334 0.0646623865
70299580.0 -0.1825262534 0.0642467595 0.5264523659 -0.0371624994 0.5263510712 -0.0374720138 -0.1879247357 0.0655416194
75299550.0 -0.1795418344 0.0651283326 0.5285106548 -0.0437447533 0.5286124891 -0.0441394365 -0.184940685 0.0670384848
80299520.0 -0.177345609 0.0654951468 0.5311549535 -0.0508867271 0.5308685985 -0.0510382178 -0.1826816922 0.0676257449
85299490.0 -0.1746807622 0.0659524933 0.5319041462 -0.0579475887 0.5317551563 -0.0580578793 -0.1801885565 0.0683941921
90299460.0 -0.1725824344 0.0667908578 0.5332790665 -0.0643676871 0.5333810511 -0.064799112 -0.1776708988 0.0693295315
95299430.0 -0.1705019109 0.067080989 0.5341655712 -0.0726179574 0.5340999403 -0.0717439556 -0.175912309 0.0701221958
100299400.0 -0.1688238479 0.0675672806 0.5342658419 -0.0785551766 0.5341868496 -0.0786936758 -0.1744183073 0.0709017067
105299370.0 -0.1670211319 0.068136259 0.5343720545 -0.0854412707 0.5347578047 -0.0852266067 -0.1722730535 0.0716192222
110299340.0 -0.1655227904 0.0684160335 0.5346804636 -0.0925219447 0.5344834105 -0.0926375158 -0.1707371113 0.0726257622
115299310.0 -0.1638492146 0.0683868397 0.534830876 -0.098602585 0.5349658749 -0.0988333856 -0.1690684289 0.0732614149
120299280.0 -0.1630841132 0.0691557669 0.5347631434 -0.1058583261 0.5345711671 -0.1059881129 -0.1679966775 0.0741935822
125299250.0 -0.1619288456 0.0698335254 0.5343437691 -0.1125659962 0.5340335695 -0.1130939065 -0.1661176685 0.0748143319
130299220.0 -0.1605299752 0.0704954695 0.5337008335 -0.1193397633 0.5337382058 -0.1196887821 -0.1650413775 0.0757853617
135299190.0 -0.1594315917 0.0709211911 0.5330965766 -0.1258869097 0.5325958102 -0.1262348876 -0.1641137659 0.0768726775
140299160.0 -0.1588254622 0.0721205953 0.5323547597 -0.1326302117 0.5325338165 -0.1330394087 -0.162956126 0.0779915887
145299130.0 -0.1574671864 0.0729311943 0.5317250239 -0.1396075882 0.5310417681 -0.139210063 -0.1621377213 0.0788157429
150299100.0 -0.156509661 0.0736045113 0.5302439123 -0.146048195 0.5303967512 -0.1459593797 -0.1608217717 0.07988183
155299070.0 -0.156067353 0.0747630388 0.5289223291 -0.1526266901 0.5288705349 -0.1526651675 -0.15999475 0.0808213422
160299040.0 -0.1549971148 0.0752626705 0.5276798062 -0.1585119919 0.5277746804 -0.1590295694 -0.159083026 0.0826402774
165299010.0 -0.1544303622 0.0762589356 0.5264437846 -0.1655986556 0.5260393027 -0.1653100278 -0.1580765576 0.0830697031
170298980.0 -0.1536289805 0.0772517363 0.5238383184 -0.1719485488 0.5246735486 -0.1717053521 -0.1571009288 0.0844775601
175298950.0 -0.1527255862 0.0780076485 0.5235222658 -0.1779127724 0.523321893 -0.1781482515 -0.1561873024 0.0856762564
180298920.0 -0.1516337542 0.0789152478 0.521062994 -0.1842671067 0.5213892439 -0.1840088476 -0.1549398688 0.0873029685
185298890.0 -0.1508884355 0.080195411 0.5193674587 -0.1905397916 0.5194507824 -0.1903140431 -0.1541071486 0.088031565
190298860.0 -0.1501988435 0.0814486373 0.5175272275 -0.1969880989 0.5176619884 -0.1969886513 -0.1528349088 0.0895041861
195298830.0 -0.149352437 0.0822128965 0.5156116466 -0.2026630084 0.5157759261 -0.2027649606 -0.1521319752 0.0900756353
200298800.0 -0.1489430298 0.0834843146 0.5137999321 -0.2084781857 0.5135260421 -0.2086645885 -0.1509099714 0.0921136092
205298770.0 -0.1480939635 0.0846515432 0.5115281308 -0.2147223829 0.51140435 -0.2151413271 -0.1501610975 0.0930466735
210298740.0 -0.1477223185 0.0854997116 0.5094614191 -0.2209060222 0.5092856998 -0.2211494785 -0.1489828341 0.0945960636
215298710.0 -0.1467662597 0.0869734666 0.5071834339 -0.2267543265 0.5066869485 -0.2267280621 -0.1484253052 0.0959384531
220298680.0 -0.1456884899 0.0878973211 0.5041505521 -0.2326767014 0.504346021 -0.2327811048 -0.1469803283 0.0978132199
225298650.0 -0.1449554765 0.0894511571 0.5014016189 -0.2384188 0.5015541209 -0.2383713194 -0.1460490094 0.0989049287
230298620.0 -0.1446010655 0.0908805166 0.4997649825 -0.2443754523 0.4997100355 -0.2447069033 -0.1451360325 0.1002088228
235298590.0 -0.1437224865 0.0917929068 0.4968220867 -0.2503508217 0.4966831697 -0.2505711523 -0.1440250394 0.1014190027
240298560.0 -0.1429226183 0.0929019276 0.4944024466 -0.2554443197 0.494328995 -0.2555657342 -0.1429923332 0.1032288534
245298530.0 -0.1421135838 0.0941857464 0.4908593831 -0.2615848038 0.4912472895 -0.26182963 -0.1418785814 0.1045449345
250298500.0 -0.141418301 0.0951058973 0.4882987159 -0.2663494774 0.4886844783 -0.2668443913 -0.140437535 0.1059674914
255298470.0 -0.140577986 0.0965491429 0.4852155719 -0.2727850146 0.4857802224 -0.2730609783 -0.1398923977 0.1071823675
260298440.0 -0.1395814738 0.0980089222 0.4827022719 -0.2781652664 0.4825463241 -0.2784900797 -0.1380009115 0.1089524033
265298410.0 -0.138551686 0.0996010753 0.4793312994 -0.2843576436 0.4791067478 -0.2841886073 -0.1374549358 0.1101428854
270298380.0 -0.137823244 0.1005366274 0.4762444101 -0.2888642855 0.4767742967 -0.2896263897 -0.1358533073 0.1118940931
275298350.0 -0.1371118729 0.1020257834 0.4729529141 -0.295191124 0.473537953 -0.2948917976 -0.1346185234 0.1131217872
280298320.0 -0.1361173287 0.1034168195 0.470091493 -0.2997106358 0.4696817653 -0.3002051599 -0.1334497015 0.1151335401
285298290.0 -0.1350794896 0.1046615024 0.4668152874 -0.3052164859 0.466858529 -0.3056752599 -0.1322755407 0.1164588658
290298260.0 -0.1341675945 0.1057613841 0.4633739216 -0.3107097584 0.4635251447 -0.3107422171 -0.1305329797 0.1179396877
295298230.0 -0.1334277162 0.1070320621 0.460589879 -0.3161877539 0.4599319204 -0.3159860378 -0.129440467 0.1191014355
300298200.0 -0.1318765685 0.108343859 0.45633491 -0.3212962533 0.456733432 -0.3215291816 -0.1284880887 0.1208526687
305298170.0 -0.1310438408 0.1095454709 0.4534979888 -0.326860735 0.4535398624 -0.3266815284 -0.1268562012 0.1221737111
310298140.0 -0.1299356769 0.1105774431 0.4496583826 -0.3317639435 0.4501695944 -0.3320924573 -0.1255124384 0.1239614305
315298110.0 -0.1292326918 0.1116924433 0.4459383244 -0.3367974558 0.4460135242 -0.3371403638 -0.1236163724 0.1249571869
320298080.0 -0.128068509 0.1129416781 0.4423877947 -0.3423166081 0.4425625858 -0.3419733899 -0.1226701399 0.1261146254
325298050.0 -0.1274685729 0.1139393626 0.4392296719 -0.3474451841 0.4389111256 -0.3477386306 -0.1214033534 0.1277739538
330298020.0 -0.1262840462 0.1155928862 0.4339320433 -0.352333302 0.4341210843 -0.3525237187 -0.1200810145 0.1287980305
335297990.0 -0.1255011183 0.1166175274 0.4301118586 -0.357265272 0.4306110443 -0.3574389801 -0.1188908377 0.1305280392
340297960.0 -0.1247458176 0.1182781177 0.4260877373 -0.3620369362 0.4262846462 -0.361668091 -0.1176555075 0.1317306928
345297930.0 -0.1237944721 0.1192945732 0.4220916245 -0.3661651445 0.421809317 -0.3661613473 -0.1161523768 0.1331016054
350297900.0 -0.1223248141 0.1207409464 0.4181175122 -0.3707676714 0.4181808384 -0.3713139105 -0.1148861936 0.1348809932
355297870.0 -0.1216096334 0.122029741 0.4139830421 -0.3759393312 0.4136542368 -0.3759638628 -0.1136118164 0.1363430644
360297840.0 -0.1205432097 0.1234368925 0.4096677291 -0.3806108348 0.4098155179 -0.3801486299 -0.1121098471 0.1382175022
365297810.0 -0.119084441 0.1245286963 0.4052484781 -0.3848002063 0.405179413 -0.3849223952 -0.1106144756 0.1396861419
370297780.0 -0.1180011898 0.1259664898 0.4011726554 -0.3892417467 0.4013169032 -0.3894149775 -0.1093159054 0.140905383
375297750.0 -0.116747586 0.1274161175 0.3975198378 -0.3938456916 0.3966980963 -0.3940112026 -0.107632627 0.1425257701
380297720.0 -0.1155866149 0.1283482923 0.3924130547 -0.3978480566 0.3927290839 -0.3980261997 -0.1059826111 0.1438639371
385297690.0 -0.1142500832 0.1300299408 0.3880756248 -0.4018401953 0.3878124228 -0.4018870972 -0.1046329655 0.145154198
390297660.0 -0.1133263863 0.1310648044 0.3834800953 -0.4064978085 0.3833644821 -0.4069921091 -0.1025889201 0.1460723086
395297630.0 -0.1117474705 0.1319956739 0.3794056361 -0.410544727 0.3790876487 -0.4107210718 -0.1017522171 0.1481711166
400297600.0 -0.1106678219 0.1336479157 0.3745161804 -0.4151512527 0.3750180049 -0.4150001399 -0.1001028364 0.1490814877
405297570.0 -0.1092862013 0.1347394058 0.3702652804 -0.4188939246 0.3702324736 -0.4189988981 -0.0985613467 0.150662206
410297540.0 -0.1078383779 0.1358452315 0.3649777144 -0.4228814892 0.3650822365 -0.423054822 -0.0968075573 0.1519047725
415297510.0 -0.1066792876 0.1375391656 0.3605892594 -0.4270918151 0.3608317552 -0.4268157542 -0.0951636434 0.1532731417
420297480.0 -0.1054312255 0.1380181059 0.3557889345 -0.4309068021 0.356215205 -0.4312425279 -0.0936220538 0.154131347
425297450.0 -0.1037059344 0.139070438 0.3509661678 -0.4350181658 0.3517772914 -0.435046837 -0.0917208984 0.1561874455
430297420.0 -0.102808689 0.1407764271 0.3467638707 -0.4391773175 0.3466646723 -0.4385466615 -0.0905290955 0.1564160313
435297390.0 -0.1012239584 0.1415437112 0.3419065818 -0.4420470995 0.341677881 -0.4419820032 -0.0886675381 0.1579958879
440297360.0 -0.0997580768 0.1425691996 0.336271978 -0.446008635 0.3362680206 -0.4460191367 -0.0868139843 0.1590329216
445297330.0 -0.098189496 0.1436327603 0.3313985283 -0.4502323036 0.3317816557 -0.4496871313 -0.0852167251 0.1602147029
450297300.0 -0.0966678988 0.1445484433 0.3266192324 -0.4532171925 0.3270459705 -0.4534580862 -0.0835577674 0.1616838273
455297270.0 -0.0957494353 0.1457122542 0.3222852684 -0.4567259976 0.3221049174 -0.456634078 -0.0815252441 0.1626812413
460297240.0 -0.0943898267 0.1469311365 0.3169303632 -0.4598395439 0.3163671514 -0.4600480142 -0.0797109107 0.1640617614
465297210.0 -0.0925412763 0.1481851042 0.312022278 -0.4641474791 0.311830732 -0.4637366545 -0.0782601669 0.1648021474
470297180.0 -0.0915623485 0.1488715739 0.3069454034 -0.4669557251 0.3070085576 -0.4671420012 -0.0768742705 0.1659200255
475297150.0 -0.0900971308 0.1497031394 0.3013699085 -0.4699015822 0.3017822181 -0.4700275367 -0.0746455299 0.1670819577
480297120.0 -0.0883906048 0.1505019465 0.2963574654 -0.4732856711 0.2968249244 -0.4732423358 -0.0730129831 0.168160929
485297090.0 -0.0868669217 0.1517570584 0.2915024539 -0.4766217458 0.2913871266 -0.4767813827 -0.0712137948 0.1689913369
490297060.0 -0.0854753032 0.1524079672 0.2866323019 -0.4800148227 0.2862066233 -0.4795728225 -0.0692989253 0.1697750617
495297030.0 -0.0842968946 0.1538690696 0.2810554462 -0.483074764 0.2805357315 -0.4829545167 -0.0673788304 0.1705577651
500297000.0 -0.0823418519 0.154205299 0.2755002244 -0.4860224854 0.2755979348 -0.485698062 -0.0660949877 0.1718043486
505296970.0 -0.0811461009 0.1552602816 0.2699701465 -0.4884701014 0.2700541616 -0.4887305537 -0.0646634726 0.1727811335
510296940.0 -0.0795190209 0.1563700811 0.264873442 -0.4918273754 0.2649386201 -0.491475345 -0.0618899997 0.1738080056
515296910.0 -0.0782198017 0.1573213328 0.2595422094 -0.4943497321 0.2594402005 -0.4943467126 -0.0603802414 0.174589376
520296880.0 -0.0764946292 0.1580782177 0.2538088678 -0.4975864768 0.2542430959 -0.4973851393 -0.0582965208 0.1751982504
525296850.0 -0.0751182075 0.158793428 0.2486776664 -0.4999692901 0.248801232 -0.5001687569 -0.056168573 0.1762859748
530296820.0 -0.0734938667 0.1594525942 0.243706969 -0.5015789202 0.2432283684 -0.5023432702 -0.0548631831 0.1764690661
535296790.0 -0.071950683 0.1607532218 0.2376992192 -0.5052911072 0.2383284205 -0.5045291534 -0.0526267248 0.1772831907
540296760.0 -0.0704536494 0.1611630154 0.2324075032 -0.5079749155 0.2320517954 -0.5078627556 -0.0511872357 0.1786064428
545296730.0 -0.0686888351 0.1622183052 0.226365085 -0.5094200468 0.2269574789 -0.5101655097 -0.0489981998 0.1789389335
550296700.0 -0.0674242521 0.1630342971 0.2212600903 -0.5127178179 0.22158813 -0.5128367888 -0.046941028 0.1800515473
555296670.0 -0.065381018 0.1636195317 0.2154433939 -0.5149994826 0.2157865108 -0.5148165514 -0.0452404574 0.1807695949
560296640.0 -0.0641758222 0.1642713038 0.2098226753 -0.5168542271 0.2102013398 -0.5170402432 -0.0431884423 0.1815826052
565296610.0 -0.0627582341 0.1649858303 0.2046117477 -0.5192573579 0.2042600373 -0.5193062732 -0.0414377462 0.1816077531
570296580.0 -0.0607649408 0.1658355619 0.1987421337 -0.5213391493 0.198757922 -0.5217657989 -0.0394019302 0.1832738911
575296550.0 -0.0592770721 0.1671137949 0.1931324919 -0.5233548041 0.193577391 -0.5232694651 -0.0369726384 0.1830027694
580296520.0 -0.0577985888 0.1671367173 0.1878719457 -0.5257458119 0.1874328334 -0.5258192077 -0.0351507347 0.1836126259
585296490.0 -0.0559739157 0.1677332329 0.1822837255 -0.5275923515 0.1817241024 -0.5274084478 -0.0334858449 0.1840340726
590296460.0 -0.0546035214 0.1685179698 0.1757661225 -0.5296821569 0.1756133571 -0.5293019678 -0.0312026487 0.184846414
595296430.0 -0.0529300899 0.1693831653 0.1703124048 -0.5317052307 0.1699027865 -0.5317693386 -0.0291219647 0.1852634155
600296400.0 -0.0513401865 0.1700462206 0.1643971286 -0.5331373649 0.1643374816 -0.5330215951 -0.0273323619 0.1858646591
605296370.0 -0.0495126527 0.171056347 0.15888685 -0.535292428 0.1589729858 -0.5348760624 -0.0251408287 0.1862053498
610296340.0 -0.0479600241 0.171414151 0.1531179679 -0.5366892193 0.1532743454 -0.536520713 -0.0232424651 0.1870610742
615296310.0 -0.0463774319 0.1720460671 0.14650496 -0.5380885095 0.1469890164 -0.5380812841 -0.0210023415 0.1868676941
620296280.0 -0.0445943237 0.1725238927 0.1415071718 -0.5396667721 0.1414556805 -0.539594337 -0.0191169825 0.1872439238
625296250.0 -0.0429774635 0.1731351406 0.1352558191 -0.5412191913 0.1351248902 -0.5415025142 -0.0169358741 0.1880943064
630296220.0 -0.0413539068 0.1737285098 0.1295464735 -0.5427928749 0.1300300088 -0.5425746359 -0.0150440323 0.1882332809
635296190.0 -0.0395235036 0.1742043081 0.1232506982 -0.543533635 0.1237448552 -0.5437377247 -0.0132026287 0.1883286787
640296160.0 -0.0379021609 0.1742603936 0.1178855941 -0.5447871067 0.1178346458 -0.5451876621 -0.0106511219 0.1887390461
645296130.0 -0.0362890094 0.1754276749 0.1117233313 -0.5463588137 0.1123215023 -0.546203109 -0.0096713672 0.1886561072
650296100.0 -0.0345591257 0.1761076734 0.1062437095 -0.5473319079 0.1059977917 -0.5470426147 -0.0069924532 0.189296461
655296070.0 -0.0328277173 0.1760625862 0.0998303189 -0.5482544067 0.099984495 -0.5482453957 -0.0048659709 0.1895864337
660296040.0 -0.0313694841 0.1771015614 0.0942649995 -0.5495006305 0.0942687653 -0.549390764 -0.003063272 0.1896431084
665296010.0 -0.0293877949 0.1769234341 0.0886250962 -0.5502394247 0.0889976454 -0.550550589 -0.0011191953 0.1901574506
670295980.0 -0.0270971331 0.17774269 0.0821833856 -0.5513553982 0.0827408955 -0.5512135771 0.0006448359 0.1899137606
675295950.0 -0.0257207516 0.1780824124 0.0762470678 -0.552044204 0.0766217525 -0.5527037268 0.003022949 0.1904303145
680295920.0 -0.0242507126 0.1788069511 0.0702399702 -0.5531357944 0.0699537393 -0.5529356606 0.0055631547 0.1900447513
685295890.0 -0.0224543094 0.1787875138 0.0646538489 -0.5538022433 0.0642700056 -0.5538568712 0.0075006517 0.1905125932
690295860.0 -0.0204873513 0.1794520166 0.0586275273 -0.5540144988 0.0581189985 -0.5542259442 0.0094870166 0.1906573045
695295830.0 -0.0183532074 0.1793465943 0.0518103652 -0.5545037933 0.052239604 -0.5547417722 0.0110965675 0.1907891059
700295800.0 -0.0165698876 0.1798548268 0.0464911371 -0.5553334247 0.0462193443 -0.5557759308 0.013395879 0.1902809758
705295770.0 -0.0151786968 0.1804429133 0.0404323455 -0.5555889334 0.0406758493 -0.5560717162 0.0155345346 0.1909404737
710295740.0 -0.0133990885 0.1810373956 0.0344524649 -0.5561936518 0.0343416739 -0.556015701 0.0168201028 0.1910504159
715295710.0 -0.0117700128 0.1808532109 0.0281722953 -0.5566611852 0.028443709 -0.5562467798 0.0196003237 0.1901108158
720295680.0 -0.0099619548 0.1809859003 0.0221789773 -0.5563678295 0.0224409772 -0.5569486028 0.0218545705 0.1906995132
725295650.0 -0.0078165311 0.1813388245 0.0161153244 -0.5564450481 0.016355398 -0.5568519819 0.0237255156 0.1905131576
730295620.0 -0.0062338105 0.1816480122 0.0099733928 -0.5567345672 0.0101858895 -0.5564950924 0.026051762 0.1896255411
735295590.0 -0.0043051955 0.1816626114 0.0043234571 -0.5569572317 0.0044808851 -0.557160715 0.0281971451 0.1897424463
740295560.0 -0.0028081011 0.1822503858 -0.0015693712 -0.55655044 -0.0017744543 -0.5566203349 0.030115098 0.1897419954
745295530.0 -0.0009339467 0.1822741154 -0.0075038062 -0.5569442189 -0.0073445886 -0.5571407492 0.0318435959 0.1900060615
750295500.0 0.0009294487 0.1823007092 -0.0134604801 -0.5564384257 -0.013776317 -0.556475193 0.0339630871 0.188986095
755295470.0 0.0032041251 0.182702163 -0.0199410044 -0.5567630024 -0.0194690118 -0.556622317 0.0357870425 0.1894686193
760295440.0 0.0045125624 0.1828277227 -0.0253760164 -0.5562491571 -0.0257020807 -0.5561917063 0.0376648669 0.1888430299
765295410.0 0.0061659073 0.1825913556 -0.0309274736 -0.5557318795 -0.0311701047 -0.5561882402 0.0404986205 0.1890427774
770295380.0 0.008460083 0.1830061206 -0.0379362726 -0.5552495954 -0.0376816047 -0.5558744622 0.0425435224 0.1885926716
775295350.0 0.0100119318 0.1831161241 -0.0434456881 -0.5545137813 -0.0435080808 -0.5549589434 0.0439372133 0.1875648989
780295320.0 0.0118058451 0.1830555068 -0.0493172659 -0.5544799597 -0.0489346283 -0.5546074009 0.0464350468 0.1877269772
785295290.0 0.0133906244 0.1834410996 -0.055324191 -0.5532889766 -0.0553054156 -0.5540568996 0.0479630619 0.1871246503
790295260.0 0.0153370445 0.1831749433 -0.061217589 -0.5535136753 -0.0611908384 -0.5538335644 0.0503620299 0.1870878365
795295230.0 0.0170842662 0.1830748286 -0.0669246706 -0.5521937753 -0.0670180759 -0.5522117508 0.0526120149 0.1870220076
800295200.0 0.0190064333 0.1832764858 -0.0736573548 -0.5518516603 -0.0737274029 -0.5518139502 0.0545732162 0.1861181703
805295170.0 0.0206292952 0.1830824004 -0.0789827197 -0.5507994581 -0.0792586677 -0.5507230293 0.0561593255 0.1855920729
810295140.0 0.0223486028 0.1828569895 -0.0848255928 -0.5497870985 -0.0849870715 -0.5504752889 0.058509041 0.1852921363
815295110.0 0.0244310342 0.1831782191 -0.0909272751 -0.5485647378 -0.0911367146 -0.5487962365 0.0603334212 0.1845071899
820295080.0 0.0260574921 0.1825544222 -0.0966828736 -0.5480550844 -0.0967733367 -0.5480474473 0.0624029614 0.1839222524
825295050.0 0.0282264262 0.1825485338 -0.1030504304 -0.5462075283 -0.1029757159 -0.546407363 0.0646364196 0.1836174907
830295020.0 0.02986536 0.1828812379 -0.1089227635 -0.5455684369 -0.1089792588 -0.5458569986 0.0664664985 0.1830800602
