!Created with skrf (http://scikit-rf.org).
# Hz S RI R 50.0 
!freq ReS11 ImS11 ReS21 ImS21 ReS12 ImS12 ReS22 ImS22
300000.0 -0.2314371783 -0.1307283954 0.4666956303 0.0858657434 0.4673042185 0.084390644 -0.2349704089 -0.1299778738
5299970.0 -0.2420635301 0.0050964799 0.4746967982 0.0062344825 0.4756154523 0.0058184074 -0.2444651145 0.0046579736
10299940.0 -0.2387670386 0.0188127352 0.4777841517 0.0065128653 0.4772347247 0.0071683034 -0.240905411 0.0172867093
15299910.0 -0.2337896282 0.0287402418 0.4805179067 0.0083940291 0.4809265362 0.0080233836 -0.2370644654 0.0262412703
20299880.0 -0.228625915 0.0367817506 0.4852945547 0.0079903901 0.485492343 0.0083715164 -0.2321403493 0.0339869423
25299850.0 -0.222677928 0.0433457466 0.4908731056 0.0076152881 0.4910426703 0.0070558973 -0.2270872738 0.040040514
30299820.0 -0.2172075329 0.0485613603 0.49602987 0.0049863655 0.4963220945 0.0048607453 -0.2217749982 0.0447603872
35299790.0 -0.211299434 0.0526376055 0.5007918831 0.0022643127 0.5014815841 0.0016525976 -0.2167637462 0.0491575302
40299760.0 -0.2063269264 0.0560382959 0.5064580617 -0.0019375853 0.5066679291 -0.0021352134 -0.211873311 0.0521919483
45299730.0 -0.2012192959 0.0588289944 0.5110859616 -0.0064738437 0.5115087817 -0.0069726331 -0.2070951463 0.0548803481
50299700.0 -0.1961637639 0.0607702307 0.5151379667 -0.0123835819 0.515463747 -0.0124557021 -0.2027952964 0.0570461301
55299670.0 -0.1917779652 0.0624587286 0.5189503768 -0.0179671907 0.5187796641 -0.0181551846 -0.1992831221 0.0585665014
60299640.0 -0.1881165083 0.063965261 0.5225845651 -0.0247239435 0.5224683359 -0.0245532325 -0.19552731 0.0596410603
65299610.0 -0.1841373296 0.0651328151 0.5253932402 -0.0307925389 0.525373585 -0.0309869581 -0.1919823139 0.0607118067
70299580.0 -0.1808088457 0.0660217124 0.5276551139 -0.0372421733 0.5278303849 -0.0375350737 -0.1893800151 0.0620882888
75299550.0 -0.178089878 0.0666069742 0.5293956562 -0.0446614335 0.5298038656 -0.0443759557 -0.1864029681 0.0626736354
80299520.0 -0.1754200778 0.0676527259 0.531360196 -0.0512726137 0.5316409816 -0.051196064 -0.1837651133 0.0637160131
85299490.0 -0.1726829885 0.0681960452 0.5329456608 -0.0580456419 0.5331726717 -0.0578489291 -0.1818613462 0.0640414781
90299460.0 -0.1705134176 0.069051385 0.5335360826 -0.0651188338 0.5339202698 -0.0651889399 -0.1795094684 0.0653129805
95299430.0 -0.1678997017 0.0695707678 0.5346726404 -0.0719962315 0.5347649518 -0.0720912303 -0.1777079335 0.0655255361
100299400.0 -0.1658448713 0.0703137105 0.5349892898 -0.0788392103 0.5350071324 -0.079167904 -0.1758200635 0.0664535015
105299370.0 -0.1640018836 0.0709857563 0.5355695346 -0.0855979497 0.5356215465 -0.0857994496 -0.1739521397 0.0665786551
110299340.0 -0.1623512834 0.0714086599 0.5353341217 -0.091730363 0.5358547144 -0.0924539215 -0.1729322314 0.0674572134
115299310.0 -0.1609181456 0.0723644494 0.5354022403 -0.0990018523 0.5353522937 -0.099323066 -0.1715095107 0.0683482426
120299280.0 -0.159528748 0.0734128917 0.5356176884 -0.1067835103 0.5353310195 -0.1063567981 -0.1703046133 0.0685162934
125299250.0 -0.1581890074 0.0740479217 0.5350089562 -0.1129499519 0.5349979812 -0.1125982635 -0.1687885981 0.069642893
130299220.0 -0.1567384146 0.07460276 0.5344553847 -0.1196129713 0.5339835762 -0.119860804 -0.1676288763 0.0705809001
135299190.0 -0.155447568 0.0759576759 0.533932236 -0.1258926914 0.5338776126 -0.1263531401 -0.1667560266 0.0710649692
140299160.0 -0.154152636 0.0768467837 0.5330846846 -0.1332180366 0.5328955237 -0.1325555471 -0.166366962 0.0718763881
145299130.0 -0.1534779541 0.0776168902 0.5318662261 -0.1390798385 0.5320618953 -0.1390695795 -0.1650192025 0.0730269906
150299100.0 -0.1521534178 0.0790037226 0.5310209531 -0.1461453233 0.5309512007 -0.1461324435 -0.1644717707 0.0740016509
155299070.0 -0.1508598388 0.0798587422 0.529149667 -0.1523220342 0.5298121809 -0.1527231927 -0.163397567 0.0747293569
160299040.0 -0.1501414622 0.0811836326 0.5282335099 -0.1588976871 0.52796614 -0.159195057 -0.1626835449 0.0759854075
165299010.0 -0.1486718223 0.0823585482 0.526554393 -0.1650256993 0.5265895853 -0.1657616979 -0.1616057235 0.0766342825
170298980.0 -0.1477163297 0.0833362754 0.5246906402 -0.1717006229 0.525604559 -0.1718628832 -0.1611322345 0.0778839788
175298950.0 -0.1468926779 0.0847896803 0.5237533166 -0.1780209483 0.5239405734 -0.178301422 -0.1603086424 0.0791326341
180298920.0 -0.1460326759 0.0859628032 0.5215678066 -0.1844901511 0.5220945873 -0.1847843006 -0.1596821343 0.0803232981
185298890.0 -0.1450815028 0.0874555846 0.5203510378 -0.1904058467 0.5199459798 -0.1907200336 -0.1584623568 0.0812191193
190298860.0 -0.1437724612 0.0889689977 0.5176260768 -0.1967680044 0.5181678816 -0.1967424796 -0.157999041 0.0824130237
195298830.0 -0.1430425455 0.0900936149 0.5160719324 -0.202606622 0.51617316 -0.2028495792 -0.1572666046 0.0836321595
200298800.0 -0.1416483857 0.0911093601 0.5142269168 -0.2092151669 0.5142747306 -0.2091054702 -0.1565568249 0.0845113452
205298770.0 -0.1413925887 0.0924857475 0.511752361 -0.2148948045 0.5120045665 -0.2145823876 -0.1556860225 0.0858390114
210298740.0 -0.1402294057 0.0942671623 0.5097194653 -0.2210322931 0.5094591195 -0.2213760613 -0.1555113946 0.0870682529
215298710.0 -0.1394095831 0.0953189077 0.5069364098 -0.2263546907 0.5073830576 -0.2269625799 -0.154314646 0.0882996214
220298680.0 -0.1379989441 0.0967506611 0.5043851002 -0.2322159726 0.5047991263 -0.2328082011 -0.1535309076 0.0895198019
225298650.0 -0.1371738987 0.0982294404 0.5020978063 -0.2384664052 0.5022772654 -0.2380095083 -0.1529410462 0.090702695
230298620.0 -0.1361869389 0.0998345314 0.499701822 -0.2442204378 0.5001192219 -0.2445684018 -0.1521892024 0.0921684878
235298590.0 -0.135490023 0.1013405503 0.4971255921 -0.2505123801 0.497377318 -0.2498326454 -0.1513756195 0.0934794458
240298560.0 -0.134208625 0.1026414845 0.4946225677 -0.2556622631 0.4945689359 -0.2557438102 -0.1505740008 0.0942627291
245298530.0 -0.1330499687 0.1039605462 0.4916291166 -0.2616061603 0.4917764789 -0.2618130577 -0.1496461715 0.0959482446
250298500.0 -0.1324411628 0.1054580065 0.4891498826 -0.2674255223 0.4890980113 -0.2667822033 -0.1490894959 0.0973072423
255298470.0 -0.1314162911 0.1071855717 0.4860090022 -0.2724661173 0.4865090214 -0.2727639567 -0.148216903 0.098713131
260298440.0 -0.1299566422 0.1085957982 0.4829118103 -0.2778403671 0.4838220962 -0.2781745154 -0.1473043576 0.0998019443
265298410.0 -0.1291969994 0.1100812946 0.4798886824 -0.2841208389 0.4799523183 -0.2841445044 -0.1460810309 0.1011331735
270298380.0 -0.1283538919 0.1112384283 0.4769337803 -0.2891043695 0.4772048979 -0.2890629806 -0.1453344153 0.1026682451
275298350.0 -0.1269581768 0.1132252266 0.4735144998 -0.2942784244 0.4735024575 -0.2948956632 -0.1443706017 0.1042668491
280298320.0 -0.1261750261 0.1144265151 0.4709225974 -0.2995455914 0.4709195105 -0.2997874627 -0.1434027673 0.1054145472
285298290.0 -0.1248927145 0.1159507402 0.4674267618 -0.3051067858 0.4677493537 -0.3048254281 -0.1427517369 0.1069665829
290298260.0 -0.123729872 0.1173412617 0.4645807132 -0.3102873291 0.4643398664 -0.3103848251 -0.1414721506 0.1078711514
295298230.0 -0.1227265343 0.1187454122 0.4609021265 -0.3161276707 0.4611788895 -0.3161239826 -0.1407760758 0.1091191875
300298200.0 -0.1212490486 0.1201712046 0.4574642585 -0.3210624343 0.4576622503 -0.320966233 -0.1398816764 0.1105861539
305298170.0 -0.1199740875 0.121129756 0.4542143984 -0.3262623407 0.4544797169 -0.3266623377 -0.1386058927 0.1118009837
310298140.0 -0.1187507299 0.1224642926 0.4505707397 -0.331155338 0.4509328104 -0.3314691741 -0.1375271745 0.1130245259
315298110.0 -0.1177403111 0.123778399 0.4471129305 -0.3371209618 0.4468916761 -0.3368595197 -0.1366246564 0.1142395591
320298080.0 -0.1163453054 0.1252613563 0.442898117 -0.3415344269 0.4437067263 -0.3422529215 -0.1356527796 0.1155029509
325298050.0 -0.1155153063 0.1259169613 0.4391338563 -0.346524324 0.4396575633 -0.3464098652 -0.1345277463 0.1165508496
330298020.0 -0.1148270752 0.1276408535 0.4350657333 -0.3518891116 0.4356833522 -0.3518464714 -0.1341600982 0.1177281333
335297990.0 -0.11349972 0.1290580828 0.4314389347 -0.3563490426 0.4316533073 -0.3564875611 -0.1327569293 0.1192328115
340297960.0 -0.1123768714 0.1303055661 0.4270451596 -0.3614624403 0.4274597846 -0.3614694495 -0.1321995055 0.1207905745
345297930.0 -0.1113550124 0.1315730682 0.4231066395 -0.3668019523 0.423009003 -0.3663622235 -0.1310826487 0.12176443
350297900.0 -0.1100932782 0.1329200966 0.4195086961 -0.3704551468 0.4195002372 -0.3706937368 -0.129962749 0.1231991428
355297870.0 -0.109015734 0.1341168868 0.4152118904 -0.3748682441 0.4153019747 -0.3749065106 -0.1287448971 0.124651549
360297840.0 -0.1075119507 0.1357353869 0.4105458104 -0.3796547686 0.4109323321 -0.3801055493 -0.127818888 0.1260700822
365297810.0 -0.1062855876 0.1372500867 0.4068026088 -0.3842962738 0.406873348 -0.3845162094 -0.1273019078 0.1274875818
370297780.0 -0.1048661412 0.1384917007 0.4019578515 -0.3884759425 0.4026693526 -0.3884838123 -0.1256707229 0.1287396206
375297750.0 -0.1036403009 0.1397452381 0.3982922654 -0.3933381797 0.3983435037 -0.3933899994 -0.1244501192 0.130121202
380297720.0 -0.1022745848 0.1411859353 0.394488124 -0.3977461117 0.393848372 -0.3980361572 -0.1231033056 0.1316631191
385297690.0 -0.1010706726 0.1419624805 0.38967519 -0.4013960003 0.3894992368 -0.4025373227 -0.1220852345 0.133294854
390297660.0 -0.0993390893 0.1435331579 0.3854663164 -0.4054723829 0.3851466722 -0.4061671104 -0.1207524357 0.1339273638
395297630.0 -0.0975219576 0.1447886651 0.3809084264 -0.4097297227 0.3805184994 -0.4097378981 -0.1194782761 0.1350321389
400297600.0 -0.0965551791 0.1457014932 0.376235724 -0.4139552127 0.3768367796 -0.4146177686 -0.1183565954 0.1369556643
405297570.0 -0.0949820899 0.1466603202 0.3718670683 -0.4182876877 0.3718502435 -0.418554101 -0.1168876433 0.1380451943
410297540.0 -0.0930111017 0.1481667485 0.3670837844 -0.4226150258 0.3673551933 -0.4222638163 -0.1156760339 0.1394970819
415297510.0 -0.0917211805 0.1493284139 0.3622459831 -0.4264431834 0.3626420748 -0.4266249863 -0.1138369448 0.1409406908
420297480.0 -0.0903820782 0.1500566331 0.3578569034 -0.4298965478 0.3579964519 -0.4307562345 -0.1124356792 0.1422611666
425297450.0 -0.0881615209 0.1512887195 0.3530982505 -0.4340812428 0.3530024511 -0.4345020531 -0.1117555522 0.1429834708
430297420.0 -0.0868109413 0.1526655617 0.3486251773 -0.4381611039 0.348671691 -0.4379094935 -0.1097258111 0.1446403231
435297390.0 -0.0852342048 0.1534803632 0.3432854078 -0.4426330529 0.3435099584 -0.4420463999 -0.1090345451 0.146118876
440297360.0 -0.0833742403 0.1542719463 0.3384869216 -0.4455257958 0.3386504189 -0.4459067521 -0.1075098557 0.146973705
445297330.0 -0.0815519251 0.1550839786 0.3337164164 -0.448994758 0.3342556353 -0.4495489903 -0.1058622002 0.1483637272
450297300.0 -0.0801111893 0.1564065401 0.3293874717 -0.4527872892 0.3290692934 -0.4528482482 -0.104305402 0.1494665728
455297270.0 -0.0787332668 0.1573807237 0.3242813845 -0.4567154947 0.3245245227 -0.4566227943 -0.102986106 0.1505617763
460297240.0 -0.0762253207 0.1583134719 0.3190939172 -0.4608387566 0.3191488799 -0.4603714597 -0.1016871966 0.1517362366
465297210.0 -0.0746613931 0.1591134306 0.3133715027 -0.4635733568 0.3132878298 -0.4641615873 -0.0997003741 0.1533918883
470297180.0 -0.0734089719 0.160138266 0.3087417289 -0.4666983703 0.3088406812 -0.4670566214 -0.0981441532 0.1538044351
475297150.0 -0.0717081174 0.1612325364 0.3037487317 -0.469949209 0.3039023073 -0.4702939161 -0.096956564 0.1550058599
480297120.0 -0.069303766 0.1624103614 0.2985421942 -0.4737229035 0.298911798 -0.4735300306 -0.0958610169 0.1562499479
485297090.0 -0.0676693928 0.1626510916 0.2932249957 -0.4764065876 0.2931747709 -0.4768231369 -0.0940943885 0.1571444542
490297060.0 -0.0653662385 0.1639284194 0.2878044391 -0.4801291816 0.2879612299 -0.4804066106 -0.0923376276 0.1583012219
495297030.0 -0.0643138254 0.164197686 0.2832371151 -0.4830464199 0.2827556531 -0.4832583343 -0.0903205202 0.158983806
500297000.0 -0.0622379039 0.1652757401 0.2775424807 -0.4858807069 0.2773114004 -0.4863168194 -0.0891194865 0.1604416428
505296970.0 -0.0599789655 0.1663556615 0.2725758938 -0.4889845013 0.2723174612 -0.4890672208 -0.0874865124 0.1611887378
510296940.0 -0.0581345048 0.1669573423 0.2670721788 -0.4926406329 0.2670030223 -0.4925842712 -0.0856501885 0.1624163471
515296910.0 -0.0563497685 0.1680206293 0.2615023032 -0.4950828194 0.2614937248 -0.4949248483 -0.0844555482 0.162832517
520296880.0 -0.0543187399 0.1688742889 0.2560318172 -0.4974563584 0.2556773564 -0.4972944576 -0.0825265067 0.1642654284
525296850.0 -0.0522832891 0.1695170855 0.2506516003 -0.5002336434 0.2500907535 -0.5003562126 -0.080510927 0.1650830397
530296820.0 -0.0506878802 0.1697629161 0.2450834953 -0.5029125541 0.2449689201 -0.5030356212 -0.0792299814 0.1656392976
535296790.0 -0.0481406278 0.1706405423 0.2394513238 -0.5055921746 0.2398269353 -0.5060338322 -0.077465596 0.1671708843
540296760.0 -0.0460846603 0.1714583899 0.2338984884 -0.5080232589 0.2338697152 -0.5079520412 -0.0758438559 0.1674850582
545296730.0 -0.0448420341 0.1721814242 0.2286475435 -0.5103720907 0.2282141872 -0.5102621761 -0.0738928159 0.168735036
550296700.0 -0.0420733458 0.1729917282 0.2226538744 -0.5130771634 0.2226971312 -0.5131732418 -0.0722475857 0.169121806
555296670.0 -0.0404959226 0.1736719372 0.2174313248 -0.5159716892 0.2175112124 -0.5152024314 -0.0710613128 0.1694315813
560296640.0 -0.0379391932 0.1740447319 0.2114166947 -0.5175921514 0.2120470332 -0.5179241258 -0.0690810149 0.1710400516
565296610.0 -0.03638646 0.1748977073 0.2064780214 -0.5204005545 0.2059700505 -0.5196373345 -0.0673452234 0.1721171431
570296580.0 -0.0344249239 0.1752511983 0.2003253296 -0.5221801657 0.2005325891 -0.5221226374 -0.0657690237 0.1724387742
575296550.0 -0.0320721729 0.1755868252 0.1948930516 -0.5242633415 0.1947768469 -0.5240739266 -0.0639630209 0.1732181409
580296520.0 -0.0302936038 0.1766286567 0.189404196 -0.5262432357 0.1892850907 -0.5267761782 -0.0626196507 0.173846951
585296490.0 -0.0278412818 0.1769373337 0.1835282905 -0.528270445 0.1829727992 -0.52810095 -0.0601083151 0.1748660018
590296460.0 -0.0255334078 0.1774279807 0.1773858339 -0.530219121 0.1773752845 -0.5307123482 -0.059064426 0.1756590098
595296430.0 -0.0237327602 0.1777400534 0.1713678594 -0.5320878791 0.1715747832 -0.5322272023 -0.0570215903 0.1760067949
600296400.0 -0.0214890695 0.1783474319 0.1658145935 -0.5335777627 0.1660727985 -0.5339831362 -0.0552711342 0.1767482234
605296370.0 -0.0199502035 0.1791355095 0.160698939 -0.5353798664 0.1597088109 -0.5357389025 -0.0535632492 0.1774848952
610296340.0 -0.0173534538 0.179787724 0.1542783908 -0.5369784281 0.1546822585 -0.5371670122 -0.051954815 0.1781935009
615296310.0 -0.0151621475 0.1799678614 0.1489256876 -0.5394634266 0.1482374686 -0.5389669049 -0.0497957302 0.1790153173
620296280.0 -0.0136265493 0.1806863379 0.1426399088 -0.5405096921 0.1421938968 -0.5401944762 -0.0483599598 0.179684117
625296250.0 -0.0116895705 0.1807904676 0.136973633 -0.5420135324 0.136644627 -0.542034668 -0.0466960823 0.1798154532
630296220.0 -0.009483314 0.1814163311 0.1309760133 -0.5432019765 0.1306735472 -0.5431803994 -0.0447770823 0.1805848427
635296190.0 -0.0075157303 0.1819114998 0.1253925055 -0.5443441128 0.1251368973 -0.544500217 -0.0432030174 0.181236815
640296160.0 -0.0053111708 0.1819645641 0.1192249884 -0.5461838259 0.1188187095 -0.5458268938 -0.0413612531 0.1815231852
645296130.0 -0.0031039714 0.1829015534 0.1135194351 -0.547173954 0.113125703 -0.5469856786 -0.0394964541 0.1820947183
650296100.0 -0.000998398 0.1826090179 0.1075783262 -0.5481555087 0.1072642544 -0.5487486064 -0.037469092 0.1825459939
655296070.0 0.0007807454 0.1828894038 0.1011971147 -0.549398546 0.1013349278 -0.5494216426 -0.0362271286 0.1834985025
660296040.0 0.0031785363 0.1832827262 0.0955714009 -0.550317018 0.0951633344 -0.550439724 -0.0341597185 0.1834141423
665296010.0 0.00529043 0.1834878646 0.0886905569 -0.5507295782 0.0892118051 -0.5512798332 -0.0324183131 0.1841749702
670295980.0 0.0072709696 0.1835890133 0.0832641577 -0.5523995094 0.0830341278 -0.5517528359 -0.0309727452 0.1845448843
675295950.0 0.0091283401 0.1839863669 0.0777077157 -0.5529784877 0.0776068194 -0.5532929952 -0.0293209419 0.1852135747
680295920.0 0.0109428035 0.1842878131 0.0716526325 -0.5531401463 0.0714108626 -0.5537929759 -0.0269064756 0.1852442494
685295890.0 0.0133357368 0.1844583806 0.0650209396 -0.5548584907 0.0656040016 -0.5545911518 -0.0250679389 0.1860221956
690295860.0 0.0149283116 0.1844534114 0.0597670381 -0.5554393141 0.0592796573 -0.5554793391 -0.0234048844 0.1863172729
695295830.0 0.0172905396 0.1848493852 0.0539684384 -0.5559412683 0.0535673655 -0.5558008402 -0.0218185385 0.1870338326
700295800.0 0.0195604368 0.1849066254 0.0480334033 -0.5562304188 0.0479620897 -0.5564138384 -0.0197977507 0.1869572552
705295770.0 0.0208950381 0.1846916561 0.0417274798 -0.557168196 0.0414897766 -0.5567471613 -0.0182437092 0.1876677299
710295740.0 0.0233018558 0.1845620574 0.0358923013 -0.5570698467 0.0354939471 -0.5574450288 -0.0161071001 0.1879217949
715295710.0 0.0252552145 0.1849380775 0.0296606834 -0.5577686346 0.0294847827 -0.557711059 -0.0142904009 0.1880475792
720295680.0 0.0274964346 0.1846176081 0.023846333 -0.5572293635 0.0234446034 -0.5579843449 -0.0126132144 0.1884949166
725295650.0 0.0289930202 0.184896283 0.0183161905 -0.557878656 0.0176492487 -0.5581952636 -0.0109756665 0.1890658597
730295620.0 0.0305244537 0.1848081983 0.0120012836 -0.5578241859 0.0116397861 -0.5578259637 -0.009237232 0.189443868
735295590.0 0.0332268837 0.1847680048 0.0059040089 -0.5583739299 0.0057790669 -0.558260312 -0.0072809856 0.1890718519
740295560.0 0.034868434 0.1842944465 -4.11869e-05 -0.5583823692 -0.0001099069 -0.5585623314 -0.0054284124 0.1895698526
745295530.0 0.0367578263 0.1845340401 -0.0061580618 -0.5575354143 -0.0052435813 -0.5578754318 -0.0042844517 0.1897625249
750295500.0 0.0385758938 0.1845343681 -0.0118667525 -0.5580335843 -0.012437549 -0.5578474154 -0.0019860516 0.1898345096
755295470.0 0.0405988987 0.184062261 -0.017778714 -0.5578620685 -0.0182322626 -0.5581066724 4.32323e-05 0.1905686842
760295440.0 0.0426477886 0.1843144236 -0.0248469103 -0.5573446241 -0.0242308522 -0.5571231132 0.0019771935 0.1897285728
765295410.0 0.0448537988 0.18380375 -0.030153002 -0.5571330064 -0.0297605184 -0.557089693 0.0037643417 0.1903651794
770295380.0 0.0465852841 0.1836542122 -0.0356612723 -0.5563461204 -0.0360139388 -0.5569627777 0.0052889576 0.1906426282
775295350.0 0.0483147293 0.183090687 -0.0419072245 -0.5566589108 -0.0420183335 -0.5562567623 0.0077376527 0.1908724948
780295320.0 0.0503481234 0.1831121662 -0.0476401148 -0.5557923587 -0.04785503 -0.5558887762 0.0094457137 0.1907191485
785295290.0 0.0519435039 0.1825445353 -0.0536073195 -0.5554544423 -0.0538915123 -0.5554006143 0.0108121313 0.1911559709
790295260.0 0.0542337509 0.1818284694 -0.0592600551 -0.5542958795 -0.0595344626 -0.5550489173 0.0125894637 0.191529456
795295230.0 0.0559961986 0.1814397686 -0.065984175 -0.5536729752 -0.0657921168 -0.5545034102 0.0145106185 0.1906157129
800295200.0 0.0577022864 0.1815451271 -0.070889226 -0.5527379929 -0.0716411842 -0.5532494343 0.0159963848 0.1910230391
805295170.0 0.0595716446 0.1809794798 -0.0774532263 -0.5528199626 -0.0776054339 -0.5526607049 0.01859178 0.1911785057
810295140.0 0.061787235 0.1805487163 -0.083535125 -0.5513748324 -0.0835267581 -0.5516972434 0.0205094706 0.1909888357
815295110.0 0.0635009443 0.1801865737 -0.0894030979 -0.5506973229 -0.0892478628 -0.5508037459 0.021889217 0.1911464784
820295080.0 0.0651857434 0.1796326642 -0.0946181473 -0.5492508231 -0.0948337481 -0.5500028126 0.0232691045 0.1917386163
825295050.0 0.0670374122 0.1789147193 -0.1012150049 -0.5485454335 -0.1011046948 -0.5487562078 0.0259149976 0.1912780718
830295020.0 0.0692464385 0.1782624725 -0.1067192881 -0.5476153575 -0.1068696069 -0.5474918483 0.0274199382 0.190823521
