!Created with skrf (http://scikit-rf.org).
# Hz S RI R 50.0 
!freq ReS11 ImS11 ReS21 ImS21 ReS12 ImS12 ReS22 ImS22
300000.0 -0.7769176791 -0.092786469 -0.0024668689 0.0007668838 -0.0002072198 0.0017984283 -0.045664568 -0.0597131217
5299970.0 -0.7845295321 -0.0057469517 -0.0001168864 0.0001326329 0.0002406347 -1.47316e-05 -0.0455852081 0.0156923643
10299940.0 -0.7873030014 -0.0036436464 4.92571e-05 -0.0001878806 -0.0001071057 -6.65442e-05 -0.0401465417 0.0339973435
15299910.0 -0.7932393901 -0.0021167456 -4.65539e-05 -0.0002727511 -0.000106089 -0.0002484554 -0.0315297748 0.0485224067
20299880.0 -0.8001184702 0.0023780187 0.000158013 -3.89737e-05 -1.75134e-05 -2.25479e-05 -0.021314121 0.0600553747
25299850.0 -0.8061944124 0.0078281316 2.75188e-05 5.71346e-05 -8.30398e-05 -5.84039e-05 -0.0100238666 0.0695629724
30299820.0 -0.8121103747 0.0148246313 -0.0001035166 -4.73677e-05 -1.48351e-05 0.0001343893 0.0017821519 0.076333253
35299790.0 -0.8174527346 0.024592985 -4.12465e-05 -1.2852e-05 4.2086e-05 0.000128284 0.0133186737 0.0811618257
40299760.0 -0.8212611533 0.0341188271 -0.0002072461 0.0002059453 7.19497e-05 6.14147e-05 0.024724282 0.0837915173
45299730.0 -0.8243106073 0.0429943004 8.36317e-05 3.43721e-05 7.23033e-05 4.4816e-05 0.0354111685 0.0856714396
50299700.0 -0.8270127906 0.0527913051 -2.90864e-05 -0.0002754433 0.0001117056 8.77544e-05 0.0452748441 0.0853101011
55299670.0 -0.8294187174 0.0629864558 -0.0001113566 3.47949e-05 2.324e-07 -0.0001717937 0.0543810498 0.084174229
60299640.0 -0.8306361544 0.0735788682 7.39902e-05 -0.0001666912 -0.0001023377 6.21417e-05 0.0631592864 0.0825764521
65299610.0 -0.8310581134 0.083451876 -0.0001504544 -0.0001385897 3.84488e-05 -4.31059e-05 0.0705945456 0.0800677991
70299580.0 -0.8313473801 0.0934965517 -8.09479e-05 0.0001287243 1.68304e-05 0.0001060919 0.0775674399 0.0771619302
75299550.0 -0.8319433693 0.1038615373 0.000120475 4.1551e-05 9.03251e-05 0.0001257048 0.0837844404 0.073800505
80299520.0 -0.8317447674 0.1139737784 -0.0001280851 -0.0002103145 2.4219e-06 0.0003062471 0.0899407412 0.070456235
85299490.0 -0.8306361015 0.1230967118 -0.0001757802 -0.0002179793 9.2357e-05 -5.41713e-05 0.0946450366 0.0666122478
90299460.0 -0.8303474115 0.1322571721 5.23053e-05 -0.000108471 2.72095e-05 0.0002277201 0.0994922951 0.0629282922
95299430.0 -0.8290966528 0.1419303903 1.85051e-05 -0.0002400905 6.5681e-06 -5.94291e-05 0.1033035969 0.0589158155
100299400.0 -0.8283619945 0.1510739445 -0.0001470178 -1.71825e-05 -4.61324e-05 3.10667e-05 0.1072746245 0.0550819158
105299370.0 -0.8271786465 0.16024504 0.0001003684 0.0002061943 -1.44961e-05 2.42391e-05 0.1108022158 0.0511479365
110299340.0 -0.8251738972 0.16921785 5.19229e-05 -8.0281e-06 2.94596e-05 9.72056e-05 0.1135084411 0.047336178
115299310.0 -0.8242158133 0.1787076018 -4.90806e-05 0.0001530495 7.45866e-05 5.4661e-05 0.1158603021 0.0434705959
120299280.0 -0.8219545838 0.1873118654 1.47181e-05 8.65482e-05 -8.22732e-05 -9.01359e-05 0.1181096604 0.0399167619
125299250.0 -0.8201770502 0.1960722208 -0.0001456172 0.000110276 0.0001302605 -4.40019e-05 0.1202369916 0.0356306517
130299220.0 -0.8187004972 0.2057123871 -0.0001458884 0.0001814167 5.08353e-05 0.0001605452 0.1221414986 0.0318507757
135299190.0 -0.8168500102 0.2142285445 0.0002017235 -0.0001642579 -7.0407e-06 4.805e-06 0.1235100353 0.0285361665
140299160.0 -0.8145351562 0.2231938289 -3.43484e-05 -5.15294e-05 3.59387e-05 0.000179352 0.1249421928 0.0250758134
145299130.0 -0.8127552049 0.2322902928 0.0001521315 -8.4904e-06 0.0001916467 0.0003118414 0.1258479244 0.0216325302
150299100.0 -0.8101580057 0.240850188 0.0001975912 -3.42449e-05 -0.0001844771 0.000197355 0.1269853257 0.0187765782
155299070.0 -0.8075938739 0.2498505338 0.0001631936 -3.77625e-05 0.0001301826 7.60372e-05 0.127989169 0.0152095493
160299040.0 -0.8054502134 0.257917242 0.000207157 0.000213163 0.0002382881 0.00024581 0.1283937016 0.0123346804
165299010.0 -0.802848718 0.2667607062 -0.0001080276 3.73536e-05 0.00023732 0.000171072 0.1293174164 0.0091100018
170298980.0 -0.7997356942 0.2752802748 0.0001187254 0.0002141132 -5.14602e-05 0.0001717242 0.1294498442 0.0060704693
175298950.0 -0.7972438394 0.283984569 -6.97158e-05 9.72719e-05 4.09655e-05 1.17711e-05 0.129782144 0.0032667456
180298920.0 -0.7947336478 0.2927245144 6.83134e-05 -9.2071e-06 7.54974e-05 5.3455e-05 0.1300178504 0.0006950884
185298890.0 -0.7916095851 0.3008093755 9.38469e-05 8.08811e-05 0.000122135 2.95739e-05 0.1301299027 -0.0020867192
190298860.0 -0.7884398486 0.3096354316 -1.90585e-05 4.97466e-05 4.46114e-05 0.0001720227 0.1302942806 -0.0047820584
195298830.0 -0.7851132295 0.3178659205 0.0002933405 8.30204e-05 6.8448e-05 0.000105152 0.130099507 -0.0076880488
200298800.0 -0.7814193865 0.3262714375 0.0003233889 9.17606e-05 7.21656e-05 6.70883e-05 0.1298369591 -0.0105222418
205298770.0 -0.7782624022 0.3340167014 -4.3411e-05 7.60832e-05 -1.8744e-06 4.83833e-05 0.1297842009 -0.0132485581
210298740.0 -0.7750934478 0.3425809688 0.0002357868 -7.66062e-05 1.46831e-05 0.0002857943 0.1297380549 -0.0153610912
215298710.0 -0.7719556644 0.3506800353 2.8269e-05 -0.0001237179 6.50974e-05 0.0001305946 0.1290023299 -0.0181222878
220298680.0 -0.7674482427 0.3584835711 -1.62094e-05 0.0002992879 -7.55509e-05 0.0001158388 0.1283624184 -0.0204089692
225298650.0 -0.7640370557 0.3663460168 0.0001685522 0.0003374864 2.94585e-05 2.32849e-05 0.1279324517 -0.0224529529
230298620.0 -0.7603275651 0.3746123697 0.0001744705 -8.518e-07 -3.51454e-05 6.3878e-05 0.1275875474 -0.0250316685
235298590.0 -0.7568564666 0.3832317404 0.0001354176 0.0001081562 1.4018e-06 0.0001006403 0.1272851677 -0.027410332
240298560.0 -0.7519361619 0.3915184281 2.663e-05 0.0002269121 2.25921e-05 0.0002026855 0.1265205107 -0.0295645869
245298530.0 -0.7486021393 0.399100132 8.19634e-05 0.0001056778 4.55011e-05 7.217e-05 0.125756618 -0.0319976638
250298500.0 -0.743914915 0.4068643705 9.17777e-05 8.8646e-06 0.0001173036 0.0001419755 0.1252429858 -0.0339194202
255298470.0 -0.7397162529 0.4140354758 0.0001733075 6.38853e-05 0.000257965 -5.52087e-05 0.1245038184 -0.0364806131
260298440.0 -0.7357007485 0.4215588901 0.0001752579 5.70362e-05 -3.99974e-05 5.22855e-05 0.1241888506 -0.0383972069
265298410.0 -0.731477274 0.430141713 0.000108807 -8.798e-05 -2.66462e-05 0.0001632253 0.1231550847 -0.0403677258
270298380.0 -0.7266561412 0.4368686541 1.75319e-05 8.87155e-05 5.70656e-05 0.0001286509 0.1225518939 -0.0421052459
275298350.0 -0.7219521348 0.4448778266 0.0002236602 0.0002330882 0.0001260344 0.0001296447 0.1221038535 -0.0442764249
280298320.0 -0.7168741057 0.4523688825 0.0002327465 0.0001113636 -6.89593e-05 -8.35247e-05 0.1215603101 -0.0462070064
285298290.0 -0.7130128801 0.4601941894 6.91377e-05 0.0002835623 0.0001354215 0.0001107093 0.1205280926 -0.0479164677
290298260.0 -0.7079488794 0.4675631541 6.3213e-06 0.0002098901 0.0001785412 0.0002599456 0.1198553661 -0.0499809236
295298230.0 -0.7024099035 0.4749557044 0.0001379372 0.0001186161 0.0001971434 0.0002294017 0.1195235797 -0.0521211395
300298200.0 -0.6981301214 0.4813434515 0.0001391435 8.56319e-05 0.0001158862 0.0001444412 0.1186648604 -0.0535271739
305298170.0 -0.6926822456 0.4882849495 0.0001703243 -6.5946e-05 -3.71806e-05 0.0001439223 0.1183389357 -0.0558084105
310298140.0 -0.6872399296 0.4965393495 9.31607e-05 0.0002410979 -7.198e-06 0.0003506989 0.1169693149 -0.0576855339
315298110.0 -0.6825917236 0.503322882 0.00016553 0.0001871027 -8.8033e-05 0.0001559878 0.115705162 -0.0594296421
320298080.0 -0.6772629599 0.5102103996 -0.000254435 0.0003001916 0.0002320632 0.0001228998 0.114965216 -0.0613003637
325298050.0 -0.6718104669 0.5173528482 9.57904e-05 -0.0001710812 1.74243e-05 -5.9234e-06 0.1137769024 -0.0628310521
330298020.0 -0.6663510966 0.5239091247 0.0001512864 0.0001196488 0.0001649005 -3.05011e-05 0.1119950881 -0.0644771626
335297990.0 -0.6607420018 0.5308288409 0.0002377748 -7.71201e-05 -4.34705e-05 0.0001055297 0.1110770627 -0.0652781207
340297960.0 -0.6559450952 0.5375368285 6.78032e-05 -4.82021e-05 0.0002746033 3.14571e-05 0.1105024352 -0.0671260509
345297930.0 -0.6499143132 0.5445062505 0.0001804917 2.6078e-05 0.0001201135 0.000266361 0.1085456206 -0.068514226
350297900.0 -0.6447178788 0.5510076894 8.70752e-05 -0.0001011783 0.0003019931 0.0002653111 0.1075483914 -0.0695423683
355297870.0 -0.6377890714 0.5578012762 1.3745e-06 2.47647e-05 4.66073e-05 0.0002431695 0.1066662549 -0.0708046268
360297840.0 -0.6325763096 0.5636992838 0.0002299879 -1.53337e-05 0.0001923712 0.0001438838 0.1052410445 -0.0720879788
365297810.0 -0.6273640829 0.5708832094 0.0001422491 0.0002286684 0.0001973628 0.0001803223 0.1041388206 -0.0739374763
370297780.0 -0.6206879895 0.5763067252 9.86385e-05 0.000125907 0.0002517286 7.84193e-05 0.1031265929 -0.0746672493
375297750.0 -0.6146244028 0.583262933 8.17825e-05 0.0001913822 8.28818e-05 9.11233e-05 0.101836809 -0.0762175869
380297720.0 -0.6087225888 0.5892595491 2.01379e-05 0.0003189401 0.0002672904 0.0001618716 0.1001686015 -0.0770453804
385297690.0 -0.6030768946 0.5952716252 0.0001914735 -9.98545e-05 -1.55389e-05 -1.12462e-05 0.0992421454 -0.0784584407
390297660.0 -0.5968449651 0.6017329249 0.0002351479 0.0002157173 0.00022015 1.31478e-05 0.0978501976 -0.0793817181
395297630.0 -0.590032477 0.607954314 7.19728e-05 5.44742e-05 0.0001209679 0.0002966123 0.0968004999 -0.0807345405
400297600.0 -0.5838068998 0.6139717201 0.0001944855 -2.65505e-05 0.0002548853 0.0002500948 0.0954339877 -0.0819066745
405297570.0 -0.5781998899 0.6196276639 0.0004717369 0.0001853975 3.39271e-05 0.0001198306 0.0940398451 -0.083268061
410297540.0 -0.5714367385 0.6252693242 0.000335738 -8.57954e-05 0.0002049843 0.0001172808 0.0931151819 -0.0844408843
415297510.0 -0.5640455253 0.6312783075 0.000286184 0.0002643999 0.0002780305 -5.87254e-05 0.0916028299 -0.0854957917
420297480.0 -0.5587869267 0.6372868484 0.0001594227 2.48652e-05 0.0003959834 -9.38249e-05 0.0902650519 -0.0864462708
425297450.0 -0.5514349256 0.6423765274 9.1541e-05 0.0002253653 0.000353344 0.0002590022 0.089099112 -0.0874999313
430297420.0 -0.54436852 0.6482378723 -2.16362e-05 -4.67636e-05 0.000158394 0.0001431698 0.0876454893 -0.0888140315
435297390.0 -0.5389492684 0.653278675 0.0002555657 0.0002650507 0.0001887854 4.74408e-05 0.0866105301 -0.0896003543
440297360.0 -0.5316814331 0.6594108108 0.000364817 0.0001161576 0.0002966121 0.0001870858 0.0853369529 -0.090588213
445297330.0 -0.5249597616 0.6644367811 0.0001045508 0.0001729923 0.0005050316 0.0001843388 0.0841132036 -0.0922002189
450297300.0 -0.5182734351 0.6692291254 0.000130129 1.9474e-05 0.0001288046 3.3759e-06 0.0828990601 -0.0930432838
455297270.0 -0.5112059829 0.6747037404 0.0003890963 -1.06171e-05 0.0002740969 0.000246611 0.0812758301 -0.0937365566
460297240.0 -0.5046037408 0.6794077432 0.0003679002 0.0002456712 6.55892e-05 6.73e-06 0.0803581234 -0.0945882476
465297210.0 -0.4975282969 0.6854105759 0.0001491727 0.000177654 0.0002164767 0.0004088886 0.0790873313 -0.0953402005
470297180.0 -0.490217793 0.6900553839 0.0001968965 0.0001347862 0.0002887768 0.0001576114 0.0776206629 -0.0961431493
475297150.0 -0.4832944277 0.694287423 0.0001754352 0.0001801956 0.0002258431 0.00021459 0.0765421261 -0.0972137392
480297120.0 -0.4763573193 0.699377601 0.0001203275 2.9672e-05 0.0001868275 0.0002535438 0.0750862805 -0.0979740065
485297090.0 -0.4687790994 0.7043149489 0.0002606595 4.23944e-05 0.0004900587 0.0001182001 0.0742275349 -0.099004498
490297060.0 -0.4620555026 0.7085996694 9.44877e-05 -0.0001294406 0.0002659876 0.0001794252 0.072429836 -0.0996063277
495297030.0 -0.4546900185 0.7132157327 0.0005632005 8.24533e-05 0.0001430612 0.0001117976 0.0711677589 -0.0999235951
500297000.0 -0.4477106527 0.7178702632 0.0001061562 0.0001898862 0.0002215064 0.0001176172 0.0697795009 -0.1004162276
505296970.0 -0.4399905312 0.7222536035 0.0002353636 0.0001030567 0.0002167931 1.56585e-05 0.0684672333 -0.1015039429
510296940.0 -0.4329809713 0.726744896 0.000288671 0.0002455848 0.0002920433 8.95658e-05 0.0669653913 -0.102214132
515296910.0 -0.4251112619 0.7307005326 0.0001314732 0.0001619524 0.0002907803 4.41847e-05 0.0656579199 -0.1029046985
520296880.0 -0.4181611065 0.7358212283 0.0003367843 6.48386e-05 0.0002223945 3.56805e-05 0.0639738475 -0.1034396031
525296850.0 -0.4095360007 0.7393475123 0.0003840626 0.0001141727 0.0002446115 4.7815e-06 0.0629621776 -0.103553182
530296820.0 -0.4025625561 0.7436438192 0.0003722996 -1.55421e-05 0.0003097391 -0.000119161 0.0615631905 -0.1043042329
535296790.0 -0.3958768269 0.7473089223 0.0003900719 8.50485e-05 3.78395e-05 0.000152502 0.0598343642 -0.105133617
540296760.0 -0.3882770129 0.7505994157 0.0003085547 0.0002320939 0.0001960371 2.60884e-05 0.0584865702 -0.1053793907
545296730.0 -0.3804775802 0.7550524656 0.0001511449 0.0001999632 0.0003015077 -0.0001261993 0.0568911407 -0.1061478946
550296700.0 -0.3729027952 0.7583180061 0.0004490297 0.0001121938 0.0001223695 -8.32391e-05 0.0555634616 -0.1067242224
555296670.0 -0.3642567959 0.7615362474 0.0004529272 0.0001906352 0.0002631059 0.0001010315 0.0539410064 -0.106820471
560296640.0 -0.35778117 0.7663925619 0.0002644501 1.8958e-05 0.0001388112 0.0001826153 0.0525405146 -0.1073005326
565296610.0 -0.349642809 0.7693885759 0.0005665127 0.0001371489 0.0001300922 -2.06384e-05 0.0510273987 -0.1079293986
570296580.0 -0.3423381821 0.772404128 0.0005048482 -2.15419e-05 0.0003682518 -6.64987e-05 0.0494646557 -0.1082669247
575296550.0 -0.3345420357 0.7769255248 0.0005448523 0.0001210851 -2.07694e-05 -5.1656e-06 0.0482053016 -0.1086729516
580296520.0 -0.3260422537 0.7798400656 8.64201e-05 -0.0001334927 0.0004250536 4.73662e-05 0.04637156 -0.109327262
585296490.0 -0.3186234049 0.7824222981 5.49935e-05 0.0001323037 0.0003203005 0.0001124636 0.0449660964 -0.1097890674
590296460.0 -0.3103649227 0.7856089517 0.0003735519 -1.26075e-05 0.0004544254 0.0001526277 0.0435129573 -0.1098813027
595296430.0 -0.3025350696 0.7885183292 0.0002145654 -3.06921e-05 0.0004766033 -0.0001257867 0.0421532451 -0.110647579
600296400.0 -0.2946491337 0.7919322805 0.0005764605 7.55898e-05 0.000311746 6.73334e-05 0.0405791357 -0.1109626608
605296370.0 -0.2871647744 0.7948464267 0.0004179397 -1.23107e-05 0.0002295792 -0.0001556595 0.0392539048 -0.111280003
610296340.0 -0.2788387373 0.7976134063 0.000330095 -0.0001131403 0.0001990452 2.64867e-05 0.037930353 -0.1115605476
615296310.0 -0.2701294278 0.7996677373 0.0001564125 -0.0001284612 0.0001200736 -0.0001689118 0.0367197216 -0.1119986545
620296280.0 -0.2627465928 0.8021428351 0.0001250179 0.0002818923 0.0001240356 -4.37614e-05 0.035171469 -0.1120011504
625296250.0 -0.2545242594 0.8051937895 0.0005901589 0.0002418186 0.0004053256 1.0734e-05 0.0337352071 -0.1125641195
630296220.0 -0.2457056334 0.8077750103 0.0003274995 -4.72614e-05 0.0001873733 -4.75157e-05 0.0323920565 -0.1125006942
635296190.0 -0.238487009 0.8101813887 0.0003627609 -2.98848e-05 0.0001811283 -0.0001168777 0.0310387691 -0.1128797382
640296160.0 -0.2308757782 0.8126144856 0.0003184751 2.31815e-05 0.0003466108 0.0002018207 0.0294228356 -0.1131150271
645296130.0 -0.2224029201 0.8149556112 0.0005388648 6.60577e-05 0.000215645 6.57908e-05 0.0277621781 -0.1129369066
650296100.0 -0.2140217992 0.8167674208 0.0003214238 -0.0001758614 0.0004348883 -0.0001152372 0.0267916604 -0.1132051434
655296070.0 -0.2060286211 0.8189392876 0.0002087025 -6.78247e-05 0.0002594474 0.0001314511 0.0254835471 -0.1131957729
660296040.0 -0.1976726082 0.8201969497 0.0002799504 -2.98275e-05 0.0002695509 -1.91134e-05 0.0239425059 -0.1137228491
665296010.0 -0.1891319424 0.8221415049 0.0003818125 9.76126e-05 0.0001574191 0.0002392002 0.0223550894 -0.1132632372
670295980.0 -0.1818293622 0.8241788331 0.0002911026 -2.9521e-05 0.0001286943 0.0001225156 0.0208683116 -0.1135197085
675295950.0 -0.1734925861 0.8260191467 0.0003990545 -4.76152e-05 8.48662e-05 -7.74137e-05 0.0193364778 -0.1132273799
680295920.0 -0.1643903439 0.8278269508 0.0002889196 -4.29135e-05 0.0003584241 -0.0001703181 0.0184152385 -0.1132610333
685295890.0 -0.1561506853 0.8303669059 0.0003172658 -0.0002517389 0.0002011134 -1.70149e-05 0.0167644283 -0.1133044215
690295860.0 -0.1483903355 0.8310674686 0.000393283 -0.0002266022 0.0003451815 0.0001776297 0.0152715366 -0.1128276033
695295830.0 -0.1402708747 0.8315478656 0.0003473354 -0.0002566724 0.0002111691 -1.44658e-05 0.0136960101 -0.1129223857
700295800.0 -0.1313404312 0.8334200798 0.0003421131 -2.1905e-05 0.000260334 8.1174e-06 0.0123118558 -0.1129892662
705295770.0 -0.1236289742 0.8353219025 0.0002389789 1.90545e-05 0.0004087024 -0.0001653519 0.0110137904 -0.1124320645
710295740.0 -0.1152920971 0.8364005417 0.0001836456 0.0001057424 0.0003363433 0.000106961 0.0091789592 -0.1128202218
715295710.0 -0.1070299033 0.837086697 0.0002884289 -5.96465e-05 0.0003085631 -1.30209e-05 0.0081119578 -0.1125806892
720295680.0 -0.0985490386 0.838306371 0.0001972758 9.7588e-05 0.0002308032 -0.0002136703 0.0067757596 -0.1121946175
725295650.0 -0.0902950095 0.8398926789 0.0003589744 -0.0002101733 0.0004695125 -9.66317e-05 0.0047751348 -0.1115688587
730295620.0 -0.0818816433 0.8401492479 0.0003021822 9.18917e-05 0.0005469937 -1.33047e-05 0.0032544159 -0.1117674076
735295590.0 -0.074177536 0.8411359063 0.00029612 -0.0001668239 0.0002922746 0.0001717012 0.0015721072 -0.1118136514
740295560.0 -0.0654986846 0.8416540391 0.0004147511 8.87542e-05 0.0003314279 -4.47715e-05 0.0003296623 -0.1114886697
745295530.0 -0.0570553818 0.8423165789 0.0002049424 3.03648e-05 0.0004233338 -0.0002230095 -0.0010810483 -0.111384999
750295500.0 -0.0481290043 0.8426456347 0.0003761474 0.0001055801 0.0004584178 -0.0001185907 -0.0024571238 -0.1112888982
755295470.0 -0.040031395 0.8431576347 0.0003831824 -0.0001963049 0.0003068887 6.39748e-05 -0.0036834422 -0.1112355403
760295440.0 -0.0325255036 0.8433336488 0.0004601108 -0.0001784849 0.0004685402 -4.98679e-05 -0.0051866757 -0.1108634084
765295410.0 -0.0237489286 0.8438480727 0.000271195 -9.59181e-05 0.0003727482 -0.0002039106 -0.0065883419 -0.1103349827
770295380.0 -0.0156899049 0.8439226833 0.0002700677 6.67866e-05 0.0004644237 -0.0001505039 -0.0085289708 -0.1104269653
775295350.0 -0.0076357953 0.8440569544 0.0001724306 5.35688e-05 0.0003700971 -2.2206e-05 -0.0099794706 -0.110011176
780295320.0 0.0011569293 0.8441609908 0.0004406596 0.0001807539 0.0003632066 -0.0001942066 -0.0110445137 -0.1093912089
785295290.0 0.0095705012 0.843226164 0.0005055875 1.91761e-05 0.0004280803 4.62106e-05 -0.0121046261 -0.1096308615
790295260.0 0.0185935265 0.8436773347 0.0004595151 -0.0001263388 0.0002199677 0.000190492 -0.0135003696 -0.1091264478
795295230.0 0.026140509 0.8431680612 0.0003969432 0.0001912333 0.0002301292 9.2334e-05 -0.0146172374 -0.1086950148
800295200.0 0.03405312 0.8434392807 0.000304576 -0.0001575336 0.000265625 -8.8898e-05 -0.0160025919 -0.1079901454
805295170.0 0.0435132339 0.8428988701 0.0005790987 -0.0002896263 0.0003321807 -0.0002758481 -0.01774891 -0.1078481028
810295140.0 0.0517965332 0.8418517376 0.0004478286 -0.000100303 0.0003250741 -0.000153953 -0.0183953729 -0.1074431676
815295110.0 0.0594408923 0.8415978434 0.0003785572 -8.09049e-05 0.0002346287 -0.0002469893 -0.0199724496 -0.1070071585
820295080.0 0.067528339 0.841194209 0.0004196682 -0.0002430643 0.000658749 4.19191e-05 -0.0212446469 -0.1064724951
825295050.0 0.0769872883 0.8401435287 0.0003337852 -0.000168435 0.0005461791 -1.33808e-05 -0.0223997809 -0.1058065559
830295020.0 0.084791404 0.8398677248 0.000472039 2.50861e-05 0.0005465167 -2.47727e-05 -0.0234809259 -0.1051844122
835294990.0 0.0928549816 0.8388313695 0.00029792 9.90211e-05 0.0004711958 -0.0001669451 -0.0252048133 -0.104655046
840294960.0 0.1004850539 0.8380556194 0.0002334245 -0.0001398919 0.0004401977 -0.0001071273 -0.0264044525 -0.1042092794
845294930.0 0.1089497975 0.8365674764 0.0002890378 -0.0003369306 0.0002326407 -0.0002942178 -0.0276786628 -0.1036598893
850294900.0 0.1175535573 0.8362094398 0.0002576516 -0.0001696685 0.0001538055 -0.0002604136 -0.0290040242 -0.102653595
