!Created with skrf (http://scikit-rf.org).
# Hz S RI R 50.0 
!freq ReS11 ImS11 ReS21 ImS21 ReS12 ImS12 ReS22 ImS22
300000.0 0.8604452598 -0.0011826249 -0.0001406983 0.0006835418 0.0006149864 0.000388392 -0.7677922112 -0.1818036316
5299970.0 0.8597535949 -0.0097798425 -0.0003442609 -9.61689e-05 -7.60857e-05 8.25024e-05 -0.7853855485 -0.0094354309
10299940.0 0.8584515404 -0.0186870482 9.12181e-05 -8.76885e-05 5.94104e-05 -0.0001525175 -0.7880925341 -0.0049737117
15299910.0 0.8576214449 -0.0273241415 3.79314e-05 3.4132e-06 7.2765e-05 -7.67821e-05 -0.7931209063 -0.0024979359
20299880.0 0.8569480394 -0.0356070621 0.0001108179 8.85758e-05 -3.59337e-05 8.68524e-05 -0.8002338593 0.0018061336
25299850.0 0.8559120116 -0.043708404 5.45294e-05 -0.0002415907 8.32864e-05 0.0001526688 -0.8064222121 0.0078592211
30299820.0 0.8554776514 -0.0523880245 -0.0002852712 0.0003488695 0.0002599249 -0.0001201999 -0.8125317385 0.0159483875
35299790.0 0.8548436232 -0.0603185036 -0.0001117569 0.0001789621 4.66028e-05 1.41082e-05 -0.817667467 0.0246946002
40299760.0 0.8547199129 -0.0679588876 0.0001764678 -0.0001355877 -0.0001006195 -9.38572e-05 -0.8218301006 0.0336380959
45299730.0 0.8535447486 -0.0768015936 0.0001714763 0.0001354062 -1.09659e-05 -0.0002222164 -0.8242677113 0.0436269295
50299700.0 0.8525670763 -0.0844747968 2.58278e-05 -6.24242e-05 2.47081e-05 -0.0001036986 -0.8266055012 0.0540437279
55299670.0 0.8520329453 -0.092828849 -9.43454e-05 -4.13795e-05 -3.6177e-06 -3.51361e-05 -0.8288783426 0.0639173189
60299640.0 0.8510827071 -0.1010050867 -0.0001226679 -7.45887e-05 0.0001606957 2.35604e-05 -0.8300354544 0.0738131642
65299610.0 0.8500894121 -0.1091691937 0.0002295056 -0.0001624414 -0.0001731788 -0.0001550821 -0.8307331143 0.0839749047
70299580.0 0.8487604057 -0.1176094417 5.47893e-05 -1.96552e-05 -9.47172e-05 -5.76257e-05 -0.8314565636 0.0935064691
75299550.0 0.8471122382 -0.1255820839 -9.74574e-05 3.12871e-05 2.53806e-05 -0.0001011856 -0.8307747484 0.1037710878
80299520.0 0.8463176141 -0.1335691818 -0.0003195311 -0.0001267987 -5.98272e-05 5.78074e-05 -0.8317912147 0.1136448537
85299490.0 0.8448088455 -0.1416358827 0.0001063396 4.18665e-05 -0.0001391013 -5.16264e-05 -0.8304502489 0.1234136974
90299460.0 0.8439920039 -0.1502343533 9.94884e-05 5.15683e-05 1.43653e-05 1.37581e-05 -0.8290238115 0.1330169804
95299430.0 0.8421830711 -0.1582826398 9.04432e-05 -0.0002181431 6.03368e-05 -3.64747e-05 -0.8284617953 0.142315009
100299400.0 0.840391302 -0.1664778525 1.70364e-05 -7.8092e-06 -5.99808e-05 6.51483e-05 -0.8275247931 0.1519187959
105299370.0 0.8388333639 -0.1741545952 3.20007e-05 9.96418e-05 2.9462e-05 -0.000109219 -0.8261274838 0.1612758294
110299340.0 0.8376481424 -0.1824893925 -3.50594e-05 -0.0001142136 7.74991e-05 -5.71145e-05 -0.8247535461 0.1699976311
115299310.0 0.83586736 -0.1908001201 -8.27391e-05 -0.0001281725 -9.8106e-06 0.0001278014 -0.8234263871 0.1791493567
120299280.0 0.833690722 -0.1981039435 5.98281e-05 3.49191e-05 -0.0001424207 6.91883e-05 -0.8212534238 0.1878325222
125299250.0 0.8319662151 -0.2064249157 -0.0001239088 8.0259e-05 -5.69873e-05 -7.47981e-05 -0.8197674118 0.1967525968
130299220.0 0.8294664697 -0.2144856544 -2.4671e-05 4.4023e-06 -0.0001781548 1.81663e-05 -0.8177918475 0.2058089058
135299190.0 0.8280455197 -0.2228518344 -0.0001175495 4.95735e-05 -0.0001870811 -0.0001847836 -0.8162442704 0.2148624287
140299160.0 0.8254201539 -0.2303743552 -0.0001420577 1.22817e-05 9.77047e-05 1.8864e-06 -0.8142278455 0.2234620181
145299130.0 0.8231435571 -0.238181648 -0.0001842017 0.0001297911 -0.0001233626 -1.24519e-05 -0.8124940028 0.2326339272
150299100.0 0.8210404165 -0.2455424753 8.3806e-06 -8.95143e-05 1.4728e-05 3.38474e-05 -0.8095497672 0.2415793501
155299070.0 0.8184214451 -0.2539162372 8.74714e-05 -7.23442e-05 -9.5513e-06 -1.5263e-05 -0.8074086031 0.2503115691
160299040.0 0.8158069248 -0.2622061244 -3.55387e-05 -6.80757e-05 -2.845e-06 -4.83608e-05 -0.8045057055 0.2589666974
165299010.0 0.8135231361 -0.2697983853 1.31945e-05 0.0001831498 -2.85783e-05 5.60384e-05 -0.802358298 0.2674131057
170298980.0 0.8114336957 -0.2778676483 -6.2232e-05 3.28596e-05 6.28546e-05 2.95127e-05 -0.7997351514 0.2749600043
175298950.0 0.8085374143 -0.2857045715 -8.02928e-05 0.0001138826 2.40269e-05 9.46923e-05 -0.7967437694 0.2851176634
180298920.0 0.8055708326 -0.2930743402 0.0001722102 0.0001534186 5.75537e-05 -0.0001568833 -0.793532758 0.2933146181
185298890.0 0.8028142318 -0.301140963 7.33703e-05 -1.89066e-05 -8.3744e-06 -0.00015777 -0.7905778922 0.302112984
190298860.0 0.7999283373 -0.3090569461 -3.95318e-05 -8.30334e-05 0.0001250481 -2.3252e-05 -0.7872723743 0.3097645296
195298830.0 0.7970876083 -0.315327377 0.0001533321 2.42078e-05 -0.0001443463 2.21236e-05 -0.7842891555 0.3183688318
200298800.0 0.7936722459 -0.3237368919 8.23883e-05 1.22943e-05 -3.586e-06 -5.33746e-05 -0.7810056266 0.326424824
205298770.0 0.7907055647 -0.3314640258 1.20349e-05 -6.53445e-05 -1.34717e-05 -2.11601e-05 -0.7773324859 0.3350723473
210298740.0 0.7877315571 -0.3388827602 2.1656e-06 -0.0001637201 0.0001402563 2.24933e-05 -0.7741004242 0.3431279255
215298710.0 0.7844419851 -0.347035181 -0.0001275035 -0.0001191795 -6.015e-06 0.0002244555 -0.7705053314 0.3519761674
220298680.0 0.781034155 -0.3539830874 0.0001767214 0.0001017509 3.78292e-05 8.50525e-05 -0.7670362683 0.3593493359
225298650.0 0.7772742801 -0.3614050137 5.75412e-05 0.0001226139 2.05285e-05 0.0001265761 -0.7635500253 0.3676027089
230298620.0 0.7731207865 -0.3680218448 3.68165e-05 0.0002057677 1.0481e-06 -5.47898e-05 -0.7596265146 0.3753469068
235298590.0 0.7700969937 -0.376325471 -0.0001220766 0.0001736955 2.8135e-06 6.76492e-05 -0.7553604221 0.3831893493
240298560.0 0.7662082813 -0.3838535063 -0.0002468711 0.0002095736 2.63325e-05 -7.81735e-05 -0.7515799097 0.3905645452
245298530.0 0.7630993065 -0.3907626073 -0.000276777 -0.0001491397 5.95895e-05 2.56071e-05 -0.7477870847 0.3997271224
250298500.0 0.7591439803 -0.397730539 5.63302e-05 0.0001012779 6.46539e-05 -0.0001219456 -0.7431624496 0.4072151654
255298470.0 0.7548300285 -0.4050067242 -7.11128e-05 0.0001535658 4.59313e-05 -1.63826e-05 -0.7389967803 0.4146690012
260298440.0 0.75133554 -0.4129369843 8.35849e-05 -0.0001261555 9.65197e-05 -0.0002133433 -0.7343249991 0.4218614154
265298410.0 0.7466473271 -0.4197910009 0.0002182895 -2.1077e-05 -2.98608e-05 -8.18445e-05 -0.7299406831 0.4302920956
270298380.0 0.7433830271 -0.427133871 3.07319e-05 -1.65967e-05 0.0001831495 4.65663e-05 -0.7253433811 0.4378831893
275298350.0 0.7388752844 -0.43367639 5.53843e-05 -4.95913e-05 0.0001676117 1.3383e-06 -0.7205546441 0.4457255453
280298320.0 0.7349672324 -0.4413871456 -4.97848e-05 0.0001694275 0.0001374574 0.0001189239 -0.7165437385 0.4529000096
285298290.0 0.7307347324 -0.449027708 1.9026e-05 0.0001973402 0.0001115964 -1.1274e-05 -0.7121394657 0.4597644668
290298260.0 0.726323301 -0.4550267435 -0.0001005588 -0.0002397162 3.64324e-05 1.30375e-05 -0.7067859767 0.4676720536
295298230.0 0.722216067 -0.4622449471 -1.16286e-05 -4.01817e-05 0.0001023197 -2.67184e-05 -0.7017989819 0.4746433443
300298200.0 0.7183275509 -0.4690969003 -9.25382e-05 -4.73854e-05 0.0001195131 -0.0001095281 -0.6968150672 0.4823302033
305298170.0 0.7134319132 -0.477200697 -8.81499e-05 -0.000167155 -2.6839e-06 5.49512e-05 -0.691756938 0.4896591984
310298140.0 0.708790335 -0.4853091214 0.0001177324 0.0001603812 4.22184e-05 -0.000127884 -0.6867169684 0.4963418851
315298110.0 0.7031410744 -0.491794111 -0.0001675555 9.04156e-05 0.0001605461 2.4469e-06 -0.681619578 0.5038936659
320298080.0 0.6982930705 -0.4992185724 -0.0001225249 -0.0001021902 0.0002143234 -6.55163e-05 -0.67655765 0.5105051052
325298050.0 0.6921111307 -0.5067403766 -5.7372e-05 0.0002156161 -0.000123711 0.00023817 -0.6701960367 0.5178430834
330298020.0 0.6859149371 -0.5134386524 9.60033e-05 -2.60475e-05 -9.72102e-05 0.0002251906 -0.6650393941 0.5246016652
335297990.0 0.6811669391 -0.5188971598 -1.19603e-05 -4.8812e-05 4.4823e-05 2.25584e-05 -0.659638936 0.532118261
340297960.0 0.6757514008 -0.5254717362 0.0001417319 5.50909e-05 -3.5777e-06 -8.73638e-05 -0.6544692733 0.5386827179
345297930.0 0.669895917 -0.5319293245 0.0001378849 0.0002110625 5.1856e-05 -0.0002485343 -0.6491651465 0.5446726451
350297900.0 0.6650843763 -0.5379313165 0.000125221 -1.5534e-06 -0.0001018279 1.27484e-05 -0.6431731001 0.5512421655
355297870.0 0.659967515 -0.5444585448 -0.0001707976 0.0001612644 0.0001288553 -0.0001903111 -0.6368729722 0.5589670894
360297840.0 0.6540614795 -0.5507541313 1.0419e-05 -5.28536e-05 -0.0001826456 -6.49355e-05 -0.6307741032 0.564983357
365297810.0 0.6486869736 -0.5568318957 5.1863e-06 1.29512e-05 8.1143e-06 -0.0001040004 -0.6258830935 0.570556336
370297780.0 0.6432219612 -0.5632879948 -0.000146565 -2.58547e-05 -7.3901e-06 -3.4365e-06 -0.6195884857 0.5778048643
375297750.0 0.637712455 -0.568634831 -0.0002758457 -5.33593e-05 4.18347e-05 -4.325e-07 -0.613417957 0.5836631888
380297720.0 0.6316837165 -0.5745628813 -3.41653e-05 0.0001872404 0.0001532241 7.47567e-05 -0.6071202444 0.5903117728
385297690.0 0.6265401953 -0.5811365185 5.27971e-05 -0.0001140947 -1.92993e-05 0.0001024163 -0.6015860662 0.5961942313
390297660.0 0.6209850342 -0.5875844168 -0.0001701577 -0.0001598941 -5.10009e-05 -6.16646e-05 -0.5950429778 0.6021419951
395297630.0 0.6148890445 -0.5926956847 0.0001983925 3.19532e-05 -1.50033e-05 -2.26633e-05 -0.588642869 0.6075592322
400297600.0 0.6086108467 -0.5981145363 -7.87226e-05 -4.18265e-05 -5.8596e-06 6.39182e-05 -0.5825437489 0.6139906975
405297570.0 0.6032911163 -0.6044247452 0.000157859 0.0001776007 4.90998e-05 9.36004e-05 -0.575544839 0.620161562
410297540.0 0.5982428627 -0.6093170409 1.95497e-05 -1.59914e-05 8.60179e-05 -8.21227e-05 -0.5689588614 0.6258526664
415297510.0 0.5912238592 -0.6155480452 6.97421e-05 7.8529e-06 4.04528e-05 -0.0001744141 -0.5628916922 0.6317409959
420297480.0 0.5859038191 -0.6214360059 -0.0001060493 4.36843e-05 3.69073e-05 0.0001171419 -0.5563996015 0.6376888092
425297450.0 0.5796612535 -0.6268977195 0.000165736 0.0001426864 0.0001421851 0.0001157813 -0.5498816182 0.6426172639
430297420.0 0.5734319555 -0.6327606947 8.12106e-05 5.33701e-05 8.62543e-05 1.31965e-05 -0.5429529803 0.6485159776
435297390.0 0.5671941695 -0.6384267495 -0.000118908 1.59633e-05 5.05972e-05 3.64649e-05 -0.5371351391 0.6544954783
440297360.0 0.5610228217 -0.6437164243 5.9373e-06 -2.74254e-05 -0.0001374001 -4.02806e-05 -0.5304560302 0.659400538
445297330.0 0.5550724619 -0.6493396501 -5.22082e-05 5.57717e-05 -3.42334e-05 0.0001495999 -0.5226215079 0.664783151
450297300.0 0.5491524855 -0.654980935 -0.0001499934 -8.42462e-05 0.0001485677 2.6172e-05 -0.5160323355 0.669469235
455297270.0 0.5426378916 -0.6596663951 -0.0001551386 -5.81151e-05 3.19059e-05 6.5464e-05 -0.5090212535 0.6748774525
460297240.0 0.5360476935 -0.6648054232 -6.74176e-05 2.9511e-05 -1.65588e-05 0.0001044045 -0.5021974803 0.6798945521
465297210.0 0.5296841812 -0.6698518737 0.0001228153 -0.000216265 -8.2799e-06 8.90943e-05 -0.4948989801 0.685528944
470297180.0 0.5233126269 -0.6753172209 -0.0001553905 2.674e-06 -0.0002865933 -0.0001183296 -0.4882144723 0.69034889
475297150.0 0.5161916906 -0.6799824694 7.04246e-05 -5.58239e-05 6.85717e-05 8.11295e-05 -0.4812083067 0.6956797974
480297120.0 0.5098175627 -0.6852375836 -0.0002129273 -3.30099e-05 -0.0001299224 0.0002080887 -0.474749721 0.6998408002
485297090.0 0.5030678669 -0.6905775367 5.1466e-06 -0.0001822557 0.0001932754 -0.0001827841 -0.467615128 0.7042826078
490297060.0 0.4967246303 -0.6942799882 6.709e-05 8.1135e-05 5.54836e-05 -3.49304e-05 -0.4597583333 0.7091153768
495297030.0 0.4905095692 -0.6998365915 -7.335e-05 -2.80514e-05 1.52949e-05 -6.99942e-05 -0.4524321188 0.7137185507
500297000.0 0.4838463871 -0.7040388506 -1.63781e-05 8.17697e-05 -0.0001640354 8.9005e-06 -0.4453146332 0.718685261
505296970.0 0.4765346244 -0.7087011104 6.98847e-05 3.36479e-05 5.16543e-05 0.000193693 -0.4376655201 0.7227780391
510296940.0 0.4692405903 -0.7136208271 -7.2151e-05 2.32589e-05 0.0001036348 -2.147e-06 -0.4297815871 0.7275435411
515296910.0 0.462792301 -0.717956849 0.0001490096 9.31928e-05 -0.0001755308 -0.0002085651 -0.4231624325 0.7310503319
520296880.0 0.4565867612 -0.7226537949 7.46522e-05 -2.15702e-05 3.35448e-05 -2.45715e-05 -0.4150192103 0.7356651526
525296850.0 0.4491543411 -0.7268402298 0.0001160646 -0.0001399739 -9.39382e-05 -1.13201e-05 -0.4079179334 0.7395602298
530296820.0 0.4424149384 -0.731190364 -7.19102e-05 -0.0001841065 -4.17489e-05 -8.04287e-05 -0.4005114891 0.7435287725
535296790.0 0.4350409193 -0.735329397 8.23345e-05 -2.6699e-05 -0.0001179974 -0.0001503586 -0.3929204534 0.7480201082
540296760.0 0.4283041759 -0.7393888186 -1.30971e-05 4.66607e-05 0.0001653445 2.3596e-05 -0.3851138739 0.7515436435
545296730.0 0.4200302736 -0.7432910704 -0.0002366957 -2.79179e-05 -0.0001041174 0.0001444935 -0.3775950515 0.7555770373
550296700.0 0.4131687639 -0.7471748536 0.0002508178 -0.0001510081 2.13355e-05 -3.0787e-05 -0.3700292507 0.7590834717
555296670.0 0.4059143182 -0.7511716001 -4.62005e-05 -5.22338e-05 0.0001890693 -0.0001897316 -0.362525836 0.7622415992
560296640.0 0.3988513375 -0.7547858411 -0.0001467225 2.04128e-05 6.4025e-06 -2.13157e-05 -0.35431809 0.7662261391
565296610.0 0.3913687757 -0.7591415215 7.3863e-06 -0.0001044713 2.06529e-05 1.51203e-05 -0.347219737 0.769955023
570296580.0 0.3837082601 -0.7629470048 0.0001886245 7.40742e-05 7.68907e-05 -7.01015e-05 -0.3397179762 0.7730481347
575296550.0 0.3767726099 -0.7668702521 3.83534e-05 7.0172e-06 2.8718e-05 2.16736e-05 -0.3307495782 0.7764407421
580296520.0 0.3693510991 -0.7694862976 0.0001145566 8.62923e-05 4.55479e-05 0.0001187363 -0.3240976415 0.7793704107
585296490.0 0.361564355 -0.7725454249 -0.0002234607 0.0001960962 1.69834e-05 -5.85135e-05 -0.3152157403 0.7832368221
590296460.0 0.3541031051 -0.7749028619 -8.1571e-05 -1.70516e-05 0.0001908836 7.3324e-05 -0.3072576584 0.7855090135
595296430.0 0.3466719172 -0.7791665175 -3.62918e-05 7.78766e-05 0.0002502312 2.444e-06 -0.2993478622 0.7894504892
600296400.0 0.3391545961 -0.7831605812 -8.36782e-05 -2.31917e-05 9.22401e-05 -0.000166348 -0.292035997 0.7915746433
605296370.0 0.3309698724 -0.7862739843 0.0001830191 7.0319e-05 -3.65364e-05 0.0001916086 -0.2836401116 0.7948839359
610296340.0 0.3234126918 -0.789890075 9.56525e-05 8.33381e-05 -3.60275e-05 3.58942e-05 -0.2762847192 0.7981645241
615296310.0 0.3159871524 -0.7920735142 -5.4233e-05 0.0003290624 5.32081e-05 -0.0001633529 -0.2676582749 0.8008862383
620296280.0 0.3077577468 -0.7945821799 2.67144e-05 -4.5527e-05 -0.0001072473 0.0001380403 -0.2598577758 0.803055807
625296250.0 0.2997068433 -0.7974419967 0.000202082 -4.36e-08 -0.0001378609 9.33234e-05 -0.2517699612 0.8047943931
630296220.0 0.2919241843 -0.8004938809 -2.48285e-05 -1.65286e-05 6.50231e-05 4.69973e-05 -0.2430568264 0.8076575456
635296190.0 0.2841053828 -0.8029970909 2.39181e-05 -3.02242e-05 9.75715e-05 -4.09209e-05 -0.2352985564 0.8105277675
640296160.0 0.2761759557 -0.8056154052 0.0001958281 1.09646e-05 2.0479e-05 -0.0001708958 -0.2273036356 0.8125465923
645296130.0 0.2688583242 -0.8077688253 0.0001432097 -2.09006e-05 -1.03891e-05 0.0001168287 -0.2193612649 0.8145057614
650296100.0 0.2601542268 -0.8104615505 -8.83069e-05 0.0001809152 0.0001846131 0.0001260796 -0.2103853273 0.8167144754
655296070.0 0.2522742474 -0.8126474775 -8.04331e-05 -0.0001064169 -7.5695e-06 3.78606e-05 -0.2032927093 0.819542885
660296040.0 0.2439027013 -0.8151716611 7.2218e-05 -4.39691e-05 0.0002435366 -0.000162988 -0.1941231019 0.8210799716
665296010.0 0.2358154105 -0.8168970594 -5.1615e-05 0.0002150225 -0.0002713419 6.92909e-05 -0.1861833939 0.8222472113
670295980.0 0.2282578645 -0.8189117591 -2.60294e-05 2.46575e-05 3.10468e-05 -0.0001935806 -0.178397553 0.8238727908
675295950.0 0.2197773954 -0.8215396384 -0.0001276526 -8.5282e-06 -0.0001167963 -6.58087e-05 -0.169753249 0.8264844111
680295920.0 0.2113753866 -0.8234097068 7.78979e-05 -9.85325e-05 1.3313e-05 -0.0001792466 -0.161133598 0.8282429395
685295890.0 0.2034906488 -0.8242660647 0.0001590583 1.26186e-05 5.09499e-05 -2.20307e-05 -0.1531784842 0.8297185686
690295860.0 0.1947705905 -0.8266018168 0.0001205718 0.0001167662 -0.0001591266 -3.94242e-05 -0.1451686785 0.8310442097
695295830.0 0.186730344 -0.8284944856 -8.1089e-05 9.1444e-06 -0.0002058096 9.1288e-06 -0.137144046 0.8329230975
700295800.0 0.1778366219 -0.8300777218 -7.16838e-05 -0.0001309523 6.2116e-06 -6.30906e-05 -0.1281468778 0.833752918
705295770.0 0.1700835542 -0.8311777263 7.93304e-05 -9.25365e-05 -6.337e-07 4.90239e-05 -0.1202730985 0.8356151325
710295740.0 0.1620671299 -0.8326334141 -9.67685e-05 0.000208773 -8.62453e-05 5.27035e-05 -0.1114922879 0.8363262385
715295710.0 0.153697694 -0.8338778675 4.2124e-06 6.92166e-05 0.0001149027 -9.04758e-05 -0.1031026933 0.8369612614
720295680.0 0.1451218122 -0.8349984911 -0.0001232795 -4.93729e-05 -0.0001132208 6.1895e-06 -0.0943585102 0.8375615249
725295650.0 0.136036085 -0.8362056268 2.21311e-05 -0.0001800523 -4.40142e-05 0.0001430644 -0.0871257774 0.8393609647
730295620.0 0.1284919567 -0.8376531093 -0.0002333085 -0.000216352 -0.0001611063 4.68411e-05 -0.0789457755 0.8401493692
735295590.0 0.1199191873 -0.8380473767 -3.97761e-05 -7.4768e-05 9.18975e-05 6.49361e-05 -0.0693345014 0.8403819469
740295560.0 0.1117090094 -0.839382159 0.0001129581 5.8631e-06 -0.0001044461 0.0001830413 -0.0613894786 0.8413895161
745295530.0 0.1031540044 -0.8398425859 -0.0001027001 3.73513e-05 -0.0001069098 4.67731e-05 -0.0534967167 0.8419114188
750295500.0 0.0950940045 -0.8405489016 7.35731e-05 7.39584e-05 3.2311e-06 -0.0001353349 -0.0446873536 0.8426486381
755295470.0 0.0862266134 -0.84090066 0.0001786729 5.40561e-05 2.85583e-05 0.0003513791 -0.0367645412 0.842705619
760295440.0 0.0784259079 -0.8413351139 -1.19982e-05 -0.000138229 -5.22188e-05 6.47387e-05 -0.0279653114 0.8421821612
765295410.0 0.0703257856 -0.8416805126 -0.0004013822 -0.0003429463 -0.0001659167 2.08339e-05 -0.0196713469 0.8433485534
770295380.0 0.0617159825 -0.8419251762 5.9903e-06 4.33939e-05 4.90107e-05 9.63798e-05 -0.0115276935 0.8434078178
775295350.0 0.0530831995 -0.8423117375 2.21369e-05 5.0413e-05 1.19775e-05 -8.62852e-05 -0.0031606706 0.843502212
780295320.0 0.0443529845 -0.8426884453 -6.29733e-05 0.0001098025 -8.51274e-05 9.97058e-05 0.0054205368 0.8439421253
785295290.0 0.0365030649 -0.8427158029 0.0001740822 0.0001165327 -4.12963e-05 -8.83993e-05 0.0135265939 0.8437846308
790295260.0 0.028151966 -0.8432749007 -4.10785e-05 2.26965e-05 -1.96063e-05 4.5068e-05 0.0221817938 0.8434152031
795295230.0 0.0198968951 -0.843446637 -2.06116e-05 -0.0001134108 -5.9719e-06 6.04296e-05 0.0300372261 0.8424968679
800295200.0 0.0114839941 -0.8433361503 -0.0003151055 3.50915e-05 0.0001796199 0.0002255641 0.0381913481 0.8423011309
805295170.0 0.0031167613 -0.8433229161 0.0003110816 5.73809e-05 -6.6606e-06 0.0001532176 0.047556015 0.8423699596
810295140.0 -0.0060740828 -0.8421659505 0.0002373896 3.98027e-05 0.0001886929 -7.77991e-05 0.0556190695 0.8408201411
815295110.0 -0.0139797022 -0.8427038282 0.0002550078 -2.04499e-05 8.58014e-05 4.98327e-05 0.0633893749 0.8410084331
820295080.0 -0.0228866035 -0.8427000731 -0.0001354929 -2.586e-06 0.0001180485 -7.47827e-05 0.0717057 0.8407402382
825295050.0 -0.0314760474 -0.8419824889 0.0001030177 8.7172e-05 7.43306e-05 -2.85558e-05 0.0802362438 0.8395175745
830295020.0 -0.0392154215 -0.8414863404 -0.000292502 -2.01196e-05 6.98662e-05 0.0002063262 0.0883813808 0.8379109844
835294990.0 -0.047590716 -0.8405813391 -0.0001241477 -9.19665e-05 -0.0002187623 -1.4248e-06 0.0966777582 0.8378135766
840294960.0 -0.0554359908 -0.8396426238 0.000131694 0.0001404062 -1.93327e-05 1.88828e-05 0.105713659 0.837023634
845294930.0 -0.0646232083 -0.8392399234 -9.51944e-05 4.48612e-05 7.026e-07 -0.0001639073 0.1138114921 0.8352908153
850294900.0 -0.0717180786 -0.8385175994 -1.77492e-05 8.78198e-05 -0.0001107404 2.2141e-06 0.1222637763 0.8346017748
