!Created with skrf (http://scikit-rf.org).
# Hz S RI R 50.0 
!freq ReS11 ImS11 ReS21 ImS21 ReS12 ImS12 ReS22 ImS22
300000.0 -0.3172973404 -0.106428859 0.3723208358 0.0538063979 0.373912858 0.0556871804 -0.3164633194 -0.1109768302
5299970.0 -0.3238639408 0.0046697187 0.3785705456 0.0029941123 0.3786290915 0.0033719971 -0.3262244918 0.0026930024
10299940.0 -0.3210292567 0.0156567811 0.3797210438 0.0023755116 0.3798502615 0.0022105289 -0.3242493204 0.0127044037
15299910.0 -0.31810673 0.0235357155 0.381924821 0.0024606889 0.3822142297 0.0024161886 -0.3216058981 0.0195919583
20299880.0 -0.3144563901 0.0304428716 0.3850110438 0.0015397229 0.3851981862 0.001658477 -0.3189647308 0.0260961498
25299850.0 -0.3106162568 0.0357823731 0.3885284908 2.61884e-05 0.3885957487 -0.0001352574 -0.3158889034 0.0311402974
30299820.0 -0.3067290762 0.0402061961 0.3921548139 -0.0020476506 0.3916884549 -0.0021393117 -0.3131320498 0.0356984149
35299790.0 -0.3028979028 0.0448362638 0.3952331402 -0.0053448476 0.395262852 -0.0053921613 -0.3098935518 0.0394296789
40299760.0 -0.2996241385 0.0480031366 0.3982861692 -0.0083941162 0.3983872624 -0.0088476778 -0.3078548989 0.0428147323
45299730.0 -0.2963477517 0.0515124115 0.4011948084 -0.0127390259 0.4013923534 -0.0124665935 -0.3047497402 0.0458761995
50299700.0 -0.2934644546 0.0540278676 0.4036214674 -0.0172679116 0.4038343313 -0.0174209203 -0.3022173198 0.049127863
55299670.0 -0.2908994776 0.057107838 0.4054764394 -0.0220074102 0.4061844357 -0.0221437958 -0.3004505049 0.0518529958
60299640.0 -0.2882626596 0.0592459409 0.4075358196 -0.0270302273 0.4077664231 -0.0269669836 -0.2986031913 0.0545748822
65299610.0 -0.2861499652 0.0615030201 0.4094895965 -0.0313758906 0.4094815717 -0.0317493048 -0.2962428381 0.0570697263
70299580.0 -0.2836260888 0.0634605435 0.4104807785 -0.0365687702 0.4106658828 -0.0367613046 -0.2948515192 0.0594020083
75299550.0 -0.2817699732 0.0658161894 0.4115839218 -0.0422855074 0.4116352395 -0.0422050655 -0.2931281128 0.0619490104
80299520.0 -0.2802493441 0.0681734524 0.4127623119 -0.0475415997 0.4127425017 -0.0474207975 -0.2917928926 0.0638574217
85299490.0 -0.2786098213 0.069861043 0.413018108 -0.0525944938 0.4129973054 -0.0526173225 -0.2902275158 0.0664061246
90299460.0 -0.2770438455 0.0722929477 0.4135442614 -0.0576234931 0.41375121 -0.058095617 -0.2886868903 0.0686755608
95299430.0 -0.2755783706 0.0743105316 0.4142269603 -0.0634236919 0.4140522736 -0.063136805 -0.2876915924 0.070964321
100299400.0 -0.2744042505 0.0765296184 0.4139287388 -0.0686890547 0.4142089272 -0.0684079413 -0.2870932592 0.0733866159
105299370.0 -0.2731809896 0.0784691781 0.4135312556 -0.0732679199 0.4137468671 -0.0734486225 -0.2850542199 0.075779958
110299340.0 -0.2720004227 0.0802958139 0.4133225139 -0.0782281524 0.4137242992 -0.0787184954 -0.2846513933 0.0780014226
115299310.0 -0.2708154572 0.0824510599 0.4130337089 -0.0836924788 0.4133714601 -0.0835519493 -0.2833008227 0.080160608
120299280.0 -0.2698276822 0.0847217942 0.4130987763 -0.088893468 0.4133148369 -0.0890905842 -0.2824507417 0.0825642234
125299250.0 -0.2689038778 0.0868261913 0.411978702 -0.0940120881 0.4125225884 -0.0938061646 -0.2814237306 0.0846262387
130299220.0 -0.2678271204 0.0891653408 0.4119336761 -0.098767431 0.4115665224 -0.0990790609 -0.2803996477 0.0874919533
135299190.0 -0.2667317086 0.0910531145 0.4110242879 -0.1036829148 0.4109957864 -0.1040696622 -0.2798253837 0.0894377908
140299160.0 -0.2659293836 0.093640679 0.4101127586 -0.1092950935 0.4101895409 -0.1089226776 -0.2782560065 0.0921158536
145299130.0 -0.2647607167 0.0959565978 0.4094556044 -0.1140485329 0.4092509133 -0.1136341005 -0.2778623138 0.0945092565
150299100.0 -0.263971949 0.0982713999 0.408417088 -0.1190080168 0.407993241 -0.1188665823 -0.2770111087 0.0967085805
155299070.0 -0.2628767626 0.1010666762 0.4072158322 -0.123962808 0.4071366457 -0.1242894244 -0.2758663515 0.0996718418
160299040.0 -0.2618757203 0.1030032131 0.4057269283 -0.1283252062 0.4060577606 -0.128810759 -0.2755233741 0.1023541719
165299010.0 -0.261268035 0.1052160542 0.4048521404 -0.1337322782 0.4048071003 -0.1337797399 -0.273927454 0.104781734
170298980.0 -0.2600785028 0.1078110049 0.4029337826 -0.1384622174 0.4033629426 -0.1384304406 -0.2731318661 0.1070865498
175298950.0 -0.2589965036 0.1104343491 0.402219357 -0.142934394 0.4025655226 -0.1432109872 -0.2724756799 0.109659001
180298920.0 -0.2579208022 0.1127034421 0.400327027 -0.1482761205 0.4008173093 -0.147643485 -0.2709987358 0.1121589774
185298890.0 -0.2569538565 0.1152040737 0.3986240619 -0.1525198454 0.3989459503 -0.1526815298 -0.2703906398 0.1150143464
190298860.0 -0.2558479826 0.1177780929 0.3971742834 -0.1572299622 0.3976564882 -0.1575536283 -0.2687406406 0.1177136228
195298830.0 -0.2546213377 0.1199445386 0.39537995 -0.1616781723 0.3956953177 -0.1621717302 -0.2679509749 0.1204585782
200298800.0 -0.253595488 0.1227334634 0.3942875858 -0.1661402628 0.3941995006 -0.1666729665 -0.2668550779 0.1231317749
205298770.0 -0.2527713209 0.1252239333 0.3924563537 -0.1708438064 0.3925140212 -0.1711268379 -0.2656172099 0.1253420118
210298740.0 -0.2518806277 0.1278603435 0.3906873806 -0.1758595007 0.3907433403 -0.1760099294 -0.2646338372 0.1284323067
215298710.0 -0.2504445076 0.1303218041 0.3884518855 -0.1800000134 0.3888557399 -0.180043088 -0.2638818297 0.1306866059
220298680.0 -0.2493203187 0.1328399651 0.3865849596 -0.1848023353 0.3866743352 -0.1846286048 -0.2620523227 0.1338771813
225298650.0 -0.2479561471 0.1356544927 0.3845264724 -0.1889638429 0.3844800462 -0.1888316225 -0.2610426479 0.1362860463
230298620.0 -0.2468117871 0.1382227392 0.3827135417 -0.1936400606 0.3830769905 -0.1936469648 -0.260034375 0.1389889028
235298590.0 -0.2454069567 0.1407143971 0.3803709027 -0.1975823519 0.3805306258 -0.1979156091 -0.2583680585 0.1414428728
240298560.0 -0.2442904263 0.1432058779 0.3781966486 -0.2018375591 0.3785732605 -0.2019106482 -0.2575030009 0.1444022162
245298530.0 -0.242851456 0.1458168253 0.3757283695 -0.2066079579 0.3761511421 -0.2067148591 -0.2558649161 0.1472491358
250298500.0 -0.2416801658 0.1480502639 0.3738765933 -0.2102784381 0.3740937803 -0.2103070168 -0.2540929275 0.1500062971
255298470.0 -0.2401975201 0.1510504367 0.3716113245 -0.2152070724 0.3717573257 -0.2151685148 -0.2530619841 0.1524910132
260298440.0 -0.2388356878 0.1534878007 0.3692052552 -0.2190590439 0.3690992328 -0.2191801205 -0.2509827663 0.155397279
265298410.0 -0.2371069639 0.1562415068 0.3665458591 -0.2239559223 0.3664304933 -0.2234156955 -0.2500526274 0.157560964
270298380.0 -0.2356254972 0.1584081172 0.3637997672 -0.2273962166 0.3642691596 -0.2278252589 -0.248064958 0.1606555001
275298350.0 -0.2341438063 0.1610353229 0.3614647351 -0.2317558593 0.3619978009 -0.2320172252 -0.2464966044 0.1632694696
280298320.0 -0.2326521634 0.1637587377 0.3589626579 -0.2353179713 0.3592146584 -0.2359007628 -0.2448043536 0.1658601134
285298290.0 -0.2307928827 0.1666426277 0.3562669228 -0.2398893924 0.3564194459 -0.2397626996 -0.2433813914 0.1687120616
290298260.0 -0.2294443979 0.1688070329 0.3541019903 -0.2436366441 0.3538716991 -0.2439263628 -0.2414113361 0.1713939789
295298230.0 -0.227922473 0.1713058147 0.351572873 -0.2476575494 0.3512788181 -0.2480962671 -0.2396051838 0.17397103
300298200.0 -0.2257022146 0.1737928187 0.3483594498 -0.2516003065 0.3488288118 -0.2518417974 -0.2382613653 0.1764829785
305298170.0 -0.2240648133 0.1762456272 0.3459000139 -0.2561484602 0.3457943932 -0.2559242054 -0.2356668157 0.1793016274
310298140.0 -0.2221178155 0.1784781597 0.3430135248 -0.2600047598 0.3430757393 -0.2603185931 -0.2341757307 0.1821949155
315298110.0 -0.2207170351 0.1808409254 0.3399639205 -0.2639463536 0.3402461903 -0.2638934098 -0.2322034689 0.1844627732
320298080.0 -0.2188085256 0.1835039551 0.3372891205 -0.2677639217 0.3372375255 -0.2678456626 -0.2303132083 0.186898478
325298050.0 -0.2170928735 0.1855477299 0.3342554132 -0.2718321301 0.3342317598 -0.2715967721 -0.2286668888 0.1895023114
330298020.0 -0.2151982487 0.1878769815 0.3305506707 -0.275405032 0.3310766558 -0.2753750276 -0.2267828963 0.1919452627
335297990.0 -0.2135714654 0.1900947995 0.327992915 -0.2788283995 0.327888249 -0.2790136426 -0.2251359136 0.1946356531
340297960.0 -0.2118471165 0.1930635577 0.3243529324 -0.2827626901 0.3248354953 -0.2825241607 -0.2231036826 0.1967666023
345297930.0 -0.2100091148 0.1952607589 0.3210338341 -0.2857804844 0.3211628852 -0.2861798577 -0.2207781655 0.199275352
350297900.0 -0.2077667964 0.1978529992 0.3180320248 -0.2895957352 0.3184462869 -0.2897066077 -0.2191492512 0.2026209699
355297870.0 -0.2059720604 0.1998961709 0.3145488614 -0.2932647749 0.3150260482 -0.2931255324 -0.2170723313 0.2050080308
360297840.0 -0.2036287466 0.2023890279 0.3116321521 -0.2968744759 0.3116492312 -0.2968542435 -0.2147280854 0.2072616034
365297810.0 -0.2019707995 0.2047765913 0.3082500482 -0.2998359371 0.3082187977 -0.2999271879 -0.2126915922 0.2099699822
370297780.0 -0.1993958095 0.2066580527 0.3046924265 -0.3031902405 0.3049298031 -0.3035689109 -0.2102299788 0.2122854418
375297750.0 -0.1976648997 0.2093609809 0.3020798911 -0.306794303 0.3016763666 -0.3071877761 -0.2083830054 0.2149228778
380297720.0 -0.1951514746 0.2112502554 0.2981016234 -0.3098562006 0.2981527638 -0.3098848396 -0.2056937376 0.2173468782
385297690.0 -0.1932316088 0.2137171442 0.2945467574 -0.3129113079 0.2944661954 -0.3131261238 -0.2039524828 0.219972989
390297660.0 -0.1910949415 0.2159115538 0.2908532294 -0.3166547266 0.2912133047 -0.3166458227 -0.2014428196 0.2218028683
395297630.0 -0.1886096617 0.2177586239 0.2877413353 -0.3195093925 0.2876227179 -0.319887428 -0.1993664069 0.2248173075
400297600.0 -0.1864497793 0.2202965023 0.2839881915 -0.3227542698 0.2846630866 -0.3228892928 -0.1973757296 0.2265872867
405297570.0 -0.1843232755 0.222597475 0.2807159119 -0.3258980288 0.280895248 -0.3259561714 -0.195021136 0.2291192037
410297540.0 -0.1819283467 0.2246250423 0.276640524 -0.3289044328 0.2765262988 -0.3287294416 -0.1922611716 0.231455989
415297510.0 -0.1795726509 0.226741025 0.2732456224 -0.3319769774 0.2733702875 -0.3316142602 -0.1902168581 0.2336526365
420297480.0 -0.1771592639 0.2285550669 0.2691971239 -0.3349452375 0.2696292644 -0.3347446366 -0.1874436111 0.235729105
425297450.0 -0.1742835921 0.2306957151 0.2653639554 -0.3378678123 0.2659847622 -0.3379131561 -0.1848090206 0.2382298136
430297420.0 -0.1724330667 0.2327174112 0.2620592586 -0.3410392689 0.2620926936 -0.3406331308 -0.1825874126 0.2400046511
435297390.0 -0.1696755522 0.2346626191 0.2581629466 -0.3434708067 0.258508501 -0.3430943084 -0.1802083976 0.242397974
440297360.0 -0.1674577082 0.236380655 0.2541516594 -0.3460810194 0.2541352005 -0.3461911755 -0.1776628589 0.2442895353
445297330.0 -0.1646858789 0.2384532548 0.2501876417 -0.3491800833 0.2506775322 -0.3488650587 -0.1751247077 0.246697198
450297300.0 -0.162134819 0.2402159308 0.2464869838 -0.3516844699 0.2469697927 -0.35174004 -0.1726830136 0.2488271063
455297270.0 -0.1598877211 0.2423169652 0.2430685337 -0.3546421242 0.24303998 -0.3544271731 -0.1698352153 0.2508674888
460297240.0 -0.1577675807 0.2442583084 0.2388740297 -0.3572895271 0.2386536602 -0.3568172808 -0.1674703288 0.2529141983
465297210.0 -0.1544773199 0.2460085739 0.2351743756 -0.3596514726 0.2353179373 -0.3598611751 -0.1650339464 0.2549736639
470297180.0 -0.1522571035 0.2476127272 0.2310537784 -0.3621134158 0.2314266424 -0.3618449675 -0.1626618112 0.2568114252
475297150.0 -0.1499043115 0.2491276462 0.2271405863 -0.3641970235 0.2272713673 -0.3641833723 -0.1598046432 0.2587138042
480297120.0 -0.1469492662 0.2510890835 0.2229865961 -0.3670133354 0.2234114047 -0.3665556965 -0.157094626 0.2610424572
485297090.0 -0.1441281679 0.2524693609 0.2189434278 -0.3690674464 0.219058593 -0.3691083628 -0.154601009 0.2624368065
490297060.0 -0.1418172533 0.2541809194 0.2153878127 -0.3711931808 0.2151002576 -0.3714308592 -0.151906227 0.2641905357
495297030.0 -0.1391054535 0.2562330976 0.2106776148 -0.3741081536 0.2106187083 -0.3739386011 -0.1487328721 0.2655686239
500297000.0 -0.1361693498 0.2577036913 0.2063349143 -0.3760679731 0.206963661 -0.3762926559 -0.1466109389 0.2676433138
505296970.0 -0.1337607521 0.2591050073 0.2021715234 -0.3778256276 0.2024252056 -0.3778884724 -0.1444823745 0.2696104063
510296940.0 -0.1307525865 0.2608185153 0.1980589308 -0.3802251481 0.1987548069 -0.3807454965 -0.140895304 0.2714797849
515296910.0 -0.1285182256 0.2625327291 0.1940756765 -0.3825050854 0.1944753112 -0.3824364253 -0.1381799632 0.2730371203
520296880.0 -0.125644003 0.2642270316 0.1904774749 -0.3845225523 0.1903527496 -0.3844857147 -0.1353959967 0.2745673139
525296850.0 -0.1227916211 0.2652070623 0.1859535057 -0.386521667 0.1858142547 -0.3870368156 -0.1321370898 0.2764888492
530296820.0 -0.1197713194 0.266524719 0.1817080404 -0.3877620582 0.1815274377 -0.3882659118 -0.1300698865 0.2775786178
535296790.0 -0.1167870787 0.2680616568 0.1773903592 -0.390314762 0.1777098679 -0.3902840762 -0.1272233192 0.2788368228
540296760.0 -0.1144419398 0.2693980188 0.1731104648 -0.392384465 0.1727726108 -0.3926420852 -0.1242993786 0.2810649928
545296730.0 -0.1115305006 0.2709928159 0.1685642421 -0.3941400799 0.168944031 -0.3942721446 -0.1213802378 0.2818276769
550296700.0 -0.1086984523 0.2722315268 0.1644512374 -0.395691923 0.1651037449 -0.3959207842 -0.1185730581 0.2839080393
555296670.0 -0.105243311 0.27350083 0.1599511955 -0.3979854275 0.1605013845 -0.3972882116 -0.1157250381 0.2852339512
560296640.0 -0.1029406404 0.2743941997 0.1562038744 -0.3991027257 0.1559810667 -0.3990123123 -0.1126045781 0.2867317946
565296610.0 -0.1001419852 0.2756490567 0.1512989966 -0.4007394918 0.1511988185 -0.4007033809 -0.1097934981 0.2878128074
570296580.0 -0.096923427 0.2768861817 0.1467464075 -0.4020783714 0.1475339462 -0.4025851007 -0.1069512838 0.2895382834
575296550.0 -0.0941182606 0.2785772988 0.1424600971 -0.4038523584 0.1428240101 -0.4038740398 -0.1035161342 0.2904742957
580296520.0 -0.0913810574 0.279597305 0.1386266442 -0.4053367166 0.1382739661 -0.4056937252 -0.1008368469 0.2920765448
585296490.0 -0.088094446 0.280102677 0.1339779935 -0.4068654704 0.1339468509 -0.4067768702 -0.0979419212 0.2928245616
590296460.0 -0.0856531151 0.2814391709 0.1292228178 -0.4082250915 0.1295058992 -0.408301139 -0.094898931 0.2942740667
595296430.0 -0.0822918575 0.2825472222 0.1251491748 -0.4093203443 0.1249486141 -0.409747374 -0.0916066438 0.2950523208
600296400.0 -0.0792727755 0.2834717265 0.1203829125 -0.4109320318 0.1208403069 -0.411132502 -0.0886332452 0.2965245751
605296370.0 -0.076290098 0.2848184882 0.1162960007 -0.4124793651 0.1163112994 -0.4121539429 -0.0858378811 0.2975290587
610296340.0 -0.0733318471 0.2853986544 0.1117269119 -0.4131707094 0.1118979135 -0.4138241684 -0.0822938894 0.2988084242
615296310.0 -0.0703403062 0.28669749 0.1072398124 -0.4147864124 0.1071927151 -0.4148550159 -0.0795044174 0.299403939
620296280.0 -0.0672753592 0.2871870606 0.1032537308 -0.4154148964 0.1025641209 -0.4158410277 -0.0764454913 0.3003499625
625296250.0 -0.0640841228 0.2883692592 0.0977982644 -0.4170889505 0.0979583126 -0.4168719615 -0.0733412661 0.3011000975
630296220.0 -0.0610811015 0.2891629573 0.0932994232 -0.4176571811 0.0939990771 -0.4178162789 -0.0706013099 0.3022816041
635296190.0 -0.0580124041 0.2899285938 0.0887084335 -0.417972926 0.0888508382 -0.4185036146 -0.0671736118 0.3030555852
640296160.0 -0.055089394 0.2904220896 0.0843935571 -0.4194237975 0.084300821 -0.4198054101 -0.0634614778 0.3038237182
645296130.0 -0.0521472846 0.2915321151 0.0798524049 -0.4203544106 0.0801010232 -0.4204404647 -0.0612848703 0.3043129162
650296100.0 -0.0489574952 0.2925188841 0.0758308333 -0.4208844766 0.0755723473 -0.4209307367 -0.0578557976 0.3053479077
655296070.0 -0.0457040257 0.2925946295 0.0709226927 -0.421712308 0.0709810119 -0.4219897702 -0.0543432617 0.3064032806
660296040.0 -0.0431174544 0.2938059115 0.0664278416 -0.4224260499 0.0664207403 -0.4225546655 -0.0514535325 0.3067741898
665296010.0 -0.0393870305 0.2940025544 0.0620591029 -0.422852247 0.0623664993 -0.4231256474 -0.0485513626 0.3076817039
670295980.0 -0.0365006498 0.2946571592 0.0569267891 -0.4241212381 0.0574882491 -0.4238654963 -0.0455901182 0.3081111727
675295950.0 -0.0334248948 0.2949560127 0.0526940776 -0.424581909 0.0527981481 -0.4247393763 -0.0419491491 0.3088433726
680295920.0 -0.0303772833 0.2956503249 0.0478095648 -0.4245575589 0.04783329 -0.4249426231 -0.0383255641 0.3092444397
685295890.0 -0.0270150238 0.2961213624 0.043433173 -0.4254445101 0.0432453857 -0.4258553914 -0.0355620752 0.3102928351
690295860.0 -0.0238204099 0.2965141584 0.0386358754 -0.4253533944 0.0386731646 -0.4257628125 -0.0321538419 0.3105928935
695295830.0 -0.0206512154 0.2963350185 0.0336717691 -0.4258071947 0.0340883427 -0.4262662339 -0.0292775245 0.3110501269
700295800.0 -0.017646306 0.2969986295 0.0289900609 -0.4266584036 0.0295345093 -0.4265534834 -0.0259324313 0.3111714728
705295770.0 -0.0144973195 0.2977641586 0.0246492793 -0.426798703 0.0251338147 -0.4269457789 -0.0230204717 0.3117257133
710295740.0 -0.0114416088 0.2979695968 0.0199348224 -0.4270065427 0.0202872606 -0.4265720217 -0.0199077207 0.3124103273
715295710.0 -0.0084459669 0.2982626821 0.0155242196 -0.4268379829 0.0159036544 -0.4271985311 -0.0164380421 0.3126183803
720295680.0 -0.0053343071 0.2982733851 0.0106684108 -0.4271348852 0.0111165427 -0.4274893509 -0.0128401728 0.3128250541
725295650.0 -0.001664371 0.2985382543 0.005803312 -0.4270259035 0.0062780423 -0.4272844939 -0.0096997892 0.3131503895
730295620.0 0.000977279 0.2985976278 0.0014853495 -0.4268916575 0.0016085949 -0.4271959635 -0.006280885 0.3132849957
735295590.0 0.0047354684 0.2988522539 -0.0029131011 -0.4268767746 -0.0027093656 -0.4274483701 -0.0030639466 0.3136313694
740295560.0 0.0076266396 0.2991062403 -0.0077692502 -0.4267494065 -0.0078556093 -0.426896497 0.0002114696 0.3136115956
745295530.0 0.0108303272 0.2990708454 -0.0122174912 -0.4266312883 -0.0121792479 -0.4270288845 0.0034103489 0.3141318495
750295500.0 0.0138796189 0.2991612561 -0.0166383672 -0.4265798716 -0.0166671136 -0.4263268913 0.0066503181 0.3138848709
755295470.0 0.0177924643 0.2993365648 -0.0215568594 -0.4264820993 -0.021203685 -0.4267001655 0.0097791766 0.3142160106
760295440.0 0.0204493959 0.2990505563 -0.0262301137 -0.4257723086 -0.0260685659 -0.4261474546 0.012771454 0.3140671271
765295410.0 0.0231522167 0.298805896 -0.0299220512 -0.4252935513 -0.0305170291 -0.4261723023 0.0165967695 0.3143366717
770295380.0 0.0267941966 0.2991349805 -0.0351911613 -0.4251347511 -0.0350845969 -0.4255147002 0.0199064204 0.3141707095
775295350.0 0.0295137365 0.2988476542 -0.0398610897 -0.4247719431 -0.0395441672 -0.4249622933 0.0225442204 0.3138751627
780295320.0 0.0332672532 0.2981668542 -0.0444809406 -0.4241884438 -0.0439781041 -0.4244211015 0.0261505882 0.3143348535
785295290.0 0.0361125237 0.29843414 -0.0486925624 -0.4231324276 -0.0488609446 -0.4237576641 0.0290975656 0.3140249042
790295260.0 0.039374105 0.2981344997 -0.0535239127 -0.4232145179 -0.0536241838 -0.4238728787 0.032546861 0.3137707018
795295230.0 0.0424565698 0.298183857 -0.0577014412 -0.4225376733 -0.0577318708 -0.4228717319 0.0361409885 0.3138986191
800295200.0 0.04582884 0.2978057951 -0.0628965774 -0.422067471 -0.0631104681 -0.4220348 0.0392061832 0.3132570471
805295170.0 0.048658877 0.2973044418 -0.0670033998 -0.4207621872 -0.0669851614 -0.4212766354 0.0421450399 0.3128165851
810295140.0 0.0520191236 0.2967346756 -0.0715424843 -0.4202018191 -0.071645664 -0.4208551401 0.0456893678 0.3132828794
815295110.0 0.0551876712 0.2964949093 -0.0763072241 -0.4192557509 -0.0762520846 -0.4196129083 0.0487774467 0.3122864575
820295080.0 0.0582179996 0.2956023659 -0.0805767702 -0.4183852798 -0.0805204684 -0.4190881501 0.0515473268 0.3121269086
825295050.0 0.0618349721 0.2953025154 -0.0853135964 -0.4174436698 -0.0852215623 -0.4179522401 0.0553200223 0.3119172645
830295020.0 0.0644952388 0.2950792832 -0.0897586415 -0.4165554537 -0.0900239344 -0.4170207239 0.0582895647 0.311112015
