!Created with skrf (http://scikit-rf.org).
# Hz S RI R 50.0 
!freq ReS11 ImS11 ReS21 ImS21 ReS12 ImS12 ReS22 ImS22
300000.0 -0.2368601793 -0.1099165835 0.4674198891 0.0732115196 0.4713102822 0.074542506 -0.2384443828 -0.1157480078
5299970.0 -0.2410285973 0.0069169018 0.4755106692 0.0054045847 0.4749430665 0.0056599871 -0.2449409544 0.0054859368
10299940.0 -0.2368513009 0.0198116368 0.4769043512 0.0062252453 0.4769842952 0.0064003916 -0.2418037536 0.0176467897
15299910.0 -0.2329611686 0.0296406315 0.4805218641 0.0077279865 0.4803740424 0.0077588598 -0.237487511 0.0263717503
20299880.0 -0.2276621003 0.0378438521 0.485591728 0.0078875492 0.4853941486 0.0079483885 -0.2333578005 0.0338474132
25299850.0 -0.221707624 0.0440057409 0.4903846948 0.0071736643 0.4906655054 0.0070214024 -0.2279360146 0.0399413277
30299820.0 -0.2157576058 0.0493707709 0.49622513 0.0051858692 0.4958704938 0.0049385328 -0.2226612806 0.0449723799
35299790.0 -0.2097333046 0.0540261605 0.5013899408 0.001361382 0.5013431063 0.001909848 -0.2177419549 0.0488696108
40299760.0 -0.2045932449 0.0572231872 0.5066110244 -0.0023431143 0.5063600999 -0.0023418154 -0.2129180535 0.0518758682
45299730.0 -0.1992395715 0.0601087004 0.5107761058 -0.0072154179 0.5111544197 -0.007103032 -0.2079083019 0.0545841536
50299700.0 -0.1944852543 0.0621323661 0.5150112439 -0.0129946769 0.5151930537 -0.0130846244 -0.2034210424 0.0566161322
55299670.0 -0.190672771 0.0641294026 0.5186604954 -0.0188254276 0.5189028902 -0.0186190972 -0.1999267844 0.0582598556
60299640.0 -0.1865444637 0.0651454533 0.5220040938 -0.0249253934 0.5219549522 -0.0251329362 -0.1962138483 0.0596798176
65299610.0 -0.1830297308 0.0664738989 0.5249779512 -0.0307627281 0.525078647 -0.0309528593 -0.1927969891 0.0605498709
70299580.0 -0.1797195729 0.0671785386 0.5275450081 -0.0377629352 0.5272155022 -0.0376439399 -0.1900399891 0.0614052659
75299550.0 -0.1761983709 0.0680268887 0.5289077936 -0.0444941645 0.5290995296 -0.0447102673 -0.1870266889 0.0627164412
80299520.0 -0.1740115436 0.068862482 0.5310929637 -0.0512229367 0.5311536698 -0.0513033592 -0.1846081499 0.0627805764
85299490.0 -0.1713488565 0.0694648074 0.5325107629 -0.0581284104 0.5325266774 -0.058331764 -0.1826580643 0.0635282897
90299460.0 -0.1693288281 0.0702074104 0.5332336785 -0.0648599868 0.5335902337 -0.065208327 -0.1802013288 0.0644329723
95299430.0 -0.1673542202 0.0711268184 0.5343550067 -0.0725437712 0.5344240529 -0.0722151769 -0.1783136792 0.0651496572
100299400.0 -0.1654108686 0.072045166 0.5345774184 -0.0789528331 0.5344026938 -0.0791043062 -0.1770021042 0.0654187833
105299370.0 -0.16316891 0.0725218321 0.5349283729 -0.0858410722 0.5349846491 -0.0859815929 -0.1749431711 0.0662382807
110299340.0 -0.1618407308 0.0729072691 0.5348659051 -0.0924279934 0.5348562521 -0.0931183566 -0.1733894629 0.0671749308
115299310.0 -0.1603631425 0.0734565936 0.534955564 -0.0991509604 0.5353207723 -0.0994032346 -0.1722737651 0.0672371323
120299280.0 -0.158973278 0.0743530378 0.53503806 -0.1063556064 0.5351750363 -0.1064400739 -0.1713280448 0.0680451033
125299250.0 -0.1579691052 0.0750917603 0.5344275207 -0.1129998199 0.5350845716 -0.1132782611 -0.1699611222 0.0684766771
130299220.0 -0.1564308815 0.0760559204 0.5342835439 -0.1195395222 0.5337277501 -0.1200075383 -0.168656094 0.0695375754
135299190.0 -0.1552392364 0.0767197705 0.5330447314 -0.1262422989 0.5326890159 -0.1263143108 -0.1682129669 0.0702742689
140299160.0 -0.1541569388 0.078070658 0.5325276926 -0.1330048368 0.5326785742 -0.1328188922 -0.1666144825 0.071023947
145299130.0 -0.1530400127 0.07894408 0.5317472724 -0.1392870856 0.5314986827 -0.1393128687 -0.1662448188 0.0716983137
150299100.0 -0.1519861261 0.0798264233 0.53026012 -0.1461592596 0.5305533516 -0.1461468822 -0.1652228768 0.0727406919
155299070.0 -0.1512244388 0.0812547353 0.5289283063 -0.1530806685 0.529233779 -0.1530016394 -0.1643306209 0.07349391
160299040.0 -0.1500663388 0.0822392526 0.5277878738 -0.1589295734 0.5279202101 -0.1589824501 -0.1634978452 0.0747036967
165299010.0 -0.1493832386 0.083185295 0.5266184951 -0.1656238907 0.526683857 -0.165384248 -0.162716281 0.0754171875
170298980.0 -0.1483567266 0.0840686305 0.5240353875 -0.1715314679 0.5248474967 -0.1720590044 -0.1617935574 0.076638162
175298950.0 -0.1473870324 0.0857287601 0.5235219375 -0.1782603457 0.5234582662 -0.1779771298 -0.1612058641 0.0775590551
180298920.0 -0.1462173832 0.0867874361 0.5214679367 -0.1842959735 0.521588936 -0.1839885729 -0.1603075373 0.0786046015
185298890.0 -0.1451778676 0.0878812205 0.519532106 -0.1906860696 0.519936351 -0.1903543989 -0.1599320012 0.0797273673
190298860.0 -0.1445101965 0.0891222066 0.5175271348 -0.1969089654 0.5178235644 -0.196918018 -0.1583157859 0.0808009973
195298830.0 -0.1432432811 0.0901878017 0.5156776247 -0.2024144072 0.5160424416 -0.2033202264 -0.1579293023 0.0818328775
200298800.0 -0.1424486675 0.0915238437 0.5139266663 -0.2084535108 0.5132301477 -0.2089311182 -0.1569011175 0.0832439725
205298770.0 -0.1417776339 0.0928612089 0.5114474036 -0.2147841322 0.5117011653 -0.2150632171 -0.156533351 0.0841805683
210298740.0 -0.1408427134 0.0942069047 0.5091621377 -0.2211746021 0.509504782 -0.2212374597 -0.1558357241 0.0855642797
215298710.0 -0.1399006775 0.0958360709 0.5072572577 -0.2269657411 0.5068720085 -0.2269808864 -0.1552701501 0.0866471338
220298680.0 -0.1390522689 0.0968854808 0.5046876526 -0.2327076323 0.5044445621 -0.233109463 -0.1542452808 0.0880976351
225298650.0 -0.137580116 0.0984652075 0.5016257878 -0.2384193668 0.5019027846 -0.2383789777 -0.1530083702 0.0895082044
230298620.0 -0.1370904524 0.0998481438 0.500106278 -0.2445171777 0.4996485767 -0.24450934 -0.1524325675 0.0904462302
235298590.0 -0.1357958846 0.1009626584 0.4968031969 -0.2499727521 0.497124905 -0.2503168141 -0.1517957437 0.0916331917
240298560.0 -0.1351101901 0.1024644605 0.4944794352 -0.255602457 0.4946737434 -0.2554894818 -0.1511337587 0.0935336354
245298530.0 -0.1336120191 0.103708185 0.4909922747 -0.2614240323 0.491213557 -0.2617938018 -0.1500558392 0.0945222585
250298500.0 -0.1329757583 0.1051843693 0.4884942413 -0.2668509331 0.4891812157 -0.2668047902 -0.1489412588 0.0957643778
255298470.0 -0.1320171392 0.1066754259 0.4856257838 -0.2729714458 0.4856127296 -0.2726743346 -0.1483465157 0.0968718735
260298440.0 -0.1307659502 0.1082271494 0.483020345 -0.2781959683 0.4829352259 -0.2784505654 -0.1467205223 0.0985222331
265298410.0 -0.1296385271 0.1096434546 0.4799530562 -0.2839986006 0.4793834166 -0.2835241434 -0.1465822336 0.0996519398
270298380.0 -0.128028707 0.1110229637 0.476112682 -0.2891649903 0.4768387992 -0.2893512367 -0.1454898363 0.101088501
275298350.0 -0.1274343205 0.1123329112 0.4736277165 -0.2945824566 0.4739998912 -0.2946790953 -0.1442935372 0.1025130766
280298320.0 -0.1262511922 0.11399616 0.4704120651 -0.2997667792 0.4703221916 -0.3001285752 -0.1434829071 0.1037126566
285298290.0 -0.1249419813 0.1154304843 0.4668956776 -0.3051584576 0.4669561358 -0.3056856218 -0.1427315185 0.1053682319
290298260.0 -0.1239074479 0.1165468886 0.4638619961 -0.3105065755 0.4640842685 -0.3104581413 -0.1413243893 0.1068002114
295298230.0 -0.1224019185 0.118220219 0.4606538274 -0.3158126511 0.4602307388 -0.3160643915 -0.1402894576 0.1078817406
300298200.0 -0.1208653688 0.1194011971 0.456970927 -0.321452963 0.4567747232 -0.3213597672 -0.1392540289 0.1095232585
305298170.0 -0.1197508143 0.1207174804 0.4541476246 -0.3265046002 0.4539193556 -0.3265844896 -0.1379703382 0.1107426099
310298140.0 -0.1182037224 0.1220762123 0.4504887347 -0.331983643 0.4499536136 -0.3321608942 -0.1366957488 0.1124471535
315298110.0 -0.1170799002 0.1231310908 0.4462494556 -0.3367068039 0.4464804139 -0.3371613031 -0.1360599678 0.1134196544
320298080.0 -0.1160268721 0.1247210915 0.442578774 -0.3422030421 0.4427536013 -0.3421617173 -0.1349357475 0.1143400302
325298050.0 -0.1147522579 0.1255708092 0.4391740105 -0.3470941901 0.4391224287 -0.3472652526 -0.1338769141 0.1155234234
330298020.0 -0.1133982037 0.1268877133 0.4341496771 -0.3522550458 0.4346962706 -0.3521664937 -0.1331514193 0.1170758744
335297990.0 -0.1121648306 0.1280944864 0.4309237963 -0.3566257149 0.4304779727 -0.3571624865 -0.1320477406 0.1185770791
340297960.0 -0.1113272108 0.1297068526 0.4264319208 -0.3617809763 0.4269020993 -0.3616909238 -0.1311744162 0.1200402588
345297930.0 -0.1102089086 0.131141051 0.422508487 -0.3661070043 0.4221999851 -0.3660776285 -0.1298379707 0.1211635022
350297900.0 -0.1081781647 0.1322274414 0.4181888498 -0.3706916603 0.4185997337 -0.3713956355 -0.1289134811 0.1229670513
355297870.0 -0.1070449616 0.1338652329 0.4143151765 -0.3754019945 0.4141774809 -0.3756670757 -0.1279986044 0.1243872203
360297840.0 -0.1054662095 0.1351139575 0.4100687699 -0.3803970909 0.4099561923 -0.3800208357 -0.1267137057 0.1257860418
365297810.0 -0.1041757952 0.1364458634 0.4054309609 -0.3845686198 0.4056801765 -0.3844780693 -0.1255462725 0.127452576
370297780.0 -0.102539737 0.1376402637 0.4016868632 -0.3886391039 0.401385878 -0.3893067107 -0.1243069982 0.1284089761
375297750.0 -0.1013245667 0.1392121647 0.3977037903 -0.3933749681 0.3973938137 -0.3939997221 -0.122997503 0.1303662543
380297720.0 -0.099761779 0.1401380169 0.3932818482 -0.3976283873 0.3929147708 -0.3975619126 -0.121768588 0.1316147705
385297690.0 -0.097995998 0.1419008901 0.3886552606 -0.401928452 0.3882068896 -0.4017653781 -0.1205558614 0.1331043494
390297660.0 -0.0965336889 0.142845958 0.3840615249 -0.4065549164 0.3838968974 -0.4064906834 -0.1193211136 0.1340127117
395297630.0 -0.0948177191 0.1439377555 0.379807314 -0.4101322444 0.379587028 -0.4105710171 -0.1183290153 0.1358397305
400297600.0 -0.0936098662 0.1452227944 0.3749686675 -0.4147577592 0.3750349802 -0.414668489 -0.1171639449 0.1368828554
405297570.0 -0.0917661094 0.146659911 0.3706009855 -0.418730347 0.370361053 -0.4188852354 -0.1153782144 0.1383522067
410297540.0 -0.0900797791 0.1477473099 0.3654328267 -0.4224633032 0.3657811168 -0.4227944246 -0.1144329761 0.139637705
415297510.0 -0.0887745312 0.1492245269 0.3613687083 -0.4269459735 0.3612151796 -0.4265345437 -0.1132149983 0.1412478821
420297480.0 -0.0866926731 0.149753201 0.3564186562 -0.4306468786 0.3564980497 -0.4305827613 -0.1114729905 0.1420366535
425297450.0 -0.0848523673 0.1506921691 0.3517047232 -0.4342222553 0.3521754094 -0.4346778339 -0.1106441128 0.1440422247
430297420.0 -0.0837747991 0.1522307068 0.3472704068 -0.4387571244 0.3472949035 -0.438383585 -0.1091186413 0.1448994616
435297390.0 -0.0816805738 0.1529159266 0.3418989116 -0.4420640054 0.3423923103 -0.4416869531 -0.107537514 0.1464809959
440297360.0 -0.080094049 0.1541365427 0.3373385708 -0.4458568423 0.3370541292 -0.4457436949 -0.1064109471 0.1474036558
445297330.0 -0.0780717891 0.1550243717 0.3320189188 -0.4496383251 0.3325817073 -0.4492820718 -0.1050438762 0.1483553472
450297300.0 -0.0763623089 0.1558421299 0.3272266232 -0.453083267 0.3275834694 -0.4531293971 -0.1034398697 0.1499852465
455297270.0 -0.0749059314 0.1570557209 0.3228868824 -0.4567522063 0.3228359939 -0.456460037 -0.1020616246 0.1511623052
460297240.0 -0.0732742114 0.1579634988 0.3175128805 -0.4596028959 0.3168608207 -0.4602519623 -0.1004513982 0.1527435707
465297210.0 -0.0708952974 0.1587176298 0.312260265 -0.4636495821 0.3129423469 -0.4633656652 -0.0995077647 0.1533023051
470297180.0 -0.0696312187 0.1597570543 0.3078886992 -0.4664053861 0.3077737672 -0.466882164 -0.0983068132 0.1546712294
475297150.0 -0.0675878405 0.1603772802 0.3018928674 -0.4697073424 0.3026171287 -0.4695306453 -0.0962827113 0.1556575714
480297120.0 -0.0656074151 0.1613547639 0.2968654426 -0.4733693916 0.2970136204 -0.473055732 -0.0949725141 0.1574609653
485297090.0 -0.0640437133 0.1621558639 0.2920697706 -0.4764671285 0.2919973449 -0.4763115377 -0.093651538 0.1579998216
490297060.0 -0.062221435 0.1629492561 0.286741964 -0.4795087534 0.2866980055 -0.4797172384 -0.0920680413 0.1593855912
495297030.0 -0.0606503301 0.1642115132 0.2815852595 -0.4827592191 0.2813249799 -0.4826155539 -0.0904383263 0.160081264
500297000.0 -0.0583809495 0.1645679929 0.2763279916 -0.485830372 0.2763354383 -0.4857465946 -0.0893754241 0.1611224651
505296970.0 -0.0567083534 0.1655314294 0.2707345676 -0.4884921249 0.2705652545 -0.4884469101 -0.0881240757 0.1625299022
510296940.0 -0.0551149862 0.1662597141 0.2654315603 -0.4916824737 0.2657468619 -0.4915800044 -0.0860982519 0.1637148063
515296910.0 -0.0533237813 0.1672086967 0.259667627 -0.4941846946 0.2601365655 -0.4946434144 -0.0846194335 0.1647797579
520296880.0 -0.0513349904 0.1675340889 0.2547410792 -0.4971380634 0.2549819371 -0.4969640851 -0.0829009421 0.1654618876
525296850.0 -0.0496232123 0.1683464429 0.24917079 -0.5000536749 0.2496020786 -0.5002304296 -0.0815044644 0.166393685
530296820.0 -0.0475674572 0.1691194734 0.2441070719 -0.5020865304 0.2439382896 -0.5025509672 -0.0802159608 0.1672654519
535296790.0 -0.0457959306 0.1695911142 0.2384704678 -0.5046906448 0.2387933736 -0.5048117441 -0.078509738 0.168131129
540296760.0 -0.043959153 0.170232027 0.2329692609 -0.5078055758 0.2328833774 -0.5078540408 -0.0771960541 0.169271348
545296730.0 -0.0418742343 0.1710636816 0.2272476286 -0.5097061593 0.2276591643 -0.5100380293 -0.075567142 0.1699906478
550296700.0 -0.0404812905 0.171402685 0.2221402984 -0.5123445491 0.2221188531 -0.5126571562 -0.0740372148 0.1712169847
555296670.0 -0.0380602468 0.1719318148 0.2162836453 -0.514913095 0.2165941464 -0.5147533001 -0.0724102745 0.1718532671
560296640.0 -0.0362406279 0.1725666466 0.2108881867 -0.5164805325 0.211071199 -0.516779647 -0.0709628253 0.1727934747
565296610.0 -0.0346247963 0.1730511652 0.2052986699 -0.5193811377 0.2050841926 -0.5194176871 -0.0689721211 0.1738382783
570296580.0 -0.0322336773 0.1735669232 0.1991445082 -0.5211853924 0.1996412071 -0.5215688139 -0.0675031139 0.1749580337
575296550.0 -0.0302862297 0.174585739 0.1936470645 -0.523253134 0.1942670397 -0.5230726264 -0.0655042418 0.1753952428
580296520.0 -0.0284553072 0.1745572958 0.1881106578 -0.5254730886 0.1884303646 -0.5255035154 -0.064128873 0.1762168004
585296490.0 -0.0263241395 0.1749104806 0.1826406509 -0.5272950559 0.1828423019 -0.5273893594 -0.0626605268 0.1765759105
590296460.0 -0.0248158315 0.1751116832 0.176758265 -0.529285177 0.1766912286 -0.5295282829 -0.0606839484 0.1778681443
595296430.0 -0.0226942914 0.175854531 0.1711361222 -0.5314156345 0.1711183845 -0.531449443 -0.0589579451 0.1781982143
600296400.0 -0.0208100791 0.1762605697 0.1653356671 -0.5331446679 0.165707761 -0.532935072 -0.0573120322 0.1790477952
605296370.0 -0.0185827957 0.1768957143 0.1595070594 -0.5349543167 0.159857223 -0.5346009062 -0.0560384802 0.1798522541
610296340.0 -0.017039107 0.1768575908 0.1541840429 -0.5365032673 0.1538449267 -0.5366066665 -0.0537498919 0.1810815779
615296310.0 -0.0148615156 0.1777344214 0.1477967925 -0.5380628029 0.1477121774 -0.5381333898 -0.0522008459 0.1811541466
620296280.0 -0.0127661763 0.1777025979 0.1426323878 -0.5395066882 0.1422463175 -0.5396590366 -0.0505124864 0.1814856587
625296250.0 -0.0105064358 0.1778495319 0.1358343805 -0.5414697396 0.1360551798 -0.5412989668 -0.0488240751 0.1826415928
630296220.0 -0.0087903234 0.1783500548 0.1302700251 -0.5427514766 0.1306704215 -0.5426310836 -0.0472706676 0.1832934476
635296190.0 -0.0068980935 0.1785790938 0.1245396896 -0.5433790794 0.1246328657 -0.5434483449 -0.0456163158 0.1834705787
640296160.0 -0.0052119929 0.1784572708 0.1189626847 -0.5447577114 0.118721496 -0.5454234591 -0.0433777513 0.1843165403
645296130.0 -0.0029306141 0.1789952266 0.1127732851 -0.5464173121 0.1129836081 -0.5463261975 -0.0423741479 0.184550673
650296100.0 -0.0010323178 0.1796964385 0.107443628 -0.547194455 0.1071417886 -0.547232675 -0.0403325207 0.1849508085
655296070.0 0.0010953856 0.1791634991 0.1009757605 -0.5487154206 0.1009499911 -0.5486194062 -0.0381356684 0.1861010132
660296040.0 0.002587378 0.1797383332 0.0953675131 -0.5492866235 0.095395472 -0.5493010336 -0.0366807653 0.1860535874
665296010.0 0.0051754576 0.1795101646 0.0893803969 -0.5501467785 0.0895046861 -0.55054558 -0.0353198317 0.1870955124
670295980.0 0.0074975088 0.1796702532 0.0834149623 -0.5512366889 0.0836053426 -0.5510615702 -0.0336581307 0.1874554829
675295950.0 0.0090849305 0.1799456016 0.0772401216 -0.5519226243 0.0774378136 -0.5526150947 -0.0311167464 0.187645375
680295920.0 0.0111973467 0.1800873115 0.0712982116 -0.5529988505 0.0713134618 -0.5529156508 -0.0293366448 0.1880917404
685295890.0 0.0131356075 0.1799394002 0.0654968137 -0.5539624454 0.0651261064 -0.5540544848 -0.0278685381 0.1888480779
690295860.0 0.015584266 0.179826696 0.059321645 -0.5538555084 0.0591294602 -0.5541080107 -0.0256478856 0.1892357147
695295830.0 0.0174017632 0.1798346111 0.0523138597 -0.5547868254 0.0532208872 -0.5549934872 -0.0244316999 0.1896883859
700295800.0 0.0196247826 0.1799209283 0.0468700025 -0.5553135656 0.047313462 -0.5558079739 -0.0223875797 0.189333036
705295770.0 0.0214235625 0.1799766755 0.0410330052 -0.5556112881 0.0417211504 -0.5559414093 -0.0207711963 0.1903132617
710295740.0 0.0234812913 0.1800809037 0.0354378507 -0.5562625375 0.0354345911 -0.5559945337 -0.0191227502 0.1907769605
715295710.0 0.0253022546 0.1796106445 0.0292822576 -0.5565558162 0.029615094 -0.5564562885 -0.0171141079 0.1907231544
720295680.0 0.0270015452 0.179307363 0.0233577204 -0.5566117551 0.0234856049 -0.5573748443 -0.0149806308 0.1915276741
725295650.0 0.0295336919 0.1791033113 0.017323086 -0.5566633623 0.0174399107 -0.5568959325 -0.0131922934 0.1917524995
730295620.0 0.0310062892 0.179119378 0.0112402778 -0.5570036707 0.0112962387 -0.5571669176 -0.0117344399 0.1914374048
735295590.0 0.0336581109 0.179102135 0.0053041469 -0.55713018 0.005901743 -0.5574108833 -0.0093240764 0.1922338143
740295560.0 0.0354835115 0.1789279267 -0.0010775796 -0.5570440575 -0.0007422215 -0.5571788139 -0.0073545445 0.1920994095
745295530.0 0.0375352973 0.1784763988 -0.0067152372 -0.5572149131 -0.0065029695 -0.5574061699 -0.0060502582 0.1926682848
750295500.0 0.0395910074 0.1779741792 -0.0126233219 -0.5565534945 -0.0125206048 -0.5565953542 -0.0036403985 0.192437349
755295470.0 0.0417851195 0.1781231987 -0.0188308419 -0.5570245043 -0.0182729817 -0.5568580419 -0.0024674845 0.1928102241
760295440.0 0.043434826 0.1775433653 -0.0248398273 -0.5564433348 -0.0247449752 -0.5564784803 -0.0006864611 0.1930899437
765295410.0 0.0452721758 0.1772173771 -0.030122348 -0.5559296069 -0.0302568214 -0.5563487367 0.0019484738 0.1933075709
770295380.0 0.047718807 0.176979101 -0.0365800709 -0.5553074585 -0.0365168993 -0.555642938 0.0040128267 0.19359648
775295350.0 0.0494569265 0.1765241393 -0.0421727377 -0.5547569961 -0.0421815129 -0.5552644569 0.0049320009 0.192993418
780295320.0 0.0516758461 0.1759517838 -0.0486754891 -0.5550063577 -0.0481721664 -0.5548512396 0.006968421 0.193667434
785295290.0 0.0532658489 0.1760883129 -0.0545303997 -0.5536412449 -0.0539933345 -0.5544684586 0.0084613036 0.1936173145
790295260.0 0.0552753278 0.1752978143 -0.0600739994 -0.5535240933 -0.0604354451 -0.5537118484 0.0111045481 0.1935441452
795295230.0 0.0573110541 0.1749819492 -0.065908116 -0.552382749 -0.0661460908 -0.5529136141 0.0130798875 0.1941615792
800295200.0 0.059462025 0.1747227763 -0.0726543897 -0.5520443545 -0.0724793935 -0.5522692488 0.0147724736 0.1939740672
805295170.0 0.0609143775 0.1739338899 -0.078090355 -0.5507968648 -0.0781553026 -0.5506338489 0.015979838 0.1934972249
810295140.0 0.063074311 0.1734452813 -0.0840162384 -0.5498897464 -0.0839407431 -0.5508978014 0.018275522 0.1942110677
815295110.0 0.0652859779 0.1730772455 -0.0899970977 -0.5488695812 -0.0903123729 -0.5490926307 0.0200968836 0.1939202166
820295080.0 0.0669927917 0.1722603074 -0.0956913486 -0.5484501405 -0.0956501376 -0.5485514257 0.0217733823 0.19400454
825295050.0 0.0690295526 0.1718826905 -0.1018602107 -0.5467847709 -0.1018651684 -0.5473507191 0.0240244836 0.1938810391
830295020.0 0.0709836422 0.171229695 -0.1077790274 -0.5455163503 -0.1077759114 -0.5463832671 0.0256238086 0.1934309025
