!Created with skrf (http://scikit-rf.org).
# Hz S RI R 50.0 
!freq ReS11 ImS11 ReS21 ImS21 ReS12 ImS12 ReS22 ImS22
300000.0 -0.3235537496 -0.0850970273 0.3755670828 0.044546693 0.3730746692 0.0417409079 -0.3170908616 -0.0972281878
5299970.0 -0.326336553 0.004261671 0.378207643 0.0021600124 0.378204618 0.0027274688 -0.3236295244 0.0046934778
10299940.0 -0.3240929718 0.0134334411 0.3794302419 0.0020774874 0.3792382831 0.0023177586 -0.3213265974 0.0159808604
15299910.0 -0.3215461457 0.0203692782 0.3816239573 0.0021820457 0.3817490263 0.0019538343 -0.3178286437 0.0239276022
20299880.0 -0.3187037469 0.0262569728 0.3849522991 0.0021577235 0.3849567339 0.0016499254 -0.314647575 0.0305490676
25299850.0 -0.3157705616 0.0314107458 0.3880456475 0.0001833011 0.3878963375 0.0001804604 -0.3105081417 0.0359890874
30299820.0 -0.312658041 0.0359124808 0.3913751962 -0.002284862 0.3914461711 -0.0024573878 -0.3070953263 0.0412683083
35299790.0 -0.3098809982 0.0400767791 0.3947810413 -0.0055218325 0.3946376979 -0.0053440488 -0.3033801992 0.0452428583
40299760.0 -0.3070988476 0.0438043052 0.3975300616 -0.0089271216 0.3981749825 -0.0086732129 -0.2999122367 0.0484476848
45299730.0 -0.3046012377 0.0465644458 0.4008128119 -0.0128697751 0.4007534828 -0.0129218261 -0.2968734307 0.0521338827
50299700.0 -0.3024891708 0.0494242603 0.4035558444 -0.0171910649 0.4032327389 -0.0172210814 -0.2939634496 0.0548526659
55299670.0 -0.3003871454 0.0520794134 0.4058343176 -0.0224002924 0.4055985959 -0.0219497467 -0.2915143964 0.0574032881
60299640.0 -0.2980001181 0.055159708 0.4073503335 -0.0270374132 0.4080039643 -0.0268000246 -0.2893552555 0.0594561177
65299610.0 -0.2962939701 0.0573265418 0.4090753572 -0.0320401732 0.4091548724 -0.0317455729 -0.2872401739 0.0617382638
70299580.0 -0.2947843182 0.0602925533 0.410542241 -0.0373408114 0.4102760395 -0.0371088626 -0.2850133631 0.0640629199
75299550.0 -0.2930787148 0.0624487781 0.4113765519 -0.0421399301 0.4111180074 -0.0423273564 -0.2832979291 0.0657006162
80299520.0 -0.2915035669 0.0647340752 0.412324291 -0.0476533553 0.4125051817 -0.0475718303 -0.281670316 0.0685299975
85299490.0 -0.290429303 0.0669992434 0.4127917011 -0.052642597 0.4127161155 -0.0526077756 -0.2801582146 0.0700434513
90299460.0 -0.2888641512 0.0693465351 0.4130879585 -0.0580523467 0.4134443799 -0.0578790991 -0.2783961744 0.0719157338
95299430.0 -0.2871494291 0.0717858652 0.4136635077 -0.0635506803 0.4134038723 -0.0631640416 -0.2766809813 0.0744421007
100299400.0 -0.2862674701 0.0741119148 0.4128680907 -0.0682799428 0.4133342678 -0.0683361395 -0.2754001818 0.0761097377
105299370.0 -0.2852520143 0.0765196177 0.4131579031 -0.0736236217 0.4134477857 -0.0739831389 -0.2737931927 0.078230164
110299340.0 -0.2838536942 0.0789001222 0.4130181397 -0.0786440749 0.4132009614 -0.0784840683 -0.273265063 0.0801081031
115299310.0 -0.2828171473 0.0811507958 0.4127797926 -0.0840942936 0.4129894947 -0.083900712 -0.2713756909 0.0824197518
120299280.0 -0.2821483387 0.0831444836 0.4120819487 -0.0889653852 0.4124823949 -0.0890484484 -0.2704230445 0.0845629189
125299250.0 -0.2808402512 0.0854570482 0.4115258281 -0.0937749316 0.4116861546 -0.0939897748 -0.2694776718 0.0864504127
130299220.0 -0.2803554366 0.088216405 0.4107360921 -0.0990292886 0.4111033243 -0.0990883635 -0.2685512377 0.0884529314
135299190.0 -0.2792484701 0.0908096677 0.4106508339 -0.1044868158 0.4103959247 -0.1040099361 -0.2669739781 0.0908435416
140299160.0 -0.2786368671 0.0930563285 0.4096903991 -0.1093449736 0.4098936297 -0.1093444917 -0.2661148494 0.0934714374
145299130.0 -0.2774472779 0.0958159266 0.4089480794 -0.1142680911 0.4082125732 -0.1142001237 -0.2652301372 0.0958011093
150299100.0 -0.2761712262 0.0982331841 0.4076234585 -0.1188977591 0.4073836487 -0.1184046377 -0.2641887548 0.098309174
155299070.0 -0.2755696542 0.1006232362 0.4067762089 -0.1241541855 0.4064741683 -0.1239371649 -0.2631555267 0.1009060208
160299040.0 -0.274539872 0.1032775561 0.4055780459 -0.1286951267 0.405209329 -0.1289072986 -0.2622691717 0.1031084989
165299010.0 -0.2733825174 0.1061087501 0.403848036 -0.1340011633 0.4041934183 -0.1336657716 -0.2609635351 0.1056604723
170298980.0 -0.2729509656 0.1085658986 0.4027922696 -0.1381798123 0.4030568187 -0.1385225002 -0.2600008372 0.1080790506
175298950.0 -0.2717806277 0.1113451512 0.4017943974 -0.1432451494 0.4011208486 -0.143347471 -0.2593065367 0.1106239402
180298920.0 -0.2708168563 0.1139249404 0.3999113411 -0.1482006975 0.3997018671 -0.1475016371 -0.2580494636 0.1133192111
185298890.0 -0.2694032533 0.1165311834 0.3982094406 -0.1527128696 0.3983163231 -0.1524566507 -0.2571393639 0.1160632365
190298860.0 -0.2686658032 0.1193809871 0.3969686724 -0.1576696417 0.3971101198 -0.1571707541 -0.2563699734 0.118657207
195298830.0 -0.2678871794 0.1218611795 0.3951625372 -0.1619179094 0.3951591559 -0.162028164 -0.2545066879 0.1209848948
200298800.0 -0.2664003863 0.124766588 0.3930126877 -0.1668711023 0.3934084341 -0.1669040866 -0.2543418729 0.123535583
205298770.0 -0.2652023421 0.1273863724 0.3915144942 -0.1714196969 0.3914962805 -0.1710954492 -0.2530849631 0.1253365637
210298740.0 -0.2643012545 0.1302031253 0.3896899632 -0.1758412552 0.3899104507 -0.1752841918 -0.2516363317 0.1287527086
215298710.0 -0.2633976943 0.1328044031 0.3880185977 -0.1802631778 0.3877051955 -0.1804507252 -0.2507771091 0.131131972
220298680.0 -0.2620905249 0.1351815373 0.3856570039 -0.1846864411 0.3856253206 -0.1845271832 -0.2501520932 0.1332553443
225298650.0 -0.2610067579 0.1380073789 0.3836932922 -0.1894364297 0.3840579021 -0.1890376866 -0.2489419282 0.1360024732
230298620.0 -0.25969943 0.1406322074 0.3820495302 -0.1932771322 0.3823872793 -0.1934694606 -0.2476964751 0.1386910476
235298590.0 -0.258265585 0.1438158549 0.3800870614 -0.197959221 0.3799840486 -0.1975756596 -0.2465007506 0.1412671479
240298560.0 -0.2573032229 0.1465483321 0.3777972896 -0.2024957596 0.3776178677 -0.2022141592 -0.2452624798 0.143799039
245298530.0 -0.2558603334 0.1492779591 0.3756065858 -0.2068973948 0.3752219183 -0.2067402293 -0.2439139563 0.1457628853
250298500.0 -0.2541470834 0.1519558197 0.3727981736 -0.2112300529 0.3728421634 -0.2109178625 -0.2428254245 0.1486061058
255298470.0 -0.2528163724 0.1542432014 0.3701071472 -0.2149799252 0.3704418148 -0.2149260793 -0.2414857825 0.1511666677
260298440.0 -0.251916853 0.1568457971 0.368396171 -0.2194432993 0.368346572 -0.2194098103 -0.2398036549 0.1537194102
265298410.0 -0.2499161533 0.1598665879 0.3656897761 -0.2235948053 0.366157649 -0.2233229572 -0.2384583873 0.1561282687
270298380.0 -0.2485610162 0.1623727432 0.3636052052 -0.2273803566 0.363396814 -0.2275097865 -0.2368057807 0.1585491987
275298350.0 -0.246634926 0.1652831076 0.3607391286 -0.2315201561 0.361119249 -0.2316330571 -0.2352122601 0.1610352283
280298320.0 -0.2451902902 0.1681210957 0.3584311695 -0.2359103463 0.3584995138 -0.2358308429 -0.2333646315 0.1636793427
285298290.0 -0.2433454189 0.1710566433 0.3557563284 -0.2401552124 0.3555636198 -0.2395381493 -0.231818015 0.1658589847
290298260.0 -0.241680061 0.1732320311 0.353105735 -0.2434544402 0.3532368391 -0.2439580517 -0.2298989473 0.168393725
295298230.0 -0.2400305413 0.1753999181 0.3503976971 -0.2477616167 0.3501945721 -0.247842462 -0.228247482 0.1705303669
300298200.0 -0.2384973969 0.1783511579 0.3481463361 -0.251649099 0.3481389791 -0.2519340119 -0.2266461007 0.1732503063
305298170.0 -0.2366033097 0.1804423609 0.3445888696 -0.2558075707 0.3448650072 -0.2557708415 -0.2245867348 0.1757570648
310298140.0 -0.2348574937 0.1836580298 0.342099418 -0.2596461449 0.3423673662 -0.2597800448 -0.223183784 0.1779796725
315298110.0 -0.2329233132 0.1859035571 0.3392895344 -0.2635389276 0.3392969646 -0.2636640396 -0.2210092459 0.1804624139
320298080.0 -0.2313263895 0.1882096657 0.3361576751 -0.2676579826 0.3364329922 -0.2674028599 -0.2192822845 0.1829899898
325298050.0 -0.2291814333 0.1907967783 0.3333814308 -0.2717881332 0.3330970524 -0.2711475143 -0.2176863513 0.1850291491
330298020.0 -0.2275037051 0.1930475812 0.3298526182 -0.2753639708 0.3303342937 -0.2750517794 -0.2159481928 0.1875128902
335297990.0 -0.2254526162 0.1952171542 0.3270811671 -0.2782395441 0.3269612139 -0.278792083 -0.2144603316 0.1906070357
340297960.0 -0.2238701643 0.1982456068 0.3237502563 -0.2822738036 0.3236744946 -0.2824007155 -0.2121169429 0.1927314507
345297930.0 -0.2221889147 0.2009019425 0.3203982333 -0.2861332273 0.3202106573 -0.2857546224 -0.2102585408 0.1949468909
350297900.0 -0.2200087995 0.2031055746 0.3167266589 -0.2894945721 0.3170777714 -0.2892243125 -0.2086706009 0.1976551346
355297870.0 -0.217990378 0.2059264498 0.3141782851 -0.2927474615 0.314155771 -0.2927279748 -0.2069011404 0.2000998811
360297840.0 -0.2157777885 0.2081682367 0.3108236602 -0.2962085092 0.3110255799 -0.2962954749 -0.2045955894 0.2027916915
365297810.0 -0.2141372296 0.2108742645 0.3074486246 -0.2998408574 0.3077048421 -0.3001368825 -0.2024013542 0.2052768034
370297780.0 -0.2114455475 0.2131220662 0.3040411981 -0.3032391128 0.3042803923 -0.303042646 -0.2007855216 0.2077179587
375297750.0 -0.2091364096 0.2157601617 0.3007634086 -0.3067082081 0.3009617489 -0.3066104232 -0.1983731998 0.2097347927
380297720.0 -0.2072306533 0.2177887374 0.2973254552 -0.3099390752 0.2977829329 -0.3092546901 -0.1969524369 0.2119031087
385297690.0 -0.2053027254 0.2202338731 0.2939102737 -0.3127758825 0.2936206057 -0.3132418362 -0.1942566685 0.2145620155
390297660.0 -0.2031683045 0.222642208 0.2905038235 -0.3161815113 0.2902665491 -0.3157933704 -0.1925622492 0.2163683242
395297630.0 -0.2007177452 0.2251915662 0.2870506409 -0.3193063853 0.2869503852 -0.3194539591 -0.1897818027 0.2187353038
400297600.0 -0.1983623949 0.227508038 0.2830777521 -0.3227394575 0.2833562857 -0.3226831158 -0.1880400834 0.2211102797
405297570.0 -0.1963586537 0.2295217955 0.2799984582 -0.325695335 0.2796735168 -0.3254610988 -0.1857474119 0.2229647118
410297540.0 -0.1935983119 0.2318179078 0.2763906701 -0.3288702707 0.2764131641 -0.3287237239 -0.1836395275 0.2251372985
415297510.0 -0.1912718788 0.2338008244 0.2722501315 -0.3316287307 0.2727931026 -0.3317393739 -0.1815987878 0.2274166605
420297480.0 -0.1892168788 0.236488078 0.2688559694 -0.3348304435 0.2686718843 -0.3348468202 -0.179195666 0.2291214549
425297450.0 -0.1868277609 0.2381032256 0.2653468487 -0.33737983 0.2653279429 -0.3377065886 -0.1769789998 0.2313076652
430297420.0 -0.1840452141 0.2403429494 0.2614266359 -0.3400896423 0.2616065677 -0.3401619823 -0.1748487064 0.2329825168
435297390.0 -0.1816607714 0.2426588983 0.2574121166 -0.3433454353 0.2572457062 -0.3433290817 -0.1717715117 0.2351986937
440297360.0 -0.1789108901 0.2444815935 0.2536834993 -0.3459319429 0.2539027308 -0.3459778312 -0.1700844747 0.2368375761
445297330.0 -0.1765200357 0.2465522348 0.2504638417 -0.3487429262 0.2499713153 -0.3484028601 -0.1671983658 0.2384294522
450297300.0 -0.1738462566 0.2482005474 0.2462478291 -0.3512255092 0.2464086576 -0.3515050944 -0.1646728653 0.2402979287
455297270.0 -0.1715606572 0.2505728716 0.2420724674 -0.3537421838 0.2422735364 -0.3541289545 -0.162037373 0.2421414826
460297240.0 -0.1690963778 0.2527383122 0.2381929507 -0.3565921781 0.2384417732 -0.3566858794 -0.1598752826 0.2444149564
465297210.0 -0.1663700388 0.254353694 0.234596156 -0.3590482135 0.234414026 -0.3594959716 -0.1569433083 0.2457677392
470297180.0 -0.1634881042 0.2559973609 0.2301714461 -0.3615610004 0.2304297405 -0.3620865608 -0.154117001 0.2479673601
475297150.0 -0.1609973152 0.2578008245 0.226289156 -0.3638887689 0.2265346176 -0.3638832925 -0.1516913348 0.2490840558
480297120.0 -0.1583263009 0.2601993143 0.2222077414 -0.3668246425 0.2225431015 -0.3666814365 -0.1487235715 0.2513993644
485297090.0 -0.1556913292 0.261791602 0.2187544946 -0.3688543412 0.2184302421 -0.3687152469 -0.1458037778 0.2527533621
490297060.0 -0.1531415272 0.26374665 0.2146782256 -0.3714790216 0.2147207052 -0.3710514749 -0.1430020355 0.2549992214
495297030.0 -0.1502787951 0.2651826868 0.2102654372 -0.373365865 0.2105057026 -0.3734898962 -0.1410385234 0.2564769314
500297000.0 -0.1474239423 0.2669717882 0.2062179953 -0.3753680938 0.2058097475 -0.3753508204 -0.1378311341 0.2586276048
505296970.0 -0.1445238335 0.2685229471 0.202152106 -0.3775636838 0.2019646434 -0.3779943487 -0.135435891 0.259954859
510296940.0 -0.1415999689 0.2703830516 0.1979050142 -0.3801668111 0.1976891004 -0.3805158062 -0.1323195039 0.2617866754
515296910.0 -0.1386245916 0.2719848736 0.1934732681 -0.3823287139 0.1935190595 -0.3822300029 -0.1293308793 0.2630960829
520296880.0 -0.136106533 0.2737209219 0.1893955647 -0.3846278686 0.1895181897 -0.3839187788 -0.1271632514 0.2644435864
525296850.0 -0.1329108883 0.2747017414 0.1853071464 -0.3860965509 0.1856161632 -0.3860720338 -0.1244976083 0.2666946641
530296820.0 -0.1304144111 0.2765777876 0.1810721374 -0.3884939005 0.1811122802 -0.3884619293 -0.1214259334 0.2679886433
535296790.0 -0.1276939404 0.2782803594 0.1769882904 -0.3901917368 0.176809226 -0.3897129469 -0.1189717556 0.2692152557
540296760.0 -0.1249093049 0.2796520932 0.1724131395 -0.3923974335 0.1722388979 -0.3919754901 -0.1163263361 0.2704171885
545296730.0 -0.1216183631 0.2813403489 0.1681817701 -0.3938177664 0.1680950413 -0.393991573 -0.1136500109 0.272326161
550296700.0 -0.1186423263 0.2827083427 0.1639029253 -0.3955940873 0.1638369065 -0.395783773 -0.1105589282 0.2735639256
555296670.0 -0.1158142377 0.283823704 0.1595179046 -0.3978267513 0.159627512 -0.3972967246 -0.1077786654 0.2753101804
560296640.0 -0.1122845305 0.2858111947 0.1549272177 -0.39954039 0.1555065269 -0.3992064261 -0.1049177187 0.2765591672
565296610.0 -0.1095805318 0.2865242495 0.1508733066 -0.4006913098 0.1509913714 -0.4008705663 -0.1021509353 0.2777248963
570296580.0 -0.1068067076 0.2879703151 0.1464731449 -0.4026310071 0.1462839769 -0.402508948 -0.0994395506 0.2793130264
575296550.0 -0.1039975218 0.2895356898 0.1421308082 -0.4042431211 0.1419516381 -0.403908702 -0.0964333682 0.2801027016
580296520.0 -0.1005028545 0.2905621276 0.1374254037 -0.4057631002 0.1375675765 -0.4057405563 -0.0933985162 0.2809681448
585296490.0 -0.0978268254 0.2916391019 0.1335925129 -0.406514415 0.133228781 -0.4069010312 -0.0906026951 0.2822443956
590296460.0 -0.0941844786 0.2927201781 0.1286647411 -0.4079795629 0.1288232418 -0.4081150301 -0.0879994579 0.2834633102
595296430.0 -0.0915648175 0.2940645732 0.1239325896 -0.4098385463 0.1240213707 -0.4095962212 -0.0848411048 0.2838964961
600296400.0 -0.0884102495 0.2950549633 0.1199162069 -0.4106808212 0.1195801315 -0.4107926587 -0.0821262456 0.2853221961
605296370.0 -0.0853040573 0.2963029327 0.1152430064 -0.4124413339 0.1155431031 -0.4120343557 -0.0785736123 0.2862331348
610296340.0 -0.0823226928 0.2969635351 0.1107391694 -0.4132602686 0.1107745172 -0.4130045217 -0.0756965961 0.2870715995
615296310.0 -0.0787346003 0.2980050587 0.1059866475 -0.4141761021 0.1062255653 -0.4146881465 -0.072321611 0.287810837
620296280.0 -0.0761298565 0.2988970062 0.1012972667 -0.4150921914 0.1016633924 -0.4153664247 -0.0697405659 0.2887118953
625296250.0 -0.0733837567 0.2995628722 0.097821201 -0.4165523308 0.097280914 -0.4169070579 -0.0660963478 0.2894707341
630296220.0 -0.0694974254 0.3006811026 0.0923561887 -0.4174801346 0.0923598365 -0.4175252769 -0.0633060658 0.2905858813
635296190.0 -0.066880782 0.3016206031 0.0882099901 -0.4181288882 0.0880095039 -0.4184392847 -0.060316147 0.2910961169
640296160.0 -0.0636615895 0.3023797063 0.0834248174 -0.4189513476 0.0839521599 -0.4192239803 -0.0571196197 0.2919895788
645296130.0 -0.0602639929 0.3036147997 0.0788135818 -0.4200376767 0.0791845782 -0.4200733473 -0.0537570988 0.2928315683
650296100.0 -0.0570321429 0.3039774032 0.0742943144 -0.4207038618 0.0744642321 -0.4207302879 -0.0504645324 0.2929063969
655296070.0 -0.0537860972 0.3047296361 0.069626456 -0.4216613901 0.0700065058 -0.4215332568 -0.0473605837 0.2938775865
660296040.0 -0.050975173 0.3051873039 0.0654184476 -0.4223068836 0.0651728241 -0.4222054881 -0.0441802639 0.2944588647
665296010.0 -0.0474024317 0.3053808276 0.0605819738 -0.4226676343 0.0605579086 -0.4225754123 -0.04079755 0.295571456
670295980.0 -0.0452056891 0.3065978036 0.0564030648 -0.4234528772 0.0561704734 -0.4235564402 -0.038308104 0.2963192787
675295950.0 -0.0414018417 0.3072450397 0.0519518268 -0.4237170771 0.0516511605 -0.4234935848 -0.0351935408 0.2967020676
680295920.0 -0.0382238711 0.3078571067 0.0469145125 -0.4244599352 0.0464346112 -0.4246863325 -0.0319001617 0.2977493955
685295890.0 -0.0349793196 0.309045317 0.0423199179 -0.4253449882 0.0421870799 -0.4251373332 -0.0287799229 0.2978057133
690295860.0 -0.0313008006 0.3090572152 0.0375821042 -0.4251866374 0.0376694873 -0.4259002395 -0.0256939772 0.2990751184
695295830.0 -0.0283044576 0.3092520555 0.0331046819 -0.4255020286 0.032874453 -0.425861305 -0.0226264302 0.2993898209
700295800.0 -0.0248567732 0.3098915319 0.0282969294 -0.4258764865 0.0283794595 -0.4260370464 -0.0201290319 0.2999632417
705295770.0 -0.0220228819 0.3107361546 0.0236360664 -0.4266470669 0.0240890098 -0.426319127 -0.0164094309 0.3004600997
710295740.0 -0.0186659286 0.3106495861 0.0195954269 -0.42661402 0.0193055738 -0.4267368234 -0.0133690083 0.3002184403
715295710.0 -0.0156797218 0.3109367993 0.0148516867 -0.4267063138 0.0146560603 -0.4267878682 -0.0101692779 0.3006404558
720295680.0 -0.0124805224 0.3111810922 0.0101574711 -0.4268115394 0.010117341 -0.4268575669 -0.0067919873 0.3012322204
725295650.0 -0.0089382771 0.3115899156 0.0055850817 -0.4266773942 0.0055195044 -0.4271300752 -0.0041759883 0.3017985508
730295620.0 -0.0052734756 0.3117925556 0.0005418179 -0.4262887565 0.0007669352 -0.4265745213 -0.0011678987 0.3016392634
735295590.0 -0.002402359 0.3117200209 -0.0038434928 -0.4267165985 -0.004064117 -0.4266255235 0.00197298 0.3013312009
740295560.0 0.000895173 0.3122924577 -0.008400002 -0.4266848902 -0.0086250956 -0.426807566 0.0055097008 0.3017965948
745295530.0 0.0040596032 0.3125025348 -0.0132764327 -0.4263413865 -0.0131190991 -0.4265626616 0.0084144883 0.30169197
750295500.0 0.0076045939 0.3123628222 -0.01773585 -0.4258823481 -0.0175458841 -0.4264857505 0.0115701376 0.3016812597
755295470.0 0.0108246751 0.3121440466 -0.0222672737 -0.426074922 -0.0223281915 -0.4259978247 0.0148583945 0.3013576234
760295440.0 0.0136663555 0.3123375125 -0.0269399743 -0.4258487026 -0.0270280447 -0.4258628804 0.0180679509 0.3015644347
765295410.0 0.0171319015 0.3125002394 -0.0318046944 -0.4256098657 -0.0317535476 -0.4254654712 0.0212096047 0.3019358751
770295380.0 0.0202996563 0.3124777317 -0.0364575977 -0.4251600265 -0.0362701869 -0.424773253 0.0240020907 0.3010717175
775295350.0 0.0232928774 0.3118866631 -0.0409751729 -0.4241469051 -0.0404704907 -0.4244583771 0.0267723473 0.3012684613
780295320.0 0.0266515668 0.3116997537 -0.0453057781 -0.4234691838 -0.0447032245 -0.4238368565 0.0302788559 0.3006020436
785295290.0 0.0300235741 0.3113308627 -0.0502608198 -0.4230117993 -0.0498439884 -0.4232060401 0.0338094711 0.3007008616
790295260.0 0.0338226558 0.3117753318 -0.0543578381 -0.4228218521 -0.054332482 -0.4227383854 0.0374025739 0.300395294
795295230.0 0.03669267 0.3114769345 -0.0588093509 -0.4216956224 -0.0586058545 -0.4222985866 0.0400858676 0.2998981915
800295200.0 0.0396572614 0.3112227731 -0.0638768688 -0.4210678582 -0.0635585785 -0.4212056208 0.0435862854 0.2994836984
805295170.0 0.0432043652 0.3106638003 -0.0683299036 -0.4205156314 -0.0682501372 -0.4208873673 0.0464455078 0.2995834821
810295140.0 0.0461813904 0.3102127608 -0.072281177 -0.4195689009 -0.0725737025 -0.4198475433 0.0503576952 0.2989790252
815295110.0 0.04960251 0.3097746924 -0.0772338569 -0.4185871258 -0.077082603 -0.4188950246 0.052901265 0.2986754227
820295080.0 0.0526092937 0.3096558256 -0.0813852676 -0.4179178164 -0.0814219293 -0.4176906925 0.0562897876 0.2981741904
825295050.0 0.0565691469 0.3091222863 -0.0858510743 -0.4170367731 -0.0859962574 -0.4172280641 0.0598202732 0.2983064009
830295020.0 0.0592781598 0.3086704561 -0.0908872587 -0.4157300008 -0.0907952395 -0.4160112106 0.0633895578 0.29733502
