!Created with skrf (http://scikit-rf.org).
# Hz S RI R 50.0 
!freq ReS11 ImS11 ReS21 ImS21 ReS12 ImS12 ReS22 ImS22
300000.0 -0.0930043646 -0.1054015728 0.6220085952 0.0965873435 0.6202770432 0.097029125 -0.0955365878 -0.1082087471
5299970.0 -0.1013080337 0.0112207989 0.6302520979 0.0112999061 0.6308101115 0.0113996833 -0.101412102 0.0110530199
10299940.0 -0.0967988431 0.0285967344 0.6346420929 0.0161449246 0.6344865595 0.0165425048 -0.0962719284 0.02834361
15299910.0 -0.0891508639 0.0422928497 0.640178459 0.0212277905 0.6404653128 0.0215083924 -0.0896781656 0.0419882535
20299880.0 -0.0803311526 0.0535291854 0.6488721958 0.0240303242 0.6489615378 0.0244801204 -0.0810357622 0.0528240938
25299850.0 -0.0702419217 0.062502578 0.6583351973 0.0262320871 0.6580744064 0.0253941677 -0.0713509795 0.0618464083
30299820.0 -0.0607415645 0.068833823 0.6678497944 0.0246316543 0.6678138237 0.0246344867 -0.0616446794 0.0681772913
35299790.0 -0.0504851626 0.0736370307 0.6771174696 0.0220851583 0.6773126858 0.0215837478 -0.0521029217 0.0737679887
40299760.0 -0.0410671256 0.0761987317 0.6866572745 0.0178442568 0.6865387281 0.0173685535 -0.0423886704 0.0769630776
45299730.0 -0.0316230022 0.0782716154 0.695545958 0.0124711065 0.6958451644 0.011586709 -0.0329305564 0.0788425763
50299700.0 -0.0228684874 0.079344123 0.7041545683 0.005300942 0.7036479021 0.0050189827 -0.0243968763 0.0801836706
55299670.0 -0.0150013205 0.0790061213 0.7110871207 -0.0021694666 0.7111646252 -0.0028629296 -0.0168999784 0.0803389972
60299640.0 -0.0075180271 0.0787708045 0.7178273317 -0.0111234659 0.7178418834 -0.0110614949 -0.0093095741 0.0798268134
65299610.0 -0.0011185809 0.0771708646 0.7240724872 -0.0196874306 0.7245405537 -0.0201251302 -0.0024248026 0.0789093491
70299580.0 0.0054237728 0.0751580521 0.7293455893 -0.0289266978 0.7291377557 -0.0291777167 0.0032980543 0.0771946419
75299550.0 0.0108062933 0.0732475002 0.7331524666 -0.0392062811 0.7335115636 -0.0390493761 0.0089974864 0.075189233
80299520.0 0.0156226033 0.0714100793 0.737651994 -0.0487022782 0.7379350477 -0.0489151305 0.0137720338 0.0734377978
85299490.0 0.0202124144 0.0691379381 0.7405980629 -0.0589570293 0.7412289399 -0.0580624509 0.0182968093 0.0710928685
90299460.0 0.0241903422 0.0666858832 0.7429066594 -0.0686300632 0.7435576108 -0.0683101983 0.0226630259 0.0692822318
95299430.0 0.0282009143 0.0641971217 0.7460694321 -0.0790406095 0.746149109 -0.0791041147 0.0260053029 0.0665334762
100299400.0 0.0312503535 0.0613950928 0.7476982017 -0.0885427583 0.7475445068 -0.0887865845 0.0292187389 0.064609688
105299370.0 0.0345695868 0.0589971716 0.7489859814 -0.0989453926 0.7497471124 -0.0987456528 0.033030519 0.0617108153
110299340.0 0.0374703491 0.056401325 0.7507080084 -0.1085444161 0.750701624 -0.1085696708 0.0350138335 0.059482677
115299310.0 0.0397775813 0.054326227 0.7515197781 -0.1188344424 0.7510004114 -0.1190115613 0.0377213388 0.0576534202
120299280.0 0.0415241182 0.0522266227 0.7519005862 -0.1294016335 0.7518623733 -0.1293225129 0.0400022468 0.0547643179
125299250.0 0.0440119765 0.0493848305 0.7521949266 -0.1392217221 0.7520612215 -0.138836078 0.0423857234 0.0528798707
130299220.0 0.0459403613 0.0469933981 0.7524875202 -0.1491453959 0.7522597789 -0.149318953 0.0438974632 0.0509371447
135299190.0 0.0469986451 0.0451633728 0.7522941368 -0.1576271223 0.752110121 -0.1587230815 0.0456735664 0.0477327998
140299160.0 0.0488507884 0.0430795952 0.7518743791 -0.1692522603 0.7511319713 -0.1681659663 0.0462394825 0.0457056783
145299130.0 0.0494014075 0.0409627898 0.7504741818 -0.1781415396 0.7505130342 -0.1784813027 0.0482813569 0.0436199683
150299100.0 0.0509829682 0.0393699127 0.7491094359 -0.1880773285 0.7494315246 -0.1878735195 0.0493573127 0.042195248
155299070.0 0.0526386098 0.0370038268 0.7477297764 -0.1975162179 0.7483385705 -0.198140905 0.0507486822 0.0400014415
160299040.0 0.0534737961 0.0353528314 0.7473198403 -0.2072421183 0.7465659139 -0.2068609545 0.0510604467 0.038162334
165299010.0 0.0543156157 0.0332470283 0.7455251992 -0.2161929913 0.7452355395 -0.2164462163 0.0525404846 0.0360107637
170298980.0 0.0550831986 0.0319112531 0.7433234067 -0.225940668 0.7434976159 -0.2259204548 0.0528312354 0.0344783913
175298950.0 0.0558576094 0.0304026842 0.7418837892 -0.2350369272 0.74190164 -0.2355044678 0.0535074462 0.0327826743
180298920.0 0.0564311044 0.0287288489 0.7394781695 -0.2450085965 0.7390406394 -0.2447185857 0.0541528118 0.0308956799
185298890.0 0.0567842205 0.0271315232 0.7379456224 -0.25364373 0.7373042479 -0.2532277043 0.0550372584 0.029296322
190298860.0 0.0580057524 0.0255052445 0.7346618213 -0.2623939173 0.7350752298 -0.2625116979 0.0553105576 0.02747113
195298830.0 0.0580740851 0.024042077 0.7327246443 -0.2714499631 0.7332190323 -0.2717802136 0.0559325405 0.026206782
200298800.0 0.0585547202 0.0222307449 0.7298171771 -0.281267945 0.7297459051 -0.2807757698 0.0563412336 0.0242442064
205298770.0 0.0583249536 0.0206304353 0.726788939 -0.2892856809 0.7272983047 -0.2891245224 0.0571314693 0.0230076307
210298740.0 0.0591838584 0.0198526713 0.7241249604 -0.2982459211 0.7234228518 -0.2982779537 0.0566747607 0.0211946899
215298710.0 0.0594806833 0.0187203795 0.7205827934 -0.3068865473 0.7208319941 -0.3070849242 0.0573785291 0.0198990413
220298680.0 0.059799811 0.0174011025 0.7174156038 -0.3152068626 0.7173255271 -0.3154617851 0.0573756881 0.0183470294
225298650.0 0.0598156087 0.0161826267 0.7142085803 -0.3241783143 0.714711945 -0.324134185 0.0578403766 0.0169068248
230298620.0 0.0604030372 0.0150250249 0.7111814113 -0.3330827738 0.711318796 -0.3330237508 0.0576088342 0.0153622513
235298590.0 0.0599803604 0.0137876162 0.708202684 -0.3421447764 0.7077503552 -0.3411126215 0.0579678316 0.0144647408
240298560.0 0.0604420605 0.0124682787 0.7041550525 -0.3493436909 0.7039562729 -0.3495276669 0.0579633217 0.0129654473
245298530.0 0.0603143675 0.0110714807 0.7001469569 -0.357875663 0.7001432508 -0.3579110128 0.0579243634 0.0119347703
250298500.0 0.060003949 0.0099567651 0.6966917818 -0.3658284538 0.6966683777 -0.3660463762 0.0580507168 0.0108225063
255298470.0 0.0605926812 0.0096267093 0.6934978581 -0.3739965274 0.6933470703 -0.3742746337 0.0580182463 0.0100802558
260298440.0 0.0606795662 0.0080756117 0.6895140582 -0.3819858809 0.6888435566 -0.3821199648 0.0580496512 0.0080340884
265298410.0 0.0601907289 0.0073046137 0.6849025037 -0.3907353869 0.6843466481 -0.3909270144 0.0587345525 0.0068180431
270298380.0 0.0601248532 0.0060685652 0.6804507065 -0.3984585553 0.6803757955 -0.3981586559 0.0585438671 0.0061215044
275298350.0 0.0603532914 0.0057773938 0.675343967 -0.4060127699 0.675196709 -0.4063331324 0.0580268123 0.0050160949
280298320.0 0.0596687162 0.0045031959 0.6720658707 -0.4136910027 0.6721371512 -0.414147109 0.0585908944 0.004101366
285298290.0 0.0599544554 0.0035280302 0.6666972124 -0.4218505185 0.6677314312 -0.4219541448 0.0581232306 0.0029915923
290298260.0 0.0601194453 0.002801153 0.6636752123 -0.4298094315 0.6629533427 -0.429886375 0.0582544216 0.0017679556
295298230.0 0.0599023964 0.0012881157 0.6585215445 -0.4381921197 0.6588297769 -0.4374202947 0.0579697002 0.0007160878
300298200.0 0.0602429939 0.0009265076 0.6542496735 -0.4454954594 0.6536188217 -0.4451448547 0.0578454287 -0.0004197156
305298170.0 0.0600776402 -0.0007972483 0.6494365861 -0.453092825 0.6492997247 -0.4532281488 0.0576855581 -0.0022707216
310298140.0 0.0603062257 -0.0016517471 0.6445830524 -0.4607431679 0.6444191252 -0.4604278829 0.0578468369 -0.0034332834
315298110.0 0.0598648813 -0.0031003475 0.639407289 -0.468813859 0.6391062836 -0.4688808773 0.0577553438 -0.004018284
320298080.0 0.0596730117 -0.0040042352 0.6333533261 -0.4759335013 0.6343043191 -0.4762180956 0.057186812 -0.0054400723
325298050.0 0.0585645638 -0.0054292433 0.6283440024 -0.4827462616 0.629194923 -0.4831427875 0.056927839 -0.0066643439
330298020.0 0.0574355057 -0.0059268591 0.6229655624 -0.4910220191 0.623055158 -0.4908731971 0.0563091772 -0.0077732116
335297990.0 0.0577187777 -0.0068594541 0.6173847556 -0.4976672155 0.6175154907 -0.4979609393 0.0558953121 -0.0086696252
340297960.0 0.057150211 -0.0074751824 0.6115156813 -0.5052708061 0.6109556738 -0.5048135579 0.0552376725 -0.0090362925
345297930.0 0.0563146041 -0.0085638378 0.6052894552 -0.5120829161 0.6056228543 -0.5121145058 0.0554004752 -0.0103021132
350297900.0 0.0559916435 -0.0091992355 0.5998734043 -0.5183156827 0.6001298463 -0.518422963 0.0547704536 -0.0113197765
355297870.0 0.0555462313 -0.0095724392 0.5941561516 -0.5245251763 0.5937492692 -0.5244446661 0.0548875106 -0.0121075684
360297840.0 0.0553536918 -0.010375664 0.5881057671 -0.531489328 0.5883419726 -0.531759606 0.0537095369 -0.0122376374
365297810.0 0.0544172088 -0.0109614391 0.5823162062 -0.5382778109 0.5823733367 -0.5379459704 0.0529594834 -0.0128849951
370297780.0 0.0547865165 -0.0113773287 0.5761216785 -0.544153565 0.5764236428 -0.5442760628 0.0528696745 -0.0138073762
375297750.0 0.0543451839 -0.0122171671 0.5707550183 -0.5507417593 0.5705013617 -0.5511371712 0.0527956791 -0.0142272882
380297720.0 0.0534756779 -0.0126163418 0.5645707869 -0.5577297 0.5643002698 -0.5576063037 0.0523169717 -0.0149114196
385297690.0 0.0532055348 -0.0134810692 0.5577032507 -0.5635422845 0.5583419743 -0.5641178267 0.0520953273 -0.0153874095
390297660.0 0.0528814924 -0.0143276938 0.5516802233 -0.5687761696 0.5523541831 -0.5697538338 0.0520386251 -0.0165429734
395297630.0 0.0532002179 -0.0148715663 0.5462608027 -0.5754134066 0.5456397108 -0.5757834176 0.0514652123 -0.016971377
400297600.0 0.0521020708 -0.0157142134 0.5395821583 -0.582028289 0.539938536 -0.5822324896 0.0513583325 -0.0171795175
405297570.0 0.0518753557 -0.0168936986 0.5331113171 -0.5876240081 0.5331252299 -0.5881756394 0.0510309034 -0.0173584585
410297540.0 0.05159176 -0.0164994818 0.5262844138 -0.5937931122 0.5268853686 -0.5940593286 0.0505567602 -0.0184150473
415297510.0 0.0508862469 -0.0175203772 0.5200349279 -0.5999641738 0.5208055401 -0.5999979018 0.0505342911 -0.0189312421
420297480.0 0.0508047393 -0.0184064424 0.5137221946 -0.6056692314 0.5136971342 -0.605245134 0.0502777607 -0.0191423744
425297450.0 0.0509404298 -0.0188001578 0.5065151911 -0.6111930476 0.5068174702 -0.6112020901 0.0496286223 -0.0203900899
430297420.0 0.0500691893 -0.0194109552 0.5003796249 -0.6171704258 0.5007233116 -0.615941533 0.0496426058 -0.0206973206
435297390.0 0.0497509823 -0.0203029742 0.4930929545 -0.6229762958 0.4931725212 -0.6221193319 0.0486834266 -0.0211957628
440297360.0 0.049725328 -0.0209484634 0.4863195907 -0.6276504362 0.4862057333 -0.6275786534 0.0485601812 -0.0215967185
445297330.0 0.0493317175 -0.021838545 0.4792255343 -0.6329313532 0.479541572 -0.633071912 0.0482292365 -0.0219196602
450297300.0 0.0489002835 -0.0220567085 0.4729692282 -0.6378635474 0.4726758843 -0.6379801353 0.0481503781 -0.0224350909
455297270.0 0.0479459235 -0.0229512563 0.4659946449 -0.6433413316 0.4660572724 -0.6433310446 0.0476176241 -0.0232209924
460297240.0 0.0480344545 -0.0233179148 0.459025647 -0.6489072616 0.4580946663 -0.6489454265 0.0472560779 -0.0240387487
465297210.0 0.0476073343 -0.0240366311 0.4506821168 -0.6537857085 0.4511680436 -0.6538297851 0.0476348131 -0.0237463363
470297180.0 0.0472556442 -0.024955963 0.4443586697 -0.658824891 0.4444518522 -0.6582334725 0.047243904 -0.0250913584
475297150.0 0.0465932716 -0.0248990107 0.4364243904 -0.6634297773 0.4371777798 -0.6639896125 0.0465851642 -0.0254429463
480297120.0 0.0467575696 -0.0250503359 0.4297246844 -0.6682382842 0.4298006901 -0.6683787558 0.0459242352 -0.0260461031
485297090.0 0.0462065936 -0.0270337993 0.422167153 -0.6733810076 0.4224768309 -0.673360579 0.0456913738 -0.0261657319
490297060.0 0.0461417524 -0.0266974701 0.4142546113 -0.6777945537 0.4152464302 -0.6779690402 0.0453421906 -0.0269234045
495297030.0 0.0451639131 -0.0279205753 0.4076309382 -0.682444544 0.4075932006 -0.6829957897 0.0453639942 -0.0274136215
500297000.0 0.0445760976 -0.0278858395 0.4002163292 -0.686515727 0.4001748611 -0.6867560834 0.0449030472 -0.0276243378
505296970.0 0.045041104 -0.0284316517 0.3927064106 -0.6912775328 0.3929447189 -0.6910924017 0.0446665391 -0.0290046622
510296940.0 0.0443159165 -0.0289128851 0.3849251973 -0.6959768337 0.3853515381 -0.696237206 0.0441701935 -0.0287248771
515296910.0 0.0439915712 -0.0291577484 0.3772950405 -0.6998651528 0.3768752783 -0.6997549991 0.0438885727 -0.0301026734
520296880.0 0.0431206255 -0.0293531395 0.3693895555 -0.7037717697 0.3689625685 -0.7035155911 0.0439490071 -0.0295423423
525296850.0 0.0435005858 -0.0302173921 0.3620729078 -0.7076535962 0.3616192309 -0.7077826458 0.0435568229 -0.0305189138
530296820.0 0.0428734934 -0.0310947278 0.3535100401 -0.7123305213 0.3542761309 -0.7121065891 0.0430251114 -0.0313185933
535296790.0 0.043011458 -0.0313377096 0.3461937991 -0.7154312276 0.3466741314 -0.7158261931 0.0430964159 -0.0310141491
540296760.0 0.0420544927 -0.0312650033 0.3378324363 -0.7193822708 0.3383245135 -0.7191872025 0.0422817545 -0.0322475603
545296730.0 0.0409476629 -0.0319153295 0.3299324476 -0.7228963975 0.3301242012 -0.7228367401 0.0419228509 -0.0323056847
550296700.0 0.0415509005 -0.0320986681 0.3224522768 -0.726599444 0.3221845604 -0.7269447086 0.0417401859 -0.0329189362
555296670.0 0.0409043881 -0.0326730225 0.3141523061 -0.7306613136 0.3149018269 -0.7304424513 0.0408442273 -0.0339016704
560296640.0 0.0412647114 -0.0332346088 0.3062621739 -0.7334528526 0.306944929 -0.7333385783 0.040262185 -0.0336513441
565296610.0 0.0395657873 -0.033646536 0.2987210395 -0.7375145988 0.2988582305 -0.7366322131 0.0403033618 -0.0338918287
570296580.0 0.0396887315 -0.0338397324 0.2897432893 -0.7402927894 0.2901850765 -0.7403663286 0.0396131401 -0.0347262217
575296550.0 0.0391499131 -0.0343725978 0.2826268395 -0.743193131 0.2826367437 -0.7434674338 0.0390243682 -0.0350248667
580296520.0 0.0388997468 -0.0343691528 0.2742168022 -0.7464669139 0.2741979875 -0.7466857279 0.038251857 -0.0354239222
585296490.0 0.0384296994 -0.0347729769 0.2661892954 -0.7493176131 0.265443315 -0.7490560504 0.0386186697 -0.0355517625
590296460.0 0.0387145031 -0.0349421982 0.2578730325 -0.7523449499 0.2576650186 -0.7526321942 0.0375918754 -0.035989499
595296430.0 0.0377122898 -0.0354711556 0.2489784953 -0.75521789 0.2490766811 -0.7556850707 0.0374447842 -0.0369860115
600296400.0 0.0376241089 -0.0356813982 0.2409486354 -0.7574548808 0.2412177901 -0.7578060188 0.0369154084 -0.0374185759
605296370.0 0.0362464924 -0.0359040154 0.2333129581 -0.7605446376 0.2326647577 -0.7606840752 0.0359694079 -0.0373538199
610296340.0 0.0363546221 -0.0356964967 0.2240999724 -0.7621971729 0.2250078977 -0.7626650719 0.0352634069 -0.0373990737
615296310.0 0.0364653687 -0.0363292963 0.2164458465 -0.7656284217 0.215596393 -0.7649609752 0.0355300267 -0.0375392205
620296280.0 0.0351812064 -0.0361397554 0.2072279683 -0.7677497626 0.2076218648 -0.767220465 0.0342294988 -0.0380804111
625296250.0 0.0347484807 -0.0368082545 0.1992307401 -0.7698292413 0.1995538617 -0.7703483689 0.0336466452 -0.0386684378
630296220.0 0.034350958 -0.0368636514 0.1906578158 -0.7727577913 0.1908439561 -0.7718463665 0.0336861756 -0.038879845
635296190.0 0.0333339387 -0.0368461557 0.1822675615 -0.7738239265 0.1819973676 -0.7735765617 0.0329340048 -0.039085587
640296160.0 0.0330235941 -0.0372966813 0.1737780905 -0.7761925349 0.1739131609 -0.7758718173 0.0319575389 -0.0395393132
645296130.0 0.0332558993 -0.0368480481 0.164893439 -0.7775111011 0.1659253872 -0.7779004075 0.0314179907 -0.0404759668
650296100.0 0.0322917014 -0.0374542393 0.1574710725 -0.7798592567 0.1569073354 -0.7800005079 0.0318317097 -0.0402925768
655296070.0 0.0319975404 -0.0373767097 0.1477400203 -0.781029568 0.1483942567 -0.7808553213 0.0302417384 -0.0399255932
660296040.0 0.0312390098 -0.037517044 0.1400086271 -0.7830028566 0.1401719523 -0.7828325154 0.0298073251 -0.0412118003
665296010.0 0.0307928445 -0.0378186176 0.1309969602 -0.783620223 0.1310102666 -0.7840332371 0.0294340596 -0.0409710885
670295980.0 0.0304066278 -0.0379917866 0.122320255 -0.7857949671 0.1226357559 -0.7847840122 0.0282086835 -0.0413828479
675295950.0 0.0296503762 -0.0380772734 0.1141709767 -0.7865204869 0.1144948983 -0.7871579431 0.027727594 -0.0414283155
680295920.0 0.029209333 -0.0382322319 0.1055915605 -0.7878536249 0.1059072701 -0.7881017311 0.0276643861 -0.0419314671
685295890.0 0.0287174724 -0.03787803 0.0959579589 -0.7892975978 0.0970627101 -0.7891254214 0.0271738042 -0.0416183492
690295860.0 0.0276453153 -0.0378416185 0.0880731583 -0.7898752532 0.0883405828 -0.7902337623 0.0259924744 -0.0421952666
695295830.0 0.0272133709 -0.0385029222 0.0803037227 -0.7911789727 0.0795578495 -0.790581294 0.0255291586 -0.0419926692
700295800.0 0.0269646511 -0.0381267223 0.0717197987 -0.7918830493 0.0716260761 -0.7921584393 0.0249631391 -0.042047803
705295770.0 0.026062198 -0.0384689105 0.0621715718 -0.7931832411 0.063039091 -0.7920980487 0.024271222 -0.042024641
710295740.0 0.0255598633 -0.0388534231 0.0540750232 -0.7931490908 0.0541045489 -0.7933235983 0.0238801757 -0.0422028463
715295710.0 0.0249447817 -0.038123857 0.0451097243 -0.7937766708 0.045309982 -0.7939647647 0.0231850242 -0.0425747096
720295680.0 0.0246981909 -0.0382135692 0.0361389596 -0.7938198101 0.0366765566 -0.794709787 0.0223441565 -0.0428434602
725295650.0 0.0233081476 -0.0382194116 0.0279735414 -0.7947364207 0.0285462087 -0.7943464688 0.0213878135 -0.0421630975
730295620.0 0.0223898484 -0.0389656012 0.0192582429 -0.7941626477 0.0195093211 -0.7939970208 0.0208429189 -0.0421263732
735295590.0 0.0225476382 -0.0385844485 0.0110257116 -0.7956228826 0.0108710163 -0.7947959966 0.0198540397 -0.0429096648
740295560.0 0.0218659142 -0.0387852849 0.0027244238 -0.7949463714 0.0028301134 -0.7954081026 0.0190068675 -0.0425155793
745295530.0 0.02097155 -0.0384618702 -0.0062869204 -0.7940591351 -0.005493453 -0.7951017493 0.0177234611 -0.0426910395
750295500.0 0.0203489186 -0.0385865463 -0.0145583714 -0.7948663385 -0.014851198 -0.7945096262 0.0176884267 -0.0427716899
755295470.0 0.0195171845 -0.0384025595 -0.0229110558 -0.7946795391 -0.0233110795 -0.7946121523 0.0175581279 -0.042244027
760295440.0 0.0186856246 -0.0378285167 -0.0329905944 -0.7939204589 -0.0323535127 -0.7938304689 0.0168402738 -0.0435979109
765295410.0 0.0189191198 -0.0384591181 -0.0406880499 -0.7938950806 -0.0404903825 -0.7936558745 0.0160680075 -0.0429941205
770295380.0 0.01809473 -0.0380650388 -0.0489488373 -0.792535235 -0.049068436 -0.7939904399 0.0150078897 -0.0427465544
775295350.0 0.0172779314 -0.0384983965 -0.0577208983 -0.7931747871 -0.0574186083 -0.7924575091 0.0148926652 -0.0427204546
780295320.0 0.016431144 -0.0381821576 -0.0662013995 -0.7914067079 -0.0660094311 -0.7917154234 0.0144929339 -0.0429004161
785295290.0 0.0157844544 -0.0381989245 -0.0751559131 -0.7909196762 -0.0752007227 -0.7910161091 0.0128524134 -0.0421446889
790295260.0 0.0155097246 -0.0386445913 -0.0837537865 -0.790104655 -0.0831799102 -0.7905956466 0.0125514462 -0.0418927163
795295230.0 0.0147515683 -0.0384156792 -0.0920975029 -0.7897088449 -0.0920888335 -0.7900681384 0.012095791 -0.0429961583
800295200.0 0.0134802508 -0.03790454 -0.1000913833 -0.7878509427 -0.1007453766 -0.787961756 0.0112220151 -0.0423801168
805295170.0 0.0128505877 -0.0383252456 -0.1087469434 -0.7868947248 -0.1088626703 -0.78733796 0.0113769224 -0.0421033828
810295140.0 0.0128951781 -0.0380171187 -0.1177743758 -0.7858392299 -0.1177656987 -0.7858745323 0.0104470029 -0.0422588161
815295110.0 0.0118649939 -0.0378513757 -0.1262080062 -0.7847237493 -0.1254478412 -0.7846111023 0.0094474427 -0.042024931
820295080.0 0.0114751804 -0.0377959126 -0.1335878751 -0.7827011549 -0.1344253242 -0.7831928093 0.0079696987 -0.0410374869
825295050.0 0.0102964604 -0.0378481435 -0.1429448638 -0.7813406607 -0.1430038278 -0.7815382028 0.0085329072 -0.0411263469
830295020.0 0.0097475898 -0.0378326078 -0.1514138306 -0.7798627546 -0.1513747744 -0.7801306267 0.0074093031 -0.0414880366
