!Created with skrf (http://scikit-rf.org).
# Hz S RI R 50.0 
!freq ReS11 ImS11 ReS21 ImS21 ReS12 ImS12 ReS22 ImS22
300000.0 -0.2412227262 -0.0770135158 0.4736938571 0.052038957 0.4681536591 0.0506139459 -0.2410025628 -0.0920562929
5299970.0 -0.2443722256 0.0072388654 0.4734581372 0.004818972 0.4734493353 0.0049886793 -0.2440830673 0.0073456798
10299940.0 -0.2410379117 0.0186976678 0.4753203396 0.0064178515 0.47568457 0.0065650915 -0.2408039517 0.0203690894
15299910.0 -0.2370156324 0.0280901658 0.4793169301 0.0076482153 0.4795248034 0.0076077528 -0.2362978814 0.0298220294
20299880.0 -0.2319897961 0.0356399254 0.4840844666 0.008370355 0.4837780901 0.0083040405 -0.2310570889 0.0374041394
25299850.0 -0.2269577887 0.0421260747 0.4892234427 0.0073725803 0.4888744791 0.0074224244 -0.2250333221 0.0438857621
30299820.0 -0.2212836079 0.0472046676 0.4942812541 0.005021586 0.4946877223 0.0050143584 -0.2190450969 0.0495599493
35299790.0 -0.2162130592 0.0513901234 0.4995050543 0.002018429 0.5000537484 0.0020159481 -0.2135420938 0.053185083
40299760.0 -0.2113604498 0.0549785578 0.5049377924 -0.0020931331 0.5050674126 -0.0019541257 -0.2082021393 0.0561341429
45299730.0 -0.2065732187 0.0577634911 0.5092959185 -0.0064368185 0.5099569373 -0.0063987254 -0.2032712456 0.058934087
50299700.0 -0.20244119 0.0599427719 0.5142042186 -0.0121745886 0.5139153624 -0.0117483557 -0.1985111979 0.0607378727
55299670.0 -0.1982072528 0.0617119043 0.5181333884 -0.0183812455 0.51798305 -0.0180918191 -0.1946194259 0.0623400696
60299640.0 -0.194136977 0.063671302 0.5207030795 -0.0242783877 0.5218082063 -0.0240060233 -0.1906632562 0.0632185533
65299610.0 -0.1910024409 0.0648322783 0.523893036 -0.0306937484 0.5242926461 -0.0307053107 -0.1870407144 0.0641573215
70299580.0 -0.1879829207 0.0661372 0.5265951188 -0.03740131 0.5261926033 -0.0371196287 -0.1838136637 0.0650077513
75299550.0 -0.1851719566 0.0671740308 0.5287487536 -0.0442053113 0.528421177 -0.044178504 -0.1811359376 0.0652300943
80299520.0 -0.1822675885 0.0681241037 0.5302333882 -0.0508430048 0.5307998942 -0.0514467555 -0.1785211995 0.0661567383
85299490.0 -0.1800820293 0.0689303798 0.5315437107 -0.0574905936 0.5318488561 -0.0573582521 -0.1762917243 0.0661804494
90299460.0 -0.1780272177 0.0697470962 0.5325458095 -0.0647989361 0.5330724377 -0.0651462981 -0.17353822 0.0669152738
95299430.0 -0.175747549 0.070528559 0.5337861367 -0.0719269044 0.5338068139 -0.0721814947 -0.1714579818 0.067426241
100299400.0 -0.1739538548 0.0715296281 0.533637926 -0.0784286192 0.5338114688 -0.0786434247 -0.1695758886 0.0671741217
105299370.0 -0.1720089581 0.0723792156 0.5339838469 -0.0856860277 0.5347722639 -0.0860050344 -0.1677217538 0.0680722456
110299340.0 -0.1703170904 0.0732950039 0.534771781 -0.0923985408 0.5343435942 -0.0921419556 -0.1665762926 0.0682724406
115299310.0 -0.1688626284 0.0740947396 0.5345530782 -0.099306969 0.534564481 -0.0992647007 -0.1648110955 0.068695771
120299280.0 -0.167514591 0.0747573983 0.5343460938 -0.1061743066 0.5341555739 -0.1060972909 -0.1636019139 0.0693787885
125299250.0 -0.1660962279 0.0755775807 0.5338702353 -0.112471507 0.5338031965 -0.1125143742 -0.1624394273 0.0695750666
130299220.0 -0.1651598907 0.0768236406 0.5335012059 -0.1197282933 0.5333049365 -0.1196567609 -0.1614019535 0.0704062851
135299190.0 -0.1637776411 0.0782802297 0.5327593838 -0.126229714 0.5327052259 -0.1262008415 -0.1597900737 0.0712064179
140299160.0 -0.1627285934 0.0788998923 0.5319058405 -0.1328397766 0.5318683069 -0.1329274846 -0.1586741133 0.0720391509
145299130.0 -0.1613301726 0.0798658619 0.5309818722 -0.1392988904 0.5308491158 -0.1394875123 -0.1577007043 0.0729168922
150299100.0 -0.1600843385 0.0809824704 0.5295754529 -0.1455842671 0.5296103303 -0.1455325264 -0.1568426711 0.0736926787
155299070.0 -0.1595529115 0.0820235704 0.5287103792 -0.1527613342 0.5282388366 -0.1524214135 -0.1560210192 0.0747568655
160299040.0 -0.1580177152 0.0833830223 0.5273379573 -0.1589219949 0.5265726917 -0.1588824799 -0.1555623124 0.0753468512
165299010.0 -0.157428238 0.0847002746 0.5258291177 -0.1656456441 0.5258034603 -0.1657853 -0.1542237154 0.076471748
170298980.0 -0.1565537198 0.0857737865 0.5243735811 -0.1718571405 0.5245435193 -0.1717823058 -0.1536302694 0.0775216958
175298950.0 -0.1558587443 0.0868329605 0.5227080446 -0.1777950449 0.5224480204 -0.1778459222 -0.1531328943 0.0786675154
180298920.0 -0.1544770407 0.08824911 0.5207453926 -0.184274414 0.520578537 -0.1841261682 -0.1519539199 0.0797652699
185298890.0 -0.1532245093 0.0894383835 0.5190449843 -0.1902562613 0.5188921884 -0.1903752239 -0.1511246563 0.0808003691
190298860.0 -0.1526931396 0.0908354476 0.5172107167 -0.1965940034 0.5173113019 -0.1968267942 -0.1509668654 0.0816807602
195298830.0 -0.1518083525 0.0922596049 0.5150630791 -0.2029285314 0.5153308834 -0.2026422104 -0.1497170219 0.082859901
200298800.0 -0.1509885512 0.093720942 0.513129134 -0.2089283034 0.5130529392 -0.2090939393 -0.1495063279 0.0841102031
205298770.0 -0.1499142344 0.0950285701 0.5105818214 -0.2152134015 0.5107384177 -0.2148485893 -0.1485396607 0.0848140081
210298740.0 -0.1488182217 0.0963478744 0.5085504951 -0.2205876506 0.5082744275 -0.2205693832 -0.1476410206 0.086270994
215298710.0 -0.1484179407 0.0979591186 0.5063684879 -0.227220106 0.5058821306 -0.2271963879 -0.1470915776 0.0876747775
220298680.0 -0.1471214544 0.0988398402 0.5037429238 -0.2324614193 0.503581919 -0.2325601908 -0.1466754625 0.0886579612
225298650.0 -0.1460347235 0.1003397783 0.5012088105 -0.2389784604 0.5016382813 -0.238939241 -0.1460909573 0.089902826
230298620.0 -0.1450356272 0.1020089166 0.4988645 -0.2441646518 0.4993184933 -0.2444787028 -0.1457596476 0.0907651596
235298590.0 -0.1439172929 0.1037593593 0.4964179601 -0.2504027517 0.4960951139 -0.249931384 -0.1444848 0.0920324778
240298560.0 -0.1430929443 0.1049790412 0.4933839482 -0.2558327639 0.4938028465 -0.256275905 -0.1441998021 0.0936054954
245298530.0 -0.1420583058 0.1064608856 0.4913242588 -0.261922234 0.4904550649 -0.2616527372 -0.1428040399 0.0942667513
250298500.0 -0.1410024454 0.1078376425 0.4875754732 -0.2675640398 0.4874247013 -0.2670472022 -0.1424450811 0.0958501855
255298470.0 -0.1400517223 0.1091988526 0.4849057409 -0.2727574576 0.4850519823 -0.2728990427 -0.1415409937 0.0966236703
260298440.0 -0.1391063036 0.1106421343 0.4814574157 -0.2786943523 0.4821905549 -0.2786443694 -0.1406924303 0.0981740444
265298410.0 -0.1375713092 0.1126242724 0.4787786194 -0.2843006697 0.4789750118 -0.2837204941 -0.1398520086 0.0996077778
270298380.0 -0.1367330558 0.1136791371 0.4759975095 -0.2890262358 0.4761445593 -0.2891814297 -0.1392010576 0.1005815134
275298350.0 -0.1352881585 0.1152208067 0.4727808547 -0.2948806314 0.4730287569 -0.2947299155 -0.1380869943 0.1015771806
280298320.0 -0.1339927771 0.116771376 0.46982191 -0.3006730412 0.4696129277 -0.2999755338 -0.1370100997 0.1029717719
285298290.0 -0.133025959 0.1183817053 0.4666422698 -0.3053976985 0.4658095223 -0.3055136471 -0.1360232675 0.1043889979
290298260.0 -0.1313466238 0.119437593 0.4628024939 -0.3104869311 0.4629282009 -0.3105914263 -0.1350846706 0.1060373272
295298230.0 -0.1302757259 0.1209441049 0.4596025027 -0.3159710092 0.4594883304 -0.3160820569 -0.1338420141 0.1067068434
300298200.0 -0.1293270108 0.1223099559 0.4564497234 -0.3207530266 0.4567014125 -0.3216318729 -0.1330657038 0.1079042237
305298170.0 -0.1275698519 0.1235736232 0.4521345401 -0.3269125223 0.45253464 -0.3262973313 -0.1314219875 0.1090031105
310298140.0 -0.1264252995 0.1252666144 0.4491965896 -0.3318041444 0.4491015206 -0.3316529795 -0.1305761945 0.1103259023
315298110.0 -0.1250948292 0.1259912626 0.4450697462 -0.3367801002 0.4456787461 -0.3369629769 -0.1297566575 0.1113282102
320298080.0 -0.1235804289 0.1274299685 0.4409211408 -0.3422848815 0.4417597709 -0.3421402565 -0.1287436299 0.1126436029
325298050.0 -0.1225435901 0.1286486528 0.4376974865 -0.3472219153 0.4379737933 -0.3470064204 -0.1279454372 0.1135499483
330298020.0 -0.1215528846 0.1301101959 0.4337382883 -0.3521831247 0.4340739776 -0.3520940169 -0.1271378725 0.1151419193
335297990.0 -0.1201565221 0.1311564354 0.4301529577 -0.3567012645 0.429856958 -0.3571441282 -0.1264576094 0.117189936
340297960.0 -0.1193272206 0.1328756819 0.4253805479 -0.3613788446 0.4253609284 -0.3616712835 -0.124882283 0.1180158415
345297930.0 -0.1179305835 0.1345467028 0.4215087068 -0.3667043107 0.4215548301 -0.3665596594 -0.1241887384 0.1190827829
350297900.0 -0.116617719 0.1357617631 0.4169002526 -0.3713644453 0.4173050023 -0.3707559793 -0.1235608891 0.1210859944
355297870.0 -0.1148836803 0.1375117344 0.4130433911 -0.375679481 0.413216986 -0.3755550106 -0.122453132 0.1219539087
360297840.0 -0.1138476588 0.1390004865 0.4097597236 -0.3802099569 0.4093240454 -0.379883896 -0.1213648402 0.1236986831
365297810.0 -0.1124969878 0.1403533979 0.4049635167 -0.3846378212 0.4050389068 -0.3849539624 -0.1200764398 0.1249230128
370297780.0 -0.1105464347 0.1414205259 0.4003071401 -0.3889536619 0.4008691295 -0.38866844 -0.1190765831 0.126499893
375297750.0 -0.1093345843 0.1428326069 0.3963382811 -0.3934328719 0.3964588577 -0.3935515772 -0.1178691862 0.1272798776
380297720.0 -0.1076918302 0.1437791541 0.3918321351 -0.3981623123 0.392103502 -0.3971944339 -0.1171598562 0.1288421433
385297690.0 -0.1067683715 0.145566345 0.3872794133 -0.4022408466 0.387250718 -0.4019518114 -0.1158456781 0.1300836067
390297660.0 -0.1046812657 0.1467910959 0.382993887 -0.4064986174 0.3825804662 -0.4062884322 -0.1148634994 0.1312094295
395297630.0 -0.1032858884 0.1483685069 0.3786615884 -0.4105261328 0.3785634824 -0.4105225925 -0.1132502839 0.13232661
400297600.0 -0.1017157215 0.1494955973 0.3732496887 -0.4149405807 0.3741234953 -0.4147616873 -0.1123312678 0.1337193048
405297570.0 -0.1003266362 0.1506534944 0.3695983008 -0.4184862785 0.3693842828 -0.4186376475 -0.1114624049 0.1350844034
410297540.0 -0.0984564084 0.1518161911 0.3647467186 -0.4226440608 0.3652811412 -0.4230403776 -0.1100698556 0.1365523074
415297510.0 -0.096596228 0.1529620193 0.3599909604 -0.4269875385 0.3603242622 -0.4268512863 -0.1086940752 0.1375365279
420297480.0 -0.0952289432 0.1543166831 0.3555143821 -0.4306453906 0.3551888923 -0.4308638795 -0.1074384923 0.1384980735
425297450.0 -0.0934447784 0.1555619245 0.3508561645 -0.4344847616 0.3510000953 -0.4347177721 -0.1063787735 0.1399742045
430297420.0 -0.0916332808 0.1565598924 0.3456314414 -0.4377606025 0.3460231798 -0.4378515206 -0.1051554647 0.1408456614
435297390.0 -0.0901169026 0.1577229642 0.3407272109 -0.441783965 0.3406841275 -0.4418888832 -0.1032827532 0.1417732953
440297360.0 -0.0885729799 0.1589605237 0.3361617722 -0.4458689633 0.3366148101 -0.4457380994 -0.1023901175 0.1427533695
445297330.0 -0.0867100254 0.1596203256 0.3314879249 -0.4490897016 0.3315144811 -0.4492227891 -0.100980179 0.1436957437
450297300.0 -0.0847175498 0.1608496676 0.3264094465 -0.4530789046 0.3262569211 -0.4531635843 -0.0997263351 0.1447706419
455297270.0 -0.0832632964 0.1622283859 0.3214374774 -0.4564606598 0.3216267869 -0.4564665807 -0.0980449524 0.1459734172
460297240.0 -0.0815002158 0.1630993317 0.3158525102 -0.4597133936 0.3165919383 -0.4602903678 -0.0969914906 0.1470845252
465297210.0 -0.0793362669 0.1641613455 0.3111684175 -0.4633262959 0.3113192751 -0.4636990778 -0.0949563038 0.1477168077
470297180.0 -0.077648559 0.164878421 0.305880423 -0.46653073 0.3061674234 -0.4670238419 -0.0937801922 0.1494965254
475297150.0 -0.0759489303 0.1659273111 0.300950003 -0.4695949115 0.301109643 -0.4698526755 -0.0919609371 0.149764427
480297120.0 -0.0742867954 0.1670419776 0.2958846723 -0.4734677179 0.2960779438 -0.4735958491 -0.0904831179 0.1511859438
485297090.0 -0.0724620065 0.168089295 0.2910759614 -0.4763966452 0.2907419924 -0.4760314068 -0.0890701459 0.1519207043
490297060.0 -0.07092425 0.1688372063 0.2863031962 -0.4797943655 0.286016606 -0.4791736528 -0.0877279268 0.1532992379
495297030.0 -0.0688823305 0.16985751 0.2799641533 -0.4825975105 0.280573867 -0.4826606029 -0.0863551243 0.154151264
500297000.0 -0.0670093952 0.1707131879 0.2748256601 -0.4851997683 0.2747775303 -0.4854721833 -0.0845183446 0.1558824884
505296970.0 -0.0648141072 0.1714170085 0.2698339917 -0.4883038959 0.2693842211 -0.4885107096 -0.0832848285 0.1562938763
510296940.0 -0.0631016373 0.1728563072 0.2643089208 -0.4915245187 0.2641913546 -0.4913086985 -0.08125967 0.1576459965
515296910.0 -0.0613580939 0.1733836469 0.2588246925 -0.4939948866 0.2590865734 -0.494225513 -0.0800983612 0.1585027297
520296880.0 -0.0596547565 0.1742864884 0.2535369523 -0.4973964921 0.2533904739 -0.4968261361 -0.0786563445 0.1590898018
525296850.0 -0.0574100335 0.1744436349 0.2480581758 -0.4994275614 0.248160337 -0.4996255715 -0.077082069 0.1601899665
530296820.0 -0.0555895276 0.175543688 0.2426471856 -0.5027424794 0.2423986859 -0.5022682484 -0.0755852414 0.1616097952
535296790.0 -0.0536784043 0.1763755376 0.2376036446 -0.504755376 0.2374614689 -0.5045556658 -0.074070213 0.1619470004
540296760.0 -0.0518925802 0.1774274985 0.2317447089 -0.5079234529 0.2315839942 -0.5077345903 -0.0728012657 0.1632680477
545296730.0 -0.0497768774 0.1778873902 0.2259894078 -0.5098653131 0.2258988746 -0.5100790219 -0.0711636432 0.1639187427
550296700.0 -0.0475182307 0.1787434023 0.2206997175 -0.5124227398 0.2205550476 -0.512703822 -0.0694899505 0.1650917126
555296670.0 -0.045757514 0.1788794163 0.214799112 -0.514883083 0.2151803768 -0.5147339818 -0.0680017524 0.1660342524
560296640.0 -0.0435338755 0.1800142528 0.2093710728 -0.5169667633 0.2096445727 -0.5168722526 -0.0665071581 0.1665248278
565296610.0 -0.0421137791 0.1804064153 0.2035182578 -0.5191220129 0.2041597784 -0.5191617502 -0.0651605368 0.1674278502
570296580.0 -0.0399626854 0.1811512725 0.1979636501 -0.5218190495 0.1972712672 -0.5215223049 -0.0634160712 0.1685838033
575296550.0 -0.0383248684 0.1818735271 0.1927157368 -0.52345857 0.1921924351 -0.5235432315 -0.0618960208 0.1689368203
580296520.0 -0.0357794751 0.1823941091 0.1867085094 -0.5258491319 0.1867688696 -0.5254694785 -0.0599730438 0.1695186124
585296490.0 -0.0338911838 0.1828844636 0.1812785248 -0.5273203926 0.1810968279 -0.5276503288 -0.0586433728 0.1706522796
590296460.0 -0.0315478549 0.1834190611 0.1753675199 -0.5288446555 0.1756446142 -0.529039181 -0.0572408504 0.1711454061
595296430.0 -0.0298726987 0.1838878479 0.169155685 -0.5314733528 0.1694348509 -0.5313782991 -0.055456984 0.1711798836
600296400.0 -0.0280611868 0.1843812664 0.1637834916 -0.5331540026 0.1638028943 -0.5328015942 -0.0539492122 0.1720900555
605296370.0 -0.0260259238 0.1848056224 0.1580817663 -0.5348878172 0.158284209 -0.5346739768 -0.0521815083 0.1728691782
610296340.0 -0.0238260461 0.1850781349 0.1516125644 -0.5361940586 0.1524427287 -0.5364567869 -0.0502424881 0.1732752805
615296310.0 -0.0214136243 0.1852474372 0.145997471 -0.5375150585 0.1460319627 -0.5385263057 -0.0486271095 0.1739182923
620296280.0 -0.0194808937 0.1855320783 0.1407481717 -0.5391422923 0.1401688664 -0.5396251232 -0.0472326423 0.174626929
625296250.0 -0.0179319841 0.1857308138 0.1351242399 -0.5412381257 0.134454092 -0.5412183085 -0.0448478918 0.1750491143
630296220.0 -0.014779116 0.186476663 0.128119297 -0.5423566138 0.1285614155 -0.5421781288 -0.0433940065 0.1761011415
635296190.0 -0.0138806441 0.1866001876 0.1225441307 -0.5431947272 0.1226273466 -0.543822548 -0.0414171878 0.1761794667
640296160.0 -0.0117872989 0.1871776424 0.1168851697 -0.5448394502 0.1167996035 -0.5450173058 -0.0398451899 0.1766687595
645296130.0 -0.0092437043 0.1874160145 0.1109379336 -0.546049106 0.1109580653 -0.5463222943 -0.0381642658 0.1776539442
650296100.0 -0.0073477172 0.187279612 0.1050932805 -0.5466341448 0.1051204608 -0.5474253897 -0.036046163 0.1774432226
655296070.0 -0.005560497 0.1876462628 0.0990562406 -0.5481567306 0.0992757745 -0.5483139268 -0.0342608439 0.178079128
660296040.0 -0.0035373913 0.187420254 0.0933911051 -0.5491183375 0.0933622541 -0.54975972 -0.0322101091 0.1788469561
665296010.0 -0.0008629 0.1878030723 0.0869166777 -0.5503170584 0.0873771431 -0.5501075512 -0.0308115856 0.1796545068
670295980.0 0.00023653 0.1881202728 0.081082669 -0.5507958992 0.0813930123 -0.5507959898 -0.0294613529 0.1799967246
675295950.0 0.0029209065 0.188369234 0.0753937788 -0.5516640071 0.075605751 -0.5513389292 -0.0275376507 0.1806703276
680295920.0 0.0046725622 0.1882274466 0.0693314231 -0.5524683582 0.0689445504 -0.553243377 -0.0254032286 0.1817540562
685295890.0 0.0070396811 0.188785797 0.0634182054 -0.5532976589 0.0627211047 -0.55341069 -0.0236126193 0.1815265235
690295860.0 0.0092671677 0.1888322248 0.0573830919 -0.5537121521 0.0572138339 -0.5540098461 -0.022460118 0.1823609444
695295830.0 0.0110414026 0.1887135222 0.0519570545 -0.5542987079 0.0511439388 -0.5545420857 -0.0202293667 0.1826959966
700295800.0 0.0134698693 0.1881982668 0.0452737749 -0.5544025898 0.0452451233 -0.5548725218 -0.018913213 0.1831104097
705295770.0 0.0150318461 0.1891812342 0.0393562429 -0.5553393835 0.0395406923 -0.5556353351 -0.0169793654 0.183641741
710295740.0 0.0173063136 0.1886551617 0.0339498891 -0.5561263986 0.0337846022 -0.5562110334 -0.0150998821 0.1833304647
715295710.0 0.0190768123 0.1885503652 0.0280133135 -0.555906984 0.0273994586 -0.5562347868 -0.013367523 0.1839123008
720295680.0 0.0210669532 0.1888338781 0.0220419407 -0.5569666827 0.021658261 -0.5560920655 -0.0116318972 0.184551422
725295650.0 0.0236229805 0.1885704133 0.015158832 -0.5564447045 0.0154782237 -0.5568676143 -0.0101225455 0.1851767216
730295620.0 0.0260443768 0.1886275854 0.0092719035 -0.5562097223 0.0095318665 -0.5565990236 -0.0085241972 0.1848302642
735295590.0 0.0275814112 0.1883237721 0.0037100164 -0.5568183498 0.0032870501 -0.5564055345 -0.0069208677 0.1848840191
740295560.0 0.0298267319 0.1882640848 -0.0024489824 -0.5562598324 -0.0026575641 -0.556623878 -0.0044382479 0.1854860107
745295530.0 0.0319373403 0.1881995783 -0.0087492465 -0.5562663546 -0.0087962263 -0.556410215 -0.0029681125 0.1851568694
750295500.0 0.0340535618 0.1877328989 -0.0143876594 -0.5561087876 -0.014261873 -0.5565892102 -0.0010145026 0.1858975033
755295470.0 0.0361684639 0.1872924599 -0.0203884812 -0.555753241 -0.0204560931 -0.5565407479 0.001016284 0.1852611875
760295440.0 0.0376189301 0.187247436 -0.0260554526 -0.5558752217 -0.026496581 -0.5558206705 0.0024234069 0.1858601255
765295410.0 0.0400286538 0.186886658 -0.0324539913 -0.5553823506 -0.0330871611 -0.5559674876 0.004626118 0.1860955205
770295380.0 0.0421496203 0.1866469981 -0.0385654821 -0.555003017 -0.0386393688 -0.5547732756 0.0057678814 0.1856924288
775295350.0 0.0439631038 0.1856424733 -0.0445740181 -0.5543859341 -0.0441162009 -0.5543780648 0.0074067406 0.1862222513
780295320.0 0.0461913423 0.185909651 -0.0506320511 -0.5540477831 -0.0500064013 -0.5536829562 0.0094004002 0.1858051089
785295290.0 0.0478735429 0.1847696867 -0.0564199989 -0.5531345883 -0.0562090039 -0.5531163125 0.0118333502 0.1859675062
790295260.0 0.0506556793 0.1853358402 -0.062532724 -0.5530254946 -0.0616951851 -0.5522958604 0.0133532626 0.1859234337
795295230.0 0.0520125699 0.1842948073 -0.0678596903 -0.5514823653 -0.0678688403 -0.5517583014 0.0153607526 0.1864732802
800295200.0 0.0540385191 0.1842890869 -0.0744032934 -0.5508912714 -0.0743331087 -0.5512445324 0.0174615012 0.1858753692
805295170.0 0.0564345638 0.1834954322 -0.0802417249 -0.5501454838 -0.0803430563 -0.5504645926 0.0191841885 0.1860669488
810295140.0 0.0579100098 0.1827497782 -0.085939538 -0.5487099008 -0.0861405126 -0.5494273258 0.0210730391 0.1860699673
815295110.0 0.0601980398 0.181877578 -0.0919722172 -0.5478678822 -0.0915276674 -0.548075571 0.0227091309 0.1859703314
820295080.0 0.062111083 0.1821035437 -0.0979689398 -0.5469816775 -0.0977689616 -0.5472565 0.0248275571 0.1856944946
825295050.0 0.0646527098 0.1813567688 -0.1032868848 -0.5456758701 -0.1038998613 -0.5462170311 0.0269247542 0.18587742
830295020.0 0.0663454371 0.1810200658 -0.1095590506 -0.5447754061 -0.109690116 -0.5447663406 0.0290789456 0.1857698935
