!Created with skrf (http://scikit-rf.org).
# Hz S RI R 50.0 
!freq ReS11 ImS11 ReS21 ImS21 ReS12 ImS12 ReS22 ImS22
300000.0 -0.2416675486 -0.0984775882 0.4681685552 0.0653284442 0.4691781075 0.0686395844 -0.2372579868 -0.1066220677
5299970.0 -0.2437835844 0.0070738826 0.4736280666 0.0052680069 0.4736493074 0.0059160638 -0.2440644404 0.0059127232
10299940.0 -0.2405350762 0.0198832429 0.4761608796 0.0064773834 0.4757634692 0.0066000659 -0.2409366223 0.0185677059
15299910.0 -0.2360174167 0.0293509728 0.4795491435 0.0077688025 0.4791483655 0.0081472045 -0.2366126435 0.0276319808
20299880.0 -0.2305713258 0.0375513595 0.4844639186 0.0084442111 0.4839937139 0.0085813596 -0.2317977883 0.0354761012
25299850.0 -0.2246729346 0.0434724559 0.4891148108 0.0070840839 0.4897545014 0.0073939585 -0.2271905344 0.0415662052
30299820.0 -0.2189603683 0.048430558 0.4952343837 0.0054453299 0.4947764909 0.0055162041 -0.2214194576 0.0469553117
35299790.0 -0.2129706712 0.0529985975 0.5002339077 0.0023643984 0.5001101455 0.0021982741 -0.2162133052 0.0511020414
40299760.0 -0.2075281779 0.0555888947 0.5054661237 -0.0014817353 0.5057637341 -0.0016901004 -0.2115251569 0.0550024075
45299730.0 -0.2024376503 0.0585406249 0.5102513496 -0.0066910818 0.5099714359 -0.0064400714 -0.2066483358 0.0572394448
50299700.0 -0.1975927169 0.0601795844 0.5141088353 -0.0119675546 0.5142028895 -0.0123886222 -0.2020428658 0.0594214383
55299670.0 -0.1937031998 0.0619485035 0.51782771 -0.0181742927 0.518531747 -0.0177080615 -0.1985167406 0.0613797921
60299640.0 -0.1896902967 0.0624393184 0.5212870701 -0.0243005532 0.5215666689 -0.0239838895 -0.1947814898 0.0630923172
65299610.0 -0.1861485442 0.0639041415 0.5244262292 -0.0302921091 0.5245853016 -0.0306337923 -0.1910004441 0.0644698065
70299580.0 -0.1826588771 0.0643423365 0.526722823 -0.0370642841 0.5267713239 -0.0371890092 -0.1881288431 0.0656694395
75299550.0 -0.1794592586 0.065189403 0.5286476245 -0.0437963711 0.5287922924 -0.0440369087 -0.1848087695 0.0668157687
80299520.0 -0.1775074578 0.065903796 0.5310964643 -0.0507977274 0.5304139358 -0.0509155052 -0.1825555298 0.0674976834
85299490.0 -0.1746895254 0.0660504401 0.5318718979 -0.0578827776 0.5323194609 -0.0576372207 -0.1804832919 0.0683204192
90299460.0 -0.1725037926 0.0664523507 0.5331750605 -0.0640707509 0.5334356545 -0.065055555 -0.1776708072 0.0692809282
95299430.0 -0.170312412 0.0673229521 0.5342232997 -0.0720012087 0.5342848951 -0.0716351574 -0.1756950338 0.0701081976
100299400.0 -0.1686841736 0.067594791 0.5341610644 -0.0785452369 0.5341387796 -0.0787317601 -0.1742891131 0.0711342571
105299370.0 -0.1669933662 0.0679519187 0.5342755678 -0.0852111488 0.5346778862 -0.0857052687 -0.1719281914 0.0718175779
110299340.0 -0.1655154436 0.0684842086 0.5346089834 -0.092063674 0.5347629432 -0.09268991 -0.1705285883 0.0726330833
115299310.0 -0.1641930408 0.068657676 0.5348246234 -0.0990074227 0.5350054895 -0.0988464891 -0.1689580537 0.0730397123
120299280.0 -0.1629185809 0.0694634706 0.5350050782 -0.1061035531 0.5347636705 -0.1060890238 -0.1679984783 0.0742004088
125299250.0 -0.1617193004 0.0699293258 0.5342288687 -0.1123956794 0.5345251165 -0.1126772506 -0.1664517039 0.0749429281
130299220.0 -0.1605757497 0.0708385677 0.5338231935 -0.1190441005 0.5337695807 -0.1193347672 -0.165435749 0.0756929244
135299190.0 -0.1596106213 0.0711958492 0.5329131763 -0.1256927889 0.5327826997 -0.1260847584 -0.1641859457 0.0770176234
140299160.0 -0.1586895549 0.0724184273 0.5321284248 -0.1327653139 0.5325475208 -0.1327018367 -0.1627963475 0.077766665
145299130.0 -0.1575832254 0.0724779498 0.5315404585 -0.1391316846 0.5316011585 -0.1391250884 -0.162258 0.0787264777
150299100.0 -0.1567477424 0.0737622149 0.5303435125 -0.1458500495 0.5300087515 -0.145860229 -0.160934807 0.0797454647
155299070.0 -0.155776003 0.0747108501 0.528946131 -0.1526952635 0.5293203429 -0.1526847008 -0.1602355798 0.0812500351
160299040.0 -0.1549189352 0.0752128821 0.527383632 -0.1580915626 0.5278004638 -0.1591211623 -0.1590109138 0.0827538323
165299010.0 -0.1542695209 0.0759641014 0.5265019625 -0.1651730566 0.5266326752 -0.1652267544 -0.1582075187 0.0832112033
170298980.0 -0.1537957899 0.0772941043 0.524342693 -0.1717546361 0.5245812841 -0.1718170509 -0.1571199046 0.0844458555
175298950.0 -0.1527584377 0.0783610205 0.5235252299 -0.1776422108 0.5230352491 -0.1779192671 -0.1558515961 0.0854700831
180298920.0 -0.1516306932 0.0791338019 0.5212028602 -0.1841246706 0.5217009899 -0.1841923094 -0.154995573 0.0871018368
185298890.0 -0.151018853 0.0800713007 0.5192973042 -0.1908245131 0.5195278435 -0.1901041863 -0.154010686 0.08808792
190298860.0 -0.1505174093 0.0811109659 0.5175207099 -0.1965616836 0.5177888312 -0.1968447821 -0.1525443482 0.089531767
195298830.0 -0.1493565978 0.082044643 0.5154280666 -0.2024707699 0.5157217789 -0.2025137959 -0.1520110044 0.090540201
200298800.0 -0.1488211222 0.0833303948 0.5134259274 -0.2082100663 0.5137211847 -0.2084136649 -0.1508623122 0.0919633833
205298770.0 -0.1480099646 0.0844873101 0.5113743553 -0.2145739585 0.5116333134 -0.2149848538 -0.1502264087 0.0931885317
210298740.0 -0.1477099221 0.0856190127 0.5096390232 -0.2211385148 0.5094591016 -0.2213815702 -0.1493443837 0.0949991804
215298710.0 -0.1468116072 0.0865915053 0.5071272977 -0.2268310636 0.5069648675 -0.2268111541 -0.1486546912 0.0961418048
220298680.0 -0.1459534104 0.0881589889 0.5044150278 -0.2326635282 0.5044349629 -0.2329580927 -0.147124774 0.0978541566
225298650.0 -0.1448518701 0.0893214603 0.5017246214 -0.2384940952 0.5017652223 -0.2380938169 -0.1462257469 0.0989301025
230298620.0 -0.1446519735 0.0906503567 0.4997415188 -0.2445459105 0.4996846594 -0.2444941648 -0.1451246953 0.1005288394
235298590.0 -0.1436204656 0.0915950583 0.4970032885 -0.2498742767 0.4968791282 -0.2505983755 -0.1439785889 0.1016520493
240298560.0 -0.1431708624 0.0928503581 0.4943923431 -0.2555093171 0.4943990211 -0.255221649 -0.1427769655 0.1031777073
245298530.0 -0.1419188301 0.0941778912 0.4904475379 -0.2614610336 0.4913974345 -0.2616049558 -0.1420832032 0.1049938825
250298500.0 -0.1415330528 0.095372824 0.4885879231 -0.2666034786 0.4889137616 -0.266577882 -0.1404772794 0.1060576856
255298470.0 -0.1407142928 0.0965305688 0.4852565178 -0.2730448352 0.4855925491 -0.27247272 -0.1398104287 0.1072235811
260298440.0 -0.1398464716 0.0980765164 0.4827705186 -0.2778696222 0.4824553496 -0.2782218487 -0.1383047088 0.1088402539
265298410.0 -0.1389333598 0.099323454 0.4797135833 -0.2839527296 0.4793010202 -0.283863874 -0.1373489135 0.1100938804
270298380.0 -0.1377228213 0.1006532339 0.475928856 -0.2889676683 0.4767332984 -0.2894673036 -0.1362942311 0.1121106782
275298350.0 -0.1372051848 0.1019184392 0.4733409789 -0.2951655825 0.4736036094 -0.2948255975 -0.1348226036 0.11328681
280298320.0 -0.1364613137 0.1034268025 0.4700679552 -0.299649139 0.4699414419 -0.3002922618 -0.1335388997 0.1150011208
285298290.0 -0.1352275295 0.1050455452 0.4665333877 -0.3051702453 0.4667356849 -0.3052734089 -0.1323808184 0.1165267925
290298260.0 -0.1344096029 0.1060062292 0.4639859657 -0.3105470199 0.4636990901 -0.3106248812 -0.131036171 0.1179320784
295298230.0 -0.1333307342 0.107184214 0.4604332129 -0.3159649443 0.4600840151 -0.3161074827 -0.1295017548 0.1193334829
300298200.0 -0.132165497 0.1082891317 0.4568070151 -0.3212205346 0.4570225024 -0.3212368935 -0.1285690825 0.1208730647
305298170.0 -0.1311055096 0.1096243204 0.4533933945 -0.3268115542 0.4535744804 -0.3266027465 -0.1263805017 0.1222271154
310298140.0 -0.129728582 0.1105394513 0.4493677579 -0.3320813346 0.4499774441 -0.3323044264 -0.125616989 0.1240869344
315298110.0 -0.1294005246 0.1117090021 0.4459127477 -0.336583652 0.4463485989 -0.3371575307 -0.1239448769 0.1252614398
320298080.0 -0.128227585 0.1133234338 0.4426360464 -0.342225691 0.4426958437 -0.3419059176 -0.1226319377 0.1263069363
325298050.0 -0.1272298662 0.114094609 0.4387373341 -0.3471647544 0.4388527062 -0.3474329146 -0.1215787713 0.1277083836
330298020.0 -0.126350679 0.1156480049 0.4342514109 -0.352385944 0.4345324094 -0.3523131246 -0.120297954 0.1288882989
335297990.0 -0.1253276929 0.1166248445 0.430311247 -0.3572023905 0.4305170903 -0.3572176427 -0.1191921007 0.1304734871
340297960.0 -0.1247109058 0.1180214448 0.4260780744 -0.3619964277 0.426631961 -0.3615333023 -0.1177119193 0.1318477029
345297930.0 -0.1238960068 0.1194937328 0.42223931 -0.3659503171 0.4220272977 -0.3664113382 -0.1160429959 0.1331075302
350297900.0 -0.122386724 0.1209303921 0.418208501 -0.370878692 0.418383497 -0.3713164528 -0.115194685 0.1350869724
355297870.0 -0.1215929228 0.1220933849 0.41384361 -0.3755777675 0.4137124062 -0.3759193391 -0.1136626321 0.1365631607
360297840.0 -0.1201873165 0.1234970887 0.4097445619 -0.3804720758 0.4093971692 -0.3803873532 -0.1123704767 0.1376496706
365297810.0 -0.1191013301 0.124635539 0.4054324912 -0.3845080365 0.4054190508 -0.3847344264 -0.11079524 0.139590484
370297780.0 -0.1178658278 0.1258084747 0.4008555275 -0.3890057359 0.4011428073 -0.3892918944 -0.1092576534 0.1408125104
375297750.0 -0.1168844213 0.1273406859 0.3974407821 -0.3936935868 0.3970918266 -0.3940455303 -0.1074772135 0.1424632191
380297720.0 -0.115395873 0.1281700843 0.3928168323 -0.3977784229 0.3926109836 -0.3976357307 -0.1061050055 0.1437054139
385297690.0 -0.1142712808 0.1298529601 0.3881796149 -0.4018449869 0.388140548 -0.4022355047 -0.1046989421 0.1451726479
390297660.0 -0.1129633691 0.1312031338 0.3837083375 -0.4066402453 0.3838282405 -0.406847614 -0.1029956673 0.1462011497
395297630.0 -0.1117443387 0.1322003979 0.3793077175 -0.4108142816 0.3792157135 -0.4106176939 -0.1014140854 0.1481545662
400297600.0 -0.1108656249 0.1335946949 0.3746046098 -0.4149307279 0.3751321328 -0.4152232872 -0.1003604239 0.1490966243
405297570.0 -0.1090677897 0.134614591 0.3699576926 -0.4189673315 0.3702070378 -0.4189210869 -0.0985572745 0.150525634
410297540.0 -0.1079930139 0.1356994987 0.3648232195 -0.4230094128 0.3652030527 -0.4227487322 -0.0969787967 0.1517581169
415297510.0 -0.1068134106 0.1373995447 0.3608446471 -0.4267370953 0.360885617 -0.4268258892 -0.0950938037 0.1532983919
420297480.0 -0.1053860932 0.1381853146 0.355504718 -0.4310244173 0.3561137319 -0.4308435945 -0.0933436916 0.1543388096
425297450.0 -0.1039387002 0.1390633328 0.3512703551 -0.434456199 0.3515951731 -0.4348905678 -0.091590511 0.1558346729
430297420.0 -0.1029457814 0.1406708531 0.3469039667 -0.4391158404 0.3469480057 -0.438716556 -0.0904479215 0.1565163811
435297390.0 -0.1011050659 0.1415773125 0.3417627751 -0.4420908744 0.3422467749 -0.4421785616 -0.0886864707 0.1586089144
440297360.0 -0.0995504188 0.1424589669 0.3365116372 -0.4457099409 0.3368245717 -0.4457483335 -0.0869208888 0.1587713006
445297330.0 -0.0983160191 0.143712539 0.3316478966 -0.4498133212 0.3319938784 -0.4497827252 -0.0850537714 0.1602942272
450297300.0 -0.0968613597 0.1444934034 0.326796555 -0.4534610926 0.3271721205 -0.4534387676 -0.0833713958 0.1615503654
455297270.0 -0.0958164534 0.1458974134 0.3222700701 -0.4567777444 0.3224130809 -0.4567167582 -0.0815842395 0.1628089152
460297240.0 -0.0947138331 0.1469951784 0.3172446725 -0.4601349852 0.3170715149 -0.4602993061 -0.080058841 0.1642141314
465297210.0 -0.0928482927 0.1477224234 0.3121679098 -0.4638527199 0.3122538086 -0.4636267482 -0.0781839056 0.1647831705
470297180.0 -0.091675265 0.1489326838 0.307054522 -0.4671135682 0.307406595 -0.4670707089 -0.0768522501 0.1658700308
475297150.0 -0.0901956564 0.1497042074 0.3015348975 -0.4696622733 0.3017171258 -0.4703694074 -0.0746317094 0.1674046883
480297120.0 -0.0883140218 0.1503902363 0.2964004494 -0.4733490411 0.2968818764 -0.4733181602 -0.07309728 0.1687835047
485297090.0 -0.0867758322 0.1517404883 0.2912358916 -0.4767501588 0.2916081884 -0.4771544257 -0.0714344525 0.169235879
490297060.0 -0.0853961202 0.1523353102 0.2862932739 -0.4795585678 0.2863651879 -0.4802360951 -0.0694828306 0.1702198476
495297030.0 -0.0839492843 0.1538714622 0.2809476058 -0.4829225039 0.280498485 -0.4828403937 -0.0673501338 0.1709582299
500297000.0 -0.082212808 0.1540812908 0.2755441282 -0.4857402835 0.275805785 -0.4856200841 -0.065831353 0.1720464001
505296970.0 -0.0812027092 0.1552944561 0.2700283914 -0.4885837923 0.2701336494 -0.4886865256 -0.0642776726 0.1729457579
510296940.0 -0.0796147641 0.1564059859 0.2651491551 -0.4920046341 0.2652116348 -0.4917009033 -0.0618225276 0.1740000215
515296910.0 -0.0781735198 0.1574051369 0.2595293181 -0.4942804956 0.2596536646 -0.4946630116 -0.0604073386 0.1746402704
520296880.0 -0.076563196 0.1578719766 0.2537752925 -0.4969184649 0.2546436547 -0.496802646 -0.058223512 0.1754517583
525296850.0 -0.0749425796 0.1586182606 0.2487659345 -0.5000980856 0.2491664474 -0.5006156646 -0.0560308133 0.1766726725
530296820.0 -0.0735377066 0.1597616951 0.2437845838 -0.5023327684 0.2432211363 -0.5025187705 -0.0549161754 0.1766511385
535296790.0 -0.0717736904 0.1605593376 0.2376478641 -0.504661517 0.2382842901 -0.5047713951 -0.0526666921 0.1774595258
540296760.0 -0.0703527873 0.1612032998 0.2323501542 -0.507869194 0.2321434118 -0.5078532225 -0.0510381784 0.1786682884
545296730.0 -0.0688687219 0.1623316436 0.2265020912 -0.5099781726 0.2267911753 -0.5100659125 -0.0488624076 0.1790382997
550296700.0 -0.0673511328 0.1630836951 0.2212333454 -0.512821179 0.2219004267 -0.5127366471 -0.0470012691 0.1801223279
555296670.0 -0.0655179721 0.1637047004 0.216039795 -0.5150581116 0.2159267791 -0.51494785 -0.045375281 0.1808981173
560296640.0 -0.064151044 0.1645488931 0.2101763772 -0.5170513476 0.2106158298 -0.516941106 -0.0432563585 0.1815972301
565296610.0 -0.0627697208 0.1651148288 0.2045273292 -0.5194965609 0.2045148986 -0.5196601357 -0.0414071956 0.1821414823
570296580.0 -0.060688181 0.1657104438 0.1985651485 -0.5213360353 0.1992196671 -0.5216907761 -0.039590169 0.1830846793
575296550.0 -0.0593340536 0.1668694158 0.1932395441 -0.5232247567 0.1937197585 -0.5234476046 -0.0371594089 0.1834439609
580296520.0 -0.0577879062 0.1672803307 0.1877796589 -0.5257387705 0.1876173423 -0.5258237247 -0.0354359789 0.1837461131
585296490.0 -0.0558520926 0.1678635052 0.1821659957 -0.5276205472 0.1817548251 -0.5274102677 -0.0336582402 0.1839035688
590296460.0 -0.0548415626 0.1683458654 0.1764141153 -0.5293010786 0.1759409791 -0.5296371475 -0.031400446 0.1848911347
595296430.0 -0.0531656365 0.169372159 0.1704923738 -0.5312859564 0.1702515719 -0.5316305065 -0.0293578981 0.1853344852
600296400.0 -0.0512521031 0.1701662224 0.1644094351 -0.5330749103 0.1649698299 -0.5333140792 -0.0274822201 0.1858713155
605296370.0 -0.0494346367 0.1709435382 0.1590167795 -0.5346269347 0.1588168597 -0.5346636886 -0.0255943498 0.1859048414
610296340.0 -0.0480456904 0.1715291697 0.1534086536 -0.5364957325 0.1534445927 -0.5368921973 -0.0233693936 0.1871063438
615296310.0 -0.0465355855 0.1721134714 0.1471451084 -0.5380110918 0.1471870472 -0.538256107 -0.0212553767 0.1871959523
620296280.0 -0.0444970801 0.1721725911 0.1414197111 -0.5393698962 0.141350721 -0.5396040684 -0.0193416221 0.1874434962
625296250.0 -0.0428633318 0.173047367 0.1350703089 -0.5411667021 0.1354820047 -0.5412224182 -0.0171541014 0.1880577402
630296220.0 -0.0411722152 0.1739193494 0.1294007818 -0.5427266402 0.130094294 -0.5424224307 -0.0157528837 0.1882439262
635296190.0 -0.0392889098 0.1740814442 0.1234712258 -0.5432515721 0.1236629359 -0.5432265509 -0.0134010286 0.1882398688
640296160.0 -0.0379294067 0.1748347992 0.1182448129 -0.5452312687 0.1180253019 -0.5450814115 -0.010925143 0.1887748903
645296130.0 -0.0363695092 0.1753472283 0.111981753 -0.5465549209 0.1123897206 -0.5461660267 -0.0096843945 0.1886436575
650296100.0 -0.0345765656 0.1760216382 0.1067824471 -0.5471791388 0.1066142666 -0.5475178448 -0.0074238094 0.1895353589
655296070.0 -0.033003996 0.176183118 0.1002464432 -0.5484061204 0.1001966681 -0.5481599346 -0.0049942814 0.1896472595
660296040.0 -0.0315286296 0.1771009889 0.0944343178 -0.5491859299 0.0946785776 -0.5493058914 -0.0033224358 0.1896223892
665296010.0 -0.0291822982 0.1771597834 0.0883783044 -0.5507485878 0.089172021 -0.5506746854 -0.0015580467 0.1901825567
670295980.0 -0.0272926068 0.1776960599 0.082485309 -0.5513102756 0.082970457 -0.5511328325 0.0009901141 0.1898713754
675295950.0 -0.0259201428 0.1782319552 0.0765738932 -0.5525812124 0.0768850204 -0.5527040604 0.0030263328 0.1904254618
680295920.0 -0.0242246206 0.1787540506 0.0706753455 -0.5525435486 0.0702329242 -0.5530510704 0.0053070182 0.190242939
685295890.0 -0.0222616852 0.1789305746 0.0643374251 -0.553598919 0.0644769882 -0.553960359 0.0070505099 0.1906871548
690295860.0 -0.0203566219 0.1791225081 0.0588065273 -0.5535375673 0.0583389254 -0.5540289523 0.0094146287 0.1907085345
695295830.0 -0.0184826651 0.17946542 0.0519762884 -0.5550013623 0.0523937419 -0.554695004 0.0111470599 0.1904774404
700295800.0 -0.0165016822 0.1799167224 0.0462130964 -0.5551996014 0.0466245085 -0.555422053 0.013316103 0.1901742397
705295770.0 -0.0148713087 0.1803104234 0.040270484 -0.5557690154 0.0407029602 -0.5558072123 0.015233738 0.190596906
710295740.0 -0.0133455979 0.180762804 0.0346529494 -0.5560677937 0.0345728734 -0.5561408427 0.0167005615 0.1907311118
715295710.0 -0.0116953378 0.1809376454 0.0281196981 -0.55652191 0.0287297263 -0.5565677672 0.0193895781 0.1904366686
720295680.0 -0.0100219466 0.1808566224 0.0227357361 -0.5560249492 0.0223466573 -0.5570274616 0.0217718209 0.1905288534
725295650.0 -0.0077629033 0.1814395527 0.0164628477 -0.5565105849 0.0164602601 -0.5567557528 0.0236803925 0.1904376433
730295620.0 -0.0065327142 0.1816223783 0.0107629823 -0.556889098 0.0106629899 -0.5574140647 0.025840687 0.1896381168
735295590.0 -0.0040203444 0.181908719 0.0046779976 -0.5570612079 0.0049117041 -0.5569142137 0.0280634532 0.1899521664
740295560.0 -0.0025949912 0.1824497226 -0.0016104715 -0.5567182434 -0.0014554466 -0.5567629874 0.0301007139 0.1896441881
745295530.0 -0.0009865266 0.1820715443 -0.0075733352 -0.5568202921 -0.0072766809 -0.5569938238 0.0317218872 0.1896724427
750295500.0 0.000697327 0.1822346363 -0.0133713274 -0.5565851393 -0.0135710124 -0.5567243138 0.0340622458 0.1890722757
755295470.0 0.003196848 0.1823808158 -0.0189503533 -0.5561300995 -0.0189752102 -0.5571080171 0.0358822389 0.1892770224
760295440.0 0.004578162 0.1829655892 -0.0258915161 -0.5561088423 -0.025509332 -0.5561393564 0.0377126125 0.1890858912
765295410.0 0.0061483653 0.1825682248 -0.0309258699 -0.5556442932 -0.0309197163 -0.5560946774 0.0406993453 0.1888698729
770295380.0 0.0084341009 0.1829850946 -0.0374077151 -0.5554645021 -0.0374269286 -0.5559305996 0.0429383097 0.1885677401
775295350.0 0.0099437847 0.1829516918 -0.0432786707 -0.5546679204 -0.0434612789 -0.555003477 0.0442001727 0.1878404906
780295320.0 0.0119884146 0.1829969142 -0.0490814752 -0.5544929192 -0.048910045 -0.5546315559 0.0464652077 0.1880166471
785295290.0 0.0134382505 0.1832878593 -0.0550649447 -0.5532960039 -0.0552802768 -0.5542391372 0.0480528642 0.1872462525
790295260.0 0.0154282685 0.1829678649 -0.061139296 -0.5533918205 -0.0611882584 -0.5538032502 0.0507565976 0.1870508636
795295230.0 0.0171309068 0.1834178348 -0.0667823327 -0.5526107922 -0.0669476886 -0.5529221621 0.0525180384 0.187002722
800295200.0 0.0189748632 0.1831043375 -0.0734526755 -0.5516744515 -0.0732642932 -0.5521530733 0.0547613614 0.1861839739
805295170.0 0.0205220524 0.1831621208 -0.0789144014 -0.5505835503 -0.0788035232 -0.5506468096 0.0560219315 0.1855150066
810295140.0 0.0227286432 0.1831127568 -0.0847038816 -0.5500759187 -0.0848688895 -0.5507034427 0.0588338573 0.185823349
815295110.0 0.0242973105 0.1832020459 -0.09108445 -0.5485892589 -0.0912611681 -0.5493809534 0.0607600233 0.1848326935
820295080.0 0.0261734432 0.1826167291 -0.0968372558 -0.5479374233 -0.0968119909 -0.5482611522 0.0623639709 0.1842351061
825295050.0 0.0281383898 0.1826854387 -0.1024388478 -0.5466445035 -0.1025399548 -0.5466106322 0.0646216971 0.1836398941
830295020.0 0.0297982345 0.1827660404 -0.1087808735 -0.5457542392 -0.1087943256 -0.5457191585 0.0664268101 0.1828570774
