!Created with skrf (http://scikit-rf.org).
# Hz S RI R 50.0 
!freq ReS11 ImS11 ReS21 ImS21 ReS12 ImS12 ReS22 ImS22
300000.0 -0.2310619561 -0.1315416789 0.4641477938 0.086218426 0.4656611804 0.0850864415 -0.2339815951 -0.1290435734
5299970.0 -0.2418134982 0.0050406721 0.4751750502 0.0058423191 0.4751037416 0.0057941884 -0.2443910884 0.0046026191
10299940.0 -0.2389204181 0.0185227081 0.4773043417 0.0071834276 0.4770523865 0.007259263 -0.2408954568 0.0172589614
15299910.0 -0.2336526355 0.0288017263 0.4805850148 0.0079459231 0.4808511593 0.0081577645 -0.23706011 0.0264142035
20299880.0 -0.228490958 0.0367840005 0.4852403451 0.0082414455 0.485518859 0.008264267 -0.2320467938 0.0339490706
25299850.0 -0.2225747374 0.0437230301 0.4905118353 0.0072726252 0.4908665686 0.0073304856 -0.2267117326 0.0400848722
30299820.0 -0.2171062147 0.0487621644 0.4960318748 0.0050773433 0.4960657376 0.0049293393 -0.2217736218 0.0447356369
35299790.0 -0.2111072253 0.0528567913 0.5005146595 0.0021267258 0.5013715523 0.0020199739 -0.216729613 0.049098355
40299760.0 -0.2062013385 0.0560503226 0.5067088687 -0.0020650878 0.5068136188 -0.002144987 -0.211858691 0.0522894683
45299730.0 -0.2012758237 0.0587848525 0.51139254 -0.0068181205 0.5115480252 -0.0069556581 -0.2071556655 0.0549936712
50299700.0 -0.1960468138 0.0606535805 0.515391987 -0.0126269721 0.5154767288 -0.0127319858 -0.2026264164 0.056888864
55299670.0 -0.1919363221 0.0623561119 0.5191064771 -0.0180921187 0.5187732672 -0.0184436602 -0.1992388216 0.0584261833
60299640.0 -0.1877068516 0.0640463817 0.5221557661 -0.0245266341 0.5222759682 -0.0247375314 -0.1952341364 0.0597761565
65299610.0 -0.184186141 0.0651216053 0.5258367424 -0.0306206818 0.5256868629 -0.0311937555 -0.1919663691 0.0608957209
70299580.0 -0.1808327022 0.0659879303 0.5278901019 -0.0373379582 0.5275945261 -0.0378835917 -0.1891294229 0.0619148322
75299550.0 -0.1778618309 0.0668317012 0.5296593813 -0.0445138152 0.529558258 -0.0442273479 -0.1860686635 0.0627522404
80299520.0 -0.1751596724 0.0677179138 0.5312386538 -0.0513700348 0.5316153549 -0.0516804047 -0.183648623 0.063542603
85299490.0 -0.1726681456 0.0683844479 0.5329748612 -0.0582370894 0.5331000753 -0.0581857251 -0.1816568923 0.0639955118
90299460.0 -0.1700463118 0.0690156659 0.5333309742 -0.0652170522 0.5336626454 -0.0646959245 -0.179454255 0.0649143001
95299430.0 -0.1681937033 0.0697256508 0.5348307298 -0.0717688137 0.5348076066 -0.0720832792 -0.1776318961 0.0655813277
100299400.0 -0.1656766484 0.0704771098 0.5348029701 -0.0786901657 0.5352770717 -0.0791301347 -0.1759227787 0.066625497
105299370.0 -0.1640745231 0.0709675706 0.5353371641 -0.0855643964 0.535764961 -0.0857801086 -0.1739831651 0.0666653832
110299340.0 -0.1625063068 0.071466507 0.5359161966 -0.0919727381 0.5358429447 -0.0924900941 -0.1727225679 0.0674656773
115299310.0 -0.1607871662 0.0723691642 0.5352759544 -0.0990035473 0.5351540111 -0.0994177721 -0.1715566809 0.0683345609
120299280.0 -0.1592918531 0.0731566874 0.5351514384 -0.1064893658 0.5350063131 -0.1062003009 -0.170096253 0.0685803675
125299250.0 -0.1579179949 0.0738031192 0.5348512525 -0.113051565 0.5348631591 -0.1128400068 -0.1689073865 0.0696802898
130299220.0 -0.1565604598 0.0746148006 0.534392988 -0.1197755615 0.5341975276 -0.1204630188 -0.1677152303 0.0705655885
135299190.0 -0.1555626409 0.0758166314 0.5335182425 -0.1263244039 0.5337780841 -0.126630468 -0.1667751169 0.0710988184
140299160.0 -0.1541780841 0.0767953812 0.5327917569 -0.1330304052 0.5326639732 -0.1328054348 -0.1661287479 0.0716074115
145299130.0 -0.1536573777 0.0778371959 0.5320576795 -0.1392763332 0.5318003246 -0.1395771579 -0.1648742333 0.072670991
150299100.0 -0.1520504596 0.078915037 0.530534557 -0.1457400211 0.5307978333 -0.1461944227 -0.164145725 0.0740050866
155299070.0 -0.1509335021 0.0801485005 0.5290108996 -0.1526358287 0.5296237556 -0.1529429158 -0.1629880897 0.0747197294
160299040.0 -0.1499990126 0.0810990821 0.5281733996 -0.1591326024 0.5281680057 -0.1594696287 -0.1626508697 0.0759853259
165299010.0 -0.1490682989 0.0821995866 0.5269382559 -0.1652702524 0.526638673 -0.1654306012 -0.1614420972 0.0765454506
170298980.0 -0.1482182101 0.0833208868 0.5248604607 -0.1716719943 0.5253468849 -0.1717574149 -0.1612311622 0.0777835072
175298950.0 -0.1467236939 0.0846712629 0.523739686 -0.1779816539 0.523904447 -0.1784161288 -0.1601422297 0.0792134392
180298920.0 -0.1463219073 0.0860623734 0.5217321661 -0.184417217 0.5217265782 -0.1847818663 -0.1593081139 0.0800073373
185298890.0 -0.1451337044 0.0873381575 0.5202825821 -0.1905914951 0.5200906285 -0.1904100166 -0.1586050587 0.0812648433
190298860.0 -0.1439082088 0.0886079905 0.5174878577 -0.1965347217 0.5182282359 -0.1965247965 -0.1579850902 0.0823456508
195298830.0 -0.1430381439 0.0899683388 0.5159567282 -0.2022136514 0.5161065002 -0.2030111433 -0.1572158693 0.0834444094
200298800.0 -0.1419031756 0.0910335205 0.5143281523 -0.2092157442 0.5136510031 -0.2090226756 -0.1562973809 0.0846982221
205298770.0 -0.1413175138 0.0924531626 0.5115106443 -0.2151429419 0.5118572972 -0.2147812914 -0.1556110505 0.085962377
210298740.0 -0.1402278673 0.0938915767 0.5096095148 -0.2212140744 0.5090301197 -0.2208787968 -0.1550984546 0.0869092171
215298710.0 -0.1390887407 0.095530438 0.5066757313 -0.2268651734 0.5070145413 -0.2270839469 -0.1542371869 0.0883451627
220298680.0 -0.1380677098 0.096854331 0.5045539157 -0.2328005747 0.5046307304 -0.2330089758 -0.1534088582 0.0894009038
225298650.0 -0.1371230579 0.0981970765 0.5019216457 -0.2383767572 0.5021167814 -0.2381150442 -0.1525431051 0.0906446752
230298620.0 -0.1360860462 0.1000614926 0.4997974335 -0.244629161 0.4998127525 -0.2445746719 -0.1517495035 0.0919806715
235298590.0 -0.1353640452 0.1013263972 0.4972374329 -0.2508623853 0.4972872725 -0.2503599512 -0.1510099816 0.0934044212
240298560.0 -0.1342072394 0.1026752911 0.4944982065 -0.255383742 0.4942949 -0.256038542 -0.1504754434 0.09460071
245298530.0 -0.1331682249 0.1040866077 0.4914043346 -0.2616514034 0.4917765613 -0.2617327435 -0.1497303649 0.0959844163
250298500.0 -0.1323795825 0.1054014175 0.4891495218 -0.2666736024 0.4887852313 -0.2672926495 -0.1489319283 0.09749791
255298470.0 -0.1311256169 0.1070977921 0.4861391394 -0.2720608705 0.4864338647 -0.2724128252 -0.147998116 0.098659128
260298440.0 -0.1303882584 0.1084177976 0.4835333363 -0.2776741961 0.483297528 -0.2779507287 -0.1474062753 0.0995084642
265298410.0 -0.1292914172 0.1103130513 0.4798639105 -0.2838337092 0.4799849497 -0.2842366386 -0.1457964486 0.1012633148
270298380.0 -0.128327472 0.111467398 0.4769594388 -0.2891911031 0.4771946196 -0.2891716032 -0.1454024487 0.1028656079
275298350.0 -0.1268353465 0.1131780962 0.4734122438 -0.2944866571 0.4738143789 -0.2946796093 -0.1443917113 0.1042757673
280298320.0 -0.1262713862 0.1142401961 0.47088744 -0.299237514 0.4706907427 -0.2997039128 -0.143392256 0.1053786254
285298290.0 -0.1249174537 0.1160379129 0.4672935168 -0.3051493862 0.4676046452 -0.3049538992 -0.1427121301 0.1069304736
290298260.0 -0.1238480393 0.1174850121 0.4648536787 -0.3107156467 0.4642936163 -0.3101563589 -0.1417364443 0.1078974076
295298230.0 -0.1226731944 0.1184923244 0.4608533567 -0.3162470641 0.461038015 -0.3161855265 -0.1406614799 0.1095960592
300298200.0 -0.1216242522 0.1205116295 0.4574911445 -0.3209364881 0.4573887399 -0.3208353211 -0.1396425723 0.1106087126
305298170.0 -0.1199918402 0.1212039614 0.4540368357 -0.3263425002 0.4540435537 -0.3263970063 -0.1386739616 0.1117451862
310298140.0 -0.118724429 0.1225338317 0.4506453782 -0.3314615495 0.4508228076 -0.3312760903 -0.1375033786 0.1130246361
315298110.0 -0.1175483948 0.1236676202 0.4466999168 -0.3371757471 0.4468161916 -0.3370189238 -0.1363889998 0.1143542714
320298080.0 -0.1162877467 0.125183395 0.442355889 -0.3420237795 0.4437451243 -0.3417582404 -0.1358021462 0.1154967033
325298050.0 -0.1157883793 0.12576053 0.4388749596 -0.346384801 0.4395916161 -0.3467448203 -0.1343423955 0.1167189465
330298020.0 -0.1150011371 0.1274956132 0.4350427405 -0.3517111616 0.4356180917 -0.3521542771 -0.1339952966 0.1179481329
335297990.0 -0.1134624929 0.1288262772 0.4311346856 -0.3565062106 0.4315377645 -0.3566350398 -0.1329047662 0.1193051743
340297960.0 -0.1126238638 0.1303131256 0.4267850128 -0.3616365227 0.4269105818 -0.3612201087 -0.1319930207 0.1210208052
345297930.0 -0.1113449307 0.1314792654 0.4233581857 -0.3664502412 0.4231586354 -0.3660423889 -0.1310687869 0.1218820638
350297900.0 -0.1101257069 0.1331351947 0.4194986969 -0.3702847372 0.4192750826 -0.3708100529 -0.1299671075 0.1233050554
355297870.0 -0.1089497608 0.1342911349 0.4151431528 -0.3747786256 0.4150352277 -0.3747612228 -0.128909286 0.1249522084
360297840.0 -0.1071492893 0.1358161414 0.4105809651 -0.3798593985 0.4107207324 -0.3801524485 -0.1276916868 0.1263307732
365297810.0 -0.10622068 0.1371942084 0.4064537735 -0.3841799182 0.4067273045 -0.3843580207 -0.1269940017 0.1275039856
370297780.0 -0.1048827626 0.1383039392 0.4019269257 -0.3888271123 0.4026149619 -0.3886559393 -0.1257275549 0.1288365497
375297750.0 -0.103427698 0.1396583682 0.3982733551 -0.3927914358 0.3982387299 -0.39352059 -0.1243154974 0.1300807146
380297720.0 -0.1023964535 0.1412716167 0.3940264098 -0.3977233177 0.3939584095 -0.3977492735 -0.1233132855 0.1315741724
385297690.0 -0.1008589712 0.1419967985 0.3895003546 -0.4017586279 0.3898969961 -0.4022773796 -0.122122189 0.1332732751
390297660.0 -0.0988684475 0.1432117321 0.3848450206 -0.4056630467 0.3854042839 -0.4060716528 -0.1205678237 0.1341094978
395297630.0 -0.097460132 0.1447511192 0.3808659489 -0.4098297837 0.3804491221 -0.4102972207 -0.119470213 0.1353501808
400297600.0 -0.0964389249 0.145826362 0.3762530586 -0.4146273834 0.3763390772 -0.4145166535 -0.1182297903 0.1370427165
405297570.0 -0.0948732082 0.146630851 0.3719103567 -0.4181774902 0.371662448 -0.4186817643 -0.1166382535 0.1383891062
410297540.0 -0.0932247194 0.1482116632 0.366786048 -0.4224935897 0.367314484 -0.4226916978 -0.1154888767 0.1393052896
415297510.0 -0.0919150479 0.1492184166 0.3624800356 -0.4264061606 0.3626733451 -0.4264662404 -0.1141749742 0.1408092452
420297480.0 -0.0902576805 0.1502867443 0.3575558844 -0.4304689007 0.3581731347 -0.4306491352 -0.1126874113 0.142421697
425297450.0 -0.0881485929 0.1514262195 0.3531439557 -0.4342350036 0.3528931697 -0.4346395207 -0.1113107089 0.1431581215
430297420.0 -0.0872951504 0.1522508343 0.3488037583 -0.4381242499 0.3485122724 -0.4376894722 -0.1094811615 0.14445918
435297390.0 -0.0851528541 0.1535056307 0.3430642981 -0.4425363971 0.3437157142 -0.4420644224 -0.109248414 0.1460849212
440297360.0 -0.0835238748 0.1542995226 0.3382376873 -0.4460699391 0.3383157083 -0.4456873278 -0.107479519 0.1468351612
445297330.0 -0.0816050463 0.1553221744 0.3342140789 -0.4494546599 0.3337443078 -0.4497471653 -0.1056178686 0.1483157593
450297300.0 -0.0798968265 0.1562083204 0.3287732455 -0.4530174107 0.328942169 -0.4528773574 -0.1043300561 0.1493937377
455297270.0 -0.0789095763 0.1571630484 0.3241001688 -0.4565521189 0.324134279 -0.4568723948 -0.1030405065 0.1505250039
460297240.0 -0.0765155478 0.158495568 0.3187131727 -0.4608045847 0.3186928784 -0.4601674535 -0.1014257764 0.1512095139
465297210.0 -0.0749039832 0.1592830485 0.3133638486 -0.4634431218 0.3135362972 -0.4639388199 -0.099576269 0.1531058349
470297180.0 -0.072993568 0.1600269666 0.3082894007 -0.4666915738 0.3090664126 -0.4668192994 -0.0984252003 0.1536862407
475297150.0 -0.0719214712 0.1611270762 0.3039838873 -0.4702156472 0.3037094018 -0.4702459664 -0.0968706032 0.1550557978
480297120.0 -0.0693190532 0.1623860999 0.2980822184 -0.4735751004 0.2983838339 -0.4731456718 -0.0957118145 0.1558313064
485297090.0 -0.0676683953 0.1629112877 0.2935362419 -0.4766106469 0.2932645222 -0.4764728632 -0.0940400914 0.1572916204
490297060.0 -0.0654567576 0.1637908265 0.2875168819 -0.4796706333 0.287795488 -0.4802465617 -0.0924818953 0.1580498834
495297030.0 -0.0641938218 0.1642118869 0.2830196298 -0.483350278 0.2827965753 -0.4830113029 -0.0905246111 0.1588234236
500297000.0 -0.0622125374 0.1654433449 0.2776367394 -0.4857411181 0.2771589167 -0.4860482451 -0.0891770892 0.1603217036
505296970.0 -0.0599541502 0.1663135217 0.2724193351 -0.4894684997 0.2719944314 -0.4888825677 -0.0873844462 0.1610146377
510296940.0 -0.0582917113 0.1670122332 0.2670168689 -0.4927943148 0.2668258133 -0.4922610952 -0.0855501448 0.1624617751
515296910.0 -0.0561861011 0.1678581675 0.2611712913 -0.4948878445 0.2609926782 -0.4947852297 -0.0842442451 0.1628520364
520296880.0 -0.0544113769 0.1686182256 0.2561484103 -0.4973749439 0.2557145475 -0.497602439 -0.0819150573 0.1644242102
525296850.0 -0.0524507832 0.1691812466 0.2509417673 -0.5002131429 0.2504167601 -0.500357654 -0.0808256373 0.165197914
530296820.0 -0.0505379522 0.1698852133 0.2447758196 -0.5031160685 0.2447184102 -0.5028002814 -0.0792934519 0.1656284304
535296790.0 -0.047910894 0.1706922394 0.2393899311 -0.5054191332 0.2398631787 -0.5056641462 -0.0773532027 0.1671451134
540296760.0 -0.0463010689 0.1714451947 0.2339395235 -0.5080732981 0.2336744574 -0.5080096713 -0.0759165451 0.1674753595
545296730.0 -0.0447877834 0.1722635026 0.2286865701 -0.5104982113 0.2282396225 -0.509928818 -0.0738978948 0.1682774593
550296700.0 -0.0420104605 0.1728465362 0.2225281763 -0.5132406996 0.2226101801 -0.5132919898 -0.0723129592 0.169213184
555296670.0 -0.0403560918 0.1735551082 0.2174094319 -0.5157479136 0.2172312097 -0.5152943116 -0.0709845831 0.169566201
560296640.0 -0.0381211422 0.1741345777 0.2114263963 -0.5176417822 0.2119104242 -0.5176616838 -0.0691494531 0.1710712468
565296610.0 -0.0365363009 0.1747354325 0.2061282932 -0.5201612902 0.2061970853 -0.5197327051 -0.0674529255 0.1719542229
570296580.0 -0.034566787 0.1755058002 0.2005339014 -0.5219148772 0.2004865205 -0.5220375214 -0.0656221434 0.172054975
575296550.0 -0.0319255444 0.175725521 0.1951491101 -0.5239786709 0.1944335774 -0.5242283409 -0.0637857255 0.1733215426
580296520.0 -0.0302415974 0.1766357881 0.1889880761 -0.5262818888 0.1888649508 -0.5265226801 -0.0628032517 0.1739871665
585296490.0 -0.0281632339 0.1769734428 0.1836568697 -0.5278478596 0.1829597484 -0.5281943441 -0.0604396618 0.1747536144
590296460.0 -0.025373561 0.1773201463 0.1773719581 -0.5302411685 0.1776379823 -0.5302929771 -0.0591270081 0.1753170412
595296430.0 -0.0236269718 0.1780094032 0.1713603252 -0.5322494578 0.1713941628 -0.5321719092 -0.0570083733 0.1759285708
600296400.0 -0.0214046528 0.1784059262 0.1656599409 -0.5338246568 0.165562285 -0.5337456931 -0.0552469532 0.1766670025
605296370.0 -0.0199249882 0.1790866893 0.1605559779 -0.5353043398 0.1597152821 -0.5356358927 -0.0534053721 0.1774072096
610296340.0 -0.0172958866 0.1798080092 0.1542770202 -0.5366030913 0.1543521204 -0.5371282973 -0.0523396372 0.1783246718
615296310.0 -0.0150957848 0.1801256399 0.1484968119 -0.5392733183 0.1483112396 -0.5388157382 -0.0502988288 0.1790154927
620296280.0 -0.0133620167 0.1807931709 0.1423653033 -0.5404673322 0.1421706793 -0.5404056611 -0.0485963109 0.1797346669
625296250.0 -0.011500947 0.1804778398 0.1366528809 -0.5418947138 0.1367476349 -0.5417830276 -0.0469142926 0.1797811933
630296220.0 -0.0093351007 0.1810520031 0.130511916 -0.543353852 0.1305517583 -0.5430848266 -0.0450337731 0.1802451414
635296190.0 -0.0076284981 0.1817519734 0.1253616407 -0.5443591286 0.1251128307 -0.5445195495 -0.0430495093 0.1810952166
640296160.0 -0.0053735695 0.1818393509 0.1191963104 -0.5459608417 0.1190153555 -0.5458391182 -0.0416412676 0.1816315738
645296130.0 -0.0030279242 0.1827521324 0.112918615 -0.5474219245 0.1130086922 -0.5466441044 -0.0396817682 0.1818810948
650296100.0 -0.0008715243 0.1826211554 0.1068061248 -0.5483314805 0.1068380374 -0.5485884148 -0.0370677277 0.182768734
655296070.0 0.0007243852 0.1827946526 0.1013262133 -0.5491126709 0.1010037066 -0.5491991839 -0.0363486482 0.1833963573
660296040.0 0.0029057234 0.1832772537 0.0955899957 -0.550176394 0.0948090105 -0.5505835544 -0.0342309453 0.183383807
665296010.0 0.0048568662 0.1834920828 0.0888226842 -0.5512075189 0.0889763239 -0.551416548 -0.0325329776 0.1843693986
670295980.0 0.007458738 0.1835855335 0.0829125283 -0.5519358434 0.0833567024 -0.5517648622 -0.0311134216 0.1842647533
675295950.0 0.0089420354 0.1836875974 0.0771508512 -0.5528297469 0.0775683023 -0.5531161598 -0.0290484528 0.1851147255
680295920.0 0.0109595046 0.1841526245 0.071397494 -0.5534485645 0.0714075833 -0.5537801249 -0.0271404417 0.18523845
685295890.0 0.0132429697 0.1844629327 0.0651546275 -0.5544703667 0.065435826 -0.5543349381 -0.0252144952 0.1858218814
690295860.0 0.0149101322 0.1845482144 0.0596799366 -0.5550582717 0.0590195354 -0.5554204453 -0.0237811865 0.1863695571
695295830.0 0.0173867097 0.1843566318 0.0537398735 -0.5555387756 0.053490486 -0.5561020041 -0.0218483788 0.1867820864
700295800.0 0.0194973673 0.1849670107 0.0478837403 -0.5564975545 0.047615485 -0.5561381637 -0.0201037483 0.1868143111
705295770.0 0.0212095671 0.1848405067 0.0415997576 -0.5568950977 0.0412987727 -0.5565185871 -0.0179313543 0.1875383447
710295740.0 0.0228572621 0.1846740855 0.0360337589 -0.5571221237 0.0354084733 -0.5575168522 -0.0159297924 0.1877491729
715295710.0 0.025055003 0.1851761624 0.0297091678 -0.5579322684 0.0293791901 -0.5575452206 -0.014324891 0.187831084
720295680.0 0.0277179765 0.1850207008 0.0234134306 -0.5577999087 0.0233098171 -0.5580561454 -0.0126626276 0.1881494819
725295650.0 0.0289553346 0.1850818413 0.0179680956 -0.5581980448 0.017520446 -0.5582167223 -0.0112256352 0.1890226418
730295620.0 0.0304635619 0.1847186306 0.0115653842 -0.5575386402 0.0117005606 -0.5574879049 -0.0093453469 0.1892341755
735295590.0 0.0330823856 0.1847391781 0.0059357165 -0.5579676134 0.0055032129 -0.5582808133 -0.0075329078 0.1891258144
740295560.0 0.0348814542 0.1843316387 -0.0005017098 -0.5584576417 -0.0002928568 -0.5583088587 -0.0055673586 0.1896084886
745295530.0 0.0368441401 0.18447744 -0.0062428172 -0.557696336 -0.0057391107 -0.5578747476 -0.0041984396 0.1899381068
750295500.0 0.0385028481 0.1843201399 -0.0119652005 -0.5578098428 -0.0126983773 -0.5580879938 -0.0019493877 0.1900664499
755295470.0 0.0405153325 0.1840932248 -0.0179638079 -0.5583342391 -0.0179887183 -0.5581966456 -0.0001369378 0.1904446212
760295440.0 0.0424153903 0.1840481231 -0.0244199695 -0.5573488405 -0.0243673323 -0.557193654 0.0017101774 0.1896076402
765295410.0 0.0447842711 0.1833845936 -0.0303199553 -0.5568006175 -0.0298248417 -0.5569849547 0.0034303313 0.1903237893
770295380.0 0.0462033466 0.1836694997 -0.0356449236 -0.5564308324 -0.0362240223 -0.5570031691 0.005006182 0.190472637
775295350.0 0.0482853253 0.183116408 -0.0420179317 -0.5562921173 -0.0420868565 -0.5561193863 0.007280646 0.190716217
780295320.0 0.0503186648 0.1831540495 -0.047750518 -0.555975232 -0.047812735 -0.5556538255 0.0094540751 0.1905754712
785295290.0 0.0521345257 0.1822545961 -0.0540823107 -0.5550423031 -0.05352421 -0.5555017571 0.0105781399 0.1912978956
790295260.0 0.0541942588 0.1818101736 -0.0597778492 -0.5544349845 -0.0595995276 -0.5552259599 0.0126405442 0.1913166851
795295230.0 0.0561562011 0.1817232506 -0.0658998971 -0.5541117239 -0.0660122012 -0.5541259943 0.0146057746 0.1906531132
800295200.0 0.0577952412 0.1815218125 -0.0713191281 -0.552694889 -0.0716616475 -0.5535164 0.0162321619 0.1908493369
805295170.0 0.0594889151 0.1810570228 -0.0776721967 -0.5525896904 -0.0776412458 -0.5526118725 0.0185555613 0.1909833684
810295140.0 0.0619757352 0.1806417891 -0.0835747718 -0.5512701783 -0.0836834614 -0.5513409041 0.0203679549 0.190917195
815295110.0 0.0631916606 0.1801100638 -0.0891161767 -0.5506080257 -0.0891206885 -0.5505705216 0.0220194102 0.1909289177
820295080.0 0.0655116478 0.1794448069 -0.094928845 -0.5491304597 -0.0951135616 -0.5498880621 0.0231860948 0.1913670948
825295050.0 0.0669865088 0.1786916815 -0.1012023405 -0.5486376453 -0.1014714618 -0.5482447714 0.0261136214 0.1914481369
830295020.0 0.0690828761 0.1785117487 -0.1071296253 -0.5478557958 -0.1071635118 -0.5472453788 0.0273922424 0.1903688265
