!Created with skrf (http://scikit-rf.org).
# Hz S RI R 50.0 
!freq ReS11 ImS11 ReS21 ImS21 ReS12 ImS12 ReS22 ImS22
300000.0 -0.7764748555 -0.1436867318 -0.0001214448 -0.0004825862 -0.0003291729 0.0002186178 0.8598053884 -0.0021606891
5299970.0 -0.785137803 -0.0072433907 0.0001591885 6.6239e-06 -5.83974e-05 8.33255e-05 0.8585538332 -0.0105953662
10299940.0 -0.7878241442 -0.00430265 -8.03977e-05 2.54699e-05 -0.0001302253 -7.03567e-05 0.8583179642 -0.0190661847
15299910.0 -0.793136747 -0.0017143581 -0.0001444903 0.0001425928 -2.41961e-05 -0.00014315 0.8572536902 -0.0269768777
20299880.0 -0.7997666238 0.0023546276 3.72483e-05 8.64933e-05 -0.0001700008 -0.0001892498 0.8566508072 -0.03631009
25299850.0 -0.806185743 0.0082177172 0.0001290968 -2.99364e-05 2.54592e-05 -3.74313e-05 0.8555166318 -0.0435065991
30299820.0 -0.8122739025 0.0160310674 -0.0001538883 -5.2784e-06 7.3323e-06 6.6503e-05 0.8545463347 -0.0523383169
35299790.0 -0.8168520704 0.0251471279 0.0002103374 7.28505e-05 -6.27655e-05 8.80522e-05 0.854489077 -0.0608520127
40299760.0 -0.8214383441 0.0343462397 -3.81966e-05 -9.3681e-06 -7.0465e-05 -8.45883e-05 0.8537874012 -0.0692148678
45299730.0 -0.8246021089 0.0442234123 1.36036e-05 -9.52859e-05 -0.0001204656 -5.11507e-05 0.8531142196 -0.0768742887
50299700.0 -0.8269883813 0.0539335279 -3.11167e-05 0.0001114409 -7.722e-06 0.0001696665 0.8518273048 -0.0851450493
55299670.0 -0.8292320912 0.0642836366 -7.24168e-05 -8.49472e-05 3.59113e-05 8.6605e-06 0.8507634167 -0.0931468736
60299640.0 -0.830229813 0.0740923669 0.0001116453 -0.0003245952 0.0002048561 0.0001012802 0.8497162519 -0.101819572
65299610.0 -0.8311287666 0.0846029351 -3.04518e-05 -0.0001896946 -5.13024e-05 5.83438e-05 0.8484566365 -0.1099318182
70299580.0 -0.8311301313 0.0947364892 -7.75687e-05 -6.30674e-05 -3.71679e-05 8.07303e-05 0.8471319995 -0.1190555973
75299550.0 -0.8312269806 0.1047567367 5.8053e-05 -0.000109893 -0.0002241955 0.000102714 0.8467681514 -0.1269125965
80299520.0 -0.8312946154 0.1142012658 -5.98258e-05 4.26261e-05 0.0001104179 -3.4456e-05 0.8450420935 -0.1346363598
85299490.0 -0.8307158741 0.1238467173 -0.0001337396 2.71222e-05 9.26859e-05 0.0001167361 0.8436875793 -0.1428290898
90299460.0 -0.8299525956 0.1341407656 0.000114495 0.0001330363 -0.0001946015 5.305e-06 0.8425052321 -0.151612675
95299430.0 -0.8286667384 0.1435004851 -6.2716e-05 -0.0001877648 -5.77375e-05 -0.000284882 0.8403314851 -0.1595114709
100299400.0 -0.8279449108 0.1524468336 -7.60458e-05 -0.0001923265 0.0001526833 -2.9489e-05 0.8387564602 -0.1676535702
105299370.0 -0.8262412477 0.162060244 -0.0001258025 0.0001092896 5.38052e-05 -2.70242e-05 0.8373373987 -0.1759957436
110299340.0 -0.8253650027 0.1713443877 0.0001923061 -0.0001077796 9.72765e-05 9.66059e-05 0.8353131998 -0.1835903933
115299310.0 -0.8238773227 0.1806746318 0.0002079764 6.13868e-05 -0.000173552 1.27941e-05 0.8332637785 -0.1923225552
120299280.0 -0.8221908137 0.1898250549 -0.0001800351 -0.0001746564 -1.3273e-06 -0.0001111218 0.8314734937 -0.2000090654
125299250.0 -0.8204284576 0.1984199525 6.92412e-05 1.9966e-06 0.0002112548 0.0001811985 0.8293881199 -0.208587959
130299220.0 -0.8179739485 0.2077366646 -0.000215811 0.0001234362 3.68724e-05 4.65213e-05 0.8270648863 -0.2160974771
135299190.0 -0.8162681076 0.2165173321 6.77987e-05 -5.88996e-05 4.52304e-05 5.74339e-05 0.8254437057 -0.2244147915
140299160.0 -0.8148033111 0.2260164035 0.0001167689 -0.000165621 -0.000105383 0.0001014677 0.8228664017 -0.232430006
145299130.0 -0.8126098084 0.2339317729 -0.0001272716 7.52444e-05 9.1974e-05 5.86979e-05 0.8207465736 -0.2407930754
150299100.0 -0.8099924766 0.2428684261 0.0001542376 0.0001201971 5.1635e-05 -2.80257e-05 0.8185607503 -0.2485760096
155299070.0 -0.8078426714 0.2524469019 5.97685e-05 -0.0001623485 -6.67506e-05 0.0001048408 0.8156956688 -0.2565224275
160299040.0 -0.8047962907 0.2614351023 1.3708e-05 7.3656e-06 0.000241634 0.0002144683 0.813124493 -0.2643495831
165299010.0 -0.8018719377 0.2693060358 -0.0001143337 -0.0003507987 6.63752e-05 -0.0001602757 0.8110674604 -0.2718565579
170298980.0 -0.7994069907 0.2778147768 1.47369e-05 -1.90767e-05 0.0002231619 -0.00011019 0.8079168361 -0.2801277135
175298950.0 -0.7969904114 0.287493019 -0.000102386 0.000192853 -7.90365e-05 -0.0001032051 0.8047658484 -0.2883294278
180298920.0 -0.7935657701 0.2949406353 9.9708e-06 2.42097e-05 -6.22316e-05 7.30707e-05 0.8020851936 -0.2957276564
185298890.0 -0.790604773 0.3046301717 -0.000298183 2.05135e-05 -1.46248e-05 -0.0001833058 0.7992278592 -0.304322234
190298860.0 -0.7873027703 0.3123780052 6.44938e-05 0.0001961876 0.0002129628 1.97115e-05 0.7966870584 -0.311083824
195298830.0 -0.7839177279 0.320743589 0.0001581373 -0.0001681873 5.34819e-05 1.6006e-05 0.7932709099 -0.3190833181
200298800.0 -0.7808947195 0.3295206209 0.0001430655 -0.0001870119 0.0001283037 4.33157e-05 0.7904280952 -0.3276143594
205298770.0 -0.7775443833 0.3373177799 -6.87592e-05 0.0002801749 1.41301e-05 8.81582e-05 0.7869063074 -0.3348350615
210298740.0 -0.7733714012 0.3460474951 0.0002126821 5.93942e-05 -3.21776e-05 -1.35714e-05 0.7837118015 -0.3421911667
215298710.0 -0.7704677244 0.3541964327 -0.0001058032 0.0001387679 -5.43647e-05 9.22608e-05 0.7804849274 -0.3499148666
220298680.0 -0.7670186045 0.3623100776 3.40278e-05 -3.18454e-05 4.8965e-05 -0.0001076653 0.7767876314 -0.3573530486
225298650.0 -0.762966636 0.3712258334 8.83568e-05 -0.0001646583 6.02683e-05 -3.97641e-05 0.7731532807 -0.3651355216
230298620.0 -0.7588264598 0.3788025747 0.0004636123 2.86878e-05 -1.65227e-05 2.0262e-06 0.7702340475 -0.3728975469
235298590.0 -0.7547339719 0.3872364701 3.94773e-05 0.0001004462 8.24198e-05 3.00347e-05 0.7666531739 -0.3796652243
240298560.0 -0.7507970756 0.3948598633 0.0002746065 9.3612e-06 0.0001212229 -1.24105e-05 0.7624387319 -0.3871111615
245298530.0 -0.7466878073 0.4022606767 -2.61646e-05 3.14093e-05 -2.08323e-05 -0.0001546455 0.758262128 -0.3947227983
250298500.0 -0.7423426986 0.4101754561 8.59302e-05 -0.0001143631 0.0001397582 0.0001370697 0.7549724398 -0.4018844041
255298470.0 -0.7381811997 0.4187176735 -5.2412e-06 -8.82209e-05 -3.32692e-05 0.0001561341 0.7514298556 -0.4089791896
260298440.0 -0.7339125301 0.4258047432 -4.16433e-05 4.16122e-05 0.0001664436 -6.15679e-05 0.7468183236 -0.4161482915
265298410.0 -0.7289900869 0.4342481073 0.0002188051 2.88914e-05 5.49068e-05 0.0001424491 0.7431966257 -0.4240752547
270298380.0 -0.7243326821 0.4413509676 0.0001264359 2.78768e-05 7.3189e-05 0.0001359456 0.7397800453 -0.4305262889
275298350.0 -0.71953615 0.4488054131 4.87511e-05 -5.88435e-05 -2.39866e-05 -9.761e-07 0.734591685 -0.4370670379
280298320.0 -0.7147418231 0.4564720866 -7.01847e-05 -0.0001236464 6.2653e-05 4.27992e-05 0.7311814027 -0.4447406075
285298290.0 -0.7102838122 0.4642938936 -5.3321e-05 -0.0001686212 -0.0002404773 3.12581e-05 0.7271422053 -0.4517768166
290298260.0 -0.7057352955 0.4714154212 0.0001630197 -1.4757e-06 0.0001403498 0.0001087439 0.7227288013 -0.4589574274
295298230.0 -0.7005410717 0.4790328395 0.0001178747 1.5516e-06 7.16776e-05 0.0001553359 0.7185008134 -0.4652243718
300298200.0 -0.6950612218 0.4860364181 -9.9456e-05 0.0001980127 -0.0001002729 -4.84141e-05 0.7136478426 -0.4730851277
305298170.0 -0.69026314 0.4942123535 -0.0001174165 0.0001193203 -8.12584e-05 -0.0002096582 0.710230642 -0.479776635
310298140.0 -0.6844422783 0.500949929 -8.76771e-05 0.0002032987 -3.34056e-05 -0.0002492276 0.7058524959 -0.4868351734
315298110.0 -0.6798153213 0.5081653324 -1.79899e-05 4.66921e-05 -0.0001002234 0.0001754315 0.700952405 -0.493990349
320298080.0 -0.6741840034 0.5154112348 -6.86428e-05 -1.08506e-05 0.0001673529 -0.0001386699 0.6966949762 -0.5014803733
325298050.0 -0.6679896465 0.5220244164 0.0002586582 0.0001375553 -2.86104e-05 -0.0002670153 0.6909690749 -0.5092439906
330298020.0 -0.6632861641 0.5289562084 2.71666e-05 -0.0001979147 -0.0001421956 -0.0001259206 0.685783491 -0.5166698654
335297990.0 -0.65661881 0.5366305275 -3.74613e-05 -4.65071e-05 -8.1574e-06 5.80656e-05 0.6803048734 -0.5232728325
340297960.0 -0.6516731876 0.5427570662 -0.0002316609 -0.0001957338 -2.30235e-05 -0.0001352204 0.6744362659 -0.5292652747
345297930.0 -0.6462690368 0.5488425589 6.21357e-05 -4.21124e-05 0.0001225431 -2.63046e-05 0.6685927299 -0.5357901743
350297900.0 -0.6404367824 0.5556909557 -0.000145526 0.0001596798 -0.0001434815 -2.19731e-05 0.6633337251 -0.5414230854
355297870.0 -0.6345295611 0.5627316054 -4.61634e-05 -0.0001322944 0.0002105892 7.16019e-05 0.6581649151 -0.547747944
360297840.0 -0.6286070044 0.5688400696 2.02104e-05 -0.0001077401 -0.0001463529 -0.0001668097 0.6522690046 -0.5537104678
365297810.0 -0.6217208243 0.5757537505 -9.40963e-05 0.0001570744 -0.0001130668 -6.06392e-05 0.6470189625 -0.560518834
370297780.0 -0.6164206741 0.5817830763 -0.0001560694 3.29945e-05 -0.0001900125 -0.0001395762 0.641215081 -0.5660818193
375297750.0 -0.6104511085 0.5882280939 9.3022e-05 -0.0001123615 -0.0001532805 9.1837e-05 0.6356218014 -0.5720384006
380297720.0 -0.6041076395 0.595104427 0.0001050143 8.25906e-05 1.07459e-05 4.1678e-06 0.630205686 -0.5776326146
385297690.0 -0.5982471116 0.6008050944 -0.0001947921 9.24258e-05 8.26862e-05 7.74742e-05 0.6243935749 -0.5832539423
390297660.0 -0.5913205606 0.6069464272 -0.0001240723 -0.000205055 -9.7014e-05 0.0001693724 0.618911345 -0.5894914014
395297630.0 -0.5856788844 0.6132697977 0.0002376002 -8.04256e-05 8.38745e-05 -7.6682e-05 0.6130631764 -0.5954537019
400297600.0 -0.5785256827 0.6189992999 -0.0001074105 -8.67067e-05 3.84621e-05 0.0001030952 0.6071163984 -0.6013378163
405297570.0 -0.5722382852 0.6249998565 -4.41212e-05 -9.97294e-05 -3.00745e-05 1.60149e-05 0.601951748 -0.6068076636
410297540.0 -0.5652058253 0.6305322202 -1.03574e-05 0.0002418222 -5.06006e-05 5.18631e-05 0.5954736694 -0.61261391
415297510.0 -0.559014993 0.6362050016 -0.0001365617 8.1425e-05 0.0002646391 -3.61221e-05 0.5892457608 -0.6182987335
420297480.0 -0.5517370206 0.6417814705 -0.0001261722 -2.238e-05 0.0001774554 0.0001037942 0.5833733544 -0.6242320704
425297450.0 -0.5455491947 0.6475300328 0.0001932515 2.46691e-05 -1.07545e-05 -0.0001087593 0.5770087666 -0.6288240252
430297420.0 -0.5393819288 0.6533220898 3.25214e-05 0.0001447677 -4.05319e-05 -0.0001204149 0.5712373497 -0.6346510632
435297390.0 -0.532055717 0.659423548 0.00021109 3.14351e-05 0.0002473825 0.000100879 0.5650200934 -0.6404136589
440297360.0 -0.5254286255 0.6644387205 -2.85172e-05 0.0001380413 -0.0001290147 -4.34714e-05 0.5582457061 -0.6457736606
445297330.0 -0.5180949295 0.669607469 2.2003e-05 -3.22176e-05 -0.0001989864 -8.71266e-05 0.5521386917 -0.6511137546
450297300.0 -0.5117656961 0.6741775082 1.9104e-05 -2.5968e-05 -0.0001829045 -0.0001491391 0.5449586392 -0.6563526276
455297270.0 -0.5043291751 0.6799394114 8.58266e-05 -0.0001822495 -1.84198e-05 0.0001438784 0.5389865314 -0.66181228
460297240.0 -0.497711303 0.6849739557 3.24147e-05 -0.000225853 3.3651e-06 2.64648e-05 0.5331489235 -0.6667518769
465297210.0 -0.4900404813 0.6904309673 -0.0001281285 -8.90042e-05 -0.0002900378 1.22557e-05 0.5262306247 -0.6723332774
470297180.0 -0.4826236784 0.6946666733 -8.40081e-05 5.51086e-05 -3.85314e-05 4.1669e-05 0.5188036176 -0.6774423358
475297150.0 -0.4757089852 0.7005058091 -0.0002218528 9.34527e-05 -5.11907e-05 4.35026e-05 0.5129646495 -0.681835392
480297120.0 -0.4691066751 0.704700071 0.0001474405 3.81237e-05 9.46784e-05 0.0002066873 0.5056442814 -0.6868097884
485297090.0 -0.4614168353 0.7096578515 0.0002421834 -0.0002859331 -3.10219e-05 2.17772e-05 0.4990197947 -0.6920391776
490297060.0 -0.454067019 0.7141382072 0.0002297451 7.78784e-05 -2.40517e-05 7.3177e-05 0.4924840528 -0.6968131765
495297030.0 -0.4476437631 0.7189057677 1.25992e-05 -0.0002428427 0.0002421465 -0.0001506765 0.4857842371 -0.701528603
500297000.0 -0.4387366167 0.7228142911 -0.0001895264 0.0001651699 0.0001833838 5.83068e-05 0.4778576084 -0.7060031241
505296970.0 -0.4316471994 0.7271572006 -0.0001821628 -0.0001087458 7.81083e-05 -6.52962e-05 0.470831247 -0.7104714746
510296940.0 -0.4246625616 0.7319670464 -0.0001457573 -3.00883e-05 1.67113e-05 -4.1571e-06 0.4635411962 -0.7146964148
515296910.0 -0.4173112942 0.7360815658 5.03328e-05 -7.43501e-05 -0.0001185169 -0.0001574649 0.4561525663 -0.7188659183
520296880.0 -0.4091992329 0.7405100345 4.6384e-06 -2.01894e-05 0.0001499157 0.0001003255 0.4500433073 -0.7239543722
525296850.0 -0.4019947509 0.7445823329 0.0001228965 0.0001322895 0.0001526573 -8.1923e-06 0.4425438121 -0.7280323838
530296820.0 -0.3942505289 0.7478417256 -3.44617e-05 0.0001368807 0.0001276191 -1.88387e-05 0.4345895186 -0.7329495945
535296790.0 -0.3859757451 0.7523068741 4.78712e-05 -0.0001481272 -1.83381e-05 -8.38743e-05 0.4279730169 -0.7376265022
540296760.0 -0.3783412604 0.7560372999 1.92148e-05 -0.0001697059 0.0001015407 -2.39264e-05 0.4201977472 -0.7406468823
545296730.0 -0.3708904026 0.7597597865 -1.89903e-05 -0.0001523864 -0.000126639 0.0001322903 0.4127480266 -0.7453576855
550296700.0 -0.363570361 0.7630705402 -3.20804e-05 0.000193966 0.0001054501 9.18992e-05 0.4054562658 -0.749530955
555296670.0 -0.3546129761 0.7669106789 -0.0001817969 -6.15816e-05 9.95912e-05 -4.84589e-05 0.3973343486 -0.7533481745
560296640.0 -0.3472424515 0.7704427469 -0.0001399255 0.0001969808 -8.64243e-05 0.0001595963 0.3897317527 -0.7565877655
565296610.0 -0.3399632992 0.7738709284 -3.65972e-05 9.70074e-05 0.0001611968 9.80705e-05 0.3830729348 -0.7607094496
570296580.0 -0.3319927241 0.7768517369 -0.000108626 -7.59967e-05 5.59507e-05 -0.0001024558 0.3749288586 -0.7633441493
575296550.0 -0.3240112034 0.7809107396 -2.99282e-05 -2.46718e-05 2.85377e-05 -0.000116882 0.3674418941 -0.7675029322
580296520.0 -0.3152604804 0.7841286358 0.0001879893 -1.0319e-06 -3.84195e-05 5.01193e-05 0.3594560966 -0.7706092666
585296490.0 -0.3074120197 0.78672756 7.60401e-05 9.3775e-05 -1.08604e-05 -7.95691e-05 0.3521296631 -0.7751793331
590296460.0 -0.299877453 0.7897693966 -9.53068e-05 0.0001319746 3.95501e-05 -0.0001307494 0.3442220953 -0.7777154931
595296430.0 -0.2914630344 0.7935883453 6.39952e-05 7.0223e-05 -0.0001286961 0.0001058769 0.3363664578 -0.7811269366
600296400.0 -0.2834375467 0.7955227609 0.0001439027 -0.0002289536 4.6141e-06 -5.37788e-05 0.3284505257 -0.7845584869
605296370.0 -0.2759726775 0.7988708141 -2.53314e-05 3.18357e-05 4.34757e-05 0.0001039342 0.3203713344 -0.7879753798
610296340.0 -0.2673751697 0.8006046967 -0.0001475131 -0.000264795 -8.04451e-05 0.0002553068 0.312555767 -0.7901559547
615296310.0 -0.2592895517 0.8042690677 7.16346e-05 -0.0001738608 0.0001907488 -0.0002623393 0.3056225246 -0.7940929945
620296280.0 -0.2510733207 0.8066423613 -4.30832e-05 -1.83963e-05 -0.0001117002 0.0002327646 0.2975126116 -0.7966433999
625296250.0 -0.2425253685 0.8096360841 -0.0001448278 1.04948e-05 3.57876e-05 6.97247e-05 0.289041144 -0.7987875647
630296220.0 -0.2344774781 0.8115848883 0.0001327147 8.73167e-05 -0.0001686732 -0.0001025298 0.2807881661 -0.8014553196
635296190.0 -0.2268699033 0.8136849175 4.50569e-05 0.0002678003 0.0001688807 0.0001910708 0.2732292075 -0.8039088015
640296160.0 -0.2178730089 0.8153855821 7.86236e-05 -4.55071e-05 -9.37827e-05 -5.07254e-05 0.2647512739 -0.8068573365
645296130.0 -0.2096525891 0.8179169054 -0.0002773384 0.0001812476 0.0001995216 0.0001953955 0.2568240446 -0.8092283751
650296100.0 -0.2019757717 0.8200986829 -1.38165e-05 0.0001013283 -5.70982e-05 -0.0002066364 0.2483938349 -0.8111030346
655296070.0 -0.1931544562 0.8217470139 9.03517e-05 3.81905e-05 1.7069e-06 6.14465e-05 0.2403122013 -0.8138369136
660296040.0 -0.1856069448 0.8243475392 -0.0004315724 -8.84493e-05 -0.0001342 4.3686e-06 0.2322240229 -0.816173187
665296010.0 -0.1768848902 0.8260972188 -0.0001737 -8.07727e-05 8.88824e-05 -0.0001620601 0.224434392 -0.8182423178
670295980.0 -0.1680486277 0.8273295129 -2.1013e-06 8.87836e-05 6.33287e-05 -9.06769e-05 0.2164315404 -0.8201353471
675295950.0 -0.1600190714 0.8289829143 4.46742e-05 1.41938e-05 -7.68267e-05 4.48747e-05 0.2081559832 -0.82196265
680295920.0 -0.1518375519 0.8304965836 -2.92676e-05 -2.7671e-06 -1.08055e-05 -0.0001669493 0.1995583399 -0.8245480621
685295890.0 -0.1430089995 0.8321220626 -7.03768e-05 5.41297e-05 0.0001050469 6.86888e-05 0.1916702556 -0.8256683803
690295860.0 -0.1347292182 0.8339189265 0.0001781955 0.0002012858 0.0001644141 -1.54072e-05 0.1837171923 -0.8274261408
695295830.0 -0.1259255428 0.8341237596 -6.89539e-05 -0.0002428078 0.0001402216 -9.971e-07 0.1746983124 -0.8295589007
700295800.0 -0.1179823607 0.8352385135 0.0002059235 0.0001238436 -0.000332159 -3.201e-05 0.1666103668 -0.83055705
705295770.0 -0.108733981 0.8375329079 0.0001120138 -2.50905e-05 -9.44833e-05 -0.0001024289 0.1578918734 -0.8316203555
710295740.0 -0.1008880347 0.8381280462 -3.94458e-05 -0.0002942765 -1.24746e-05 1.26915e-05 0.1490980889 -0.8328293543
715295710.0 -0.093240039 0.8391003462 -4.5268e-05 0.0001004501 -5.98088e-05 -5.44206e-05 0.1417638126 -0.8347539723
720295680.0 -0.0844809336 0.8393951697 -5.11926e-05 -0.0001047172 5.94418e-05 7.56418e-05 0.1333752438 -0.8358975739
725295650.0 -0.0752426246 0.8405807517 -0.0001028493 -2.97814e-05 0.0001211192 -0.0001538963 0.1251094173 -0.8368971718
730295620.0 -0.0678177286 0.8409801398 -0.0001495476 -0.0001140106 3.45637e-05 2.0929e-05 0.1165081771 -0.8385400336
735295590.0 -0.0584654255 0.8417879033 -0.0001118644 0.0001631001 -0.0001459451 2.47446e-05 0.1085273144 -0.8391761369
740295560.0 -0.0502399465 0.8430843293 0.000106389 -0.0001446956 4.9234e-06 -0.0002237004 0.1000909761 -0.8403498865
745295530.0 -0.0418433765 0.8426283913 5.02646e-05 -0.0003147962 -5.11353e-05 -3.57022e-05 0.091208614 -0.8408732977
750295500.0 -0.033771423 0.8429666935 -0.0001618754 9.34628e-05 -0.0002308412 1.65992e-05 0.0831899456 -0.8415483236
755295470.0 -0.0246327789 0.8434816957 1.37459e-05 -8.10185e-05 -0.0001239067 6.58842e-05 0.0737077603 -0.8414311227
760295440.0 -0.0165131872 0.8438686786 -0.0002031534 4.16427e-05 -4.957e-07 0.000131681 0.0655050655 -0.8429618618
765295410.0 -0.0078985677 0.843433089 -9.00083e-05 7.90227e-05 5.0232e-05 -3.82448e-05 0.0579833521 -0.8428377944
770295380.0 0.0004638269 0.84418446 -6.8808e-06 -0.0001222365 0.0001099398 -6.97304e-05 0.0497540088 -0.8431644972
775295350.0 0.0085285563 0.8437793602 7.59919e-05 -0.0001109253 0.000171337 1.27788e-05 0.0404558438 -0.8448539274
780295320.0 0.0179392308 0.8431680116 -2.2051e-05 1.76012e-05 0.0001740808 2.56737e-05 0.0321527534 -0.8441511557
785295290.0 0.0257659785 0.8444795285 6.61026e-05 -3.20495e-05 -7.02823e-05 -4.14419e-05 0.0239081998 -0.8441321843
790295260.0 0.034155189 0.8426812246 0.0002383717 -9.29334e-05 1.41157e-05 -0.000206656 0.0161283402 -0.8445263213
795295230.0 0.0430906107 0.8430136721 -0.0001375348 0.0001125484 0.0002217151 -8.49244e-05 0.0071479857 -0.8444176934
800295200.0 0.0511374812 0.8423226368 -4.62938e-05 3.03046e-05 -0.0001423421 -3.33151e-05 -0.00126862 -0.8443908156
805295170.0 0.0594959499 0.8421508586 -0.0001054349 -3.90322e-05 4.47339e-05 -4.4674e-05 -0.0102085516 -0.8441365865
810295140.0 0.067712438 0.8412501091 -9.86669e-05 3.17228e-05 -4.19155e-05 8.37025e-05 -0.0183628748 -0.843225918
815295110.0 0.076864892 0.8403595233 -1.60059e-05 0.0001119544 -0.0001914409 -7.59936e-05 -0.0269193188 -0.8427897682
820295080.0 0.0850750646 0.8387407868 0.0001183936 -0.0001310897 0.0001494508 3.072e-06 -0.0355146888 -0.8433601166
825295050.0 0.0937746636 0.8385024551 -0.0001027444 -6.96236e-05 0.0001621652 0.0001136195 -0.0437803764 -0.8421582149
830295020.0 0.1020858836 0.8374859178 -1.28577e-05 0.0001267475 -2.46271e-05 2.6459e-05 -0.0526012347 -0.8419165053
835294990.0 0.1097883051 0.8367913641 -0.0001657341 0.0001673429 0.0001241679 -2.57395e-05 -0.0606100803 -0.8412338229
840294960.0 0.1184778388 0.8353068352 -2.27747e-05 6.13405e-05 -0.000128182 3.6149e-06 -0.0695039987 -0.8395168631
845294930.0 0.1264099932 0.8345569734 -8.87539e-05 0.0001339777 -7.22544e-05 0.0001352296 -0.0768628383 -0.8391871103
