!Created with skrf (http://scikit-rf.org).
# Hz S RI R 50.0 
!freq ReS11 ImS11 ReS21 ImS21 ReS12 ImS12 ReS22 ImS22
300000.0 -0.7739390444 -0.1780934108 0.0005419951 0.0007439054 0.0007800228 -0.0002962979 -0.2084581234 -0.1065058797
5299970.0 -0.7860344179 -0.009646463 -5.84836e-05 -0.0001080944 4.53343e-05 -4.02309e-05 -0.2159992732 0.0061511283
10299940.0 -0.7897453577 -0.0057402803 0.0001570835 -1.9407e-05 -2.81627e-05 -0.0001032539 -0.2123580193 0.0187777254
15299910.0 -0.7943021556 -0.0033710954 8.0905e-06 -5.25983e-05 9.18768e-05 7.46687e-05 -0.2076100933 0.0279617102
20299880.0 -0.8009324478 0.0005081914 3.14429e-05 -0.0001643653 -4.7431e-05 -0.0002266075 -0.2026193343 0.0356410588
25299850.0 -0.8075656722 0.0065394064 -0.0001304318 9.78579e-05 2.09424e-05 7.34828e-05 -0.19685257 0.0418155061
30299820.0 -0.8138475152 0.0139369821 0.000110099 6.7376e-06 0.0001858818 0.000113129 -0.1909260623 0.0465852937
35299790.0 -0.8182485571 0.0227907098 -0.0002244956 3.03881e-05 -0.0001773347 -5.9924e-06 -0.1850022303 0.050576778
40299760.0 -0.823609821 0.0315743381 -0.000118097 0.0001009594 0.0001517641 -9.98591e-05 -0.1796964774 0.0533278839
45299730.0 -0.8271559467 0.0413922195 0.0001797299 -7.712e-07 -0.0001314647 5.12492e-05 -0.1745311764 0.0554795315
50299700.0 -0.8289981746 0.0518432621 -0.0001460505 0.0002445092 8.03401e-05 0.0001861278 -0.1696431315 0.0573409789
55299670.0 -0.8316362835 0.0612688791 -7.93156e-05 -2.4098e-05 -0.0001172229 6.097e-06 -0.1656513942 0.0581046534
60299640.0 -0.8326121905 0.0717368874 7.07436e-05 -0.0001239047 4.55009e-05 4.03865e-05 -0.1614946984 0.0586941976
65299610.0 -0.8335197341 0.081556257 -0.0001551261 0.0001314003 5.3618e-05 6.00591e-05 -0.1576907628 0.059239734
70299580.0 -0.8336755135 0.0918107625 8.45992e-05 -4.16823e-05 0.0001029343 0.0001579275 -0.1547710365 0.0595995597
75299550.0 -0.8336951302 0.100900053 4.8496e-05 0.0001267889 0.000179037 -0.0001120295 -0.1514124334 0.0598623616
80299520.0 -0.8343221647 0.1120887436 0.0001213313 2.91012e-05 0.0001160739 -2.2859e-05 -0.1488366833 0.0599046125
85299490.0 -0.8328061352 0.1211428365 -3.61039e-05 -4.6607e-06 -9.68428e-05 -1.04464e-05 -0.1464476704 0.0597246457
90299460.0 -0.8323569973 0.1311859989 4.25507e-05 -1.31406e-05 -2.64186e-05 4.07164e-05 -0.1442106257 0.0598084598
95299430.0 -0.8318944909 0.1405205152 6.99298e-05 0.0001362594 -9.12639e-05 0.0002430209 -0.1421103177 0.0601194392
100299400.0 -0.8306576797 0.149803172 0.0003126263 -7.97179e-05 -0.000135357 0.0003242334 -0.1405584535 0.0601831255
105299370.0 -0.8285774434 0.1592677894 -5.73237e-05 0.000112793 -4.14572e-05 0.0001520282 -0.138736287 0.0596353312
110299340.0 -0.8273934435 0.1681781409 -2.27646e-05 -3.2285e-06 0.0001834975 0.0001911175 -0.1376594041 0.0598443668
115299310.0 -0.8265232096 0.1777909372 9.82991e-05 0.0001281027 8.33859e-05 0.000253022 -0.1361237429 0.0598457887
120299280.0 -0.8245768072 0.1867367509 1.84736e-05 0.0001635802 -0.0001383709 0.00014977 -0.1348940482 0.0597434278
125299250.0 -0.8226338218 0.1952132599 -8.42841e-05 8.68015e-05 1.55744e-05 0.0002299931 -0.1339760834 0.0601444532
130299220.0 -0.82094826 0.204564519 0.0002714162 -0.0001850321 -0.0001424212 0.0001001613 -0.1329089342 0.0599770171
135299190.0 -0.8187663765 0.2143510724 -0.0001401875 8.07311e-05 -6.818e-07 6.87096e-05 -0.1320529408 0.0603507211
140299160.0 -0.8169559195 0.2231842944 1.65839e-05 -0.000107649 1.47575e-05 3.04683e-05 -0.1313462508 0.0608352717
145299130.0 -0.8150616398 0.2322146813 0.0001156984 -1.0433e-05 -1.43e-06 -6.338e-06 -0.1305028631 0.0608325372
150299100.0 -0.8124435847 0.2409589624 0.0001461499 7.37415e-05 2.75798e-05 8.45845e-05 -0.1298599892 0.061608334
155299070.0 -0.8100533135 0.2500428257 0.000195049 9.03953e-05 6.06973e-05 0.0001370514 -0.1289567036 0.0621143856
160299040.0 -0.8077051756 0.2588390013 4.22994e-05 7.49885e-05 -9.56443e-05 -0.0001889063 -0.1284871236 0.0623470604
165299010.0 -0.8044028677 0.2673040965 -0.000153779 0.0001676195 -3.42621e-05 8.50344e-05 -0.1277175528 0.0624968123
170298980.0 -0.801981765 0.2762489241 0.0001405092 0.0003253668 5.13836e-05 -0.0001487931 -0.1274369209 0.0632381479
175298950.0 -0.7991237288 0.2841231838 -4.42272e-05 0.0001994424 0.0001204109 1.5762e-06 -0.1266784758 0.0640327662
180298920.0 -0.7957277157 0.293600591 -2.4878e-06 -8.84967e-05 9.38201e-05 0.0002700787 -0.1261930114 0.0643443319
185298890.0 -0.7925390757 0.3018977626 4.69922e-05 -5.3178e-05 -5.22262e-05 9.18458e-05 -0.1256544492 0.0649191377
190298860.0 -0.7895729254 0.3107722457 5.55778e-05 0.0001734654 0.0001136139 8.6353e-06 -0.1251905783 0.065954981
195298830.0 -0.7864029961 0.3189205911 -0.0001455939 8.982e-06 0.000211796 0.0002035222 -0.1248922192 0.0665590997
200298800.0 -0.7827117127 0.3279579141 7.27915e-05 -5.3493e-05 0.0001578191 6.70647e-05 -0.1241248175 0.0670204894
205298770.0 -0.7784748308 0.3364004268 3.89469e-05 6.55419e-05 -2.59279e-05 -5.75714e-05 -0.1237625948 0.0678879779
210298740.0 -0.7763434603 0.3445319954 0.0002690157 8.34451e-05 2.30318e-05 5.45596e-05 -0.1234894342 0.0687520626
215298710.0 -0.7719973349 0.3533531339 5.656e-05 -5.24928e-05 -9.25277e-05 8.97793e-05 -0.1229437194 0.0690848421
220298680.0 -0.769087566 0.3603931644 -3.84206e-05 5.69246e-05 7.91229e-05 0.0001436164 -0.1223544287 0.0701716453
225298650.0 -0.764765858 0.3696655307 -0.0001408749 0.0002055533 -0.0001091148 0.0002748339 -0.1218394557 0.0712021557
230298620.0 -0.7610658539 0.3776966111 -6.6808e-06 7.51585e-05 5.1705e-06 2.62572e-05 -0.12139938 0.0718712578
235298590.0 -0.7574756845 0.3857475525 0.0001769978 -0.0001617021 0.0001565243 8.61955e-05 -0.1210700564 0.0729357928
240298560.0 -0.753230702 0.3936229679 9.27178e-05 2.79389e-05 -5.92e-07 -2.45402e-05 -0.1206022507 0.0736012252
245298530.0 -0.7486209794 0.4018709586 7.78118e-05 -0.0001419559 0.0001697281 -3.40966e-05 -0.1200224221 0.0743896067
250298500.0 -0.7452383214 0.4091966373 -7.91759e-05 0.0002372653 3.6379e-05 7.97388e-05 -0.1199657575 0.0759125858
255298470.0 -0.7403986501 0.4174513559 0.0002985173 4.56826e-05 1.53137e-05 0.0001221225 -0.1190934796 0.0761505213
260298440.0 -0.7364239314 0.424539967 6.94461e-05 0.0002088754 5.33645e-05 8.66788e-05 -0.1188619728 0.0773074654
265298410.0 -0.7319111246 0.4323640996 8.97852e-05 0.0001300922 0.0001460368 0.0001017705 -0.1180326981 0.0782012505
270298380.0 -0.7272240912 0.440696423 6.4331e-05 0.0001250761 2.39039e-05 -0.0002270031 -0.1173925479 0.0792693814
275298350.0 -0.7227866087 0.4479878105 6.30701e-05 0.0001180136 -1.08326e-05 0.000248217 -0.1166712946 0.0800585783
280298320.0 -0.7182207248 0.4558328408 -8.55476e-05 9.39617e-05 4.30526e-05 3.34441e-05 -0.1167226134 0.0810189364
285298290.0 -0.7135049862 0.4631518573 4.0035e-06 2.16822e-05 0.0001576889 0.000134773 -0.1161236287 0.082443906
290298260.0 -0.708257663 0.471162097 -9.70559e-05 0.0002525389 0.0001329174 -0.0002551407 -0.1155146471 0.0833429932
295298230.0 -0.7039257381 0.4777476507 0.0002020269 8.20561e-05 -3.88175e-05 0.00026454 -0.1144819658 0.0844941559
300298200.0 -0.6996584206 0.4855174832 0.0001893889 -0.0001094498 0.0002024174 0.0001355868 -0.1140653434 0.0854958007
305298170.0 -0.6951350836 0.4922238467 0.0002429923 5.23978e-05 7.36123e-05 -5.43988e-05 -0.1134578826 0.0864162316
310298140.0 -0.6891001927 0.4996225884 8.63691e-05 0.0002564102 0.0001671071 0.0001896335 -0.1126765319 0.0874965033
315298110.0 -0.6851069647 0.5068513617 0.0001009855 0.0001567163 4.76652e-05 0.0001639499 -0.111861749 0.0883326721
320298080.0 -0.6787201694 0.5143459881 -0.0001094073 4.68144e-05 0.0002126613 0.0002888113 -0.1120510336 0.0894069076
325298050.0 -0.6740712543 0.5205570746 0.0002492975 0.0001215083 0.0002571451 1.17246e-05 -0.1107481785 0.0900642797
330298020.0 -0.6685830298 0.5276375837 0.0002259547 4.24392e-05 3.15216e-05 8.0498e-05 -0.1105618189 0.0908780288
335297990.0 -0.6630310993 0.5347313764 0.0002970501 -9.83297e-05 0.0002324543 -4.74243e-05 -0.1096442665 0.0923439483
340297960.0 -0.6583321744 0.5413970862 0.0003146233 -0.0001090326 0.0001796165 -4.20079e-05 -0.1091543714 0.0933422627
345297930.0 -0.6525412602 0.5480901419 0.0001685682 0.000202123 0.0001182012 7.35579e-05 -0.1084382135 0.0943801424
350297900.0 -0.646489953 0.5547908948 0.000435182 0.0001081839 0.0002238762 9.55991e-05 -0.108243232 0.0955216158
355297870.0 -0.6415444424 0.5609369066 -0.0002012202 9.91067e-05 0.0002241553 0.0001232232 -0.1069854762 0.0966487373
360297840.0 -0.6350508135 0.5680510849 8.28605e-05 0.000186667 0.0002299312 -4.53321e-05 -0.1064800233 0.0976458507
365297810.0 -0.6295184925 0.5749139263 0.0001339187 -0.000199311 -1.74635e-05 0.0001641695 -0.1057889274 0.0985704496
370297780.0 -0.6238983722 0.580738595 0.000359954 0.000181184 6.66288e-05 8.67431e-05 -0.1053677051 0.0998008508
375297750.0 -0.6182409424 0.5866170699 0.0001523432 0.0002087259 2.43843e-05 1.82216e-05 -0.1043443317 0.1008540829
380297720.0 -0.6123470381 0.5932037459 0.0001877655 0.0001658372 0.0001551652 0.0001603944 -0.1034234891 0.1019720909
385297690.0 -0.6063706829 0.5996115549 3.12134e-05 1.4274e-06 -3.52584e-05 -7.26777e-05 -0.102676194 0.1032283351
390297660.0 -0.5986089217 0.6051124413 7.39689e-05 9.27586e-05 -4.033e-07 0.0001710035 -0.1021004756 0.1041517952
395297630.0 -0.5935978358 0.6120061909 0.000125234 -0.0001166934 3.2096e-06 6.5015e-06 -0.1008896558 0.1049761364
400297600.0 -0.5871590976 0.6179380581 5.85337e-05 1.41414e-05 9.67427e-05 0.0002661215 -0.1000585746 0.1063418282
405297570.0 -0.5807867837 0.6229190255 0.0002785088 0.0002087183 0.0001728 4.11307e-05 -0.099275653 0.1074166579
410297540.0 -0.5743478194 0.6297316576 5.6674e-05 -0.0001848136 -4.3592e-06 0.0001728101 -0.0985039718 0.108887642
415297510.0 -0.5682028034 0.6353628299 0.0004021947 7.73331e-05 -1.40274e-05 0.0001919589 -0.0976526288 0.1095451401
420297480.0 -0.5615355023 0.6408319544 0.0001286265 -6.20845e-05 3.71443e-05 -4.2459e-06 -0.0963945578 0.1110375796
425297450.0 -0.5548173265 0.6468614571 0.0001289385 0.0003064485 0.0003124475 0.0001861062 -0.0958753692 0.111382146
430297420.0 -0.5481143513 0.6517340126 -3.25669e-05 -5.28541e-05 0.0001143199 3.7033e-06 -0.0946446666 0.1129206704
435297390.0 -0.5415609812 0.6578506801 0.0003509861 0.0002253739 -8.87687e-05 0.0001375432 -0.0941712553 0.1141438821
440297360.0 -0.5344692155 0.663029461 0.0004182958 0.0001814709 -9.6533e-06 7.07594e-05 -0.092771138 0.1149896036
445297330.0 -0.527159671 0.6681171034 0.0002283226 -3.04519e-05 0.0002478679 0.0001516044 -0.0920305166 0.1159809538
450297300.0 -0.5202973516 0.673633112 0.0001960043 3.61675e-05 0.0001790557 3.40367e-05 -0.0909492993 0.1166870889
455297270.0 -0.5134602821 0.6781223564 0.0001680226 -0.0001803843 -6.76468e-05 1.13499e-05 -0.0899397102 0.1180391716
460297240.0 -0.5059519041 0.6841406298 0.0001383834 0.0001388673 0.000186497 1.51849e-05 -0.0892343394 0.1187150948
465297210.0 -0.4993993064 0.6884880227 0.0003353156 0.0002059129 9.03267e-05 0.0001420447 -0.0880650407 0.1198205127
470297180.0 -0.4924413788 0.6941414798 0.0002216367 7.85044e-05 0.0001847669 8.96303e-05 -0.0869879178 0.1206831477
475297150.0 -0.4850057293 0.6986743612 0.000246533 0.0002170898 0.0002853296 3.94801e-05 -0.0860516911 0.1223255868
480297120.0 -0.4774615095 0.7042528731 0.0002613955 -1.43914e-05 0.0001121946 0.000210407 -0.0852184196 0.1231362971
485297090.0 -0.4708772786 0.7083294649 0.0002408064 -4.7914e-05 0.0001614411 0.0003183936 -0.0837567669 0.1235782215
490297060.0 -0.4623834688 0.7143288385 0.0003019111 9.40347e-05 0.0003806889 9.99902e-05 -0.0829059687 0.1248174558
495297030.0 -0.4552265459 0.7182457166 0.0001750592 0.0001161007 0.0002119921 2.63264e-05 -0.0817668554 0.1254996444
500297000.0 -0.4473269354 0.7222806129 0.0001893791 6.17076e-05 0.0001312542 0.0001476887 -0.0804624441 0.1265576831
505296970.0 -0.440194677 0.72726866 8.96234e-05 5.30305e-05 0.00023782 0.000195368 -0.079430054 0.1276750114
510296940.0 -0.4322898726 0.7311822164 0.0001377968 -7.05275e-05 0.0003526518 5.96535e-05 -0.0782732079 0.1285256707
515296910.0 -0.4245548949 0.7356021433 0.0003180506 8.35364e-05 0.0002636285 0.0001597909 -0.0772612194 0.1293779659
520296880.0 -0.4164861872 0.7399451987 0.0002135833 0.0001252921 0.0002465271 0.0001588757 -0.0759797286 0.130379219
525296850.0 -0.4091467483 0.7439650204 0.0001967247 5.05088e-05 0.0001149717 9.9151e-05 -0.0751504801 0.1310536505
530296820.0 -0.4015566844 0.7482841758 0.0001034693 0.0001499177 0.0002738605 0.0001192292 -0.0736822778 0.1321244267
535296790.0 -0.3934003012 0.7522684098 0.0001376238 -7.5399e-05 0.0002494356 0.0001761207 -0.0723722407 0.1328336357
540296760.0 -0.3853753807 0.756076475 0.0001126402 5.66081e-05 0.0002789134 8.0954e-06 -0.071629395 0.1338863327
545296730.0 -0.3773780015 0.7602810259 0.0003609328 -0.0001973487 0.0002140707 -1.03756e-05 -0.0700693314 0.1349422741
550296700.0 -0.3692967426 0.7638681641 -6.49907e-05 -0.0001742197 0.0001402715 -7.02795e-05 -0.068987094 0.1356442857
555296670.0 -0.3621671063 0.7673021747 0.0001891416 1.6601e-06 0.000120399 0.0002393364 -0.0680424515 0.1361690149
560296640.0 -0.3535322437 0.7707083508 0.0004501049 -9.1768e-06 0.000268837 8.29588e-05 -0.0665449327 0.1371988723
565296610.0 -0.3459154121 0.7741737307 0.000209005 -5.20894e-05 0.0001749829 5.5069e-06 -0.065184518 0.1382927615
570296580.0 -0.3373829485 0.7781986643 0.0003619307 0.0001736087 2.6868e-05 -5.84254e-05 -0.0642819275 0.1386960754
575296550.0 -0.328518282 0.7813696285 0.0004736966 0.0001128073 0.0001115456 -0.0001348054 -0.0626731202 0.1396402743
580296520.0 -0.3215213174 0.7848562026 0.0004961716 -0.0001020875 0.0001391305 8.57664e-05 -0.0618032623 0.1403092816
585296490.0 -0.3127693577 0.7877094593 0.0001233141 2.43844e-05 0.0002333725 -0.0001659583 -0.0600640804 0.1411391842
590296460.0 -0.3040019534 0.7906935585 0.0001887768 0.0001497937 0.000227923 -2.63808e-05 -0.0592067237 0.1418917314
595296430.0 -0.2960912392 0.7940202385 8.78372e-05 5.624e-07 0.0002895215 9.6265e-05 -0.0577408074 0.142527989
600296400.0 -0.2883863472 0.7966689506 0.0002883901 0.0001215167 0.0002344553 4.9603e-06 -0.0563040676 0.1432154204
605296370.0 -0.2797948984 0.7999232734 0.0003279378 0.0001092095 0.0002190613 -0.0001032827 -0.0549646913 0.1441148616
610296340.0 -0.2714161176 0.8032687212 0.0003864798 0.0001809611 0.0002257313 -0.0001992933 -0.0539161393 0.1448976222
615296310.0 -0.262685345 0.805786558 -0.0001098408 0.0001399721 0.0003845182 0.0001727281 -0.0522922856 0.1457349942
620296280.0 -0.2555689909 0.8084564478 0.0001913375 0.0002360301 5.01002e-05 0.000201835 -0.0512690867 0.1463580173
625296250.0 -0.2475624115 0.809684463 0.0002698755 -0.000108565 0.0003632527 6.08724e-05 -0.0499210015 0.1467218755
630296220.0 -0.2390365406 0.8129919644 0.0003190197 -3.70524e-05 0.0003242159 -6.79221e-05 -0.0486142188 0.1472081729
635296190.0 -0.2306900416 0.8153147603 0.000153385 7.04798e-05 0.0004170264 0.0001238632 -0.0474113149 0.1483277579
640296160.0 -0.2224720689 0.8177344655 -7.7921e-06 0.0001223885 0.0001554751 0.0001743467 -0.0457309641 0.1487791333
645296130.0 -0.2133805367 0.82037214 0.0001145873 7.88335e-05 0.0002219757 8.35716e-05 -0.044658924 0.1493201318
650296100.0 -0.2052713093 0.8221465856 0.0005215144 0.0002338462 0.0002503274 0.000152492 -0.043014267 0.1500949319
655296070.0 -0.1978120821 0.8242683977 0.0001503962 2.0231e-05 0.0002010944 -0.0002089472 -0.041812588 0.150707349
660296040.0 -0.1893454483 0.8262241104 0.0002303582 -1.7952e-06 0.0001901547 0.0001255775 -0.0401215242 0.1513401861
665296010.0 -0.1812134242 0.8280647568 0.000330478 -5.3901e-05 0.0004699488 -0.0002035253 -0.0385115092 0.1518865753
670295980.0 -0.1728778134 0.8305502523 0.0002557686 -6.21232e-05 0.0004239631 6.68129e-05 -0.0375221338 0.152457536
675295950.0 -0.1639525989 0.8320798559 7.61702e-05 -8.43492e-05 0.0002605474 -3.87226e-05 -0.0362258999 0.1530049591
680295920.0 -0.1567972671 0.8340973937 0.0001093909 -8.005e-05 0.0003519957 -0.0001588128 -0.0347538669 0.1535161929
685295890.0 -0.1476184815 0.8357682421 0.0002615274 0.0001056157 0.0001743932 0.0001048734 -0.0333262476 0.1540648457
690295860.0 -0.1393561658 0.8366568626 0.0001734623 0.0001643445 0.0003784685 -0.0001303466 -0.0319503951 0.154688837
695295830.0 -0.130967688 0.8382182196 0.0003526635 0.0001261082 0.0002557433 -8.41171e-05 -0.0306316348 0.1552622681
700295800.0 -0.1226349843 0.8403092971 -8.4977e-06 4.26551e-05 0.0001010624 1.62546e-05 -0.0288333575 0.1556648306
705295770.0 -0.1146872814 0.8416474298 0.0002783026 -1.78278e-05 -1.24741e-05 -7.57945e-05 -0.0273940816 0.1562536084
710295740.0 -0.1070164794 0.8424919567 0.0002571809 -0.0001625286 0.0002596693 -9.33369e-05 -0.0259019365 0.1568140662
715295710.0 -0.0975502301 0.8438208088 0.0003459486 8.74959e-05 0.0002858599 -0.0001040961 -0.0242153972 0.1567908466
720295680.0 -0.0891269234 0.844066202 0.0004044125 -5.82107e-05 0.0004186082 -6.01002e-05 -0.0231266254 0.1574373501
725295650.0 -0.0815128443 0.8457289122 0.0004078729 7.51231e-05 0.0004783458 3.27325e-05 -0.0215904607 0.1582162657
730295620.0 -0.0734741027 0.8466455169 0.000324533 -0.0001357936 0.0004473474 3.0792e-05 -0.0203591278 0.1583788
735295590.0 -0.065912154 0.8477394916 0.0002333026 -0.0001087162 0.000325793 -0.0001943029 -0.0184452422 0.1585852343
740295560.0 -0.0580621823 0.8480344015 0.000221737 2.54357e-05 0.0002883784 -0.0001817772 -0.0169912999 0.1591194978
745295530.0 -0.049189825 0.8492631949 0.0002354702 -0.0001871347 0.0003826499 5.33227e-05 -0.0156705238 0.1594711469
750295500.0 -0.0413243328 0.8497779341 0.0003560316 -2.65391e-05 0.0001970959 -1.692e-06 -0.0141730017 0.1596211861
755295470.0 -0.0327300619 0.8498909266 0.0003165084 -3.70928e-05 0.0002144242 -0.0001898726 -0.0127996722 0.1603575406
760295440.0 -0.0240019707 0.8510186988 0.0001739501 -0.0002271515 0.0003712264 -7.05462e-05 -0.010850368 0.1602874094
765295410.0 -0.0164670156 0.8505735768 0.0002355811 -0.0002447637 0.0003453567 -0.0001270825 -0.0093707387 0.1605745
770295380.0 -0.0086893343 0.8517569127 0.0001201191 -0.0003373554 0.0003856847 -7.02706e-05 -0.0081299689 0.161333153
775295350.0 -0.0005031983 0.8513759857 0.0002864755 0.000123939 0.0003165214 -0.0001110507 -0.0065746856 0.1611832061
780295320.0 0.008347123 0.8514256711 0.0002801463 -5.57754e-05 0.0002924364 0.0001312885 -0.0050461993 0.1616673498
785295290.0 0.0164873373 0.8514234432 0.0001245235 0.0002041423 0.000292979 -0.0001593443 -0.003901382 0.1619269165
790295260.0 0.0243756705 0.8510265966 0.000256257 2.8855e-06 0.0001655333 -0.000104358 -0.0019950559 0.16238118
795295230.0 0.0328140327 0.8505884884 0.0004260773 -7.59992e-05 0.0002058654 5.41099e-05 -0.0009130396 0.1620758253
800295200.0 0.040990845 0.8507748131 0.0003538763 -0.0001920668 0.0005732124 -8.5097e-06 0.0009604811 0.1623184357
805295170.0 0.0490101501 0.8508703431 2.26551e-05 -0.0001793166 0.0003246471 -0.0001305221 0.0025534178 0.1624973382
810295140.0 0.0573645002 0.8502465967 0.0003699316 -0.0002095478 0.0003035334 0.0002650205 0.0042175231 0.1627989052
815295110.0 0.0647325783 0.849767208 0.0003957759 -0.0001218275 0.0002776213 -9.0436e-06 0.005418333 0.1630492639
820295080.0 0.0735564649 0.8492254286 0.000378263 1.68266e-05 0.0002481409 -2.04948e-05 0.0069300879 0.1634877219
825295050.0 0.0816247723 0.8484396377 0.0003908381 -0.0001004095 3.2183e-05 5.07234e-05 0.0085371901 0.1631535285
830295020.0 0.0903280033 0.8476164499 0.0002299564 -0.0001621915 0.0002355762 -0.0001594161 0.0100829237 0.1633632716
835294990.0 0.0978955409 0.8467518267 0.0002725876 4.41871e-05 0.000361021 -3.8372e-05 0.0118404848 0.1638800313
840294960.0 0.10668839 0.8453785869 0.0004457352 0.0001247888 0.0003316442 -2.7936e-05 0.01335756 0.1635299302
845294930.0 0.1142337281 0.8447609389 0.0004265382 -8.8431e-05 0.0002540928 -0.0002092551 0.0147845733 0.1637073831
850294900.0 0.1232882526 0.8434840325 0.0002133775 -0.0002763222 0.0002297062 -3.53113e-05 0.0161533977 0.163984287
