!Created with skrf (http://scikit-rf.org).
# Hz S RI R 50.0 
!freq ReS11 ImS11 ReS21 ImS21 ReS12 ImS12 ReS22 ImS22
300000.0 -0.3188912496 -0.1074282867 0.3738306386 0.0539017003 0.3756398379 0.0580954515 -0.3215694032 -0.1164354812
5299970.0 -0.3237455628 0.0048525765 0.3787173908 0.0026205484 0.3786602256 0.0032506825 -0.326054498 0.0028377755
10299940.0 -0.3209750754 0.0153629023 0.3799878757 0.0025397341 0.3797482609 0.0024010728 -0.3240515756 0.0129363749
15299910.0 -0.3180162872 0.0236090523 0.3817682395 0.0022565497 0.3820608873 0.0024875936 -0.3212017721 0.0197967766
20299880.0 -0.3142506983 0.0303016182 0.385058559 0.0015850128 0.3851682055 0.0016081195 -0.3187906252 0.0261286821
25299850.0 -0.3108554457 0.0357585379 0.388516906 -0.0001792387 0.388685214 -7.17295e-05 -0.3156283506 0.031329707
30299820.0 -0.3066819961 0.0404236627 0.3923126595 -0.0021700521 0.3919683443 -0.0022433638 -0.3124835846 0.0358580145
35299790.0 -0.3030589764 0.0448677496 0.3950910124 -0.005224883 0.3955814304 -0.0053416482 -0.3100364189 0.03938878
40299760.0 -0.2995359776 0.0479578089 0.3981655608 -0.0085518932 0.3984037821 -0.008801979 -0.3070050241 0.0431721445
45299730.0 -0.2964481622 0.0516753585 0.4010035119 -0.0128093038 0.4012971232 -0.0128016074 -0.3047198298 0.0462379184
50299700.0 -0.2930902357 0.0540788483 0.4033685149 -0.017296832 0.4036095871 -0.0175769573 -0.3019682544 0.0493354517
55299670.0 -0.2909215683 0.0567907744 0.4056329849 -0.0219102534 0.4058686786 -0.0218138343 -0.3003398793 0.0521633054
60299640.0 -0.2882666379 0.0588189782 0.407455225 -0.0267304371 0.407628161 -0.026957382 -0.2979977618 0.054706017
65299610.0 -0.2861744668 0.0615745916 0.4094124242 -0.0315388742 0.4095254663 -0.0316937456 -0.2961083569 0.0571721945
70299580.0 -0.2837680886 0.0633385043 0.4104122527 -0.0368451251 0.4103944827 -0.0368101419 -0.294427157 0.0593552192
75299550.0 -0.2819468877 0.0656306024 0.4115656077 -0.0423242945 0.4115477163 -0.0422815117 -0.2931607977 0.0620158566
80299520.0 -0.2804756764 0.0680659314 0.4130273372 -0.0472096738 0.4129394446 -0.047162704 -0.2917260572 0.0638910771
85299490.0 -0.2786487013 0.0697872898 0.4130039599 -0.052525933 0.4129856396 -0.052911249 -0.290193259 0.0664341175
90299460.0 -0.2769190529 0.0719477384 0.4133012972 -0.0576844946 0.4135851954 -0.0579195506 -0.2887977092 0.0687494077
95299430.0 -0.2755051927 0.0744102572 0.413871156 -0.0636078273 0.4137806112 -0.0633801989 -0.2874550338 0.071332578
100299400.0 -0.2742107551 0.0763890185 0.4138041583 -0.0683786964 0.4139087718 -0.0683577327 -0.2868188671 0.0733431624
105299370.0 -0.2730735997 0.0786184587 0.4136750468 -0.0731769315 0.4135860689 -0.0736940768 -0.2852461768 0.075671094
110299340.0 -0.2720115275 0.0803369228 0.4133842899 -0.0784354146 0.4137114764 -0.0788509363 -0.2845629823 0.0783835339
115299310.0 -0.2707481122 0.0823714174 0.4130431985 -0.0835306768 0.4133963282 -0.0836811631 -0.2832143736 0.0801622722
120299280.0 -0.2695686848 0.0845333044 0.413021423 -0.089036202 0.4129461527 -0.0888889995 -0.2822491366 0.0826131015
125299250.0 -0.2690083444 0.0868759109 0.4123751771 -0.0938993849 0.4124591467 -0.0939862499 -0.2812818136 0.0849630699
130299220.0 -0.2679117112 0.0891070681 0.4117696017 -0.0985234889 0.4115761925 -0.0990489869 -0.2805046507 0.0873706002
135299190.0 -0.2667316378 0.0912956293 0.410865097 -0.103701193 0.4106924334 -0.1040254166 -0.2797491504 0.089636149
140299160.0 -0.2658313975 0.0937721655 0.4101186186 -0.1090637507 0.41016042 -0.1093394623 -0.2784081575 0.0919636028
145299130.0 -0.2645521953 0.0961108982 0.4094268225 -0.1140971835 0.4092216619 -0.1137318611 -0.2780877178 0.0943783921
150299100.0 -0.26380868 0.0983688644 0.4079449195 -0.1194578433 0.4081132737 -0.1188011824 -0.2770822321 0.096855599
155299070.0 -0.2629223351 0.1009009216 0.4068905226 -0.1241821306 0.4071721093 -0.1239378302 -0.2762771367 0.0995177971
160299040.0 -0.2620190407 0.1030404326 0.4056839409 -0.128465748 0.4059957986 -0.1288951548 -0.2752478558 0.1021924635
165299010.0 -0.2611372344 0.1053267028 0.4048440099 -0.1338562774 0.4046529019 -0.133513173 -0.2742465119 0.1044429326
170298980.0 -0.2603518092 0.1078525078 0.4028346946 -0.1384886969 0.4034106819 -0.1385049838 -0.2732165246 0.1073022949
175298950.0 -0.2589435858 0.110363417 0.4021209905 -0.1429153648 0.4023576575 -0.1432589976 -0.2722655078 0.1098243372
180298920.0 -0.257977766 0.1127315678 0.400501769 -0.1481999337 0.4006921292 -0.1479087592 -0.2711231384 0.1125824009
185298890.0 -0.2567123513 0.1152801402 0.398582179 -0.1526794658 0.3988968348 -0.1527348316 -0.2703792827 0.1149690525
190298860.0 -0.2558829532 0.1174687084 0.3968841144 -0.1572563299 0.3974524172 -0.1576177413 -0.2687475253 0.1177661639
195298830.0 -0.2544575558 0.1200193816 0.3959137664 -0.1618889295 0.3958099927 -0.162250923 -0.2680461197 0.1200113345
200298800.0 -0.2539055906 0.1228710416 0.3941152137 -0.1662966555 0.3941530989 -0.1664783622 -0.2667313378 0.1228867467
205298770.0 -0.2525187251 0.1254309771 0.3921709948 -0.1710760827 0.3921092357 -0.1711805619 -0.2657438621 0.1253184983
210298740.0 -0.2515771174 0.1278315766 0.3904807832 -0.1756168827 0.3906513003 -0.1757660216 -0.2644994401 0.1280041311
215298710.0 -0.2504074941 0.1302734221 0.3885632899 -0.1802474832 0.3885311731 -0.1800611623 -0.2636892591 0.1306626706
220298680.0 -0.2492599494 0.1329025755 0.3863280722 -0.1845398595 0.3868657588 -0.1846148319 -0.2622162996 0.1335230233
225298650.0 -0.2475305315 0.1356131542 0.3846601862 -0.1889479517 0.3842497961 -0.1887412738 -0.261179408 0.1361751603
230298620.0 -0.2467003023 0.1381592775 0.3825850753 -0.193578139 0.382689923 -0.1934874865 -0.2596839039 0.1386681579
235298590.0 -0.2452925284 0.1406479384 0.3804708066 -0.1978076061 0.3803287687 -0.1979928512 -0.258232387 0.1412475481
240298560.0 -0.2443976402 0.143380582 0.3785599151 -0.2021047489 0.3783267438 -0.2019066601 -0.2570742249 0.1443855944
245298530.0 -0.2429310821 0.1456881898 0.3758042494 -0.2065393427 0.3760799741 -0.2064219685 -0.2554723574 0.1470775974
250298500.0 -0.2417380572 0.1482234243 0.3737475393 -0.2106611117 0.3738189983 -0.2105310292 -0.2537132516 0.149615094
255298470.0 -0.2397685487 0.1507593074 0.3712004112 -0.2150127297 0.3715955673 -0.2148231677 -0.2526954848 0.1521874256
260298440.0 -0.238572069 0.1535021739 0.3691986589 -0.2193232213 0.3692042765 -0.2195161348 -0.2510156396 0.1550471543
265298410.0 -0.2370999066 0.1563389901 0.3666315168 -0.2239804979 0.366638396 -0.2235021737 -0.2495912745 0.1576529555
270298380.0 -0.2352916024 0.1586485784 0.3636613316 -0.2275807967 0.3642457896 -0.2276042133 -0.2476846802 0.1603948141
275298350.0 -0.2339696197 0.1611368103 0.3616968882 -0.2319670527 0.3619007131 -0.2319216896 -0.2462055275 0.1632617984
280298320.0 -0.2325378722 0.1636434074 0.358923316 -0.2358129754 0.3589832335 -0.2358368017 -0.2445590325 0.1656594337
285298290.0 -0.2309636693 0.1663970051 0.3564957539 -0.2397209337 0.3563489306 -0.2398586892 -0.2433948707 0.1684374023
290298260.0 -0.2294060432 0.1689115157 0.3539939232 -0.2441576241 0.3539045536 -0.243974648 -0.241264518 0.1712965148
295298230.0 -0.2277574485 0.1711478923 0.35152321 -0.2479253979 0.350737386 -0.2479544737 -0.2393895478 0.1736960948
300298200.0 -0.2257650987 0.1738358035 0.348469654 -0.2518506419 0.3484435833 -0.2518548193 -0.2378395135 0.1766485786
305298170.0 -0.2240393751 0.1762899178 0.3459817967 -0.2560192394 0.3456547179 -0.2559196114 -0.2354872382 0.1792457784
310298140.0 -0.2221071103 0.1782506209 0.3428965295 -0.2597914991 0.3431063931 -0.260261129 -0.2340027956 0.1821205487
315298110.0 -0.2206331865 0.180951766 0.3400425679 -0.26348866 0.3401061041 -0.2639806318 -0.2318019986 0.1842769862
320298080.0 -0.2186002857 0.1834831662 0.3370309026 -0.2678719191 0.3370725977 -0.2676406697 -0.2300922089 0.1867819796
325298050.0 -0.2168766071 0.1853165702 0.3341137045 -0.2715136667 0.3342234904 -0.2718682819 -0.2282247704 0.1897283412
330298020.0 -0.2151248718 0.188090022 0.3302976787 -0.2753976251 0.330835618 -0.2754218788 -0.2264746038 0.1917645792
335297990.0 -0.2133095146 0.1902831431 0.3273799428 -0.2793576003 0.3276645777 -0.2790660337 -0.2247481057 0.1943419327
340297960.0 -0.2117664716 0.1928959163 0.3243791282 -0.282783611 0.3245879521 -0.2825954121 -0.222859842 0.1970450215
345297930.0 -0.2096963407 0.1948576922 0.321030473 -0.2856146818 0.3210809268 -0.2859485664 -0.2207932245 0.1994941592
350297900.0 -0.2076368715 0.1977007939 0.3179542767 -0.2894260625 0.3184489455 -0.2902403049 -0.2187303355 0.2025585475
355297870.0 -0.2059143349 0.1998869572 0.3147926184 -0.2927530951 0.3146541661 -0.2932094762 -0.2169136668 0.2047741483
360297840.0 -0.2039058138 0.2022411066 0.3115349212 -0.2965119585 0.3114580375 -0.2967088378 -0.2143004696 0.2073863542
365297810.0 -0.2017233916 0.2043968917 0.3083045935 -0.2999680042 0.3080995512 -0.3002330715 -0.212648028 0.210306509
370297780.0 -0.1997477455 0.2067769159 0.3049148677 -0.3032654938 0.3048633567 -0.3038293675 -0.2104631963 0.2123843509
375297750.0 -0.1977926741 0.2096534886 0.3019315706 -0.3069343229 0.3013821715 -0.3068813348 -0.2079891914 0.2148220612
380297720.0 -0.1954360639 0.2113783099 0.2980940004 -0.3097495875 0.2979367875 -0.3102218583 -0.2056584557 0.2175197019
385297690.0 -0.1930628436 0.2138357389 0.2944917548 -0.3130083551 0.2943774949 -0.3134584056 -0.2037041875 0.2201222476
390297660.0 -0.1914690222 0.2160222347 0.2912143656 -0.316451962 0.2910857667 -0.3168943898 -0.2015610442 0.2219616735
395297630.0 -0.1884160275 0.2180624974 0.2874546395 -0.3193566874 0.2875485665 -0.3197444803 -0.1993159328 0.2245740325
400297600.0 -0.1865059929 0.2203122822 0.2841844827 -0.3226960687 0.2845271244 -0.3229148737 -0.1973864009 0.2266465034
405297570.0 -0.184105062 0.2223157964 0.2801903067 -0.325734855 0.2806760807 -0.3262280634 -0.1948876324 0.2292759424
410297540.0 -0.1819248825 0.2245361579 0.2764444734 -0.3288593309 0.2765532928 -0.3288638945 -0.1922857341 0.2314830433
415297510.0 -0.1797414438 0.2268032079 0.2730576643 -0.3320310461 0.2732664207 -0.3317257895 -0.1901147806 0.2337911074
420297480.0 -0.1769112268 0.2282671937 0.2691607723 -0.3348959526 0.2693774381 -0.3348123944 -0.187271982 0.2356915616
425297450.0 -0.1744380513 0.2303444281 0.2655784913 -0.3376305709 0.2656800035 -0.3379007572 -0.1849518171 0.2384631187
430297420.0 -0.1725256442 0.2328269532 0.2620182408 -0.3409346406 0.2622323191 -0.340732555 -0.1830223847 0.2403863841
435297390.0 -0.1696866849 0.2343690874 0.2580738413 -0.3432853028 0.2584681113 -0.3434659604 -0.1801461987 0.2426372601
440297360.0 -0.167318189 0.2365762965 0.2541500857 -0.3462831788 0.2540099888 -0.3461152056 -0.1778521488 0.244376252
445297330.0 -0.165055629 0.2384716305 0.2502694703 -0.3493584058 0.2505717419 -0.3490613453 -0.1752146136 0.2464998077
450297300.0 -0.162091979 0.2405453881 0.2461668058 -0.3517642754 0.2469530284 -0.3516935951 -0.1729878952 0.2488156289
455297270.0 -0.1598351547 0.2421905486 0.2430280984 -0.3544280866 0.2429718403 -0.3544231511 -0.1699423106 0.2507648081
460297240.0 -0.157646356 0.244235551 0.2387556103 -0.3565822374 0.2386853621 -0.357184114 -0.1670921353 0.2531801779
465297210.0 -0.1545137273 0.2460951283 0.2348415815 -0.3595828779 0.2350425012 -0.3596623815 -0.1649641876 0.2548960952
470297180.0 -0.1522624256 0.2478291107 0.2310044892 -0.3621467892 0.2315108173 -0.3618681651 -0.1628546245 0.2566431545
475297150.0 -0.1496200284 0.2493742099 0.22672058 -0.3643349389 0.2269360429 -0.3642295005 -0.1596966427 0.258420369
480297120.0 -0.1469892253 0.2507548791 0.2224979788 -0.3666857099 0.2234800517 -0.3667564409 -0.1573259659 0.2608707896
485297090.0 -0.1442073646 0.2526540429 0.2191432633 -0.3692828138 0.218940462 -0.3691293294 -0.1545560023 0.2623558862
490297060.0 -0.1414090009 0.2544577248 0.2147948753 -0.371579571 0.2150726201 -0.3717741508 -0.1519935722 0.2641640932
495297030.0 -0.139358999 0.2562170294 0.2107975249 -0.3738927037 0.2104037309 -0.3742022157 -0.1489969284 0.2659365915
500297000.0 -0.1358513168 0.2576326916 0.206241668 -0.375989258 0.2066828304 -0.3758834965 -0.1465187717 0.2676776175
505296970.0 -0.1335934369 0.2588563309 0.2021153174 -0.3777761825 0.2024123971 -0.3779319192 -0.1440686193 0.2695579403
510296940.0 -0.1307816771 0.2610475308 0.1983863948 -0.3805456597 0.1983242508 -0.3803685625 -0.1408099866 0.2713463264
515296910.0 -0.1282523227 0.262597215 0.1936209685 -0.3822328972 0.1942410236 -0.3824404851 -0.1381203267 0.2728845873
520296880.0 -0.1255117111 0.2640590435 0.1899929171 -0.3846079798 0.1901579257 -0.3845243838 -0.1353510003 0.274562722
525296850.0 -0.1227742935 0.2654699989 0.1858316695 -0.3868355453 0.18569346 -0.3867398432 -0.132207823 0.2762554037
530296820.0 -0.1197556408 0.2667588216 0.1817949742 -0.3879970879 0.1816070202 -0.3880534033 -0.1301033934 0.2773651917
535296790.0 -0.117071403 0.2681123332 0.1769818352 -0.3900966588 0.1774694242 -0.3904048362 -0.1270199221 0.2788518378
540296760.0 -0.1143209488 0.2693410623 0.1730612432 -0.3924191697 0.1725715609 -0.3926681525 -0.1242834236 0.2807937673
545296730.0 -0.1112877258 0.2707417915 0.1684727925 -0.393809146 0.1687240833 -0.3940519238 -0.1212281242 0.2818318601
550296700.0 -0.1088518201 0.2719893622 0.1645872564 -0.395415861 0.1648139188 -0.3961566438 -0.1183070348 0.2834586578
555296670.0 -0.1054148295 0.273720576 0.1599447839 -0.397678706 0.1602590479 -0.3975906257 -0.1154520189 0.2850350157
560296640.0 -0.1025758949 0.2744306966 0.1555040223 -0.3993140806 0.1560535011 -0.3991904578 -0.1124608711 0.286365872
565296610.0 -0.1002756163 0.2760948518 0.1512889611 -0.4008049916 0.151154732 -0.4008974162 -0.1095388342 0.2876915974
570296580.0 -0.0969961273 0.2769415756 0.1466847055 -0.4020710825 0.1472968316 -0.4027459426 -0.106505981 0.289301869
575296550.0 -0.0940539265 0.278279416 0.1426033738 -0.4036106913 0.1429205865 -0.4038392703 -0.1034904765 0.2902022189
580296520.0 -0.0911097751 0.2793280924 0.138577571 -0.405422694 0.1382486931 -0.4055714648 -0.1009137061 0.291498509
585296490.0 -0.0880039696 0.2801483631 0.13416905 -0.4067591759 0.1337977282 -0.4069245871 -0.0976013206 0.2924467358
590296460.0 -0.0855587838 0.2813646427 0.1293689268 -0.4080846959 0.1294822738 -0.40844858 -0.0947600656 0.2937937978
595296430.0 -0.0825276474 0.2826954515 0.1251450195 -0.4094916908 0.1245573609 -0.4095761274 -0.0913532791 0.2943411792
600296400.0 -0.0794537478 0.2836409436 0.1203507202 -0.4112742169 0.1208191236 -0.411230652 -0.0885966734 0.2962074232
605296370.0 -0.0762813726 0.2848728222 0.1163084079 -0.4124207774 0.1156181041 -0.4120529594 -0.0854048093 0.297041913
610296340.0 -0.0732891922 0.2856805609 0.1118872415 -0.4134546436 0.1116616674 -0.4136203162 -0.0823254724 0.2985242455
615296310.0 -0.0699898815 0.2867968645 0.1069640871 -0.4142634572 0.1071278872 -0.4146972146 -0.0794387394 0.2994514623
620296280.0 -0.0671002372 0.2873925644 0.1024197766 -0.415340385 0.1026413821 -0.415570863 -0.0763499289 0.3000245324
625296250.0 -0.0639830944 0.2883834955 0.0973605973 -0.4165597554 0.0979053472 -0.4167595015 -0.0732139311 0.3011445655
630296220.0 -0.0608848742 0.2892829278 0.0932578704 -0.417675183 0.0939438369 -0.4175226683 -0.0704093243 0.3022894161
635296190.0 -0.0581233155 0.2899419882 0.0886307934 -0.4184484534 0.0889909806 -0.4179872232 -0.0669880289 0.3025186631
640296160.0 -0.0551350655 0.2903975449 0.0845700718 -0.4193952299 0.0844199081 -0.4197020565 -0.06364216 0.3036311369
645296130.0 -0.0520387666 0.291567197 0.0796440781 -0.4206932413 0.0801319364 -0.4201762732 -0.061027921 0.3042862546
650296100.0 -0.0490767689 0.2922778205 0.075536739 -0.4210773752 0.0755209614 -0.4209123478 -0.0576019233 0.3051880418
655296070.0 -0.0461696172 0.2927356995 0.0708223329 -0.4217957101 0.0708332249 -0.4216856484 -0.0541385593 0.3060506808
660296040.0 -0.0432193697 0.2937277803 0.0663943001 -0.4220685325 0.0662601926 -0.4226004371 -0.0511378141 0.3069260287
665296010.0 -0.0398972383 0.2939293701 0.0621193132 -0.4228902842 0.0619590748 -0.423176294 -0.0483647886 0.3076315992
670295980.0 -0.036364608 0.2947880794 0.0569122908 -0.4237635227 0.0573790449 -0.4236550077 -0.045141944 0.3081368543
675295950.0 -0.0334736424 0.2950119629 0.052228496 -0.4243562936 0.0526838129 -0.4246470519 -0.0414448934 0.3091867035
680295920.0 -0.0304507179 0.2958421524 0.0474909723 -0.4247848022 0.0476397376 -0.4248544675 -0.0386256418 0.3093940124
685295890.0 -0.0270775534 0.2960869977 0.043182322 -0.4255335917 0.0431045049 -0.4255305467 -0.0352390411 0.3099354022
690295860.0 -0.0234179649 0.2965188383 0.0381903493 -0.4251404317 0.038232855 -0.4257071433 -0.0322434435 0.3105501547
695295830.0 -0.0204817873 0.2966999593 0.033519996 -0.4258498663 0.0342330285 -0.4263605228 -0.0292081714 0.3111928805
700295800.0 -0.0175025879 0.2973318246 0.0288844469 -0.4263363573 0.0291193898 -0.4265883947 -0.0253835718 0.3110648916
705295770.0 -0.0143914074 0.2976794102 0.0247460134 -0.4265229559 0.024724926 -0.4267870757 -0.0224719206 0.3120544687
710295740.0 -0.0112801143 0.2980357527 0.0200191704 -0.4267085482 0.0202827509 -0.4269062785 -0.0199815006 0.3125625044
715295710.0 -0.0083186545 0.2983341286 0.0152648162 -0.4268849442 0.0154081979 -0.4268646454 -0.0162490085 0.3125483484
720295680.0 -0.0050736742 0.2983638238 0.0109285775 -0.4266438958 0.0109670895 -0.4274113951 -0.0128261312 0.3125839617
725295650.0 -0.001471668 0.2984761672 0.0058123932 -0.4270079139 0.0062557937 -0.4270891533 -0.009666126 0.3133172875
730295620.0 0.0010512653 0.2985204275 0.0015974263 -0.4270275096 0.0016061922 -0.4273505709 -0.0063011635 0.3130970948
735295590.0 0.004753905 0.2987466339 -0.0031276544 -0.4271456534 -0.0027077285 -0.4275226544 -0.0031787659 0.3135235773
740295560.0 0.0076802009 0.2993655488 -0.0078230179 -0.4267201605 -0.0081031788 -0.4268814841 0.0003699355 0.3135690628
745295530.0 0.0108224664 0.2986732547 -0.0123089094 -0.4265200022 -0.0121910059 -0.4268470321 0.003254586 0.3138176365
750295500.0 0.0137242815 0.2988155257 -0.016857743 -0.42622669 -0.0169309374 -0.4264160664 0.0068535431 0.3134537641
755295470.0 0.0177991323 0.2994185926 -0.0216892688 -0.4262216958 -0.0211439922 -0.4264671616 0.0095189289 0.3139096323
760295440.0 0.0202330724 0.2988131062 -0.0260746811 -0.4257294031 -0.0260953411 -0.4259775915 0.0127496538 0.3140073992
765295410.0 0.0233528092 0.2989386727 -0.0303904392 -0.4253166504 -0.0304868162 -0.4259190245 0.0168998569 0.3140228637
770295380.0 0.0269608291 0.2991078511 -0.0354720386 -0.4252641939 -0.0354740285 -0.4254381198 0.019865119 0.3140542859
775295350.0 0.0298040602 0.2990916391 -0.0399491507 -0.4246269731 -0.039923116 -0.4247563362 0.0225359603 0.3135089683
780295320.0 0.033386261 0.2984249895 -0.0443930216 -0.424640597 -0.04431917 -0.4243679164 0.0259397971 0.3138884769
785295290.0 0.0363114597 0.2986513521 -0.0490299576 -0.4233483092 -0.0490488176 -0.4238451052 0.0289662308 0.3138780188
790295260.0 0.0393973783 0.2980223135 -0.0537217399 -0.4232343289 -0.0536334657 -0.4237492805 0.0325597017 0.3133228509
795295230.0 0.0425657668 0.2980725552 -0.0578443609 -0.4221984103 -0.0580817934 -0.422787299 0.0358962211 0.3135884021
800295200.0 0.0457832603 0.2976605677 -0.0629726138 -0.4219763955 -0.0628802818 -0.421804784 0.0390669683 0.3127389322
805295170.0 0.0487404552 0.2972272037 -0.067233909 -0.4207965213 -0.0672682635 -0.4210666324 0.0420468544 0.3125344566
810295140.0 0.0521940968 0.2971272241 -0.0716135101 -0.4201545279 -0.0719639129 -0.4207627977 0.0456503442 0.31282302
815295110.0 0.0552172331 0.2967385845 -0.0765326793 -0.4193663754 -0.0766807712 -0.4196375859 0.0487106917 0.3121268528
820295080.0 0.0585061343 0.2956962575 -0.0808733444 -0.4186712906 -0.080690975 -0.4188548754 0.0516008138 0.3115281215
825295050.0 0.061583111 0.2952737956 -0.0854852911 -0.4171285833 -0.085195047 -0.4179147747 0.0555157899 0.3113958412
830295020.0 0.0646959857 0.2951514993 -0.0899504565 -0.4165286222 -0.0902961935 -0.4170227427 0.0583870999 0.3107331116
