!Created with skrf (http://scikit-rf.org).
# Hz S RI R 50.0 
!freq ReS11 ImS11 ReS21 ImS21 ReS12 ImS12 ReS22 ImS22
300000.0 -0.049223571 -0.0426902514 -0.0008284292 0.0010274153 8.74696e-05 0.0007419018 -0.774142534 -0.1337924569
5299970.0 -0.0497924381 0.015997808 7.89325e-05 8.5223e-05 0.0001266916 0.0001567946 -0.784447599 -0.0070506874
10299940.0 -0.0440915686 0.032694515 -9.07322e-05 0.0003317626 1.9264e-06 0.0001417083 -0.7875584917 -0.0037373086
15299910.0 -0.0362361273 0.0468245043 1.50076e-05 -8.15977e-05 -3.83965e-05 -3.66152e-05 -0.7930322755 -0.0014934238
20299880.0 -0.026122894 0.0587541323 2.19114e-05 0.0001133321 2.8155e-06 4.15418e-05 -0.800058261 0.0020058743
25299850.0 -0.0151432853 0.0682181369 -8.67731e-05 -2.05139e-05 -0.0002528889 -7.90403e-05 -0.806052602 0.0081493493
30299820.0 -0.0041397615 0.074913451 0.0002059502 8.28894e-05 1.68083e-05 1.66518e-05 -0.8123133194 0.0162763632
35299790.0 0.0071312618 0.0796320019 -0.0002306564 0.0001057149 -4.18708e-05 -0.0001318523 -0.817128711 0.0248444731
40299760.0 0.0187418537 0.0829132554 0.0001659152 0.000235639 0.0002115982 0.0001300244 -0.8210624459 0.0347617312
45299730.0 0.0293923228 0.0841960288 3.44785e-05 0.0001926095 0.0001591557 0.0001690452 -0.8254407917 0.0442372261
50299700.0 0.0391751893 0.0845552058 0.0001417416 4.48889e-05 -0.000107203 6.08918e-05 -0.8273001374 0.0541808195
55299670.0 0.0482362599 0.0833199719 5.21973e-05 0.0002018849 -0.0001192506 0.0001095305 -0.8297553085 0.0640920503
60299640.0 0.0571416914 0.0820268798 -0.0001291429 -2.15921e-05 -9.31074e-05 2.36291e-05 -0.830802695 0.0742015605
65299610.0 0.0647699071 0.0796865734 0.0002081898 0.0003521097 -0.0001230083 0.0001340204 -0.8317738856 0.0840766659
70299580.0 0.0716213732 0.0769859245 0.0001667905 0.0002340368 -0.0001939941 -2.44544e-05 -0.8321403655 0.0949954998
75299550.0 0.0780442799 0.0739693006 -0.0001110492 -0.000141173 -1.63496e-05 6.895e-05 -0.8324748855 0.1042641995
80299520.0 0.0836804254 0.0705306402 0.0001942153 5.37677e-05 -9.31397e-05 2.73424e-05 -0.8321709385 0.1140859193
85299490.0 0.0885900577 0.0667862411 0.0001252854 5.5687e-05 -2.2992e-06 0.0001240557 -0.8315685054 0.1235834884
90299460.0 0.0933294846 0.0630285864 -1.42592e-05 2.3714e-06 -4.61126e-05 0.0001594869 -0.8309803218 0.1334644415
95299430.0 0.0975162189 0.0591524433 -0.0001225017 0.0002068319 0.0001388461 0.0001696303 -0.829306782 0.1427761515
100299400.0 0.1012056264 0.0554913888 0.0001623457 0.0001971225 3.98418e-05 0.0001319252 -0.8288019656 0.1523875426
105299370.0 0.1043389241 0.0518962098 3.67731e-05 0.0001468809 -6.28108e-05 0.0001153864 -0.8271188383 0.1610783037
110299340.0 0.1076546486 0.0479561253 7.2984e-06 4.91671e-05 2.04112e-05 0.0001914975 -0.8255741174 0.1707184404
115299310.0 0.1101876085 0.0439610442 7.22367e-05 -4.4205e-06 -4.0291e-05 -9.7312e-06 -0.8242781044 0.1797609487
120299280.0 0.1120641458 0.0402377161 4.20273e-05 -0.0001524136 -9.018e-07 7.01374e-05 -0.8220604797 0.1889576161
125299250.0 0.113981122 0.0363672592 2.45994e-05 6.24694e-05 8.87101e-05 0.0003533231 -0.8210132372 0.1977557231
130299220.0 0.1158797413 0.0329554871 0.0002348511 -0.000146836 4.63663e-05 0.0001484987 -0.8189411372 0.206960732
135299190.0 0.1175303292 0.0298289266 1.82285e-05 0.0001265248 0.0001147087 4.38359e-05 -0.816570758 0.2158933833
140299160.0 0.118697658 0.0262034208 -0.000118489 -8.36285e-05 -4.25967e-05 8.99941e-05 -0.8143822061 0.2244397795
145299130.0 0.1201028786 0.0226246458 6.86992e-05 9.24617e-05 2.55558e-05 -0.0001541681 -0.8124896344 0.2342740146
150299100.0 0.1208665285 0.0191009259 7.05822e-05 1.58734e-05 0.0001673881 7.55931e-05 -0.8103993199 0.2427464751
155299070.0 0.1215043273 0.0161221526 4.02315e-05 -3.07955e-05 -1.392e-05 8.13426e-05 -0.8074650553 0.2517802449
160299040.0 0.1222744299 0.0132587207 0.0002230023 9.1226e-05 -3.98339e-05 0.0001387405 -0.8056380623 0.2606891849
165299010.0 0.122787093 0.0099044404 0.0001891371 -0.0001194747 4.73185e-05 4.78379e-05 -0.8026484995 0.2695175723
170298980.0 0.1230895922 0.006905888 1.12773e-05 0.000195891 2.42832e-05 0.0002542826 -0.7996339831 0.2779643013
175298950.0 0.1236696973 0.0037538859 0.0002178947 5.60071e-05 5.48282e-05 9.36899e-05 -0.7972415468 0.2868088936
180298920.0 0.1239815563 0.001157441 6.72126e-05 0.000189692 -5.53081e-05 0.0001338207 -0.7939994398 0.2953960306
185298890.0 0.1240797783 -0.0018707468 -0.0001759516 -7.67575e-05 0.0001377418 -9.83653e-05 -0.7905626505 0.3036886503
190298860.0 0.1243293018 -0.0044059973 0.0001768013 -0.0002859755 0.0001201572 8.40364e-05 -0.7881994635 0.3123949142
195298830.0 0.1239460236 -0.0074386495 6.36131e-05 0.0001145847 -6.1161e-06 -4.02178e-05 -0.7850436273 0.3213841988
200298800.0 0.1238918547 -0.0099269793 0.0002327688 3.76967e-05 0.0001964337 0.0001895444 -0.7814047606 0.3288345833
205298770.0 0.1238072894 -0.0121674871 -4.85696e-05 0.0003241885 9.40032e-05 0.0001411488 -0.7780979943 0.3376475958
210298740.0 0.1235657228 -0.0150246269 0.0001912946 0.0002440925 -4.69181e-05 1.4285e-05 -0.7743531203 0.346089118
215298710.0 0.1230387979 -0.017330674 0.00012833 0.0001887314 0.000230467 0.0001863441 -0.7715051046 0.3539493062
220298680.0 0.1227978302 -0.0199789473 0.000176192 -0.0002490924 9.8023e-06 -9.60441e-05 -0.7676808677 0.3622583951
225298650.0 0.1221795184 -0.0223646062 0.0002657954 6.99745e-05 4.31271e-05 0.0001380254 -0.763771157 0.3704043433
230298620.0 0.121684249 -0.0243878785 -1.95982e-05 0.0001990748 0.000305818 0.0001953515 -0.7606627871 0.378370264
235298590.0 0.1214718545 -0.0266188338 0.0002876236 0.0001646007 0.0001483693 -8.92033e-05 -0.7561657483 0.3866653851
240298560.0 0.1210806606 -0.0288694071 0.0001759938 -2.21056e-05 9.9154e-06 0.0001374211 -0.7515809277 0.3952270003
245298530.0 0.1202834809 -0.030985047 -1.72454e-05 0.0002206584 8.92197e-05 0.0001088432 -0.7476500935 0.4026250804
250298500.0 0.1198081011 -0.0331886147 4.6536e-05 7.51662e-05 0.0001477219 9.68179e-05 -0.7442302646 0.4100404941
255298470.0 0.118912039 -0.0355002495 4.86971e-05 0.0002742887 0.0001037721 -1.80872e-05 -0.7389343427 0.4178883093
260298440.0 0.1182163239 -0.0373524177 0.0001576028 -9.96014e-05 0.0003280589 0.0001804952 -0.7348310427 0.4265687974
265298410.0 0.1175809907 -0.0392215736 6.4136e-06 1.30539e-05 0.000152072 0.0001679187 -0.7300366177 0.4335557945
270298380.0 0.1168122002 -0.0411830244 8.77808e-05 0.0001772138 8.42352e-05 3.929e-06 -0.7258069333 0.4414904303
275298350.0 0.1160445225 -0.0430570946 0.0001119026 0.0001361094 9.86793e-05 4.84401e-05 -0.7210961641 0.4486962291
280298320.0 0.1153778741 -0.04493668 0.0002091384 0.0002907678 -1.6589e-05 5.0016e-05 -0.7161213832 0.4560588862
285298290.0 0.1147548693 -0.046609028 5.32908e-05 0.0001092195 7.64989e-05 -6.68359e-05 -0.7108643604 0.4638386729
290298260.0 0.1138128733 -0.0487737025 5.86261e-05 -9.93696e-05 0.0002868147 0.000107813 -0.706049142 0.4709873389
295298230.0 0.1130645835 -0.0504043843 0.0001097028 0.0001615102 1.13581e-05 7.31843e-05 -0.7010053266 0.4779727738
300298200.0 0.112362777 -0.0522464243 6.25159e-05 0.0001714521 0.000173811 0.0001460796 -0.6962394576 0.4853877202
305298170.0 0.1113275324 -0.0539568774 0.0001768608 0.0001378254 6.4989e-05 0.0001114023 -0.6905451984 0.4931456927
310298140.0 0.1104263371 -0.0557428789 0.0002868133 4.45123e-05 6.61062e-05 4.11536e-05 -0.6859300302 0.5004962238
315298110.0 0.1098328437 -0.0574562268 0.0003680703 0.0001084363 0.0002559409 4.50137e-05 -0.6800713844 0.5069022783
320298080.0 0.1085457844 -0.0595029848 -5.27765e-05 0.0003824619 0.000108609 0.0001628806 -0.6747300713 0.5145754299
325298050.0 0.1075821895 -0.0611648552 -6.6566e-06 0.0002447422 0.0001821931 0.0001602548 -0.6693086754 0.5210477728
330298020.0 0.1062296447 -0.0631139383 0.0002521151 -4.73825e-05 5.35153e-05 4.53156e-05 -0.6642044864 0.5282356659
335297990.0 0.1050343327 -0.0644361046 0.0002830637 0.0001418059 0.0003557333 0.0003048769 -0.6590994706 0.5354745286
340297960.0 0.103559338 -0.0657607594 2.84946e-05 9.7746e-05 0.0002332639 0.0001172681 -0.6528043878 0.5425220671
345297930.0 0.1024311049 -0.0669729385 -4.47668e-05 0.0001998914 8.6365e-06 -7.99253e-05 -0.6467823003 0.5486143513
350297900.0 0.1011848241 -0.0685998502 -4.08701e-05 -7.55819e-05 0.0001266123 -8.1434e-06 -0.6415370324 0.5553067923
355297870.0 0.0999277923 -0.0701779218 0.0002212458 0.0001738706 0.0002020055 0.0003423627 -0.6360161855 0.561564708
360297840.0 0.0989462717 -0.0710477336 0.0001286944 0.0002306624 0.0001689904 0.0002547874 -0.6302564535 0.5689746107
365297810.0 0.0974296781 -0.0722375587 0.0001618006 0.0002111008 0.000256161 3.30909e-05 -0.6232430023 0.5758269685
370297780.0 0.0966842075 -0.0736632254 0.0002319461 2.24017e-05 0.0002045495 0.0001929282 -0.6173183329 0.5818524785
375297750.0 0.0951839692 -0.0746892609 0.0002923009 7.15627e-05 0.0002691277 0.0002002947 -0.6117228992 0.5879136157
380297720.0 0.0940434363 -0.0762177885 0.0001138956 0.0001461488 2.91331e-05 0.000125929 -0.6060298114 0.593918231
385297690.0 0.0928254437 -0.0771905169 0.0002336176 0.0001566903 0.0002854636 0.000141656 -0.5993144812 0.6003401914
390297660.0 0.0913137757 -0.0781352787 9.05767e-05 -0.0001010267 0.0004226991 0.0001818122 -0.5932434217 0.6070151886
395297630.0 0.0904570015 -0.0795988589 -5.9217e-06 -5.81638e-05 -6.397e-06 5.46186e-05 -0.5865255087 0.6135788925
400297600.0 0.0892915164 -0.0805291135 0.0002744085 1.85381e-05 0.0002191475 0.0001326136 -0.5807644934 0.6188321085
405297570.0 0.0877434783 -0.0817751848 6.94743e-05 9.19464e-05 0.0002799322 -5.7927e-05 -0.5740391492 0.6247881198
410297540.0 0.0863827937 -0.0826229698 0.0001971991 0.0001529147 0.0002811622 0.0001890572 -0.5677522182 0.6308058176
415297510.0 0.0853665342 -0.0840319088 0.0002706825 3.74041e-05 3.23787e-05 0.0002752382 -0.5612872541 0.6365679348
420297480.0 0.0836592553 -0.084544588 0.0002323627 6.08366e-05 0.0002122802 0.0001770821 -0.5543268654 0.6426136966
425297450.0 0.0827398852 -0.0857233391 0.0001448864 9.05364e-05 0.0001852853 0.0001360668 -0.5481156426 0.6476698096
430297420.0 0.0813013166 -0.0866953022 1.78476e-05 -0.0001233106 0.0002124018 6.10973e-05 -0.5411491716 0.652874626
435297390.0 0.0802711879 -0.0877284048 0.0002633382 0.0002308041 0.0003849986 0.0001200878 -0.5341101065 0.6587223738
440297360.0 0.0788945162 -0.0888906019 -1.05561e-05 -8.60735e-05 0.0002469775 0.0002884345 -0.5275647632 0.6639051402
445297330.0 0.0773788536 -0.0895757447 0.0003173747 0.000115416 2.37835e-05 0.000241952 -0.5205548477 0.6690224535
450297300.0 0.0762836977 -0.090579621 0.0002675207 0.0001823047 0.0001427367 -2.49449e-05 -0.5133276298 0.6739071413
455297270.0 0.0746198734 -0.0911860329 0.0001524131 0.000106556 7.1961e-05 0.0001915635 -0.5062887535 0.6787676145
460297240.0 0.0736243111 -0.0922253388 0.0003453634 0.0001689505 0.0002937232 8.143e-07 -0.4999946009 0.6841101291
465297210.0 0.0723874338 -0.0932549731 0.0001220248 0.0004268936 5.73876e-05 0.0002081844 -0.4916529269 0.6891956064
470297180.0 0.0707203775 -0.0938637207 0.0002135579 0.0001619772 0.0002204066 -1.04408e-05 -0.4851655821 0.6944481713
475297150.0 0.0694701094 -0.0947020441 0.0001737181 0.0001791377 6.85359e-05 0.0002299341 -0.4776522064 0.6990027666
480297120.0 0.0680808961 -0.095320649 9.14507e-05 0.0001996537 0.0004123628 -2.8155e-05 -0.4700704047 0.7038802853
485297090.0 0.0667540217 -0.0960493428 0.0005310478 0.0001159828 0.0002696598 5.80093e-05 -0.463300676 0.7089859621
490297060.0 0.0652074876 -0.0965034776 0.0004143822 5.28422e-05 0.0001875834 -6.22134e-05 -0.4558618573 0.712767403
495297030.0 0.0640434387 -0.0973545088 0.0003776433 6.97985e-05 0.0002027424 0.0001206676 -0.4483160432 0.7182194898
500297000.0 0.0627071215 -0.0980556571 0.0003980159 0.0002670515 0.0003104483 0.000279661 -0.4407559358 0.7224956835
505296970.0 0.0614770712 -0.0986540088 0.000106002 0.0001332204 0.0002745623 -3.11656e-05 -0.4336282294 0.7269149363
510296940.0 0.0597712418 -0.0997511671 0.0003613468 -9.14443e-05 0.0003603104 -2.58253e-05 -0.4260455267 0.7307623578
515296910.0 0.0586161132 -0.0999815314 0.0002963616 0.00015503 0.0004031507 0.0002692509 -0.4192024297 0.7354043603
520296880.0 0.0566330207 -0.1006565463 0.0003240045 0.000196846 0.0003444294 0.0001463894 -0.4113143267 0.7397167989
525296850.0 0.0557374533 -0.1014196487 1.58972e-05 0.0002341182 -5.20992e-05 -0.0001082658 -0.4040108457 0.7436168949
530296820.0 0.0541801834 -0.1014620356 0.0003730081 -5.25587e-05 0.0002787416 -1.3209e-05 -0.3964116268 0.7479138264
535296790.0 0.0527852177 -0.1024063848 0.0001056507 1.71549e-05 0.0002464107 7.72293e-05 -0.3894022475 0.7517497283
540296760.0 0.0510314669 -0.102881515 0.0003772074 1.70542e-05 0.000171263 -2.88825e-05 -0.3810207949 0.7556750558
545296730.0 0.0497434527 -0.1031885284 0.0007501705 0.000107546 0.000152852 1.37205e-05 -0.3738188692 0.7600203835
550296700.0 0.0487679492 -0.1037661661 0.0003725406 5.73392e-05 0.0004008668 0.0001172298 -0.3654683334 0.7632074285
555296670.0 0.0469988441 -0.1042783833 0.0003440562 0.0002095721 0.0001311395 3.48102e-05 -0.3581637875 0.767335354
560296640.0 0.045758653 -0.1042782045 0.0001893076 7.13715e-05 0.0003763027 -1.84025e-05 -0.3502561865 0.7712036274
565296610.0 0.0442757878 -0.1045869583 0.0003012956 0.0003317349 0.0003410459 4.16989e-05 -0.3424763624 0.7738204063
570296580.0 0.0426202198 -0.1054484105 0.0004419654 0.0001884407 0.000243516 -2.4166e-06 -0.3351040059 0.7776476473
575296550.0 0.0412253079 -0.1054068485 0.0002287915 0.0001524778 0.0002528165 2.366e-06 -0.326647233 0.7808927883
580296520.0 0.0403645559 -0.1062178244 0.0001040961 0.0001653413 0.0003440341 2.61104e-05 -0.317931246 0.7843578903
585296490.0 0.0380018925 -0.1066037814 0.0001716926 2.35024e-05 0.0002050995 0.0002139738 -0.3103188267 0.7875507668
590296460.0 0.0370738103 -0.1065366723 0.0001551315 -8.00624e-05 0.0003443115 0.0001926576 -0.3029024615 0.7903372763
595296430.0 0.0353730975 -0.1069799881 0.0002934285 -5.47428e-05 0.0003631979 3.01012e-05 -0.2946263943 0.7926924701
600296400.0 0.0338919238 -0.1072555727 0.0002863909 -0.0003217582 0.0005353089 0.000200091 -0.2868869662 0.7958615841
605296370.0 0.0324327045 -0.1074406972 0.0003515411 3.73615e-05 0.000328221 0.0001823549 -0.2783183349 0.7987344095
610296340.0 0.0310604953 -0.1078712453 0.0004980759 0.0001023378 0.0004173239 -0.0001702294 -0.2707313059 0.8007984355
615296310.0 0.0296725245 -0.1081105947 0.0001926037 -4.92386e-05 0.0002706434 9.42644e-05 -0.2618540817 0.8034385091
620296280.0 0.0279109145 -0.1081629821 0.0004342737 0.0001546874 0.0003452268 -4.12161e-05 -0.2541698676 0.8062408724
625296250.0 0.0267363378 -0.1081762472 0.0001969674 -9.76992e-05 0.0002113104 0.0002437625 -0.2450063314 0.8082559683
630296220.0 0.0254641517 -0.1085196809 0.0004884355 -0.0001906116 0.0003040861 6.01404e-05 -0.2372588847 0.8110732539
635296190.0 0.0236574764 -0.1085273939 0.0002020441 0.0001023687 0.0003848676 0.0001153147 -0.2296330222 0.8131609209
640296160.0 0.0223841594 -0.1086421831 0.0003327566 6.87565e-05 0.0003581043 6.42696e-05 -0.221258169 0.8155647802
645296130.0 0.0208630045 -0.1084880447 0.0001055979 7.34942e-05 0.0002451223 -5.69658e-05 -0.2129278649 0.8180551332
650296100.0 0.019258448 -0.1087839144 0.0002117447 1.27584e-05 0.0003805893 8.455e-05 -0.2045740337 0.8191127172
655296070.0 0.0180783915 -0.1088022096 0.0001722733 0.0001801615 0.0003036831 -0.0001462534 -0.1961717321 0.821359911
660296040.0 0.0165167641 -0.1088593442 0.0002089812 -8.55614e-05 0.0002862271 -5.80859e-05 -0.1877314192 0.8233279281
665296010.0 0.0153434778 -0.1092820035 0.0004930384 -0.0001847995 0.0002144085 1.519e-05 -0.1793221301 0.8252436151
670295980.0 0.0135212683 -0.1088585021 0.0002871956 -6.17562e-05 0.0001461213 6.85402e-05 -0.1715137824 0.8266671982
675295950.0 0.0121773146 -0.1088653564 0.0002587158 -9.66179e-05 0.0004892206 8.36679e-05 -0.1632979636 0.8292730967
680295920.0 0.0106416685 -0.1086807681 0.0003075485 6.46406e-05 0.0002070235 -0.0001080958 -0.1548551729 0.8315138097
685295890.0 0.0094984005 -0.1084504178 0.0004400388 -0.0002964657 0.000439467 1.85215e-05 -0.1458877146 0.8319419602
690295860.0 0.0082420291 -0.1085700598 0.0002846081 -5.97408e-05 0.0004083199 -8.20634e-05 -0.1380253534 0.8339246675
695295830.0 0.0066338274 -0.1083607987 0.0006439412 5.4214e-06 0.0003221475 0.000224498 -0.1293702259 0.8347687462
700295800.0 0.0048914439 -0.1085494138 0.0001216442 8.19816e-05 0.0002678094 -3.48975e-05 -0.1221129301 0.8367207043
705295770.0 0.003639772 -0.1083131259 0.000643933 9.09006e-05 0.0001029603 -2.30976e-05 -0.1134107542 0.8377476986
710295740.0 0.0021931143 -0.1078664978 0.0002903352 -5.8199e-05 0.0003558178 2.05418e-05 -0.1049876114 0.8387250884
715295710.0 0.0003318305 -0.1078806 0.0002436066 -4.00969e-05 0.0004721067 0.0001257745 -0.096717018 0.8393001074
720295680.0 -0.0006692176 -0.1077102245 0.0004388062 6.36191e-05 0.0004838185 -0.0001599933 -0.0875742137 0.8408177422
725295650.0 -0.002143443 -0.1073428648 0.0003522783 0.0001601467 0.0003110383 -0.0001897948 -0.0797700519 0.8420195584
730295620.0 -0.0034951684 -0.1068786471 0.0005210021 4.97011e-05 0.0002920483 -0.000288281 -0.0718377661 0.8420611028
735295590.0 -0.004910866 -0.1066100894 0.0002674884 6.42241e-05 0.0005017636 4.1308e-05 -0.0633488202 0.8426932806
740295560.0 -0.0066485643 -0.1065610818 0.00037842 -0.0001767749 0.0005174213 0.0001070542 -0.0540971617 0.8439088033
745295530.0 -0.007980527 -0.1060579231 0.000394071 -0.0002565769 0.0004999726 -4.0759e-05 -0.0458517288 0.8436225347
750295500.0 -0.0091665852 -0.1058545404 0.0002958207 -0.0001799706 0.0003521768 -9.43549e-05 -0.0376869917 0.8441071806
755295470.0 -0.0105877721 -0.1056553241 0.0003599713 -0.0003100173 0.000558353 -0.0001404449 -0.029163499 0.8440387616
760295440.0 -0.0121037712 -0.1052037211 0.0003678262 7.2336e-06 0.0005722919 -8.6387e-05 -0.0201864598 0.8440322146
765295410.0 -0.0133328648 -0.1049090387 0.0003799797 -0.0001447016 0.0004568805 -5.78373e-05 -0.012321972 0.8453166572
770295380.0 -0.015048087 -0.1045310283 0.0003334973 -6.9598e-06 0.0002906966 -6.1328e-06 -0.0041267753 0.8445527279
775295350.0 -0.0163342241 -0.1044576691 0.0005328175 -0.000391185 0.0004530912 5.88404e-05 0.0040198028 0.8445584046
780295320.0 -0.017619801 -0.1037627533 0.0003802165 -9.355e-06 0.0003016174 -7.36522e-05 0.012076423 0.8446846374
785295290.0 -0.0192758872 -0.1033604955 0.000471212 -5.24618e-05 0.0004740993 -0.0001404961 0.0212426711 0.8440570454
790295260.0 -0.0200425119 -0.1026480357 0.0003909073 -4.07596e-05 0.0004261026 -0.0001063378 0.0299445439 0.8442478758
795295230.0 -0.0216347819 -0.1023547015 0.0003764497 -0.0003578701 0.0005336828 -0.0002204117 0.0386157358 0.8427374255
800295200.0 -0.0229808329 -0.1015737146 0.0001483468 7.2506e-06 0.00049315 -0.0002470565 0.0471210231 0.8428602291
805295170.0 -0.0243126483 -0.1014810107 0.0007032959 0.0002371743 0.000170538 4.48692e-05 0.0547915472 0.8424490432
810295140.0 -0.0253672241 -0.1007911506 0.0001689041 1.61131e-05 0.0002169748 -0.0001992555 0.0634346125 0.8417681954
815295110.0 -0.0269626705 -0.1005728815 0.0004463819 -0.0002023582 0.0005096299 -7.5374e-06 0.0720383767 0.8408860017
820295080.0 -0.028158047 -0.0995067815 0.0004103974 1.17392e-05 0.0003536879 -0.0002001927 0.0806119949 0.8406737819
825295050.0 -0.0292409233 -0.0993349608 0.0003425883 -0.0001655778 0.0002799991 -0.0002364891 0.0893951753 0.8396731057
830295020.0 -0.0307608756 -0.0985186423 0.0003533169 -0.000119751 0.000549112 -0.0001599331 0.0980131776 0.8392159404
835294990.0 -0.0320485695 -0.0978115577 0.0004990267 -0.0001246435 0.0004548456 -3.58591e-05 0.1053357022 0.8381582298
840294960.0 -0.0334806582 -0.0972592626 0.0007562471 -3.02087e-05 0.0005038745 -0.0001284374 0.1142058667 0.8369981834
845294930.0 -0.0346502881 -0.0965068 0.000393904 -0.0001236277 0.0003783026 -0.0002156025 0.1219223352 0.8345055642
850294900.0 -0.0357405521 -0.0958502512 0.0003334329 -0.0001450186 0.0002557047 -0.0003858757 0.1301647243 0.8338465945
