!Created with skrf (http://scikit-rf.org).
# Hz S RI R 50.0 
!freq ReS11 ImS11 ReS21 ImS21 ReS12 ImS12 ReS22 ImS22
300000.0 -0.2401326516 -0.1019033324 0.4664469103 0.0675083791 0.4666505178 0.0713344032 -0.2334452856 -0.1127863606
5299970.0 -0.2435763511 0.0070444299 0.4733202619 0.0053138488 0.4737932971 0.0055970958 -0.2438018328 0.005834379
10299940.0 -0.2403959174 0.0197179928 0.4761616181 0.0061548604 0.4759090325 0.0067738996 -0.2410081317 0.0182267284
15299910.0 -0.2361176147 0.0293359856 0.4792869327 0.0076934963 0.4795542636 0.0080055058 -0.2364683462 0.0273948641
20299880.0 -0.2305317949 0.0373896739 0.484152098 0.0081785692 0.4841770213 0.008678388 -0.2316673545 0.0354147379
25299850.0 -0.2246280605 0.0434232089 0.4892189078 0.0072584322 0.4896768116 0.0073406356 -0.2266718089 0.0420410443
30299820.0 -0.2186869869 0.0484848682 0.4951639321 0.0057071461 0.494478064 0.0053351223 -0.2214389921 0.0471304342
35299790.0 -0.2128132779 0.0528536341 0.5002957553 0.0023802264 0.5002843152 0.002171881 -0.2159161081 0.0512166064
40299760.0 -0.2075510725 0.0557379821 0.5052253896 -0.0014846185 0.5057913773 -0.001762575 -0.2112305924 0.0547772874
45299730.0 -0.2025267659 0.0583222898 0.5103751642 -0.0065966947 0.5104842212 -0.0062112499 -0.2066203298 0.0573459442
50299700.0 -0.1976295033 0.0602694763 0.5142028062 -0.012285344 0.5142453721 -0.0121159841 -0.2017924043 0.0596104835
55299670.0 -0.1934891104 0.0616602076 0.5176855114 -0.0182376882 0.5182566807 -0.0180039433 -0.1982828231 0.0617016371
60299640.0 -0.189535665 0.0627703498 0.5210309907 -0.0244587918 0.5213526062 -0.0240137049 -0.1944314977 0.0634144764
65299610.0 -0.1860957948 0.0639043751 0.5243605385 -0.030160784 0.5245491804 -0.0304574797 -0.1912044034 0.0645609919
70299580.0 -0.1825038542 0.0641572853 0.5267360474 -0.0371931128 0.5267290157 -0.0373449378 -0.1877913917 0.0656664501
75299550.0 -0.1796633735 0.0650314862 0.5285667968 -0.044025442 0.5284949481 -0.0443227397 -0.1848157936 0.0672398934
80299520.0 -0.1772349001 0.0657371053 0.5311546623 -0.0509877274 0.5308292377 -0.0509603112 -0.1825491128 0.0672860101
85299490.0 -0.1745021574 0.065915602 0.5320672721 -0.0580893704 0.5319997167 -0.0577677476 -0.180239631 0.068453536
90299460.0 -0.1726846742 0.0667508368 0.5332232022 -0.0646626142 0.5330733013 -0.0646210175 -0.1774114951 0.0692175706
95299430.0 -0.1706116829 0.0672468127 0.5344674277 -0.0723199515 0.5341632275 -0.0716834165 -0.1757557227 0.0704024736
100299400.0 -0.1687227201 0.0677444071 0.5340862351 -0.0787569821 0.5342982254 -0.0789582441 -0.1740468574 0.070985597
105299370.0 -0.1669746803 0.0680084288 0.5346809711 -0.0854094896 0.534474433 -0.0854672588 -0.1721008453 0.0719963265
110299340.0 -0.1655846146 0.068479917 0.5346580368 -0.0921445221 0.5349220018 -0.0927567446 -0.1706223764 0.0728840994
115299310.0 -0.1638984419 0.0688870002 0.5348996999 -0.0985139101 0.5350196772 -0.0991824951 -0.1690922708 0.0730531935
120299280.0 -0.1627570538 0.0693766513 0.5345345744 -0.1062372693 0.5347045479 -0.1062311259 -0.1678553738 0.0744721442
125299250.0 -0.161706398 0.0697784622 0.5340536584 -0.1124660935 0.5343757535 -0.1128825048 -0.1664868623 0.0746837133
130299220.0 -0.1605261081 0.0705800991 0.5339432186 -0.1190785101 0.533798092 -0.1198047187 -0.1653269941 0.0760594894
135299190.0 -0.1594789961 0.0711260295 0.5329665675 -0.1257947212 0.5327407203 -0.1263208033 -0.1641163696 0.0770130737
140299160.0 -0.1586019828 0.0722032452 0.532239998 -0.1325041045 0.5324746306 -0.1330772382 -0.1630991341 0.0781056002
145299130.0 -0.1574309665 0.0729203161 0.5313092453 -0.139367261 0.531267534 -0.1390726405 -0.1623030295 0.0787532465
150299100.0 -0.1566652065 0.0734114293 0.5303051973 -0.1459897931 0.5301018631 -0.1458049107 -0.1610233682 0.0796977046
155299070.0 -0.1556861486 0.0748367343 0.5291848935 -0.1528119062 0.5291249843 -0.1527909957 -0.1601036745 0.0808431704
160299040.0 -0.1547912334 0.0752767368 0.5274999653 -0.1581646818 0.5275989484 -0.1592518477 -0.1588791955 0.0828644394
165299010.0 -0.1543807359 0.0762328916 0.5261566313 -0.1653103129 0.5258959352 -0.165663819 -0.1578413955 0.083550974
170298980.0 -0.1535710302 0.0771873996 0.523812984 -0.1714727161 0.524595639 -0.1717299557 -0.1569262316 0.0843783044
175298950.0 -0.1525702547 0.0782594537 0.5236318543 -0.1779066109 0.5233360108 -0.1780677853 -0.1562555723 0.085541749
180298920.0 -0.1519462178 0.0791543829 0.5212526489 -0.1842989226 0.5217000874 -0.1840913959 -0.1550584342 0.0868596631
185298890.0 -0.1510294893 0.0802098293 0.5193642074 -0.1904959072 0.5195573472 -0.1907840526 -0.1542419721 0.0881113328
190298860.0 -0.1503776938 0.0812898431 0.5175295149 -0.19693223 0.5177619812 -0.1967617927 -0.1527004104 0.089253368
195298830.0 -0.1495266675 0.0821806047 0.5159043249 -0.2024500879 0.5158693555 -0.2028999499 -0.1519816118 0.090141638
200298800.0 -0.1490109855 0.0836704111 0.513519693 -0.2085052708 0.5139405149 -0.208728638 -0.1509441609 0.0919595707
205298770.0 -0.1481539292 0.0848853199 0.5115895037 -0.2148201779 0.511732708 -0.2147619619 -0.1501008371 0.0930058852
210298740.0 -0.1474886176 0.0856109909 0.5094360368 -0.2213331192 0.5093727142 -0.2212701347 -0.1491803393 0.0946716956
215298710.0 -0.1468183221 0.0870284606 0.5070265047 -0.2271089317 0.5067704224 -0.2267958196 -0.1485059674 0.096045248
220298680.0 -0.1459409349 0.0880391012 0.504645711 -0.2330067859 0.5045699294 -0.2326863385 -0.1468662045 0.0975633254
225298650.0 -0.1448160018 0.0895369322 0.5018319615 -0.238226754 0.5016929894 -0.2383453702 -0.1461509938 0.0989382767
230298620.0 -0.1446005711 0.0907037055 0.4998012945 -0.2444049947 0.4995963683 -0.2445144145 -0.1452782823 0.1003920423
235298590.0 -0.1435805362 0.0916594415 0.4969332719 -0.2501245548 0.4969496591 -0.2502411975 -0.1437277148 0.1011928063
240298560.0 -0.1430803867 0.0929366756 0.4938231712 -0.2555171233 0.4941768903 -0.2554595584 -0.1428987307 0.102939302
245298530.0 -0.1419309304 0.0942594496 0.4904878555 -0.2616974423 0.4913436531 -0.261593831 -0.1417719631 0.1045296782
250298500.0 -0.1413439254 0.0953257813 0.4882088065 -0.2668239677 0.4887016702 -0.2665385514 -0.1404102638 0.1059011758
255298470.0 -0.1406702031 0.0969320965 0.4858488568 -0.2725129072 0.4856427033 -0.2728520204 -0.1394906256 0.1068880161
260298440.0 -0.1397891492 0.097915436 0.4828189599 -0.2782545504 0.4826334201 -0.2784250988 -0.1380402292 0.1089661612
265298410.0 -0.1385023426 0.099420229 0.4795398996 -0.2842261828 0.4794379078 -0.2839840331 -0.1372823672 0.1100259268
270298380.0 -0.1377118011 0.1006011996 0.4758756443 -0.2891616666 0.4766413541 -0.2892556596 -0.1358073964 0.1118954901
275298350.0 -0.1371579078 0.1018472599 0.4732993122 -0.2947311641 0.4738145056 -0.2947500955 -0.1345562739 0.1132292089
280298320.0 -0.1361476036 0.1033979149 0.4703336281 -0.299551243 0.4699426705 -0.3003486318 -0.1333227268 0.1149299872
285298290.0 -0.1351603534 0.1047012449 0.4667455573 -0.3053861605 0.4666501851 -0.305453643 -0.1323756196 0.1163179378
290298260.0 -0.134228791 0.1057304144 0.4638621958 -0.3108356541 0.4634284987 -0.3107646006 -0.1306398705 0.1178823729
295298230.0 -0.133222372 0.1070744397 0.4605341812 -0.3156624602 0.4597278378 -0.3161989457 -0.1293804494 0.1193974175
300298200.0 -0.1318495252 0.1085231021 0.456650427 -0.3212178676 0.4568836101 -0.3212367764 -0.1282997683 0.1209379465
305298170.0 -0.131055249 0.1095210099 0.4532411544 -0.3267799994 0.4534488366 -0.3268938279 -0.1265787694 0.1222784651
310298140.0 -0.1296168081 0.1105484697 0.4498922607 -0.3320047651 0.449742401 -0.3322099107 -0.1252151924 0.1240522434
315298110.0 -0.1291166049 0.1117692543 0.4459522987 -0.3370706743 0.4464580276 -0.337092503 -0.1235303604 0.1251022468
320298080.0 -0.1282577956 0.113193188 0.442488298 -0.3423294205 0.4426775918 -0.3421543594 -0.1224222589 0.1262384985
325298050.0 -0.1275124281 0.1142405073 0.4389770434 -0.3475134539 0.4385249201 -0.3472070922 -0.1212566574 0.1274266689
330298020.0 -0.1263902466 0.1156019203 0.4344619907 -0.3520012729 0.4343654068 -0.3525250958 -0.1201623464 0.1288600649
335297990.0 -0.1251103522 0.1166103333 0.4303824746 -0.3569754793 0.4301320915 -0.3572412375 -0.1187133518 0.1304379278
340297960.0 -0.1246796838 0.1181688044 0.4262232048 -0.3620489859 0.4264498397 -0.3617748062 -0.1176636135 0.1318683932
345297930.0 -0.1238382275 0.1195264822 0.4224473192 -0.3664905839 0.4217199572 -0.3663764947 -0.1160159612 0.133007651
350297900.0 -0.1223895327 0.1208360905 0.4177929928 -0.3708212593 0.4187164719 -0.3709457342 -0.115090662 0.1350151207
355297870.0 -0.1215210406 0.1221764693 0.4138741918 -0.3755158527 0.4138770725 -0.3760394475 -0.1136437261 0.1365853894
360297840.0 -0.1200320994 0.1236415073 0.4096527817 -0.3800159029 0.4099596768 -0.3801328667 -0.1119430153 0.1380257993
365297810.0 -0.119124651 0.1244906718 0.4053437743 -0.3843821331 0.405465321 -0.3845576486 -0.1107831844 0.1396666651
370297780.0 -0.1176226314 0.1259779415 0.4009981911 -0.3891393001 0.4010680229 -0.3894365232 -0.1090942552 0.1406011693
375297750.0 -0.1169823761 0.1274550756 0.3970187003 -0.3936733082 0.3966577791 -0.3939728493 -0.1074504391 0.1426281318
380297720.0 -0.1155122451 0.1284517394 0.3926263729 -0.3979844012 0.3927341212 -0.3977014811 -0.106015401 0.1436977061
385297690.0 -0.1142316193 0.1299183879 0.3876542679 -0.4017801748 0.3881931925 -0.4024261794 -0.1046733033 0.1456139769
390297660.0 -0.1132055462 0.131002871 0.3835289011 -0.4066335856 0.3835230337 -0.4066130357 -0.102732906 0.1464098283
395297630.0 -0.1115696641 0.1320213866 0.3794198685 -0.4104898188 0.379406163 -0.4107552465 -0.1015797174 0.1482690228
400297600.0 -0.1106805543 0.1336806441 0.374466101 -0.4149124828 0.3750913703 -0.4150199649 -0.1002861621 0.1490517317
405297570.0 -0.1093424348 0.1348908936 0.3700155392 -0.4191064584 0.3702073298 -0.4192098162 -0.0983245731 0.1508122566
410297540.0 -0.1079218975 0.1357133241 0.3650813565 -0.4229031898 0.3654401454 -0.4229767263 -0.0968156535 0.15196217
415297510.0 -0.1066931613 0.1372251895 0.3610769288 -0.4268350504 0.3607614413 -0.4270329446 -0.0953034257 0.1536535618
420297480.0 -0.1053176785 0.1383149174 0.3560088682 -0.4313001252 0.355989917 -0.4306756938 -0.0934943229 0.1545012677
425297450.0 -0.1034596889 0.1390796953 0.3513767083 -0.4350108095 0.3515550062 -0.4347751127 -0.0917771757 0.1560391284
430297420.0 -0.1026835678 0.1407155666 0.3468446887 -0.4388932232 0.3468438711 -0.4387361076 -0.0904186891 0.1569204748
435297390.0 -0.1010717588 0.1416240092 0.3417537864 -0.4419723848 0.3418211886 -0.4422108161 -0.0884292458 0.1585426583
440297360.0 -0.0995427736 0.1426096201 0.3366471805 -0.4457226221 0.3361945509 -0.446213961 -0.0869310137 0.1592508878
445297330.0 -0.0983134209 0.1438080873 0.3313156292 -0.4499999326 0.3314686944 -0.449728027 -0.0848792113 0.1604115349
450297300.0 -0.0967029097 0.1445061999 0.3267153472 -0.4531333077 0.3270439249 -0.4533656949 -0.0837238093 0.1614812174
455297270.0 -0.0956010436 0.1458772105 0.3225270201 -0.4568497718 0.3223402013 -0.4570772873 -0.0812171496 0.1628034577
460297240.0 -0.0944101501 0.1471954036 0.3172907832 -0.4602767632 0.3166638981 -0.4605914045 -0.0799093115 0.1643671843
465297210.0 -0.0925581249 0.1479643311 0.31182249 -0.46361049 0.3121570221 -0.4636206388 -0.0785701908 0.1647679495
470297180.0 -0.091350516 0.1488605951 0.3069011808 -0.4668555901 0.3073541872 -0.4669977912 -0.0771509325 0.1658866017
475297150.0 -0.0900590291 0.1498388531 0.3014614581 -0.4702319692 0.3018041251 -0.4698497734 -0.0747259143 0.1669370747
480297120.0 -0.0884265849 0.1507439306 0.296160796 -0.4732236635 0.2963855101 -0.4733994258 -0.0730166774 0.1683774614
485297090.0 -0.0868603354 0.1519491531 0.2919181891 -0.4764979073 0.2916533556 -0.4766798829 -0.0712897771 0.1689692169
490297060.0 -0.0855713169 0.1524531678 0.2863846175 -0.4798830766 0.2861939976 -0.4797278521 -0.0692961341 0.1698257825
495297030.0 -0.0842206952 0.1538921117 0.2806510561 -0.4829830843 0.2807199226 -0.4830394833 -0.0675025549 0.1709881149
500297000.0 -0.0823551277 0.1543659349 0.2752803219 -0.485830096 0.2754937101 -0.4858728244 -0.0657631554 0.1718519385
505296970.0 -0.0810509559 0.1552531973 0.2700320077 -0.4878973024 0.2699771977 -0.4888017412 -0.0644205781 0.1728299276
510296940.0 -0.0794242021 0.1564037076 0.2646486852 -0.491936396 0.2647821226 -0.4919050908 -0.0619315474 0.1738825919
515296910.0 -0.0781615893 0.1575515246 0.2592403959 -0.4941665873 0.2596956303 -0.4944992687 -0.0604553112 0.1743735442
520296880.0 -0.0763202087 0.1579416807 0.2539736219 -0.4973444864 0.2541160731 -0.497299925 -0.0582424192 0.1753416516
525296850.0 -0.075008545 0.1588809516 0.2487560694 -0.4998693792 0.2487871521 -0.5002260947 -0.0561851198 0.1764467356
530296820.0 -0.0734058737 0.1598007393 0.2432781243 -0.5020682404 0.2433635475 -0.5027499088 -0.0547059535 0.1767751882
535296790.0 -0.0718740505 0.1604957757 0.237551356 -0.5048456859 0.2381273226 -0.5049808068 -0.0529488724 0.1774701987
540296760.0 -0.0702936931 0.1611528024 0.2321836085 -0.5077604452 0.2319093826 -0.5079453145 -0.0510803349 0.1782142214
545296730.0 -0.06881544 0.1623854116 0.2267191379 -0.5099609555 0.2265682443 -0.5102486231 -0.0489395844 0.1787643137
550296700.0 -0.0673527924 0.1629831592 0.221539645 -0.5127286028 0.221847291 -0.5130363892 -0.0471224712 0.1800173151
555296670.0 -0.0654510606 0.1635236437 0.215954036 -0.5147826049 0.2161388321 -0.5150679321 -0.0451966487 0.1804041104
560296640.0 -0.0641560197 0.164140053 0.2101828537 -0.5163974718 0.2104340741 -0.5168567835 -0.043293593 0.1813242369
565296610.0 -0.0628671297 0.1650344863 0.2047053911 -0.5189398616 0.204219015 -0.5190975282 -0.0413923313 0.1817538316
570296580.0 -0.0608293287 0.1658372564 0.1984351642 -0.5213091823 0.1989017539 -0.5217081412 -0.0389020376 0.1827531605
575296550.0 -0.0592931093 0.1668857196 0.1933563634 -0.5233444357 0.1935581859 -0.5233677139 -0.0368680354 0.1831655323
580296520.0 -0.0577084841 0.1674684766 0.1873747845 -0.5256763032 0.1874373633 -0.5256441861 -0.0351685801 0.1837290578
585296490.0 -0.0559003138 0.1680273661 0.1818200539 -0.5278722097 0.1819442818 -0.52763324 -0.0334769721 0.1838552939
590296460.0 -0.0546483024 0.1683310901 0.1758652684 -0.5298338117 0.1760711302 -0.5293616079 -0.0309789884 0.1848508387
595296430.0 -0.0528536705 0.1694220192 0.1706217924 -0.531165938 0.1698686308 -0.5317098336 -0.0290234827 0.18509256
600296400.0 -0.051238685 0.1700252965 0.1646894989 -0.532942784 0.1649470199 -0.5332085891 -0.0275557218 0.1855562293
605296370.0 -0.0494235285 0.1708849362 0.1587998242 -0.5350879535 0.158962598 -0.534659404 -0.0253188349 0.1862199896
610296340.0 -0.0480349706 0.1713205235 0.1534267598 -0.536236762 0.1529456229 -0.5366814783 -0.0230694921 0.1869834921
615296310.0 -0.046396168 0.1718431307 0.1472814371 -0.5378946007 0.1473975631 -0.5378463562 -0.02095565 0.1870743503
620296280.0 -0.0445402514 0.1724098587 0.1415239177 -0.5396148884 0.1416680081 -0.5396228716 -0.0188907851 0.1874451512
625296250.0 -0.0427835122 0.1728761077 0.13503788 -0.5414737253 0.1353341349 -0.541201115 -0.0170515373 0.1878205117
630296220.0 -0.0411699848 0.1739289414 0.1296474332 -0.5429622527 0.1300346678 -0.5426409317 -0.0152887515 0.1882929629
635296190.0 -0.0393510235 0.174176029 0.1234595352 -0.5433156125 0.1235972311 -0.5433487864 -0.013166134 0.188109357
640296160.0 -0.0379416947 0.1745855841 0.1179216376 -0.5447002649 0.1179531697 -0.5451896659 -0.01056705 0.1887882494
645296130.0 -0.0362966459 0.1754860343 0.1117703662 -0.5464174273 0.1121355674 -0.5462256102 -0.0090294838 0.1887250828
650296100.0 -0.0347189317 0.1763088321 0.106599389 -0.547250791 0.1066154352 -0.5471579468 -0.0071806295 0.1892341869
655296070.0 -0.0327074694 0.1764123221 0.1003367713 -0.5484013749 0.1002036593 -0.5482828536 -0.0046326974 0.1897521751
660296040.0 -0.0315857186 0.1769262212 0.0947163566 -0.5493870275 0.0943833023 -0.5492016775 -0.003155467 0.1894999708
665296010.0 -0.0292226053 0.1770431734 0.0880692242 -0.55008315 0.0890763401 -0.550426018 -0.0011964515 0.1902332297
670295980.0 -0.0272599955 0.1777590328 0.0826262876 -0.5513921281 0.0828858063 -0.5513245749 0.0007812511 0.1899180899
675295950.0 -0.0257198125 0.1779566002 0.0764701536 -0.5519324891 0.0769725176 -0.5524724058 0.0032814683 0.1905319204
680295920.0 -0.0239509995 0.1787235978 0.0706118231 -0.5529032756 0.0704378638 -0.5529957097 0.0054305561 0.190434123
685295890.0 -0.0223540026 0.1789743253 0.0647939239 -0.5539679978 0.0643661249 -0.5540285571 0.0073776775 0.1905947119
690295860.0 -0.0203035222 0.1793437726 0.058594561 -0.5538072 0.0582069913 -0.554318694 0.0097025615 0.1908360389
695295830.0 -0.0184134457 0.1796873982 0.0519715222 -0.5543306732 0.0521414023 -0.5549145203 0.0112176369 0.1910909335
700295800.0 -0.0168884363 0.1799850931 0.0464761548 -0.5552303882 0.0464849308 -0.5556353607 0.0133463884 0.1902795312
705295770.0 -0.015146435 0.1803546446 0.0405613051 -0.5556399165 0.040961678 -0.5557923266 0.015271139 0.1905360903
710295740.0 -0.0131930249 0.1809085085 0.0343029568 -0.5559690987 0.0347600028 -0.5561134763 0.0168742861 0.1909673439
715295710.0 -0.0115300214 0.1810152755 0.0286857596 -0.5561683247 0.0287763149 -0.556070318 0.0196282416 0.1902679121
720295680.0 -0.0100792851 0.181033871 0.0226307052 -0.5562973677 0.0225761608 -0.5571140251 0.0218438074 0.1906468182
725295650.0 -0.0077706993 0.1813474893 0.0162496927 -0.5566163522 0.0165107257 -0.5567035737 0.0239103842 0.1906032033
730295620.0 -0.0066853477 0.181401296 0.0105417033 -0.5565814285 0.0106798273 -0.5570418791 0.0257962815 0.1899980881
735295590.0 -0.0038986276 0.1817887325 0.0046210234 -0.5569866485 0.0047983773 -0.5572279635 0.0278839824 0.1901437946
740295560.0 -0.0024380162 0.1821978646 -0.0014854475 -0.5562930005 -0.0014983728 -0.5568867725 0.0305262001 0.1899131326
745295530.0 -0.0009492344 0.1820272534 -0.0076472917 -0.5569713699 -0.0075633583 -0.5571690254 0.0320075402 0.1898499242
750295500.0 0.0008607687 0.1823176484 -0.0130402546 -0.5560673735 -0.013213341 -0.5564452714 0.0344330959 0.1892681148
755295470.0 0.0032241231 0.1826391317 -0.0195278543 -0.5561693306 -0.0191987084 -0.556380464 0.0356769978 0.1892888237
760295440.0 0.0044218956 0.1825941261 -0.0253891323 -0.5561062081 -0.0252906271 -0.5561531325 0.0379369512 0.1889178826
765295410.0 0.0060897353 0.1827905195 -0.0310548628 -0.5559608821 -0.0313711007 -0.5561505097 0.0406183704 0.1889511947
770295380.0 0.0083500278 0.1829019491 -0.0373409958 -0.5553484966 -0.0372655055 -0.5558090262 0.0426365923 0.1887231017
775295350.0 0.0098534976 0.1831402199 -0.043606559 -0.5547590043 -0.0431358157 -0.5553457924 0.0439332883 0.1877430106
780295320.0 0.0120219132 0.1828038945 -0.0491363956 -0.5541733979 -0.0492692161 -0.554633394 0.0463026213 0.1883005835
785295290.0 0.0136934681 0.1832596533 -0.0552161606 -0.553427913 -0.0553154488 -0.5541235947 0.0477007525 0.1876685042
790295260.0 0.0152539411 0.1831231407 -0.0613929061 -0.5530987737 -0.0611225553 -0.5533828981 0.0506209334 0.1869066341
795295230.0 0.0171569163 0.1832603975 -0.0668398825 -0.5521008745 -0.0668042647 -0.5528175385 0.0523478998 0.1869144044
800295200.0 0.0191073448 0.1833231095 -0.0733816544 -0.5519355653 -0.0732901229 -0.5519125898 0.0545348282 0.186355999
805295170.0 0.0206223741 0.1831425478 -0.0792071754 -0.5504680073 -0.0790303632 -0.5506149773 0.0562093999 0.1855471069
810295140.0 0.0225145534 0.1831204658 -0.0843907913 -0.5503085622 -0.0846574626 -0.5504192565 0.0583447381 0.1857770854
815295110.0 0.0245536535 0.1831024843 -0.0911340088 -0.5486972101 -0.0912999144 -0.5487932142 0.0601313985 0.1847429958
820295080.0 0.0261742908 0.1826225852 -0.0969043078 -0.5477619484 -0.096829686 -0.5479653154 0.0620480971 0.1842807252
825295050.0 0.0279506851 0.1826215985 -0.1026599986 -0.5460805669 -0.1028238606 -0.5468128784 0.0645432469 0.1840307892
830295020.0 0.0297795019 0.1826367792 -0.1088618692 -0.5455508579 -0.1089110722 -0.5459590076 0.0663922667 0.1830870251
