!Created with skrf (http://scikit-rf.org).
# Hz S RI R 50.0 
!freq ReS11 ImS11 ReS21 ImS21 ReS12 ImS12 ReS22 ImS22
300000.0 -0.0435888052 -0.0680055154 -7.13721e-05 -0.0005683367 -0.0007828758 -0.0001851529 -0.7668483572 -0.1816477198
5299970.0 -0.0459503883 0.0145633556 0.0001596222 -4.0498e-06 1.71037e-05 -1.0568e-05 -0.7855107344 -0.0091870855
10299940.0 -0.0404804113 0.0331275451 -0.0001687185 7.62548e-05 3.22128e-05 2.94757e-05 -0.7878387174 -0.0054149903
15299910.0 -0.0315567559 0.0473813322 -9.4258e-06 0.000179709 6.83226e-05 -5.50459e-05 -0.7936751699 -0.00209585
20299880.0 -0.0214146182 0.0593691053 8.64104e-05 -4.54857e-05 -0.0001035407 0.0001559221 -0.7999293684 0.0015244814
25299850.0 -0.0103202261 0.0688121683 -3.89643e-05 5.8329e-05 -0.0001479072 -0.000143573 -0.8062569996 0.0084088447
30299820.0 0.0014230178 0.0756027038 0.000288215 -7.23206e-05 3.73662e-05 -6.22424e-05 -0.8121885812 0.0154216015
35299790.0 0.0129546206 0.0802080832 -9.62542e-05 0.0001353474 -4.2316e-06 0.0002656415 -0.8173318862 0.0247068112
40299760.0 0.0243691759 0.0831731953 0.0002261372 4.68318e-05 -6.14914e-05 8.91312e-05 -0.821673941 0.0339664274
45299730.0 0.0351094417 0.0842465365 0.0003291902 -0.00015471 1.36354e-05 -0.0001710523 -0.8242777595 0.0436469999
50299700.0 0.0453356878 0.0843659308 9.6626e-06 -0.0001085852 4.05478e-05 0.0002857023 -0.8271167409 0.0537461485
55299670.0 0.0546647317 0.08351967 8.21203e-05 9.99149e-05 -9.74e-06 1.52696e-05 -0.828970905 0.0639156844
60299640.0 0.0633666088 0.0815900913 -6.32336e-05 1.86869e-05 -0.0001116518 0.0001058678 -0.8298865258 0.0741420401
65299610.0 0.0714470916 0.0791779756 0.0002282371 -0.0001189025 -1.31269e-05 0.0001044392 -0.8304521638 0.0838114248
70299580.0 0.0778655615 0.0759719256 -0.0002308316 1.32537e-05 0.0001461113 -1.82321e-05 -0.8315855684 0.0933354314
75299550.0 0.0846421421 0.0730198422 -0.0001758107 -0.000140211 -0.0002117742 9.5955e-05 -0.8312996936 0.1040514322
80299520.0 0.0901391566 0.0694463156 0.0002382054 0.0001311036 5.56128e-05 6.45632e-05 -0.8312847727 0.1139373957
85299490.0 0.0954682951 0.0656430115 8.64167e-05 0.0001682904 0.0001283902 -9.19831e-05 -0.8303333444 0.1233375533
90299460.0 0.1004408056 0.0618809483 2.31517e-05 0.0001839398 0.0001239511 -3.34745e-05 -0.8288820936 0.1332353542
95299430.0 0.1043743049 0.0581110675 -8.35161e-05 -3.19202e-05 0.0001006922 2.2906e-05 -0.8283882253 0.1424365198
100299400.0 0.1083382103 0.0540611964 0.0001658429 -0.000226973 7.30864e-05 -0.0001467861 -0.8276707238 0.1518754169
105299370.0 0.1114311343 0.0502626167 3.02605e-05 -6.59415e-05 -4.95785e-05 4.55313e-05 -0.8259595026 0.1607340988
110299340.0 0.1145392059 0.046413948 6.25477e-05 1.13798e-05 -1.93745e-05 4.48727e-05 -0.8248341197 0.1701928587
115299310.0 0.1170486643 0.0426338918 1.04846e-05 9.63356e-05 -2.28552e-05 1.85011e-05 -0.8234256881 0.1793704984
120299280.0 0.1194763804 0.0389906602 0.0003200145 4.80935e-05 -6.78747e-05 0.0001218641 -0.8215023181 0.187852993
125299250.0 0.1212512822 0.0352255793 0.0003205747 6.52393e-05 0.0001265279 0.0001522319 -0.8201175751 0.1973797643
130299220.0 0.1231599528 0.031176065 -4.80899e-05 -0.0001337339 3.26088e-05 0.0001337574 -0.8182019977 0.2059451019
135299190.0 0.1248250892 0.0277981345 4.14259e-05 0.0002360089 4.28973e-05 8.09381e-05 -0.8161799053 0.2152001127
140299160.0 0.1262006674 0.0246869853 7.46123e-05 0.0001791467 -3.85878e-05 3.86806e-05 -0.8141571217 0.2233155555
145299130.0 0.1273657742 0.0209938469 0.0003271924 7.41779e-05 0.0001974665 0.0001194508 -0.8119202804 0.2324478363
150299100.0 0.1281450742 0.0175791063 -5.34226e-05 0.0001644672 -0.0001188275 -5.5933e-06 -0.8098690267 0.2413818803
155299070.0 0.1292812775 0.014911644 8.93301e-05 4.7287e-06 7.14108e-05 -3.3312e-06 -0.8070672128 0.2505064391
160299040.0 0.1298998008 0.0117025693 0.0003005594 -0.0002062489 0.0001090941 -3.93389e-05 -0.8042257274 0.2588677321
165299010.0 0.1303897726 0.0084541712 -8.90779e-05 0.0001040738 4.67931e-05 -4.6711e-06 -0.8019348334 0.2673594198
170298980.0 0.1309655869 0.0052514949 -1.89244e-05 -1.58937e-05 2.29513e-05 0.000281173 -0.8001364374 0.2752921957
175298950.0 0.131318466 0.0024580215 2.96604e-05 6.26035e-05 -8.714e-06 -2.32064e-05 -0.796426887 0.2847625615
180298920.0 0.1315568653 -0.0004990359 0.0002209163 6.23694e-05 6.0435e-06 0.0001440125 -0.793903485 0.2935244456
185298890.0 0.1316729027 -0.0034084993 -0.0002053698 0.000126458 -7.34117e-05 0.0001221129 -0.7906104193 0.3018310314
190298860.0 0.131985959 -0.0056320994 0.0001953472 -0.0001735511 -2.46973e-05 7.9232e-06 -0.7869690857 0.3101349598
195298830.0 0.1320939475 -0.0081576844 5.88343e-05 0.0001698351 4.20991e-05 -1.66341e-05 -0.7842565178 0.3179187757
200298800.0 0.1320763066 -0.0112781994 0.0002545643 9.3479e-05 8.79966e-05 6.85142e-05 -0.7811273403 0.3267245321
205298770.0 0.1312988438 -0.0138884209 -8.4768e-06 -1.83738e-05 8.62079e-05 6.59089e-05 -0.7779436158 0.3355011034
210298740.0 0.1313903952 -0.0160003945 -0.0002974513 5.19414e-05 3.86732e-05 0.0001768523 -0.7740284526 0.3434306552
215298710.0 0.1310716063 -0.0186649213 -0.0002672329 6.69279e-05 0.0001006762 0.0001980658 -0.7702694557 0.35159012
220298680.0 0.1310784999 -0.0207924243 5.19425e-05 3.9896e-06 5.9712e-05 -2.49925e-05 -0.7669526704 0.3591529222
225298650.0 0.1305606888 -0.0232686569 0.0002051058 -8.18207e-05 0.0001225605 0.0001039905 -0.7630002664 0.3675585086
230298620.0 0.1299873954 -0.0254150003 2.41457e-05 0.0003842063 0.0001483398 0.0001687487 -0.7592493972 0.3750395479
235298590.0 0.1296916733 -0.0274599925 2.96977e-05 0.0002234715 0.0002219835 4.55759e-05 -0.7552398224 0.3832081911
240298560.0 0.1290437422 -0.0297369243 1.68802e-05 6.29773e-05 0.0001836599 1.20456e-05 -0.751116512 0.3909476999
245298530.0 0.1284277442 -0.0317019352 2.17052e-05 0.0003431493 8.8269e-06 -8.33703e-05 -0.7474512404 0.3989780384
250298500.0 0.1279120388 -0.0336366935 0.0001629191 0.0002999051 0.0001456116 4.96317e-05 -0.7431163214 0.4072710621
255298470.0 0.1272934672 -0.035537413 7.40208e-05 0.0001421243 0.0002005788 0.0001101993 -0.738701977 0.4147514149
260298440.0 0.1268279102 -0.0379032953 4.50805e-05 0.0002061756 9.4606e-06 -4.7926e-06 -0.7341760173 0.4217658776
265298410.0 0.1258733493 -0.0395400002 7.91562e-05 0.0001046152 2.44533e-05 -3.14205e-05 -0.729820399 0.4300150057
270298380.0 0.1251988606 -0.0417306466 6.5934e-06 5.38271e-05 -9.60292e-05 7.11631e-05 -0.7249457731 0.4376102952
275298350.0 0.1244219032 -0.0432359039 0.0001985146 0.0001582653 4.34712e-05 0.0001441549 -0.7207144526 0.4456162654
280298320.0 0.1233433598 -0.0452187619 -2.43178e-05 -4.38787e-05 0.0002091854 -4.37615e-05 -0.7163846156 0.4527740833
285298290.0 0.1228798163 -0.04722441 5.0583e-06 -9.2384e-06 0.000120196 6.96969e-05 -0.711858073 0.4606016339
290298260.0 0.121726439 -0.0490078131 4.74359e-05 5.52153e-05 -5.92861e-05 -1.44437e-05 -0.7067229906 0.4675332949
295298230.0 0.1209786594 -0.0509795018 -5.5994e-06 0.0002559754 0.0001834001 0.0001161879 -0.7018206188 0.475136321
300298200.0 0.1202324683 -0.0523916333 0.0003232989 0.0002106648 0.0002228632 0.0001108012 -0.696355453 0.4824392884
305298170.0 0.1193616563 -0.0545317113 0.0001775562 7.71317e-05 0.0001553495 5.86153e-05 -0.6916355938 0.4895171525
310298140.0 0.1184944505 -0.0566164316 -0.0001030904 0.0001522262 0.0001394382 0.0002122007 -0.6862402165 0.4967941803
315298110.0 0.1172728719 -0.0582263526 0.000195212 -3.98264e-05 0.0002211974 5.32653e-05 -0.6812912283 0.5039146793
320298080.0 0.1161850644 -0.0600266263 0.0002066282 0.0003715193 0.0002240546 0.0001693409 -0.6762880586 0.5107271229
325298050.0 0.1145429713 -0.0623719373 0.0001711854 0.0001776609 0.0001662121 0.0002495498 -0.6703879331 0.5175510488
330298020.0 0.1135494512 -0.0632620292 0.0003441201 0.0001930554 0.0001040464 0.0004233408 -0.6650162433 0.5243218269
335297990.0 0.1122256912 -0.064639133 0.0001178842 0.0003956737 0.0001800662 0.0001620072 -0.6597945217 0.5316560018
340297960.0 0.1108907248 -0.0660987419 0.000185041 0.0001292504 0.0001160901 0.0002847218 -0.6542333017 0.5383739702
345297930.0 0.1099113998 -0.0674907403 0.0002757834 -3.64262e-05 0.0002098003 -7.85005e-05 -0.6488599007 0.544761694
350297900.0 0.1086471374 -0.0692117309 -1.4816e-06 0.0001080291 6.24669e-05 8.67397e-05 -0.6429221157 0.551216059
355297870.0 0.1071792407 -0.07044908 0.0001520321 0.0002705288 3.98201e-05 0.0002473742 -0.6366309723 0.558966162
360297840.0 0.1059459401 -0.0717268013 -0.0001018881 0.0001158347 0.0001046094 8.94844e-05 -0.630656396 0.5647708175
365297810.0 0.1050730226 -0.0729866039 0.0004127746 -5.81267e-05 0.0001064743 4.8064e-06 -0.6258300244 0.5715099316
370297780.0 0.1039360936 -0.0744110057 0.0003445186 0.0002079462 3.31953e-05 0.0004717784 -0.6192509592 0.5772419095
375297750.0 0.1024881261 -0.0754981172 -7.90883e-05 0.0001526491 0.0002050329 0.0002560683 -0.6131236823 0.5840315515
380297720.0 0.101500268 -0.0764898391 9.58343e-05 0.0001739184 0.0002624958 -6.86534e-05 -0.6068977836 0.5907656307
385297690.0 0.1000243283 -0.0780482536 0.0001682828 0.0001497405 0.0003318875 0.0001462153 -0.601401126 0.5961761252
390297660.0 0.0991348759 -0.079516829 0.0001636239 1.51155e-05 0.0002467264 0.0002117082 -0.5940584311 0.602180791
395297630.0 0.0978804246 -0.0805265335 0.0003348666 -0.0002039864 0.0002028126 0.0001852931 -0.5884983602 0.6076646655
400297600.0 0.0961962889 -0.0817599134 2.62608e-05 -8.16552e-05 0.0001755908 -1.92347e-05 -0.5827674092 0.613767484
405297570.0 0.0950437978 -0.0831978133 1.67729e-05 5.02385e-05 0.0002231535 0.0001986373 -0.575693058 0.6203865677
410297540.0 0.0942622593 -0.0841490499 0.0001722587 2.4952e-05 0.0002104011 0.0002496835 -0.5694631346 0.6261813591
415297510.0 0.0926746699 -0.085449033 0.0001631105 3.23117e-05 0.0002081219 0.0002767617 -0.5632896624 0.6311808473
420297480.0 0.0915616087 -0.0867626872 0.0003538772 0.000128808 0.0001133454 4.11734e-05 -0.556193086 0.6381562715
425297450.0 0.0904703276 -0.0877612694 0.0002072642 0.0002422975 0.0001730219 0.000173015 -0.5496576657 0.6423111473
430297420.0 0.0891614948 -0.0888839499 0.000311667 0.000131368 0.0001244007 8.38351e-05 -0.5429219224 0.648603039
435297390.0 0.0876991553 -0.0898240016 0.0003769443 0.0002218901 0.0003560647 -5.6373e-05 -0.5366051462 0.6546200584
440297360.0 0.0863768963 -0.0907837672 0.0001146863 0.0002882313 0.0001111491 9.24822e-05 -0.5306820305 0.6595365745
445297330.0 0.0852267695 -0.0922971821 0.0001170525 0.0002510032 0.0003019295 0.0002238162 -0.5228805053 0.66510934
450297300.0 0.084065313 -0.0932509304 0.0002770172 8.93587e-05 0.0003021445 0.0002702681 -0.5155872741 0.6697305367
455297270.0 0.0823714177 -0.0938758869 0.000199598 0.0001790958 4.25142e-05 8.8613e-06 -0.5085990899 0.6745111934
460297240.0 0.0811519907 -0.0948810139 7.80987e-05 0.0002953097 0.0003446302 0.0001439594 -0.5022520889 0.680000103
465297210.0 0.0801700468 -0.095804263 0.0001180037 5.27742e-05 0.0002224735 0.0002343445 -0.4950872908 0.6855256735
470297180.0 0.0786305529 -0.0970068277 0.0003078957 0.0001364408 8.17554e-05 6.65346e-05 -0.488291677 0.6902079882
475297150.0 0.0771265173 -0.0975080042 0.0003224998 0.0001720787 0.0001557518 0.0002736212 -0.4813460746 0.6954820453
480297120.0 0.0761806393 -0.098653342 0.0003385558 0.0001592459 0.0001448101 0.0001313125 -0.4743471374 0.6998368407
485297090.0 0.0747406609 -0.0991836618 4.41532e-05 -0.0001195349 0.0001534295 4.872e-05 -0.4670771397 0.7046846315
490297060.0 0.0739348258 -0.1002245327 0.0001383359 0.0001725241 0.0001417251 -2.80076e-05 -0.4592016121 0.7095890152
495297030.0 0.0723591374 -0.100957607 0.0002002106 5.20295e-05 0.0001297234 0.0002785777 -0.4526175889 0.7139524367
500297000.0 0.0708090139 -0.1016962886 0.0001574657 0.0001512192 0.0004740741 0.0001461169 -0.4448195905 0.7187224622
505296970.0 0.0696660765 -0.1027504345 0.0002791767 0.0001353552 0.0002990225 1.95285e-05 -0.437552669 0.7229530308
510296940.0 0.0684354304 -0.1032124483 0.0001987982 0.0001018825 0.0003653464 0.0001402008 -0.4302745776 0.7270512455
515296910.0 0.0671101754 -0.1037903431 0.0001937406 0.0001309973 9.67633e-05 9.62773e-05 -0.4228371354 0.7307791667
520296880.0 0.0657470887 -0.1046318707 0.0001455716 0.0001582453 0.000330054 -9.9621e-06 -0.4156085821 0.7357193324
525296850.0 0.0645630359 -0.1055347765 0.0001198034 -0.0001006334 0.0002368939 4.50901e-05 -0.4081927451 0.7392264297
530296820.0 0.0630248296 -0.1059300498 0.0003960828 -0.0001120003 7.1098e-06 5.69292e-05 -0.4007806681 0.7435827361
535296790.0 0.0620671346 -0.1067313557 0.000228342 8.79663e-05 0.0001967621 7.28079e-05 -0.3930788664 0.7482350792
540296760.0 0.0608390112 -0.1071130221 0.0001638619 -7.00678e-05 0.0002800742 0.0001270429 -0.385085802 0.7515708195
545296730.0 0.058954583 -0.1074301394 0.0002407292 0.0001171 0.0003178358 9.88541e-05 -0.3781794332 0.7553899346
550296700.0 0.0578880843 -0.108172825 0.0003474814 -0.000101583 0.000128725 1.8819e-05 -0.370384924 0.7587703928
555296670.0 0.0566103823 -0.1085352612 0.0003133524 0.0002700804 0.0002711426 -9.50078e-05 -0.3623977384 0.7622660747
560296640.0 0.0554220388 -0.109096648 0.0002966239 0.000153569 0.0003799911 9.76708e-05 -0.3544519487 0.7665078418
565296610.0 0.05373482 -0.1097021388 0.0003325645 0.0002912953 0.0001773828 -3.91511e-05 -0.3467573291 0.770040472
570296580.0 0.0524275191 -0.1100231249 0.0001644894 2.6951e-05 0.0002479576 9.61691e-05 -0.3388292322 0.772949298
575296550.0 0.0509801947 -0.1107063256 0.0002021114 0.0001966466 0.0002044354 0.0001562294 -0.3310448282 0.7763039964
580296520.0 0.0497465503 -0.1105761545 0.0002575713 -9.05321e-05 0.000228914 6.19991e-05 -0.3235158173 0.779593471
585296490.0 0.0486329829 -0.1108971192 0.0002392555 -9.5452e-05 0.0001989602 0.0001401293 -0.3150976875 0.7835035931
590296460.0 0.0472314389 -0.1112195819 0.0003013236 -0.0002288235 0.000354981 -6.8943e-05 -0.3078656366 0.7858166423
595296430.0 0.0457277242 -0.111515603 0.0002273404 1.0807e-05 0.0002552793 3.817e-05 -0.2997461447 0.7895362052
600296400.0 0.0442821989 -0.1119125361 0.0003021332 0.0002119832 0.0003325008 -1.12735e-05 -0.2921327484 0.7917736504
605296370.0 0.042693256 -0.1120460183 0.0003369329 0.0001136195 0.0004121871 4.99259e-05 -0.283875811 0.7954629335
610296340.0 0.0417085467 -0.1124096175 0.0004766758 -0.0001739485 0.0004941877 0.0001086784 -0.2765691503 0.7977136598
615296310.0 0.0403086719 -0.1127932144 0.0003041192 5.22823e-05 0.0001233708 5.7445e-06 -0.2676364614 0.8006867279
620296280.0 0.0388877463 -0.1125032521 0.000164351 0.0002726698 0.0001480725 3.0398e-05 -0.2601217816 0.8034087413
625296250.0 0.0372021974 -0.1129512388 0.0001995015 -0.0001206372 3.66736e-05 3.7782e-05 -0.2512471188 0.8050619504
630296220.0 0.0356854278 -0.1129891747 0.0003216478 5.96349e-05 0.0003670082 5.21128e-05 -0.24353391 0.808065413
635296190.0 0.0341428005 -0.1130424886 0.0002288568 0.0001051789 0.0004858212 2.65747e-05 -0.2353610819 0.8100601353
640296160.0 0.0329508399 -0.1133355128 0.0004167345 -2.5338e-06 0.0003259617 0.0002089899 -0.2275070365 0.8126772021
645296130.0 0.0321980018 -0.1132319032 0.0004191675 2.26217e-05 0.0002724163 0.0001541095 -0.2193858251 0.8146858982
650296100.0 0.0304529086 -0.11309931 0.0003414458 -0.0001971109 0.0003973264 -3.39627e-05 -0.2105078668 0.8170168132
655296070.0 0.028752752 -0.1133387434 0.0002291022 -7.31205e-05 0.000167155 5.26685e-05 -0.203264945 0.8191823261
660296040.0 0.0271501637 -0.113111419 0.0003095828 -0.0001357512 0.0003696034 -5.41313e-05 -0.1944106413 0.8208566611
665296010.0 0.0258664895 -0.1133361357 0.0004891047 9.6976e-06 0.0004061585 -0.0002678567 -0.185985644 0.8226011333
670295980.0 0.0243587226 -0.1131020991 0.0001305435 -5.59001e-05 0.0002732668 5.77405e-05 -0.1785442941 0.8243270453
675295950.0 0.0227362843 -0.1132901946 0.000577973 -2.00578e-05 0.000378322 -2.19339e-05 -0.169704352 0.8267702053
680295920.0 0.0209810619 -0.1129962264 0.000312869 9.38445e-05 0.0005005561 -4.34362e-05 -0.1612801527 0.8280703992
685295890.0 0.0199425155 -0.1127569078 0.0002859621 -0.0003121396 0.0002169544 -8.37627e-05 -0.1533455809 0.8298775123
690295860.0 0.0186235013 -0.1126543843 0.0001812868 -8.1073e-05 0.0004536722 9.18856e-05 -0.1454957138 0.8314781793
695295830.0 0.0170250993 -0.1127482634 0.0003637138 0.0001432115 0.0003757377 5.59287e-05 -0.1367057467 0.8329303674
700295800.0 0.0156716756 -0.1124558354 0.0002040606 6.52446e-05 0.000454846 -6.60125e-05 -0.1283102933 0.8335889513
705295770.0 0.014159582 -0.112271153 0.0003953601 3.90728e-05 0.0001095659 -6.51151e-05 -0.1202591005 0.8355680495
710295740.0 0.0125822296 -0.1124135352 0.0002159108 -2.92581e-05 0.0002266812 7.77056e-05 -0.1115905581 0.836198769
715295710.0 0.0114855693 -0.1120838574 0.000504407 -9.32938e-05 0.0004202856 -4.90254e-05 -0.1030915087 0.8366704852
720295680.0 0.0097252609 -0.1119605875 0.0001624776 0.0001490779 0.0002219676 5.74656e-05 -0.0946246728 0.8380731452
725295650.0 0.0082006025 -0.1113522952 0.0003212888 5.07371e-05 0.0002962423 0.0001494615 -0.0870945139 0.8394012182
730295620.0 0.0066618158 -0.1114428558 0.0002218332 6.19946e-05 0.0003617529 -0.0002056996 -0.0784410859 0.8399317554
735295590.0 0.0050056001 -0.1108996122 0.0004009044 -6.07192e-05 0.0003912154 -7.9919e-05 -0.0693810324 0.840164884
740295560.0 0.0035815422 -0.1109125057 0.0004941803 0.0001255611 0.0002918006 4.95523e-05 -0.0614449014 0.8412912373
745295530.0 0.0023062179 -0.1103656519 0.0002982772 -0.0001651924 0.0003863022 8.47624e-05 -0.0531539805 0.8416636901
750295500.0 0.0006986126 -0.1099940324 0.000311773 -0.0001092599 0.0004448734 -8.0944e-06 -0.0449168534 0.8423755875
755295470.0 -0.0009605637 -0.1097892168 0.0005694714 -6.81932e-05 0.0002592499 -0.0001127728 -0.0369824603 0.8431684748
760295440.0 -0.0022092493 -0.1094501021 0.0002556472 -0.0001692735 0.0004863867 -0.0001548619 -0.0278017702 0.8429138099
765295410.0 -0.0037657557 -0.1091733897 0.0005477563 1.29048e-05 0.0004725598 -0.000192364 -0.0196736522 0.8434950295
770295380.0 -0.0052628577 -0.1087635104 0.0004477853 -0.0002449811 0.0002609816 -0.0001630278 -0.011621634 0.8432984331
775295350.0 -0.0065876471 -0.1082911414 0.0003084319 2.3115e-05 0.0003833246 -8.9179e-06 -0.0033518457 0.8432470066
780295320.0 -0.0079544217 -0.10783879 0.0001785879 -7.6824e-06 0.0002624086 -0.0001374633 0.0055063687 0.843471227
785295290.0 -0.0095639387 -0.1075995022 0.0002612194 3.83811e-05 0.0003176513 -9.08569e-05 0.0136956051 0.8436628647
790295260.0 -0.0110396853 -0.1074489143 0.0004073755 -0.0002808347 0.0004044897 2.40839e-05 0.0220281278 0.8432596735
795295230.0 -0.0123968011 -0.1072137546 -9.64671e-05 -3.76488e-05 0.0001999265 -3.78629e-05 0.0301174378 0.8424945356
800295200.0 -0.0139349407 -0.1063599535 0.0003538128 -3.35345e-05 0.0002781467 -5.73356e-05 0.0381950847 0.8426565721
805295170.0 -0.0153575319 -0.1059607951 0.000339544 0.0001883625 0.0003360572 -7.15606e-05 0.0474965844 0.8423914957
810295140.0 -0.0166202041 -0.105139148 0.00039662 -0.0001521066 0.000435208 -9.58228e-05 0.0558339054 0.8415431552
815295110.0 -0.0180912231 -0.1051164325 0.0004670735 0.0001910464 0.0004462845 -0.0002616503 0.0631374664 0.8411066028
820295080.0 -0.0199141603 -0.1044536682 0.0005149484 -9.36997e-05 0.0002736363 7.70324e-05 0.0713836145 0.8406890272
825295050.0 -0.0214510465 -0.1043559425 0.0004325733 4.96593e-05 0.0003657959 -0.0001884467 0.0798787493 0.8394981695
830295020.0 -0.0224259513 -0.1034599763 0.000234334 -0.0002947324 0.0007159572 -7.4076e-06 0.0881468514 0.8386213
835294990.0 -0.0239575936 -0.1032122595 0.0003525563 0.0001093643 0.0003262157 -6.92498e-05 0.0970940396 0.8381881436
840294960.0 -0.0251885448 -0.1028170275 0.0004807748 -0.000162339 0.0003405117 -5.1697e-05 0.1056450771 0.8369669861
845294930.0 -0.0268772002 -0.1017147506 0.0004932742 -0.0006092688 0.0004807613 -0.0001796583 0.114188724 0.8354803388
850294900.0 -0.0276682499 -0.1018467183 0.0001661491 -7.31764e-05 0.0002153688 -0.0001161103 0.1216830122 0.8345185782
