!Created with skrf (http://scikit-rf.org).
# Hz S RI R 50.0 
!freq ReS11 ImS11 ReS21 ImS21 ReS12 ImS12 ReS22 ImS22
300000.0 -0.2390696896 -0.0750974023 0.4720939125 0.0509242851 0.4680149301 0.0488519777 -0.2430785959 -0.0897626383
5299970.0 -0.2445483344 0.0074251006 0.4737928175 0.0048096757 0.4739179176 0.0048927406 -0.2445251138 0.0073374467
10299940.0 -0.2411977007 0.0189167269 0.4755312593 0.006295105 0.475471397 0.0063471871 -0.2409240141 0.0203304969
15299910.0 -0.2368076394 0.0280664784 0.4790934069 0.0074142917 0.4792962404 0.0078742669 -0.2360466544 0.0297362519
20299880.0 -0.2320090757 0.0355123864 0.4839711255 0.0087512222 0.4841660904 0.0082322526 -0.230780724 0.0373441742
25299850.0 -0.2269679282 0.0419707573 0.4892382979 0.0076564272 0.4889645957 0.0075617287 -0.2248994746 0.0438695581
30299820.0 -0.2215107394 0.0470314383 0.4944133418 0.0051694881 0.4945328247 0.0052425939 -0.2191392703 0.0490696444
35299790.0 -0.2165729171 0.051393723 0.5001216692 0.0021463662 0.4999462671 0.0018291707 -0.2134595652 0.0532372839
40299760.0 -0.2111989052 0.0551772643 0.5047885247 -0.0018735323 0.5053426727 -0.0018738233 -0.2084461885 0.0563099356
45299730.0 -0.2065418749 0.0578448263 0.5096160716 -0.0066878579 0.5098967133 -0.0060539495 -0.2034440231 0.0587426886
50299700.0 -0.2025751024 0.0599242437 0.5142516002 -0.0121275729 0.5145527022 -0.011925359 -0.1987445573 0.0606199933
55299670.0 -0.1984298801 0.0616820265 0.5183103678 -0.0184707186 0.5177202736 -0.0180740893 -0.1943402108 0.0622581161
60299640.0 -0.1942769789 0.0636607456 0.5212345633 -0.0245901932 0.5215185443 -0.0237591471 -0.1906358124 0.0630895962
65299610.0 -0.1912539932 0.0649961542 0.5245086848 -0.0306990521 0.5242966303 -0.0306098382 -0.1870380453 0.0641943233
70299580.0 -0.187833831 0.0661660912 0.5265621042 -0.0377955763 0.5266122821 -0.0370239204 -0.1839517526 0.0648007487
75299550.0 -0.1850084903 0.0671303607 0.5285710353 -0.0440850332 0.5284275279 -0.0440968244 -0.1810259741 0.0654098227
80299520.0 -0.1824281152 0.0680139247 0.5304020417 -0.0510739674 0.530803111 -0.0509352681 -0.1784225057 0.0660320094
85299490.0 -0.1800096323 0.0687098924 0.531455305 -0.0575418555 0.5317561542 -0.0573304741 -0.1762109559 0.0661703853
90299460.0 -0.1780161252 0.0697903335 0.5322596351 -0.0646330893 0.5329762845 -0.0646912103 -0.1737254749 0.0668679107
95299430.0 -0.1755374974 0.0702636221 0.5337548394 -0.0715228515 0.5337309848 -0.0719410285 -0.1714420918 0.0673817157
100299400.0 -0.173769445 0.0716560019 0.5336373065 -0.0787937299 0.5337173745 -0.0786510607 -0.1694354829 0.0675163721
105299370.0 -0.1719232122 0.0723833175 0.534053468 -0.0859272656 0.5348047179 -0.0855190149 -0.1675995267 0.0680537563
110299340.0 -0.1704190534 0.073098088 0.5345859612 -0.0922769054 0.5340897372 -0.0922653821 -0.166180025 0.0681816278
115299310.0 -0.1687517971 0.0740860095 0.534616836 -0.0996587194 0.5344385205 -0.0992234436 -0.1649959185 0.0689790708
120299280.0 -0.1672769732 0.0746497325 0.5340696223 -0.1059585794 0.5343235962 -0.1060521678 -0.1632374249 0.0693431799
125299250.0 -0.1661365229 0.0754497468 0.5338864166 -0.1124437664 0.5338268736 -0.1123395719 -0.1624806801 0.0697000422
130299220.0 -0.1649986702 0.0769772647 0.5332037263 -0.1193439549 0.5330929704 -0.1197721511 -0.1613126234 0.070146296
135299190.0 -0.1637987918 0.0778222959 0.5327334789 -0.1258979924 0.5325034559 -0.1261017523 -0.159825415 0.0710668194
140299160.0 -0.1626502606 0.0788696847 0.5319635885 -0.1329475821 0.5321975798 -0.1328192866 -0.1587919582 0.0722056227
145299130.0 -0.1613689093 0.079827275 0.5311111982 -0.1393867986 0.5307728077 -0.1394661225 -0.1578570431 0.0728991038
150299100.0 -0.1601871389 0.0810612132 0.5299862974 -0.1453496885 0.5301757974 -0.145241938 -0.1569388682 0.073975631
155299070.0 -0.1593911533 0.0820023133 0.5288936571 -0.1528001988 0.5283906581 -0.1526847065 -0.1556996478 0.0746389789
160299040.0 -0.1580840288 0.0834146293 0.5271030208 -0.1592114342 0.5270786272 -0.1587788844 -0.1555664991 0.0753370101
165299010.0 -0.1574076716 0.0847775866 0.5258941492 -0.1656332936 0.525900246 -0.1657141318 -0.1542509542 0.0766072044
170298980.0 -0.1566583108 0.0857128858 0.5242383884 -0.1717685961 0.524544968 -0.1715235473 -0.1533519931 0.0774052209
175298950.0 -0.1556761433 0.0868992101 0.5227705105 -0.1775571833 0.52260919 -0.1776153311 -0.1530085928 0.0787710787
180298920.0 -0.1547888849 0.0884506507 0.5209349009 -0.1844034322 0.5209441893 -0.1836283025 -0.1521275128 0.0798560091
185298890.0 -0.1532910462 0.0894764151 0.5190601546 -0.1904958189 0.5190736712 -0.1902953859 -0.1513628386 0.0811789296
190298860.0 -0.1529599918 0.0911024486 0.5174917781 -0.1969089988 0.5174569926 -0.1966643443 -0.150723699 0.0819854316
195298830.0 -0.1516502728 0.0920533958 0.5152163916 -0.2029134308 0.5153720739 -0.2024863195 -0.1499497505 0.082804908
200298800.0 -0.150584858 0.0935937549 0.5129040356 -0.2091222799 0.5131138649 -0.2090202077 -0.1494367499 0.084135117
205298770.0 -0.1495042592 0.0949677551 0.5104955458 -0.2152854453 0.5108462416 -0.2147164168 -0.1486511506 0.0848664093
210298740.0 -0.1489817405 0.0962837557 0.5084357248 -0.2207377436 0.5083977719 -0.2204829733 -0.1476725289 0.0865135908
215298710.0 -0.1483671783 0.0977578296 0.5062551627 -0.2265411215 0.5059117742 -0.2271197267 -0.1472010339 0.0876353603
220298680.0 -0.1468903848 0.0987503269 0.503536946 -0.2322994174 0.5034900468 -0.23254846 -0.146853308 0.0886765479
225298650.0 -0.1461451557 0.1002352013 0.5012286174 -0.2386533676 0.5016951558 -0.2389488491 -0.1463208095 0.0895943752
230298620.0 -0.1453522547 0.102200258 0.4990647252 -0.2441230115 0.4993244338 -0.2446081275 -0.1457391636 0.0908499005
235298590.0 -0.14411617 0.1037401443 0.4960489335 -0.2503026107 0.4962120274 -0.2496300315 -0.14490457 0.09213952
240298560.0 -0.1431916561 0.1052635311 0.4933388053 -0.2560945711 0.4938115331 -0.2561370851 -0.1440406204 0.0935634364
245298530.0 -0.1423151297 0.1065016506 0.4913352404 -0.2618377532 0.4908573096 -0.2618691547 -0.1430986589 0.0942890583
250298500.0 -0.1409196054 0.1081557774 0.4873307729 -0.267487196 0.4873824645 -0.2672534086 -0.1425099437 0.0958877943
255298470.0 -0.1398669369 0.1090877425 0.4844354669 -0.2725962549 0.4847180548 -0.2727356345 -0.141464703 0.0967689233
260298440.0 -0.1391600358 0.1103932962 0.4821278273 -0.2783057909 0.4821739816 -0.2782207957 -0.1403450069 0.0981807155
265298410.0 -0.1375052702 0.1125715869 0.4792411252 -0.2841153968 0.4790410067 -0.283828558 -0.1397994345 0.0994824153
270298380.0 -0.1365964726 0.1137645048 0.4760405592 -0.2888285619 0.4762248422 -0.289176648 -0.1387332443 0.1005587932
275298350.0 -0.1351634358 0.1152591898 0.4727028573 -0.2949186523 0.4729472098 -0.2947178508 -0.1380804865 0.101651998
280298320.0 -0.1340808269 0.1170502587 0.4695646283 -0.3002741462 0.4696171721 -0.3003384382 -0.1369557485 0.1031750844
285298290.0 -0.1329146132 0.118324096 0.4665327721 -0.3053428531 0.4658031904 -0.3054491822 -0.1360397737 0.1043726472
290298260.0 -0.1317025722 0.1197460052 0.462826327 -0.3107155435 0.4630763679 -0.310908398 -0.1349526113 0.1054193463
295298230.0 -0.1300271937 0.1208897869 0.4594429658 -0.3160973778 0.4596121318 -0.315733123 -0.1335418884 0.106627949
300298200.0 -0.1292137609 0.1223708921 0.4564359612 -0.3209599576 0.4564198609 -0.3216376053 -0.1328358211 0.1078970691
305298170.0 -0.127861235 0.123688978 0.4522615311 -0.3266396062 0.4525400495 -0.3268146274 -0.1314855886 0.1093115243
310298140.0 -0.1265031637 0.1250824056 0.4490744195 -0.3317187936 0.4492720231 -0.33162426 -0.1307888787 0.1103159052
315298110.0 -0.1251330704 0.1260523462 0.4460371323 -0.3366022959 0.4457883983 -0.3367117295 -0.129714682 0.1114140969
320298080.0 -0.1235667722 0.1274742765 0.4409127147 -0.3420799411 0.4414909276 -0.342141273 -0.1284511451 0.1128404654
325298050.0 -0.1226858462 0.1287242874 0.4377863793 -0.3472576833 0.4377396317 -0.3470591657 -0.1281101269 0.1140399237
330298020.0 -0.1212237939 0.1300701993 0.4338943306 -0.3521462006 0.4337419267 -0.3523027349 -0.1271278945 0.1151618054
335297990.0 -0.1197791345 0.1313258406 0.4298889369 -0.3565345012 0.4297497457 -0.3570838839 -0.1265113475 0.1169702451
340297960.0 -0.1193307813 0.1330633088 0.4257689278 -0.3615935437 0.4251371487 -0.3619394555 -0.1249855483 0.1179142356
345297930.0 -0.1180741359 0.1345425952 0.4218197491 -0.3666794134 0.4213758598 -0.366525124 -0.1242113955 0.1191214811
350297900.0 -0.116653091 0.1356359923 0.416860265 -0.3712709452 0.4174103413 -0.3712290263 -0.1233931385 0.1209951259
355297870.0 -0.1148342254 0.1377056678 0.4128876851 -0.375916843 0.4133138397 -0.3753974627 -0.1225920444 0.1219973975
360297840.0 -0.1136063641 0.1388130176 0.4093810824 -0.3799515066 0.4098632957 -0.379783335 -0.1216640032 0.1239473745
365297810.0 -0.1126451504 0.1402019846 0.4050075884 -0.3846512941 0.4049489704 -0.38478168 -0.1202346881 0.1249409322
370297780.0 -0.1108783196 0.1414232068 0.4004416278 -0.3886657095 0.4010681679 -0.388575917 -0.1193286041 0.1262687687
375297750.0 -0.1089543451 0.1427283225 0.3969775705 -0.3931227897 0.396802149 -0.393861823 -0.1181492512 0.1275979992
380297720.0 -0.1079003902 0.1441003125 0.3919786317 -0.3977096001 0.3917882986 -0.3971407237 -0.1171385361 0.1284244164
385297690.0 -0.1063406741 0.1455396997 0.3872805504 -0.401865367 0.3876427391 -0.4019160526 -0.115988949 0.1303088917
390297660.0 -0.1047278749 0.1470110152 0.3829364611 -0.4061968765 0.3832745481 -0.4060720589 -0.1151186051 0.1314550186
395297630.0 -0.1031021789 0.1483472752 0.3788884052 -0.41058185 0.3788198346 -0.4102990036 -0.1131740382 0.1326834077
400297600.0 -0.1018113344 0.1494720953 0.373910432 -0.4148032654 0.3741419301 -0.4147457278 -0.1121169862 0.1338845678
405297570.0 -0.1005658345 0.1507627214 0.3698218491 -0.4185221459 0.3695157647 -0.4184462311 -0.111426248 0.1350991373
410297540.0 -0.0982809466 0.1518152934 0.3649909021 -0.4224205932 0.3654202257 -0.4226450539 -0.1099430782 0.1363759961
415297510.0 -0.0967367207 0.1530826281 0.3600648936 -0.4267677587 0.360147103 -0.426836604 -0.1087338697 0.13744726
420297480.0 -0.0953118929 0.1546937296 0.3555050591 -0.4307972354 0.3553611778 -0.4306972163 -0.1076470937 0.1382682735
425297450.0 -0.0935523785 0.1551078408 0.3509996766 -0.4342818819 0.3510594724 -0.4349249632 -0.106642825 0.1398920934
430297420.0 -0.091794955 0.1563498385 0.3458733803 -0.4376508334 0.3459834895 -0.4380709485 -0.104944611 0.1408774046
435297390.0 -0.0903381988 0.1579920152 0.3408677494 -0.4419748746 0.3408763929 -0.4420061689 -0.1032769232 0.141890696
440297360.0 -0.0883333142 0.1589279191 0.3359950177 -0.4456664958 0.3363771678 -0.4456202555 -0.1023038554 0.1430071926
445297330.0 -0.0867784793 0.1599102089 0.3314820828 -0.449469088 0.3314041542 -0.449057497 -0.1006993248 0.1437236587
450297300.0 -0.0849234482 0.1610219428 0.3264630961 -0.4529106027 0.32644863 -0.4530201629 -0.0995404258 0.1447163742
455297270.0 -0.0831828035 0.1621084709 0.321400523 -0.4565894463 0.3213083569 -0.4568275866 -0.0982733157 0.1459976107
460297240.0 -0.0818073855 0.1631575674 0.3167988769 -0.459925131 0.3160705204 -0.4601416464 -0.0968044408 0.1473448004
465297210.0 -0.0795516407 0.1643905967 0.3116738745 -0.4632083627 0.3113703291 -0.4637408901 -0.0949865662 0.1477216712
470297180.0 -0.077695754 0.1649498288 0.3059715519 -0.4669078416 0.3064961246 -0.4669437658 -0.0936365302 0.1495866854
475297150.0 -0.0758916002 0.1657671033 0.3005746432 -0.4695348165 0.3010637583 -0.4697900363 -0.0920236856 0.1498153108
480297120.0 -0.0743355166 0.1673140498 0.2958926059 -0.4736494545 0.2958924785 -0.4737136745 -0.0904477856 0.1509935889
485297090.0 -0.0725700807 0.1682320123 0.291002387 -0.4760528724 0.290930457 -0.4763490668 -0.089139432 0.1522569721
490297060.0 -0.0709930565 0.1690528248 0.2859140811 -0.4794754066 0.285905398 -0.4795133641 -0.087653576 0.1533291651
495297030.0 -0.0690592947 0.1698590901 0.280530269 -0.4824335424 0.2805342879 -0.482639804 -0.0864527365 0.1543937927
500297000.0 -0.066884157 0.1704668435 0.2750724115 -0.4848310131 0.2750454228 -0.4850718781 -0.0847365882 0.1558520529
505296970.0 -0.0648757373 0.1717472727 0.26971327 -0.4883831433 0.2697571734 -0.4886735859 -0.0830617389 0.1564426034
510296940.0 -0.0630515468 0.1726624268 0.2642505486 -0.4914778111 0.2643854102 -0.4917949249 -0.0816157023 0.1577973512
515296910.0 -0.0613328108 0.1732060093 0.2586667766 -0.4941214247 0.2590222027 -0.4942252664 -0.0801678161 0.1586482081
520296880.0 -0.059477619 0.1738991362 0.2537437263 -0.4971451848 0.2536422073 -0.4967629812 -0.0786106848 0.1591943019
525296850.0 -0.0571750786 0.1744372154 0.2476394403 -0.4997713566 0.2483448669 -0.4997417873 -0.0772115702 0.1604877658
530296820.0 -0.0553335087 0.175833706 0.242543561 -0.5024608971 0.2426744706 -0.5025131359 -0.0753565426 0.161527756
535296790.0 -0.0538307296 0.1764275008 0.2376144759 -0.5045895741 0.2373895587 -0.5043255916 -0.0743079936 0.161677957
540296760.0 -0.0518522402 0.1771602683 0.2314251645 -0.5075317733 0.2320185305 -0.5078093915 -0.072838823 0.1633708285
545296730.0 -0.0497180613 0.1780613995 0.2259255812 -0.5099600301 0.2262409264 -0.5098710643 -0.0714794661 0.16373406
550296700.0 -0.0473859284 0.1787491401 0.2201191619 -0.512370573 0.2207415964 -0.5125377696 -0.0701312252 0.165134021
555296670.0 -0.0456387844 0.1794418951 0.2150482058 -0.5146708639 0.2153543019 -0.5149119923 -0.0681614368 0.1661546465
560296640.0 -0.0434265273 0.1802371211 0.2093558984 -0.5174888985 0.2095276708 -0.5170847802 -0.0663057273 0.1664137816
565296610.0 -0.0420286631 0.1807132181 0.2038013548 -0.5192082121 0.2041708333 -0.5193555684 -0.0649897792 0.1672060359
570296580.0 -0.0398342415 0.1813584921 0.1978759601 -0.5217607361 0.1979787938 -0.5211320246 -0.0636660437 0.1684910967
575296550.0 -0.03822337 0.1819329455 0.1922717774 -0.523908042 0.1922686247 -0.5240343682 -0.0616949501 0.1689066703
580296520.0 -0.0358272671 0.1824083694 0.1869335646 -0.5256438855 0.1867009859 -0.5255323207 -0.0601681194 0.1698644635
585296490.0 -0.0342828841 0.182648094 0.1811587791 -0.5272645078 0.1811979226 -0.5277938546 -0.0587210149 0.1703491782
590296460.0 -0.0317729543 0.1835108499 0.1754872335 -0.5286796471 0.1755124841 -0.5295004598 -0.0574423208 0.1712481167
595296430.0 -0.0298313448 0.183915138 0.1693509256 -0.5311415312 0.1693911208 -0.5312768603 -0.0554574649 0.1712189018
600296400.0 -0.028020858 0.1843550072 0.1636881448 -0.5331263839 0.163852683 -0.5329024652 -0.0540763451 0.1721261833
605296370.0 -0.0260118675 0.1847283908 0.1580214443 -0.5346081815 0.1581735568 -0.5346752611 -0.051926016 0.1729106042
610296340.0 -0.0237068163 0.1853180143 0.1520818175 -0.5364615359 0.1526475093 -0.5361027627 -0.0503588766 0.1734036141
615296310.0 -0.0214242704 0.1855057787 0.146058963 -0.5378050904 0.1462712549 -0.5384563879 -0.0486221592 0.1741006992
620296280.0 -0.0194921681 0.1854386042 0.1405470895 -0.5389740297 0.1403865624 -0.5394106066 -0.0472793565 0.1747961163
625296250.0 -0.0176224501 0.1859196973 0.1350606902 -0.5412123212 0.1346715112 -0.5411011115 -0.0447873995 0.1751137656
630296220.0 -0.0148958952 0.1865413982 0.1283185518 -0.5422706549 0.1285914236 -0.5421833836 -0.0430806264 0.1759239028
635296190.0 -0.0140074592 0.186570193 0.1229172639 -0.5434604675 0.1224313291 -0.5438192228 -0.0414979097 0.1762686565
640296160.0 -0.0116318535 0.1867859451 0.117270305 -0.5445511945 0.1173300172 -0.5451286566 -0.0396023095 0.1768289208
645296130.0 -0.009475499 0.187514892 0.1110589123 -0.5459248826 0.1114501889 -0.5462135105 -0.03823609 0.1774761755
650296100.0 -0.0074096471 0.1875287133 0.105333571 -0.5472934058 0.1053743114 -0.5473922216 -0.0361733242 0.1773715552
655296070.0 -0.0054040034 0.1874489265 0.0992588435 -0.54810568 0.0993838369 -0.5484333743 -0.0342038095 0.1781899438
660296040.0 -0.0037716754 0.1873865016 0.093731788 -0.549335643 0.0935039628 -0.5495939012 -0.0323739374 0.1787848999
665296010.0 -0.0007487575 0.1876173538 0.0867226756 -0.5497045219 0.0872172069 -0.5504957682 -0.0306131994 0.1797401726
670295980.0 0.0001471596 0.188159111 0.0815828852 -0.5508368355 0.0813289367 -0.5508686669 -0.0296518608 0.1798906741
675295950.0 0.0026335288 0.1884070632 0.0754371135 -0.5521907078 0.0756757259 -0.5513894741 -0.0279053061 0.1804499097
680295920.0 0.004612535 0.1881941815 0.06933766 -0.5524683143 0.0692722195 -0.5532559622 -0.0256071773 0.1816007866
685295890.0 0.0069138038 0.1889472663 0.0639225854 -0.5532112073 0.0635224008 -0.5532593631 -0.0240428401 0.1815372631
690295860.0 0.0091967471 0.1887489723 0.0574498065 -0.553415613 0.057532477 -0.5542042934 -0.0222501387 0.1823580737
695295830.0 0.0110221445 0.1885624736 0.0522407282 -0.55404479 0.0512547398 -0.554458574 -0.0203958074 0.1827061644
700295800.0 0.0132952051 0.1884359357 0.0453417693 -0.5548234627 0.0454993714 -0.5550309354 -0.0191307243 0.1835893127
705295770.0 0.0149974591 0.1889768736 0.0393716164 -0.5554913613 0.0397972056 -0.5555137184 -0.0171388818 0.1837775427
710295740.0 0.0173714334 0.1887178871 0.0337078152 -0.5560067066 0.0340228679 -0.5561643858 -0.0150672812 0.1833023695
715295710.0 0.019014706 0.1885235374 0.0283142924 -0.5562601047 0.0275107808 -0.5562185241 -0.0134678755 0.1839419927
720295680.0 0.0212745611 0.1885056166 0.0221666682 -0.5567225414 0.0217891795 -0.5561830989 -0.0113770305 0.1845926777
725295650.0 0.023776603 0.1883308415 0.0154582304 -0.5564054064 0.0160611969 -0.5565903564 -0.0104620129 0.1851191971
730295620.0 0.025855338 0.1887557783 0.0097490584 -0.556569668 0.0096758284 -0.5568137361 -0.008491847 0.184980864
735295590.0 0.0278496585 0.1882756065 0.0033670742 -0.5566826409 0.0036012437 -0.5566393562 -0.0069468792 0.1849061022
740295560.0 0.0295562507 0.1882167038 -0.0026938228 -0.556734597 -0.0026529941 -0.5565228484 -0.0042990797 0.1855625219
745295530.0 0.0318175495 0.188190556 -0.0085336027 -0.5559137479 -0.0086650069 -0.556274327 -0.0027360634 0.1852068417
750295500.0 0.0342232845 0.1879639571 -0.0142880898 -0.5561245827 -0.0143557112 -0.556381496 -0.001245425 0.1856003011
755295470.0 0.0362170434 0.1872662743 -0.0202669184 -0.5556437444 -0.0206189107 -0.5558116214 0.0010642796 0.185385434
760295440.0 0.0380401208 0.1875113205 -0.0265141721 -0.5563140814 -0.0264350232 -0.5564424465 0.0026122748 0.1854719417
765295410.0 0.0400733116 0.1871302206 -0.0324600964 -0.5555492203 -0.032877038 -0.5556260765 0.0047092831 0.1860086302
770295380.0 0.0419217167 0.1865653564 -0.0385887021 -0.5554213091 -0.0385174298 -0.555012994 0.0057211775 0.1857772154
775295350.0 0.043955095 0.1857574915 -0.0447127725 -0.5541894442 -0.044371896 -0.5544495937 0.0073389511 0.1862733552
780295320.0 0.0463234068 0.1859508595 -0.0503446257 -0.5539170961 -0.0499837097 -0.55385563 0.0092714639 0.1858093997
785295290.0 0.0478602816 0.1850853874 -0.0567390847 -0.5529487367 -0.0562241503 -0.5533709242 0.0116140117 0.1859055294
790295260.0 0.0505146941 0.1852803933 -0.0622160052 -0.5527669761 -0.0611806438 -0.5528331143 0.0133629927 0.1858632306
795295230.0 0.0524321816 0.1843882193 -0.0680980344 -0.5514933232 -0.067983539 -0.5518651929 0.015362687 0.1863978753
800295200.0 0.0541256712 0.184207788 -0.074298064 -0.5509310826 -0.0740902474 -0.550825124 0.0171869948 0.1859707287
805295170.0 0.0561057922 0.1835305348 -0.0800582354 -0.5503019136 -0.080139416 -0.5502915095 0.0188475409 0.186145027
810295140.0 0.0582333286 0.1827923245 -0.0859878119 -0.5491373842 -0.0858243409 -0.5493408061 0.0209662573 0.1859913934
815295110.0 0.060404581 0.1820864124 -0.0919749237 -0.5478021045 -0.091601928 -0.5483835034 0.0225637946 0.1861786247
820295080.0 0.0620846249 0.1822028903 -0.0978757675 -0.5470930129 -0.0975323879 -0.5471309764 0.0250421969 0.1858347412
825295050.0 0.064697634 0.1814168586 -0.1033096956 -0.545652428 -0.103543473 -0.5461431496 0.0266340395 0.1857181176
830295020.0 0.0662625276 0.180873387 -0.1098325595 -0.5446208981 -0.1093239732 -0.544959584 0.0288961496 0.1858734788
