!Created with skrf (http://scikit-rf.org).
# Hz S RI R 50.0 
!freq ReS11 ImS11 ReS21 ImS21 ReS12 ImS12 ReS22 ImS22
300000.0 -0.0993237533 -0.0695939005 0.6311618832 0.0652614228 0.6242536994 0.0659794379 -0.102906254 -0.077883229
5299970.0 -0.1020029598 0.0129197211 0.6306861304 0.0101273039 0.6303761856 0.0102357528 -0.1007374475 0.0128367358
10299940.0 -0.0971285561 0.0292870082 0.6339731611 0.0153535312 0.6343953197 0.015709354 -0.0956987407 0.0303413437
15299910.0 -0.0898041946 0.0425746148 0.6401873962 0.0200838217 0.6404490278 0.0208240968 -0.0886678865 0.0435834442
20299880.0 -0.0816120125 0.053050799 0.6486116134 0.0245087065 0.6486860198 0.0243465361 -0.0797076834 0.0544673312
25299850.0 -0.0723123359 0.0620985954 0.6578462161 0.0255139984 0.6575223605 0.0252990197 -0.0695388646 0.0633004156
30299820.0 -0.0621278213 0.0687952159 0.6672994069 0.0245116132 0.6670085391 0.0246343485 -0.0599660925 0.0702732514
35299790.0 -0.0525664722 0.0736545822 0.6770909216 0.0214122214 0.676743546 0.0212553515 -0.0498913232 0.0747572956
40299760.0 -0.0432406664 0.0771195709 0.6858332496 0.0171597855 0.6865532497 0.0177942877 -0.0405539595 0.0775275177
45299730.0 -0.0340497408 0.0792665992 0.6948421377 0.0119193465 0.6952044006 0.0121018152 -0.0311932396 0.0799653605
50299700.0 -0.0257216317 0.0801287247 0.7038991079 0.0049602177 0.7035189444 0.0055963678 -0.0226879209 0.0806141727
55299670.0 -0.0175338409 0.0805167839 0.7110564569 -0.0031751321 0.7106331364 -0.0022689376 -0.0149088673 0.0808268819
60299640.0 -0.0099756829 0.0803415773 0.7172685332 -0.0117031683 0.7180151211 -0.0106217693 -0.007837521 0.0797430888
65299610.0 -0.0035952065 0.0789015775 0.7233707456 -0.0200482631 0.7236458528 -0.0200751372 -0.0010052861 0.0786269441
70299580.0 0.0028052615 0.0777224773 0.729061341 -0.0297973725 0.7285002773 -0.0287918282 0.0050447321 0.0767242484
75299550.0 0.0081887806 0.075987402 0.7326592938 -0.0389322153 0.7325402293 -0.0390724106 0.0098892746 0.0747442216
80299520.0 0.0131290214 0.0735872257 0.7369952428 -0.0496493042 0.7371052685 -0.0488382738 0.0150199497 0.0726423175
85299490.0 0.0174877275 0.0714715279 0.7402407265 -0.0584832162 0.7404788889 -0.0579948027 0.0192954589 0.0700843461
90299460.0 0.0216612997 0.0688152619 0.7425215087 -0.0688642433 0.7434794854 -0.0688642235 0.0236063192 0.0678059853
95299430.0 0.0257997003 0.0665539591 0.7455171533 -0.0785317213 0.7455993769 -0.0788580438 0.0273388713 0.0656382002
100299400.0 0.0291107342 0.0648125816 0.746872115 -0.0890421928 0.7468804817 -0.0889485267 0.0311295726 0.0625583877
105299370.0 0.0323688766 0.0622856916 0.7485758454 -0.0994356017 0.7489571405 -0.0992299719 0.0340324369 0.060879549
110299340.0 0.0349859949 0.0595759587 0.7501348834 -0.1090405454 0.7498273064 -0.1088259945 0.0360964591 0.0578902878
115299310.0 0.03734764 0.0575803178 0.7507972283 -0.1191792573 0.7509053314 -0.119334704 0.0389210267 0.0557681841
120299280.0 0.0398876011 0.054517729 0.7509084044 -0.1289678159 0.7512955245 -0.1292678154 0.0413648252 0.0531393786
125299250.0 0.0419302129 0.0522637606 0.7516498563 -0.1388567034 0.7519166085 -0.138522097 0.0429595224 0.0502311486
130299220.0 0.0436032379 0.05039699 0.7514361786 -0.1490799512 0.7515491756 -0.1492972203 0.0448323563 0.0482105265
135299190.0 0.0454259851 0.0483669585 0.7517932024 -0.1586178456 0.7512751928 -0.1586738544 0.0469057316 0.0459507368
140299160.0 0.0466881387 0.0464131497 0.751012095 -0.1684448949 0.7508812321 -0.1690093186 0.0478903169 0.0443925278
145299130.0 0.0481862667 0.0438178918 0.7500698292 -0.1784015919 0.7496230635 -0.1780993422 0.0493724765 0.0419343098
150299100.0 0.0498075944 0.0422808713 0.7486591127 -0.1874381457 0.7491480874 -0.1881436644 0.0510242978 0.0400327671
155299070.0 0.0503156338 0.0398275886 0.7483669183 -0.1980424743 0.7477054357 -0.1980330108 0.0517993839 0.0383847107
160299040.0 0.0519716247 0.0381446956 0.7464837386 -0.2074546924 0.7462698935 -0.207159903 0.0522466072 0.0364724321
165299010.0 0.0524418967 0.0360811096 0.7446624766 -0.2168577322 0.7447170157 -0.2170689575 0.0536535764 0.0349372059
170298980.0 0.0534466347 0.0340169598 0.7423260366 -0.226254306 0.7432591601 -0.2257529867 0.0541725683 0.0331625781
175298950.0 0.0536738405 0.0323872553 0.7414279095 -0.2351180624 0.7408244078 -0.2349505218 0.0547124634 0.0314899048
180298920.0 0.0544542733 0.0307379655 0.7392122043 -0.2444892017 0.7389411103 -0.2443315519 0.0556261498 0.0299160425
185298890.0 0.0556053455 0.0284588171 0.7364768447 -0.2539408915 0.7363339438 -0.2535385691 0.0560211898 0.028471896
190298860.0 0.0555558794 0.0275058266 0.7342977336 -0.2632328227 0.7343716279 -0.2627313583 0.0564536157 0.0264134264
195298830.0 0.0562802062 0.0253568659 0.7316621585 -0.2717515631 0.7317777496 -0.2712975877 0.0571023112 0.0251557831
200298800.0 0.0565766772 0.0241659514 0.7289331829 -0.2811883497 0.7290136743 -0.2811938526 0.0567993328 0.0238192059
205298770.0 0.0568033335 0.0228698457 0.7256427901 -0.2899437676 0.7262359829 -0.2896445557 0.057487357 0.021503147
210298740.0 0.05713912 0.0208158427 0.7228395496 -0.2980466636 0.7231087669 -0.2984588449 0.0581315797 0.0212308604
215298710.0 0.0569595027 0.0196838766 0.7198037506 -0.307468713 0.7203826056 -0.3073029473 0.0576714853 0.0201448037
220298680.0 0.0578198791 0.0178183874 0.716681678 -0.3158543732 0.7170227502 -0.3158531437 0.0576078026 0.0180853194
225298650.0 0.0578783398 0.0169165449 0.7138009726 -0.324640305 0.7140131975 -0.3242823272 0.0574184438 0.0164674259
230298620.0 0.0580089497 0.0158108506 0.710687543 -0.3328726005 0.7112621192 -0.3329292815 0.0574219195 0.0149115883
235298590.0 0.0579675389 0.0145549476 0.7069320745 -0.3415361488 0.7069056757 -0.3407136754 0.0577636413 0.0139669528
240298560.0 0.057927172 0.0134517587 0.7034520315 -0.3499648078 0.7032902613 -0.3497840434 0.0575806131 0.0130627371
245298530.0 0.0577946946 0.0121335137 0.7000397366 -0.3585413482 0.6996487843 -0.3582778097 0.0583074661 0.0109321623
250298500.0 0.0585678114 0.0111744579 0.6955134282 -0.366626745 0.6951641387 -0.3657609445 0.0576352072 0.0104184908
255298470.0 0.058397813 0.0092766088 0.6912163141 -0.3743015235 0.692016136 -0.374024632 0.0580444812 0.0090267834
260298440.0 0.0578534112 0.0082215742 0.6873550852 -0.3833400837 0.6878228415 -0.3824005527 0.0586872064 0.0080706121
265298410.0 0.058967546 0.0076952102 0.6835204518 -0.3906367569 0.6841875124 -0.390496296 0.0578856709 0.0068190083
270298380.0 0.058442357 0.0063976377 0.6800640916 -0.3982769409 0.6794062355 -0.3987056815 0.0580605416 0.0055972276
275298350.0 0.0592342956 0.005104941 0.6751692403 -0.4068860334 0.6754704004 -0.4063322479 0.0583606747 0.0044235024
280298320.0 0.0587679972 0.0045719056 0.6710870308 -0.4143838668 0.6709054337 -0.4140895557 0.058805178 0.003517773
285298290.0 0.0587355207 0.0032594091 0.6661754829 -0.4223342534 0.6662559461 -0.4223738182 0.0585119064 0.0022126794
290298260.0 0.0591151061 0.0021020019 0.661738012 -0.4295706462 0.6622462388 -0.4299268299 0.0585953355 0.0017116167
295298230.0 0.0589161477 0.0009318375 0.6571988122 -0.4372497802 0.6578595327 -0.4373141202 0.0595476127 0.0001205004
300298200.0 0.0584791769 -0.0002842468 0.6532548413 -0.4451185093 0.6530399834 -0.4456498788 0.0588776243 -0.0008542825
305298170.0 0.0588673376 -0.0012825981 0.647569232 -0.4532734816 0.6483899053 -0.4527374913 0.0596109328 -0.0022129806
310298140.0 0.0585992804 -0.0022576997 0.6430160429 -0.4609670794 0.6434104078 -0.4604480753 0.0594139405 -0.0029260825
315298110.0 0.058497676 -0.0038926182 0.6379479581 -0.4684583574 0.6384363751 -0.4684102701 0.0590168643 -0.0042954889
320298080.0 0.0586320036 -0.0047720603 0.6322641534 -0.4766849962 0.6328956741 -0.4754769064 0.0585860302 -0.0053580961
325298050.0 0.0578214622 -0.0062061203 0.6272587419 -0.4838341144 0.6272855481 -0.483079704 0.0580587478 -0.0061513452
330298020.0 0.0573662599 -0.007259187 0.6214984428 -0.4908122201 0.6218253403 -0.4908094344 0.0574975204 -0.0076873541
335297990.0 0.0571791239 -0.008524496 0.6159580736 -0.4976211583 0.6154600869 -0.4978467734 0.0567281191 -0.0078543721
340297960.0 0.0562819582 -0.0091267833 0.6102300356 -0.5046539517 0.6097227533 -0.5047484417 0.0570202982 -0.0086399288
345297930.0 0.0556853179 -0.0092387843 0.604002631 -0.5117238436 0.603901297 -0.5119845616 0.0565030591 -0.0098991398
350297900.0 0.0551315996 -0.0107120365 0.5977966069 -0.5190100866 0.597979127 -0.5181786528 0.0555664481 -0.0094770652
355297870.0 0.0549619576 -0.0103741497 0.5920294503 -0.5251229074 0.5927802641 -0.5250550817 0.0553355988 -0.0108632261
360297840.0 0.0548444804 -0.011451344 0.5870649082 -0.5313973251 0.5877796278 -0.5314547235 0.054990629 -0.0110985013
365297810.0 0.0540526199 -0.0119627132 0.5804423879 -0.5389356574 0.5811396265 -0.5382164859 0.0550723169 -0.0115183115
370297780.0 0.0544104452 -0.0132549901 0.5745101493 -0.5446705711 0.5750605846 -0.5439249657 0.054208505 -0.0122890188
375297750.0 0.0537925398 -0.0136052037 0.5689492754 -0.5510884723 0.5698172907 -0.5506434553 0.0544305882 -0.0128653368
380297720.0 0.0536628931 -0.0141676989 0.5626547571 -0.5577733663 0.5628707534 -0.5565339404 0.0532608965 -0.0139283706
385297690.0 0.0529796337 -0.0149825314 0.5565542071 -0.5636971571 0.5567789077 -0.5635850265 0.0534212646 -0.0139193041
390297660.0 0.0528093154 -0.0153028901 0.5506950874 -0.5699869156 0.5503919129 -0.5694410056 0.0524904731 -0.0151006784
395297630.0 0.0523452515 -0.0159784635 0.5443333832 -0.5759566836 0.5444600413 -0.5760346525 0.0532029857 -0.0156137278
400297600.0 0.0519898226 -0.0166548627 0.5372933355 -0.5824496052 0.5378137275 -0.582406898 0.0524197789 -0.0160728389
405297570.0 0.0512606691 -0.0173711909 0.5310293817 -0.5882295671 0.5316098878 -0.5875869411 0.0516494341 -0.0168051781
410297540.0 0.051469772 -0.0180401434 0.524823639 -0.5945319625 0.5253776575 -0.5939766907 0.0511246735 -0.0173095981
415297510.0 0.0513605217 -0.0188075409 0.5177289454 -0.5997977339 0.5188784742 -0.5997771203 0.0509306144 -0.0177533165
420297480.0 0.0507343052 -0.0189789042 0.5107718799 -0.6054939187 0.5117280268 -0.6060553824 0.0504868152 -0.0190597271
425297450.0 0.0502471003 -0.0201533606 0.5052782562 -0.6113890672 0.5049292623 -0.6111477189 0.0496963305 -0.0188479173
430297420.0 0.0498567821 -0.0207335001 0.4980277763 -0.6160901939 0.4981207191 -0.6164221026 0.0494464172 -0.0201538626
435297390.0 0.0497748148 -0.0211282599 0.4910221862 -0.6225033117 0.4908426798 -0.6221607457 0.0500746478 -0.0206701534
440297360.0 0.0492788469 -0.0213966645 0.4842132721 -0.6274270008 0.4844475066 -0.6278219996 0.0489617002 -0.0215630108
445297330.0 0.0490231765 -0.023015763 0.4779126192 -0.6329177304 0.477815629 -0.6326392168 0.0491807222 -0.0224748399
450297300.0 0.0487849247 -0.0229320586 0.4703240837 -0.6380698294 0.4709290437 -0.6390454531 0.0485920402 -0.0232128537
455297270.0 0.0483831866 -0.0237270785 0.4633083375 -0.6434627884 0.4635348271 -0.6435713165 0.0482501234 -0.0234733932
460297240.0 0.0476889058 -0.0242144803 0.4563219121 -0.6484300702 0.4563766714 -0.6489394028 0.0478050122 -0.0236396218
465297210.0 0.0475013928 -0.0248207869 0.4495735292 -0.6538695499 0.4494415031 -0.6542508394 0.0475953045 -0.0247705519
470297180.0 0.0471274981 -0.0256396554 0.4416201013 -0.6584922542 0.4420128192 -0.6586363681 0.0473356829 -0.0249875217
475297150.0 0.0467875538 -0.0262685688 0.4344722429 -0.6632183953 0.4352301387 -0.663392941 0.0472603213 -0.0261523132
480297120.0 0.0462584605 -0.0261493279 0.427314496 -0.6687335226 0.4274239927 -0.6688209872 0.0468664459 -0.0260371259
485297090.0 0.0456296083 -0.0271181241 0.4204680152 -0.6731612096 0.4204008194 -0.6723366865 0.0464689367 -0.0269052005
490297060.0 0.0450223913 -0.0277913146 0.413082567 -0.6781320505 0.4131990392 -0.6774008798 0.0461416699 -0.0267442196
495297030.0 0.0445824518 -0.028179303 0.404835309 -0.6820244163 0.4058350487 -0.6819370623 0.0453744312 -0.0276910187
500297000.0 0.0441798944 -0.0288368656 0.3974462589 -0.6863388666 0.3972628884 -0.6858758248 0.0450738404 -0.0275111199
505296970.0 0.0439360615 -0.0293092294 0.3902577111 -0.6909213384 0.3900836434 -0.6905134164 0.0446077878 -0.0280649294
510296940.0 0.0430363702 -0.0294432839 0.3826507447 -0.6953332337 0.3823118428 -0.695042291 0.0446984237 -0.0282031969
515296910.0 0.0426242652 -0.0294617461 0.3744635882 -0.6996321826 0.3747670027 -0.6992891592 0.0440677263 -0.0284227269
520296880.0 0.0422462012 -0.0302866425 0.3669650281 -0.7041145285 0.3672539575 -0.7029291908 0.0432823363 -0.029508681
525296850.0 0.0422348212 -0.0311883473 0.3592415311 -0.7071367007 0.3595265217 -0.7073482988 0.0428085906 -0.029962972
530296820.0 0.0414830147 -0.031228905 0.3511445413 -0.7114152512 0.3518830192 -0.7112924633 0.0425999345 -0.0299693981
535296790.0 0.040685278 -0.0316792745 0.3439980467 -0.7155087872 0.3441698055 -0.7150060536 0.0418523351 -0.0309398117
540296760.0 0.0402573476 -0.0317887115 0.3362380222 -0.7188153448 0.3358793674 -0.7191188523 0.040798622 -0.0305226256
545296730.0 0.0398344997 -0.0324523955 0.3275642735 -0.7223548099 0.3280682947 -0.7223631988 0.0406468569 -0.0314102777
550296700.0 0.0399220979 -0.0326195457 0.3200575718 -0.7258467312 0.3201241813 -0.726512953 0.0400203036 -0.0314764049
555296670.0 0.0385888145 -0.0330674189 0.312502614 -0.7295971138 0.3126749528 -0.7292441602 0.039453718 -0.0317172025
560296640.0 0.0387538402 -0.0329857176 0.3039513552 -0.7327408166 0.3045786444 -0.7333059868 0.0391116322 -0.0322417368
565296610.0 0.0374380478 -0.0340078225 0.2961162174 -0.7366070456 0.296388508 -0.7360706776 0.0382148509 -0.0330386813
570296580.0 0.0369741802 -0.0338861601 0.2886637074 -0.7399747716 0.2872979708 -0.7392976849 0.0378698049 -0.0326962845
575296550.0 0.0363933728 -0.0340290863 0.2799506294 -0.7430634939 0.2800856678 -0.7426025387 0.0376044218 -0.0333927978
580296520.0 0.036122391 -0.0345634963 0.2721242779 -0.7461472691 0.2719563663 -0.7456865206 0.0366385375 -0.033927829
585296490.0 0.0354439064 -0.03563069 0.2643554545 -0.7482358427 0.2640050954 -0.7485876755 0.0360683227 -0.0344151033
590296460.0 0.0356068483 -0.0353409547 0.2553185444 -0.7510664526 0.2555507093 -0.7511120138 0.0347220454 -0.0342488584
595296430.0 0.0349863863 -0.0356200251 0.2469655301 -0.7542409152 0.2471242446 -0.7538463312 0.0349922036 -0.0351730898
600296400.0 0.0340808939 -0.0362610465 0.2389216425 -0.7569517458 0.2389300446 -0.7567261844 0.0344042894 -0.0354675053
605296370.0 0.033677934 -0.036654106 0.2303700777 -0.7595290907 0.2310833407 -0.7595661479 0.0336253279 -0.0359592892
610296340.0 0.0331525513 -0.0366646946 0.2219631017 -0.7618185063 0.222847422 -0.761935225 0.03351887 -0.0361424733
615296310.0 0.0328115115 -0.0375106317 0.213549117 -0.764145586 0.2140099025 -0.7648232969 0.0331386371 -0.0365195275
620296280.0 0.0322506293 -0.0380205925 0.205819424 -0.7665688114 0.2056725583 -0.7658011916 0.0321309517 -0.0370151962
625296250.0 0.0312886286 -0.0384323957 0.1981805738 -0.7690396382 0.19769647 -0.769227618 0.0326925883 -0.0372472239
630296220.0 0.0319419421 -0.0381875761 0.1883577626 -0.7706948132 0.1884543913 -0.7703993076 0.0315073676 -0.0371996747
635296190.0 0.0297325392 -0.0391051979 0.1805020939 -0.7726067617 0.1805925909 -0.7724750515 0.0312095973 -0.0378541944
640296160.0 0.0294684682 -0.0388991534 0.1719652253 -0.7745763328 0.1724528746 -0.7745147649 0.0303861241 -0.0381039471
645296130.0 0.0291515008 -0.0390498735 0.163418487 -0.7765208681 0.1640081359 -0.7767994044 0.0303148757 -0.0382185835
650296100.0 0.0286210533 -0.0393477841 0.1554516542 -0.7780145103 0.1557216209 -0.7781953399 0.0303940172 -0.0392564687
655296070.0 0.0277101229 -0.0401298893 0.1467309211 -0.7802171492 0.1470270532 -0.7799556087 0.0294177989 -0.0387995158
660296040.0 0.0266498828 -0.0405271788 0.138080005 -0.7816039899 0.1387354877 -0.7814945979 0.0293476269 -0.0388681523
665296010.0 0.0267585495 -0.0401968007 0.1290525032 -0.7823032966 0.1295907793 -0.782676222 0.0286807161 -0.0383403946
670295980.0 0.0250692985 -0.0405176339 0.1210986086 -0.7841754823 0.1210388548 -0.7840691682 0.0271104234 -0.0391100819
675295950.0 0.0252853909 -0.0403092595 0.1126291633 -0.7850918589 0.1125927652 -0.7845078267 0.0267006749 -0.0395054542
680295920.0 0.0240811677 -0.0410777077 0.1035403765 -0.786204537 0.1033274245 -0.7872632738 0.0264746154 -0.0385733058
685295890.0 0.0241395993 -0.0402226328 0.0952886013 -0.7874954158 0.0951179734 -0.7878083754 0.0256788738 -0.0394658096
690295860.0 0.023792589 -0.0406690447 0.0867175051 -0.7879586663 0.0863577095 -0.7886708966 0.0249229449 -0.0385058087
695295830.0 0.0232230126 -0.0412059054 0.0786084417 -0.7893738676 0.0778747707 -0.7892768897 0.0244487819 -0.0389305246
700295800.0 0.022471828 -0.041804309 0.0694625893 -0.789951029 0.0694034038 -0.7896743459 0.0234674149 -0.0385177191
705295770.0 0.02138822 -0.040625684 0.0609856198 -0.7912170602 0.0611088897 -0.7910945436 0.0229639255 -0.0391510254
710295740.0 0.0212496023 -0.0413132306 0.0523362882 -0.7916894782 0.0527726256 -0.7920308692 0.0226135762 -0.0396986322
715295710.0 0.0199762998 -0.0416404874 0.0443444171 -0.7922595146 0.0437404763 -0.7920068666 0.0222172273 -0.0397896029
720295680.0 0.019924807 -0.0418263074 0.0348997977 -0.7928298055 0.0353397872 -0.7923047969 0.0215804494 -0.0390301215
725295650.0 0.0192864129 -0.0414551923 0.0261771728 -0.7928227849 0.0266926192 -0.7927661382 0.0200113493 -0.0392542873
730295620.0 0.018924048 -0.041271701 0.0173752521 -0.7926124742 0.0182444972 -0.7932956235 0.0195033085 -0.0398112221
735295590.0 0.0181961318 -0.0412878333 0.0094248209 -0.7930661361 0.0091816228 -0.7931754047 0.0191363876 -0.0404162111
740295560.0 0.0171532189 -0.0416040497 0.0009089713 -0.793208983 0.0004617812 -0.7931700627 0.0190074548 -0.0398740439
745295530.0 0.0168168886 -0.0415039497 -0.0080364299 -0.7923074319 -0.0078954046 -0.7930030283 0.0184634128 -0.0405571626
750295500.0 0.0162008866 -0.0418453159 -0.0167043783 -0.7925941406 -0.0164951745 -0.7929321841 0.0171996359 -0.0404052904
755295470.0 0.0155650901 -0.0420413426 -0.024656827 -0.7931111004 -0.0249577486 -0.7926337048 0.0176597038 -0.0406163531
760295440.0 0.0149125426 -0.0418932637 -0.0338831479 -0.7931912953 -0.0339320264 -0.792283978 0.0166371586 -0.0404210121
765295410.0 0.0143782089 -0.0418883137 -0.0427690961 -0.7921622909 -0.0430795292 -0.7923148727 0.016017871 -0.0403354919
770295380.0 0.0133442621 -0.0422111002 -0.0516654003 -0.7915816655 -0.05139866 -0.7912925098 0.0152822719 -0.0411024561
775295350.0 0.0127374364 -0.0428323362 -0.0599446952 -0.7904962442 -0.0592576187 -0.7906194566 0.0135598752 -0.0403257929
780295320.0 0.0124926641 -0.0423761068 -0.068385451 -0.7895613306 -0.0677191153 -0.7904025687 0.0133658459 -0.0414090588
785295290.0 0.0115846185 -0.0428498881 -0.0777461612 -0.7888875298 -0.0764253682 -0.7893556897 0.0137960718 -0.04080215
790295260.0 0.0116565477 -0.0418245296 -0.0849986877 -0.7882765784 -0.0843485401 -0.7883506747 0.0126686805 -0.0411764563
795295230.0 0.0108691232 -0.0425764989 -0.0941390951 -0.7876035564 -0.0935150342 -0.7876339059 0.0123755976 -0.040591195
800295200.0 0.0095897581 -0.0420235128 -0.1033739768 -0.7857521385 -0.1024079206 -0.7863460854 0.0117622801 -0.0410582289
805295170.0 0.009167761 -0.0422819685 -0.1110643015 -0.7848918573 -0.1113608435 -0.7855263574 0.0111871349 -0.0407599721
810295140.0 0.0082196269 -0.0427127466 -0.1194308694 -0.78356044 -0.119374804 -0.784193261 0.0112330427 -0.0404785589
815295110.0 0.0080503028 -0.0426545689 -0.1281223056 -0.7821441679 -0.1278319727 -0.7824292479 0.0098649202 -0.0404590893
820295080.0 0.0068260559 -0.041570233 -0.1364571638 -0.7805860271 -0.1359453071 -0.7811015142 0.0095262003 -0.0405501986
825295050.0 0.0071889602 -0.0420354722 -0.144166035 -0.779216537 -0.1446810054 -0.7796074563 0.0094997205 -0.040395936
830295020.0 0.0061072421 -0.0417608718 -0.1537088752 -0.7775101755 -0.1535867788 -0.7773103053 0.0093406444 -0.0401244351
