!Created with skrf (http://scikit-rf.org).
# Hz S RI R 50.0 
!freq ReS11 ImS11 ReS21 ImS21 ReS12 ImS12 ReS22 ImS22
300000.0 -0.0997222164 -0.0694608963 0.6298950366 0.063907593 0.6229992939 0.0654707928 -0.1004283191 -0.0757392003
5299970.0 -0.1021177325 0.0132967315 0.6304928731 0.0098742474 0.6305205817 0.0104229621 -0.1006893169 0.0130818199
10299940.0 -0.0970303397 0.0292214892 0.6340078165 0.0151200219 0.6340837071 0.0156442566 -0.0957104253 0.0303518044
15299910.0 -0.0898952635 0.0424073882 0.6403279104 0.0198895021 0.6404393744 0.0206785445 -0.0885607446 0.0436603884
20299880.0 -0.0814563744 0.052760845 0.648066592 0.024683588 0.6482587144 0.0238032178 -0.0796140309 0.0545439357
25299850.0 -0.0722175134 0.0622579148 0.6574153429 0.0249896183 0.657583103 0.0252279232 -0.0695112243 0.0632308279
30299820.0 -0.0620447593 0.0685809265 0.6673553104 0.0240350617 0.6673458051 0.0242494888 -0.0595919827 0.0702294936
35299790.0 -0.0524144084 0.0736281971 0.6774982931 0.0215712197 0.6771168477 0.0217303181 -0.0496957802 0.0749784307
40299760.0 -0.0432276573 0.0771207929 0.6860863236 0.0175934601 0.6862920487 0.0176203501 -0.0403271974 0.0775775773
45299730.0 -0.0340263492 0.0792892414 0.6946792955 0.0116499184 0.6952787818 0.0117242406 -0.0312943323 0.0799195617
50299700.0 -0.025644601 0.0802249362 0.7040172976 0.0050549278 0.7032900553 0.0053419651 -0.0226474246 0.0806826964
55299670.0 -0.0176147173 0.0807234951 0.7112269585 -0.0034382618 0.7107673875 -0.0028272538 -0.0149483254 0.0805962648
60299640.0 -0.0100876006 0.0799224145 0.7173495237 -0.0116582268 0.717445529 -0.0109765028 -0.0077298478 0.0794644137
65299610.0 -0.0035297794 0.0788871783 0.7232919929 -0.0205166793 0.7234714699 -0.0198312916 -0.0010654785 0.0788061518
70299580.0 0.0024713151 0.0777726418 0.7283533187 -0.029267883 0.72824699 -0.0294155386 0.0047907027 0.0769398196
75299550.0 0.0080489321 0.0757546008 0.7324703971 -0.0393456845 0.7326915743 -0.0389692814 0.0100834249 0.0746596153
80299520.0 0.0129722019 0.0736019095 0.7369716518 -0.0490301742 0.7371374363 -0.0492121945 0.0146923532 0.072901609
85299490.0 0.0176758062 0.0713934159 0.7399794331 -0.0585572272 0.7401600493 -0.0583400731 0.0193385788 0.0700310884
90299460.0 0.021805554 0.0690707459 0.7428176259 -0.0693920328 0.7430054209 -0.0686391797 0.0235403971 0.0680913894
95299430.0 0.0257598918 0.0667465899 0.7458496216 -0.0790917205 0.7457369368 -0.079106862 0.027418456 0.0654315433
100299400.0 0.0288709649 0.0646827433 0.7465311064 -0.0890309455 0.7470181679 -0.0889887089 0.0310938586 0.0626139919
105299370.0 0.0323383316 0.0617834479 0.7487812232 -0.0996171192 0.7489542153 -0.0994202779 0.0342664643 0.0604881829
110299340.0 0.0350399843 0.0596931439 0.7501317479 -0.1090217103 0.7497959192 -0.1090242065 0.0360784835 0.0576718285
115299310.0 0.0371720152 0.0573309712 0.7506264696 -0.1196769394 0.750746326 -0.119347187 0.0387714759 0.0553473207
120299280.0 0.0398511234 0.0547317094 0.7510679352 -0.1293144058 0.7513381362 -0.1298473025 0.0414313169 0.0529959409
125299250.0 0.0418219445 0.0521345073 0.7513029615 -0.1390074647 0.7513169461 -0.1390610101 0.0426059583 0.0503577391
130299220.0 0.0436374843 0.0502535057 0.7507683901 -0.1493315962 0.7513049711 -0.1492074004 0.0449739873 0.0482784851
135299190.0 0.0453384678 0.0485474445 0.7512722762 -0.1595232887 0.7511609464 -0.158702764 0.046833052 0.0460602681
140299160.0 0.0468787585 0.0461816812 0.7506248502 -0.1685674324 0.7506450972 -0.1690090143 0.0481227729 0.0444048289
145299130.0 0.0483756541 0.0436622163 0.7500500061 -0.1789084095 0.7493981656 -0.178038596 0.0496298471 0.0418975229
150299100.0 0.049874161 0.042154739 0.748329661 -0.187374462 0.7486979234 -0.1877070352 0.0509153819 0.0400785818
155299070.0 0.0505579546 0.0397120541 0.7478157143 -0.1984918712 0.7474123157 -0.1978499699 0.0518671714 0.0380576782
160299040.0 0.0518489714 0.0378046488 0.7462868005 -0.2073639978 0.745853505 -0.2074141835 0.0524199783 0.0363941727
165299010.0 0.0526832588 0.0360826987 0.7443608916 -0.2171458652 0.7444919228 -0.2167129445 0.0538391027 0.0348078701
170298980.0 0.0533458621 0.0338803413 0.7426190534 -0.2264450854 0.7424859193 -0.2261707779 0.0544524896 0.032817965
175298950.0 0.053714911 0.0322795443 0.7413003215 -0.2353473 0.7406184899 -0.2354764971 0.0552033233 0.0313252071
180298920.0 0.054471858 0.0304736881 0.7391897255 -0.2448536993 0.7388112862 -0.2444273778 0.0557072258 0.0297961945
185298890.0 0.0556178022 0.0287317559 0.7362723287 -0.253849011 0.7362492072 -0.2533328637 0.0556816567 0.0284263635
190298860.0 0.055556222 0.0274670282 0.7344347213 -0.263235811 0.7344343975 -0.2633555449 0.0565064036 0.0262011538
195298830.0 0.0561487315 0.0254838032 0.7320704383 -0.2721243797 0.7321195871 -0.2717442177 0.0574172162 0.0252009797
200298800.0 0.0564092336 0.0239973847 0.7286705972 -0.2816296361 0.7291357049 -0.281227752 0.0569816425 0.0238578599
205298770.0 0.0570912388 0.0225166532 0.7253625235 -0.2904577456 0.7258714132 -0.2900419006 0.0572761132 0.0215006112
210298740.0 0.0572188562 0.0209693149 0.7229639742 -0.2984171137 0.723255097 -0.2984832806 0.057751777 0.0214046403
215298710.0 0.0569397378 0.0197218972 0.7201397115 -0.3077274098 0.7200347569 -0.3076863887 0.0575987535 0.0196080646
220298680.0 0.0573883158 0.0177262088 0.7163371172 -0.3159897895 0.716588571 -0.3165147746 0.0575537388 0.0181117518
225298650.0 0.0575802441 0.016710061 0.7137965648 -0.3248644947 0.7136787069 -0.3248648691 0.0575005814 0.016587724
230298620.0 0.0579409683 0.0158055631 0.7105010679 -0.3327475665 0.7108624101 -0.332990828 0.0575002564 0.0149590555
235298590.0 0.0577771885 0.0146595169 0.7068341195 -0.341188343 0.7070553791 -0.341144425 0.0574570216 0.0140243006
240298560.0 0.058134765 0.013169153 0.7031390861 -0.3501246044 0.7033485818 -0.3499441694 0.0575466111 0.0130029751
245298530.0 0.0578589479 0.0119867843 0.6996664718 -0.3585023938 0.6996381322 -0.3589347747 0.0582415847 0.0111214582
250298500.0 0.0584648493 0.0110358082 0.695094957 -0.3664767595 0.6951822442 -0.366228374 0.057870704 0.0103544462
255298470.0 0.0582418409 0.0094450534 0.6913415528 -0.3743114445 0.6916311731 -0.374074718 0.05807174 0.0088991574
260298440.0 0.0580946801 0.0081488447 0.6874618977 -0.3831026794 0.6875283992 -0.3825783235 0.0585710847 0.0080914218
265298410.0 0.0588826096 0.0075242012 0.683089007 -0.3912877596 0.6835980901 -0.390744447 0.0578687814 0.0067941799
270298380.0 0.0583085754 0.0061886506 0.6797882735 -0.3983703962 0.679762327 -0.3986715122 0.0577462057 0.005495597
275298350.0 0.05876728 0.0051485858 0.6753193052 -0.4069755763 0.6752025597 -0.4067843022 0.0580691356 0.004178235
280298320.0 0.0588477711 0.0044753995 0.6706948263 -0.4146854575 0.6705452458 -0.4144997681 0.0588658945 0.003354585
285298290.0 0.0587951014 0.0032462214 0.6668079191 -0.4220507834 0.6663820776 -0.4224186653 0.058340247 0.0019660443
290298260.0 0.0589954635 0.002044965 0.6615005285 -0.4299100043 0.6617969946 -0.4302137768 0.0586636931 0.0015307576
295298230.0 0.0591239624 0.0007813464 0.6574181331 -0.4379323869 0.6574006202 -0.4375595262 0.0594860533 0.0003567825
300298200.0 0.058432753 -0.0003109806 0.6528509718 -0.444916835 0.6529830151 -0.4458324793 0.0587881492 -0.0010296558
305298170.0 0.0589087812 -0.001352024 0.6478165521 -0.4534753192 0.6475357 -0.4530304299 0.059297819 -0.0022053658
310298140.0 0.0584939358 -0.0025704572 0.6426331751 -0.4604328305 0.6431810822 -0.4607413355 0.0591823132 -0.0033240411
315298110.0 0.05818077 -0.0042478813 0.6374912075 -0.4685611507 0.6382714959 -0.4685085522 0.058953382 -0.0044640682
320298080.0 0.0585055089 -0.0051315973 0.6318447282 -0.4760958357 0.6326310223 -0.4761459804 0.0586642302 -0.0055482943
325298050.0 0.0577207948 -0.0061953171 0.627249293 -0.4840477256 0.6268390737 -0.4835570961 0.0579005162 -0.0063775703
330298020.0 0.0576317478 -0.0075058764 0.6211419952 -0.4909705773 0.6215301458 -0.491036727 0.0577592794 -0.0076916645
335297990.0 0.0569216427 -0.008797837 0.6156930459 -0.4978796781 0.6153568523 -0.4979651317 0.0567350259 -0.0078244724
340297960.0 0.0561432356 -0.0091564706 0.6094211266 -0.50533423 0.6097400473 -0.5052511787 0.0571925221 -0.0088323151
345297930.0 0.0558554428 -0.0095532411 0.6034103355 -0.5117847122 0.6036464443 -0.5119585795 0.0564226737 -0.0099223155
350297900.0 0.0553022915 -0.0110728627 0.5971963788 -0.5188922487 0.597690727 -0.5183809606 0.0558085924 -0.0099494924
355297870.0 0.0548884798 -0.0106195687 0.591985064 -0.5250100681 0.5925395383 -0.5250930633 0.0551034652 -0.0108382505
360297840.0 0.0545732308 -0.0113789389 0.5871371575 -0.5310248176 0.587005569 -0.5317513888 0.0550196243 -0.0111832523
365297810.0 0.0539841958 -0.0121571489 0.5802573069 -0.5386535048 0.5808744881 -0.5388551735 0.0550400103 -0.011541007
370297780.0 0.0543839603 -0.013106049 0.5744521969 -0.5445776648 0.5750803665 -0.5442088346 0.0540161991 -0.0121311359
375297750.0 0.0539411661 -0.0137948187 0.5688637591 -0.5513936936 0.5695947914 -0.5508404274 0.0538125608 -0.0128821858
380297720.0 0.0534320591 -0.0141657712 0.562519478 -0.5578682341 0.5627819305 -0.557017617 0.0533305246 -0.0136111192
385297690.0 0.0525547471 -0.0152680082 0.556461275 -0.5636653835 0.5555955041 -0.5637595737 0.0534384365 -0.0141923565
390297660.0 0.052610232 -0.0154627005 0.5499751557 -0.5701088554 0.550015158 -0.5695537442 0.0524606908 -0.0148764173
395297630.0 0.0521093679 -0.0158599997 0.5436171033 -0.5762756887 0.5441460999 -0.5761546648 0.0530243873 -0.0154819752
400297600.0 0.052007147 -0.0166188213 0.5369609691 -0.5828408029 0.5375447339 -0.5822521621 0.0522272658 -0.0161658436
405297570.0 0.0513124962 -0.0176048209 0.5308943843 -0.5879080816 0.5306129575 -0.5880570179 0.0514557656 -0.0167281075
410297540.0 0.0514723204 -0.0181820505 0.5246288822 -0.5940833137 0.5251548148 -0.5943077637 0.0508643949 -0.0171028913
415297510.0 0.0510966231 -0.0187048129 0.5176242407 -0.5998401546 0.5181284339 -0.6000102221 0.0511169287 -0.0178763333
420297480.0 0.0508951144 -0.0188311055 0.5107988068 -0.6060102781 0.5106263411 -0.6055576708 0.0503364075 -0.019172143
425297450.0 0.0502184752 -0.0203852442 0.5045573657 -0.6117457955 0.5047350495 -0.6114495522 0.0494729984 -0.0188874617
430297420.0 0.0498425162 -0.0209003618 0.4974232911 -0.6166100541 0.4974967625 -0.6163395818 0.0493799736 -0.0200935607
435297390.0 0.0494799697 -0.0212553666 0.4905745794 -0.6227918991 0.4909421681 -0.6222099215 0.0500675634 -0.0208513296
440297360.0 0.0493390554 -0.021722336 0.4840851587 -0.6279089076 0.4839796229 -0.6280777805 0.0487635024 -0.0215921326
445297330.0 0.0487696346 -0.0230457719 0.4777879617 -0.6333556045 0.4775918959 -0.6326911684 0.0490880255 -0.0224920225
450297300.0 0.0488575054 -0.0230046229 0.4702553896 -0.6384793793 0.4700435496 -0.6389342232 0.0481667779 -0.0228232258
455297270.0 0.0480860236 -0.0237657448 0.4628509124 -0.6436331087 0.4634437276 -0.6438156607 0.048170116 -0.0231782731
460297240.0 0.0476717354 -0.0243790684 0.4556971416 -0.6487015483 0.4561568371 -0.648687046 0.0477281262 -0.0235177771
465297210.0 0.0475924853 -0.0248667799 0.4495131373 -0.6539596834 0.4488928276 -0.6541537878 0.0473706775 -0.0247471121
470297180.0 0.0471483804 -0.0257913275 0.4412584114 -0.6590967446 0.4417512841 -0.658752156 0.0471921517 -0.0249723154
475297150.0 0.0468529833 -0.0265910319 0.4344413352 -0.6626922618 0.4346709564 -0.6626767983 0.0471665881 -0.0258315423
480297120.0 0.0459782591 -0.0263076464 0.426874799 -0.6688323779 0.4264997535 -0.6689207619 0.0467202306 -0.0262362371
485297090.0 0.0455879911 -0.0269770345 0.4201174136 -0.6730569431 0.4199724822 -0.6730789774 0.0462624377 -0.0271625291
490297060.0 0.0448076819 -0.0277997743 0.4125556329 -0.6779601817 0.4128541169 -0.6772385616 0.0462568725 -0.0268442789
495297030.0 0.044576783 -0.0283558909 0.404514141 -0.6818799821 0.40523539 -0.681837606 0.0450695198 -0.0278001995
500297000.0 0.044113779 -0.0288468368 0.3973330853 -0.6857950756 0.3967692618 -0.6860687944 0.0450668674 -0.0274170691
505296970.0 0.0438856592 -0.029563655 0.3897299414 -0.6905917818 0.389747492 -0.6910755129 0.0444362348 -0.0280064541
510296940.0 0.0431049741 -0.0299447292 0.382115042 -0.6951571262 0.3822856567 -0.6953192877 0.0445988675 -0.0285315063
515296910.0 0.0424283888 -0.029905212 0.3742998217 -0.6992766279 0.3743570614 -0.6989690404 0.0441730942 -0.0286656656
520296880.0 0.0422133454 -0.030482121 0.3670571545 -0.7041202596 0.3673642887 -0.7034919306 0.04334157 -0.0293097268
525296850.0 0.0420291132 -0.0316834732 0.358627391 -0.7078616475 0.3592433382 -0.7071517884 0.0426282271 -0.0297732144
530296820.0 0.041465594 -0.0315682187 0.3511004977 -0.7116675583 0.3514508213 -0.7112897553 0.0424730035 -0.0301512601
535296790.0 0.0405470803 -0.0318358346 0.3435936306 -0.7148607934 0.344007753 -0.7149867284 0.0422993503 -0.0307905722
540296760.0 0.0398116458 -0.0320268609 0.3356774253 -0.7192308664 0.3352386738 -0.7190372474 0.0409015626 -0.0305652125
545296730.0 0.0396576085 -0.0327098293 0.3273019698 -0.7222122432 0.3277600857 -0.722674628 0.0403828484 -0.03124081
550296700.0 0.0396387766 -0.0326490893 0.3197036877 -0.7258570141 0.3199081213 -0.7262565094 0.0395720283 -0.0313884026
555296670.0 0.0387392423 -0.0332716322 0.3123200206 -0.7296762334 0.3122051293 -0.7296402101 0.0395230598 -0.0315759012
560296640.0 0.0384952834 -0.0330683937 0.3036908496 -0.7323492794 0.3037365503 -0.7330302485 0.0390348418 -0.0322229321
565296610.0 0.0374252594 -0.0339387612 0.2949260352 -0.7358435173 0.2959572026 -0.7366411503 0.0377469888 -0.0330414356
570296580.0 0.0369979374 -0.0341378058 0.2880519397 -0.740258514 0.2870970278 -0.7391382618 0.0375642349 -0.0323263866
575296550.0 0.0364579481 -0.03428936 0.2798080535 -0.7427991248 0.2794326118 -0.7427512263 0.0374580561 -0.033562028
580296520.0 0.0361703353 -0.0346919585 0.2710304549 -0.745424964 0.2716213518 -0.7458979949 0.0366759744 -0.0340446697
585296490.0 0.0354724633 -0.035610248 0.2635273684 -0.7482034789 0.2639490534 -0.7483116257 0.0357552889 -0.034212769
590296460.0 0.0352867348 -0.0354900813 0.2550423728 -0.750562961 0.2552313434 -0.7512234892 0.0347217624 -0.034585724
595296430.0 0.03494387 -0.0357763785 0.2463103184 -0.7547374595 0.246512704 -0.7540677296 0.0348673462 -0.035279703
600296400.0 0.0337520355 -0.0363912672 0.2389970946 -0.7570167005 0.2388511531 -0.756652477 0.0340868465 -0.0354895862
605296370.0 0.0335919059 -0.0366299501 0.2304630285 -0.7591802219 0.2302707256 -0.7593309111 0.0336493252 -0.0358130662
610296340.0 0.0330874232 -0.0369689411 0.2221708793 -0.7619798278 0.222355985 -0.7618659603 0.0336200494 -0.0364752088
615296310.0 0.0327880446 -0.0376796429 0.2133692156 -0.7639272016 0.2134757043 -0.7646986384 0.0329242527 -0.0363908838
620296280.0 0.0318704722 -0.0378184334 0.2054020782 -0.7661165066 0.2052435237 -0.7660496359 0.0319488552 -0.0367550836
625296250.0 0.0311381772 -0.0386955792 0.1976173649 -0.768977179 0.197199564 -0.7689658888 0.0324978694 -0.0372432127
630296220.0 0.031649092 -0.0383294299 0.1881425599 -0.7707846868 0.1884899014 -0.7705388819 0.0313075325 -0.0371123458
635296190.0 0.0297692146 -0.0392349248 0.1798626437 -0.7722815796 0.1800254768 -0.7726450278 0.0311231596 -0.0377609438
640296160.0 0.0295758875 -0.0390013741 0.1715961243 -0.7744887864 0.1719737182 -0.7744507756 0.0303228988 -0.0377136931
645296130.0 0.0288465025 -0.0391473501 0.163003911 -0.776077566 0.1637506315 -0.776555942 0.029958283 -0.0382460926
650296100.0 0.0283793231 -0.0396629201 0.1545356349 -0.7780365054 0.1547394076 -0.7783981468 0.0300000058 -0.039209919
655296070.0 0.0273602826 -0.0401643017 0.1463285057 -0.780083084 0.1464631016 -0.7803076536 0.0292829072 -0.0388877581
660296040.0 0.0265089583 -0.0406508798 0.1381110756 -0.781234629 0.1382487484 -0.7817780685 0.0290270596 -0.039037224
665296010.0 0.0268905842 -0.0405523772 0.1287075331 -0.7824197518 0.1294295032 -0.7827558514 0.0284528495 -0.0385873649
670295980.0 0.02472833 -0.0404646334 0.1201907942 -0.784106875 0.120289653 -0.7842310508 0.0271299073 -0.0393944564
675295950.0 0.0248303373 -0.0404393697 0.1120152968 -0.7853699487 0.1123073905 -0.7843825865 0.0264874312 -0.0390834036
680295920.0 0.0238838229 -0.0410843029 0.1032026151 -0.7860537821 0.102958836 -0.7868620036 0.0261723828 -0.0385473729
685295890.0 0.0235816505 -0.0406342424 0.0946212728 -0.7871493535 0.09467556 -0.7875131627 0.0253172249 -0.0391565486
690295860.0 0.0234089237 -0.0409775207 0.0859854285 -0.7878521382 0.086360329 -0.7888375629 0.0246368233 -0.0384096983
695295830.0 0.0226673102 -0.0413296113 0.0781746008 -0.7891712763 0.0771679075 -0.7891353663 0.0241249285 -0.0388097479
700295800.0 0.0224166001 -0.0416696493 0.0689273623 -0.7900928774 0.0689521892 -0.7893040232 0.0234729222 -0.0385607092
705295770.0 0.0213061968 -0.0407615529 0.0602084176 -0.7904758068 0.0605588515 -0.7914165779 0.0229585816 -0.0388254267
710295740.0 0.0210163597 -0.0412257791 0.0520947751 -0.7919236201 0.052569011 -0.7916874445 0.0226829105 -0.0397988764
715295710.0 0.0197948443 -0.0418312676 0.0436891021 -0.7921349015 0.04309098 -0.7925645661 0.0222400148 -0.0392071673
720295680.0 0.0195294203 -0.04194297 0.0341360129 -0.792742291 0.0351868371 -0.7924980743 0.0213854472 -0.0386978371
725295650.0 0.0192791645 -0.0416711484 0.0256341062 -0.7927527295 0.0258716856 -0.7923415464 0.0202041176 -0.0391771678
730295620.0 0.0188560535 -0.0412474059 0.0172160692 -0.7923506865 0.0173636046 -0.7929498754 0.0195001979 -0.0396899077
735295590.0 0.0178671746 -0.0413941772 0.0084534377 -0.7934298234 0.0084612511 -0.7932549993 0.0190337754 -0.0401014197
740295560.0 0.0170926311 -0.0414010721 4.98405e-05 -0.7930783037 -1.38599e-05 -0.7929409053 0.0189050887 -0.0394919922
745295530.0 0.0167137376 -0.0415778056 -0.0086042958 -0.7923908997 -0.0084978742 -0.793032353 0.0181894594 -0.040428435
750295500.0 0.0162101528 -0.0420310769 -0.0172016302 -0.7923295119 -0.0169103133 -0.7928226106 0.0172890119 -0.0400900427
755295470.0 0.0155983089 -0.0424492747 -0.0251654655 -0.7930242381 -0.0257014039 -0.7928823903 0.0173866931 -0.0406180188
760295440.0 0.0149430497 -0.0419173162 -0.0341672525 -0.7925754201 -0.034028279 -0.7930637342 0.0162918177 -0.0401624783
765295410.0 0.0142544578 -0.0421980206 -0.0435347669 -0.7921216302 -0.0434967442 -0.7921433511 0.0159739119 -0.0404271197
770295380.0 0.0130598351 -0.0421171422 -0.0519267754 -0.7915271219 -0.0516646579 -0.7912234106 0.0145897124 -0.0408848683
775295350.0 0.0127754736 -0.0429727392 -0.060223953 -0.7900102895 -0.0596577576 -0.7905200149 0.013592552 -0.0401944516
780295320.0 0.0123497281 -0.0423335477 -0.0692673736 -0.7896807411 -0.0679896035 -0.7898590578 0.013640129 -0.0413699012
785295290.0 0.0111913224 -0.0430256252 -0.0775464956 -0.7884636951 -0.0772120845 -0.7891014472 0.0135929882 -0.0404897766
790295260.0 0.0112079653 -0.0417176939 -0.0851758049 -0.7879694041 -0.0848422538 -0.7882214952 0.0125191214 -0.0411117678
795295230.0 0.0104941131 -0.0427926384 -0.094403287 -0.7868872906 -0.093953407 -0.7870969415 0.0122129691 -0.0404893014
800295200.0 0.0093542289 -0.0420569816 -0.1036184236 -0.7855284404 -0.1029358568 -0.7860737586 0.0116144743 -0.0409433731
805295170.0 0.0090177241 -0.0424140143 -0.1117771899 -0.7845582055 -0.1115924472 -0.7852262718 0.0109405427 -0.0406756882
810295140.0 0.0080284898 -0.0429415817 -0.1197672168 -0.7830269955 -0.1199872455 -0.7835274473 0.0110511443 -0.0404148627
815295110.0 0.0080445198 -0.0430281388 -0.1280476891 -0.781966905 -0.1286497576 -0.7822864453 0.0097286595 -0.0405990082
820295080.0 0.0065038243 -0.0420153041 -0.1369330957 -0.7805456306 -0.1369187628 -0.7807995206 0.0092877388 -0.040715421
825295050.0 0.0070092589 -0.042120945 -0.1451109826 -0.7785273684 -0.1451918529 -0.7793175428 0.0093193133 -0.0403388426
830295020.0 0.0059555585 -0.0418773419 -0.1541345981 -0.7772609265 -0.1540714079 -0.7774155863 0.0095649745 -0.0404186723
