!Created with skrf (http://scikit-rf.org).
# Hz S RI R 50.0 
!freq ReS11 ImS11 ReS21 ImS21 ReS12 ImS12 ReS22 ImS22
300000.0 -0.2409391152 -0.0759391111 0.4716042654 0.0519369576 0.4680102553 0.0515086675 -0.241418783 -0.0940035324
5299970.0 -0.244054622 0.0072604025 0.4733530611 0.0051178929 0.4736612056 0.0049503891 -0.2440341289 0.0071815903
10299940.0 -0.240922176 0.0187224407 0.4753477808 0.0059231876 0.475379072 0.0064122217 -0.2406613757 0.0204161935
15299910.0 -0.2366394952 0.0279003863 0.4792052414 0.0080823816 0.4794475936 0.0076483579 -0.2360083868 0.0297617916
20299880.0 -0.2319522322 0.0354364075 0.4839579066 0.0084208139 0.4838899569 0.0083703806 -0.2308916075 0.0374950124
25299850.0 -0.226991343 0.0421073996 0.4889832505 0.0074068228 0.4889786597 0.0078268733 -0.2247610185 0.0437954227
30299820.0 -0.2213695196 0.0471402947 0.494412678 0.0052447376 0.4944601012 0.0053482849 -0.2193078976 0.049135361
35299790.0 -0.2165521222 0.0512524022 0.4999288825 0.0021558938 0.4998990633 0.0018842212 -0.2136364379 0.053440875
40299760.0 -0.2115317157 0.0551827246 0.5049043244 -0.0019652973 0.5053215086 -0.0017775369 -0.208251905 0.0563674249
45299730.0 -0.2064494691 0.0575147928 0.5095564648 -0.0065221707 0.5097722404 -0.0064669926 -0.20328636 0.058854629
50299700.0 -0.2023742753 0.059692207 0.5139891925 -0.012213875 0.513915534 -0.0116971043 -0.1985906659 0.0607848301
55299670.0 -0.1983086794 0.0616687068 0.518121162 -0.0186438608 0.5177849853 -0.0179551037 -0.1942562528 0.0623216122
60299640.0 -0.1943213999 0.0634736761 0.5212355185 -0.0245267876 0.5216689944 -0.0240928658 -0.1904643961 0.0631918958
65299610.0 -0.1910011372 0.0647598766 0.5241530249 -0.0308345818 0.5242767759 -0.0307826472 -0.1871060349 0.0642066333
70299580.0 -0.1879476368 0.0661930054 0.5265266313 -0.0376177973 0.5266911876 -0.0373336473 -0.1839454756 0.0649098758
75299550.0 -0.185122797 0.0671543995 0.528052573 -0.0440168957 0.5283732105 -0.0441363396 -0.1810218753 0.065264844
80299520.0 -0.1825424908 0.0679633008 0.5302772575 -0.0508917661 0.5306909743 -0.0507928937 -0.1782039373 0.0657959268
85299490.0 -0.1801560583 0.0688113977 0.5315065127 -0.0574145301 0.5317280293 -0.0576783314 -0.1762568489 0.0660012974
90299460.0 -0.178104118 0.0696150187 0.5324544878 -0.064915057 0.5328587983 -0.0647111442 -0.173659533 0.066708403
95299430.0 -0.1753612641 0.0702366082 0.533595747 -0.0716748117 0.5335619545 -0.0716156879 -0.1713896713 0.0673713269
100299400.0 -0.1740168222 0.0716873934 0.5337564318 -0.0782806124 0.5337186019 -0.0786347597 -0.1694086168 0.0671925827
105299370.0 -0.1720223162 0.0723808137 0.5343019916 -0.0858081329 0.5344260376 -0.0855784483 -0.1675684078 0.0682053373
110299340.0 -0.1705938121 0.0733944249 0.5349269011 -0.0923941398 0.534202848 -0.0920270255 -0.1666009288 0.0682461979
115299310.0 -0.1687461578 0.0740777683 0.5345230268 -0.0993010341 0.5342327542 -0.0991608606 -0.1648408085 0.0690907403
120299280.0 -0.1675318617 0.0746528305 0.5341537116 -0.1060852252 0.5343367994 -0.1063444213 -0.1634979119 0.0695091544
125299250.0 -0.1659678077 0.0753221086 0.5336411396 -0.112279569 0.5339444233 -0.1124241469 -0.1625590619 0.069686042
130299220.0 -0.1650193309 0.0767626766 0.5330938473 -0.1194660343 0.5330547468 -0.11940986 -0.1610231891 0.0703179167
135299190.0 -0.1635784449 0.0779008065 0.5330040948 -0.1262141362 0.5325852362 -0.1258973203 -0.1598777799 0.0711586263
140299160.0 -0.1625451216 0.0789798653 0.5315331554 -0.1330273677 0.5321122656 -0.1329502236 -0.1586390968 0.0720829704
145299130.0 -0.1615514875 0.0799544459 0.5315086154 -0.1393631788 0.5305070117 -0.1394178765 -0.1579084446 0.0729127503
150299100.0 -0.160157468 0.0812847888 0.5295320287 -0.1456789831 0.5296879344 -0.1451838126 -0.1568852265 0.0738442953
155299070.0 -0.1593676457 0.0820763341 0.5288202483 -0.152937906 0.5289032061 -0.1524580499 -0.1557728802 0.0747919639
160299040.0 -0.1580212415 0.0831788623 0.5271172611 -0.1589201229 0.5267997181 -0.1589639005 -0.1555152835 0.0754125919
165299010.0 -0.157275946 0.0846555721 0.5256418648 -0.1657524005 0.5260720178 -0.1655327379 -0.1541115703 0.0768841463
170298980.0 -0.1563064507 0.085467369 0.5238429469 -0.1715680266 0.5241950525 -0.1717624762 -0.1535043226 0.0773370337
175298950.0 -0.1556177245 0.0869777837 0.5229454309 -0.1777233541 0.5225618714 -0.1778791679 -0.1531476833 0.0786198986
180298920.0 -0.1547260115 0.0884517977 0.520899472 -0.184051851 0.520926295 -0.1839523349 -0.1520425576 0.0797428364
185298890.0 -0.1531688347 0.089343867 0.5187350735 -0.1905237168 0.5188354052 -0.1904216482 -0.1513211591 0.0808394211
190298860.0 -0.1528609901 0.0909556999 0.5171954939 -0.1968554759 0.5174442292 -0.1964706713 -0.1506567659 0.0818072638
195298830.0 -0.1517606279 0.0919813041 0.5152181916 -0.202500373 0.5153470621 -0.2023699426 -0.1496330523 0.0830937459
200298800.0 -0.1506407585 0.0935437592 0.5128809559 -0.2090367863 0.5132903429 -0.2091477667 -0.1493272171 0.0844425919
205298770.0 -0.1499191618 0.0951773848 0.5107411682 -0.2151831018 0.5107703887 -0.2146842231 -0.1485973622 0.0846491842
210298740.0 -0.1487482531 0.0963747146 0.5088221428 -0.220335773 0.5085659823 -0.2205510498 -0.1475044668 0.0865836309
215298710.0 -0.1482880597 0.0978781791 0.506445186 -0.2270868797 0.5060780363 -0.2272094698 -0.1471170007 0.0875952213
220298680.0 -0.1471395004 0.0988686066 0.5036010883 -0.232500568 0.5035821359 -0.2328589662 -0.1465370655 0.0889905442
225298650.0 -0.1461904908 0.1003877633 0.5015543205 -0.2389681504 0.5014398852 -0.2387700164 -0.1461096557 0.0896710455
230298620.0 -0.1451554033 0.1021105482 0.4988965564 -0.2442068259 0.4991617375 -0.2445737582 -0.1454771702 0.0909155308
235298590.0 -0.1441761089 0.1038889066 0.4961756266 -0.2502331701 0.4963957946 -0.2499030774 -0.1444529244 0.0920944077
240298560.0 -0.1432484532 0.1051120146 0.4938682475 -0.2560224791 0.4932979142 -0.2561789476 -0.1439472433 0.093773526
245298530.0 -0.1423325332 0.1063999876 0.4910222765 -0.2615461011 0.4909879031 -0.2616711473 -0.1431141754 0.0942400139
250298500.0 -0.1407070529 0.1080208875 0.4871488756 -0.2674073563 0.4876613807 -0.267245099 -0.142533873 0.0958359916
255298470.0 -0.139901526 0.1090212858 0.4843552375 -0.2724789596 0.4848395792 -0.2725939265 -0.1416273966 0.0968154592
260298440.0 -0.139226451 0.11044732 0.4818560851 -0.2788183493 0.4820009339 -0.2783766492 -0.1403826044 0.0979678599
265298410.0 -0.1374953758 0.1123649831 0.4786609439 -0.2837916135 0.4791514731 -0.2835826301 -0.1398083585 0.0996317075
270298380.0 -0.1364124387 0.1136443789 0.475910553 -0.2890444991 0.4757185297 -0.2891307794 -0.1391380032 0.1005348893
275298350.0 -0.135183236 0.1153219819 0.4723418523 -0.2947688991 0.4732285037 -0.2949558464 -0.1378435819 0.1017905862
280298320.0 -0.1339562528 0.1169387772 0.4694301414 -0.3003381283 0.4697584489 -0.3000114078 -0.1368776379 0.1031168483
285298290.0 -0.1328609438 0.1182424199 0.4662601468 -0.3055272905 0.4662265133 -0.3056875396 -0.1358546316 0.1042539593
290298260.0 -0.1315942407 0.1197216695 0.4626670616 -0.310304018 0.4630490818 -0.3106827784 -0.1348963772 0.1057697478
295298230.0 -0.1302932855 0.1208670949 0.4598835656 -0.3160606871 0.4597213627 -0.3160228327 -0.133557679 0.1066227263
300298200.0 -0.1295732438 0.1223533966 0.4565980543 -0.321143579 0.4565698718 -0.3215293309 -0.1327461481 0.1080262612
305298170.0 -0.1278032194 0.1234786454 0.4524636599 -0.3269183845 0.4525267515 -0.3262494283 -0.1314241174 0.1091209562
310298140.0 -0.1265688458 0.1251183764 0.4492287059 -0.3315419086 0.448995343 -0.33136059 -0.1305076529 0.1103230406
315298110.0 -0.1251414276 0.1260149441 0.445391043 -0.3368349349 0.4456320444 -0.3367316482 -0.1295837759 0.1114108423
320298080.0 -0.1236539466 0.1276273619 0.4410530818 -0.3422778214 0.4418658062 -0.3421368214 -0.1283749313 0.1127327454
325298050.0 -0.1227312811 0.1286772643 0.4378993731 -0.3472771985 0.4376953707 -0.3470150026 -0.1278437319 0.1138587572
330298020.0 -0.1211290643 0.1299745608 0.4333491427 -0.3519430371 0.4336423998 -0.3520942518 -0.1269791123 0.1149350739
335297990.0 -0.11990385 0.1311640846 0.4296545818 -0.35645149 0.4295326637 -0.356753623 -0.1266845178 0.1167637163
340297960.0 -0.1192271932 0.1329780064 0.4254300833 -0.3614007972 0.425196466 -0.3617283592 -0.1248349715 0.118055355
345297930.0 -0.1177719409 0.1346089254 0.421376791 -0.3664922142 0.421479695 -0.3665205146 -0.1242316266 0.1190815582
350297900.0 -0.1166945599 0.1357403859 0.4165818951 -0.3713342143 0.4171834554 -0.3711333561 -0.1235116023 0.1209558685
355297870.0 -0.1151347185 0.1373056299 0.4133545494 -0.3756016102 0.4131472209 -0.3756262573 -0.1226062858 0.1219697887
360297840.0 -0.1136362375 0.1387855799 0.4094568798 -0.3796581212 0.4095587983 -0.3799896041 -0.1213150142 0.1236707797
365297810.0 -0.1124751167 0.140340775 0.4046965055 -0.3845178608 0.4047018254 -0.3848041504 -0.1199740338 0.1248465023
370297780.0 -0.1106711976 0.1413973856 0.4003434107 -0.3889305879 0.4011473981 -0.3888842069 -0.1189533275 0.1263814652
375297750.0 -0.1090844728 0.143005672 0.3959753075 -0.3936054421 0.3966254179 -0.3935047979 -0.117705462 0.1273798913
380297720.0 -0.1075746363 0.1437083371 0.3914559841 -0.3975148087 0.3917005298 -0.3972283481 -0.1171985143 0.1286580441
385297690.0 -0.1064884502 0.14560464 0.3873627278 -0.4020358717 0.387355644 -0.4019244406 -0.1154545764 0.1300248581
390297660.0 -0.1047906406 0.1469838892 0.3833306158 -0.4060563182 0.3832032811 -0.4056875772 -0.1150079312 0.131379625
395297630.0 -0.1032430102 0.1483301772 0.3788663558 -0.4105389104 0.3785778215 -0.4104290496 -0.1130734277 0.1327006799
400297600.0 -0.1015733345 0.1496679744 0.3741006966 -0.4148965191 0.374198025 -0.414777875 -0.1121778058 0.1338958164
405297570.0 -0.1003320306 0.1506635 0.3690550133 -0.4185952015 0.3693938492 -0.4185569117 -0.1112714097 0.1349637462
410297540.0 -0.098355426 0.1516456935 0.3651950628 -0.4228395216 0.3650817127 -0.4229433588 -0.1099384336 0.1364737496
415297510.0 -0.0968037601 0.1529067691 0.3599419009 -0.4267104776 0.3599760729 -0.4268707569 -0.1085737269 0.1374971259
420297480.0 -0.0952339545 0.1546507316 0.3554506656 -0.4308402311 0.3555815526 -0.4307533566 -0.1077368736 0.1382735958
425297450.0 -0.0931546838 0.1551317322 0.3509198915 -0.4340938037 0.3511240398 -0.434598757 -0.1067418524 0.1398527885
430297420.0 -0.0917492004 0.1564150828 0.346085236 -0.4375215777 0.3458397219 -0.4379710265 -0.1051657068 0.1408098424
435297390.0 -0.0902769496 0.1577702169 0.3407035583 -0.4415855081 0.3408748166 -0.4419766753 -0.1031337324 0.1419174948
440297360.0 -0.0883155504 0.1588865636 0.3361530729 -0.445633445 0.3364581732 -0.4457593427 -0.1023413648 0.1429394684
445297330.0 -0.0869461952 0.1599936146 0.331949829 -0.4495383024 0.3316423316 -0.4490184282 -0.1007585621 0.1436752988
450297300.0 -0.0849366336 0.1609400683 0.3261922013 -0.453112363 0.3265414298 -0.4533880692 -0.0998966125 0.144750788
455297270.0 -0.0831458446 0.1621447418 0.3212003879 -0.4560229492 0.3214604517 -0.4564090389 -0.098138061 0.1459431905
460297240.0 -0.0815105858 0.1632587111 0.3163769436 -0.4597875647 0.3164912988 -0.459959619 -0.0966886632 0.1470914447
465297210.0 -0.0794557535 0.1641414938 0.3114799006 -0.4633015975 0.3116108436 -0.463416472 -0.0952727114 0.1478333023
470297180.0 -0.077899011 0.1649439068 0.3063100755 -0.4668706027 0.3061401167 -0.4672699008 -0.0937115444 0.1494729489
475297150.0 -0.0756936336 0.1658657026 0.3005010983 -0.4694993294 0.3010614458 -0.4694948389 -0.0919339679 0.1499075247
480297120.0 -0.0740284599 0.1673397939 0.2958559853 -0.4735171141 0.2958415344 -0.473516174 -0.090368675 0.1511500268
485297090.0 -0.0726502803 0.1678748033 0.2911579279 -0.4760983973 0.2910841125 -0.4760426703 -0.0892162797 0.1518382499
490297060.0 -0.0710874789 0.1689133725 0.2860345821 -0.4796787722 0.285739238 -0.4794499016 -0.0875324266 0.1533273017
495297030.0 -0.0688804943 0.1700639135 0.2800567149 -0.4825759798 0.280781574 -0.4824659167 -0.086550325 0.1543512226
500297000.0 -0.0669823933 0.1708446099 0.2748529091 -0.4855147778 0.2750450775 -0.4854060426 -0.0846618654 0.1557514375
505296970.0 -0.0651091698 0.1715856632 0.2699691574 -0.4884402721 0.2694157811 -0.4885235979 -0.0833306533 0.1562832521
510296940.0 -0.0631356473 0.1726293734 0.2645085295 -0.491730219 0.2643659108 -0.4914336604 -0.0817175154 0.1575317521
515296910.0 -0.0611886013 0.1733955691 0.2587740743 -0.494771772 0.2588652133 -0.4939647158 -0.0799152389 0.1583611193
520296880.0 -0.059615452 0.1741651155 0.2535610397 -0.4974985127 0.2539919493 -0.4969889625 -0.0786700046 0.159347511
525296850.0 -0.0574886167 0.1746691977 0.2478666076 -0.4996120355 0.2484823244 -0.4999019827 -0.0769662718 0.1604208235
530296820.0 -0.0553308815 0.1759260261 0.2427030876 -0.5026024316 0.2430773099 -0.5023630469 -0.0755566967 0.1615301728
535296790.0 -0.0536327486 0.1765284419 0.2377788906 -0.5045946822 0.237321786 -0.5046626507 -0.0743066278 0.161913096
540296760.0 -0.0519501387 0.1773825915 0.2319731286 -0.5079904909 0.2314560189 -0.5075197775 -0.0728905908 0.1631820883
545296730.0 -0.0497444587 0.178055381 0.2260480066 -0.5102924115 0.2263201446 -0.5099840239 -0.0712987674 0.1639992959
550296700.0 -0.0473979147 0.1788603074 0.2204703008 -0.512310834 0.2208095875 -0.5126117274 -0.0697241553 0.164978574
555296670.0 -0.0456963578 0.1791909172 0.2150862437 -0.5149756377 0.2152411978 -0.5146901334 -0.0680404346 0.1660093034
560296640.0 -0.0436671443 0.1802326342 0.2089709848 -0.5172041359 0.2095840116 -0.5170481718 -0.066477404 0.1666228367
565296610.0 -0.0420566207 0.1805982661 0.2036556922 -0.5194404666 0.2040235339 -0.5191866197 -0.0651336743 0.1674350365
570296580.0 -0.0400839664 0.1813572143 0.1983217281 -0.5218907546 0.1976736911 -0.5215271904 -0.0637403233 0.1684494729
575296550.0 -0.037903527 0.1822307347 0.1923795922 -0.5239320622 0.1925598255 -0.5234846669 -0.0616935962 0.168721586
580296520.0 -0.0359186566 0.1824131392 0.1868850163 -0.5258308995 0.1866858529 -0.5254592664 -0.0599245896 0.1695993408
585296490.0 -0.033998482 0.1827351643 0.18117822 -0.5273346487 0.181238911 -0.5275495816 -0.0586956465 0.1703303158
590296460.0 -0.0316261706 0.1833764589 0.1755898847 -0.528965693 0.1756285591 -0.5290457155 -0.0575129894 0.1710811061
595296430.0 -0.029638447 0.1839764531 0.1691357989 -0.5315906089 0.1692298389 -0.531043088 -0.0552658503 0.1714412219
600296400.0 -0.0281439172 0.1843785219 0.1643368475 -0.5331344236 0.1637131195 -0.5324227146 -0.0539254077 0.1720131994
605296370.0 -0.0261099201 0.1846783421 0.1577292792 -0.5348039996 0.1586089453 -0.5349377577 -0.0519702485 0.1725545187
610296340.0 -0.0236490409 0.1851066761 0.1516964616 -0.5360173595 0.1521400351 -0.5363691347 -0.0503877511 0.1735113291
615296310.0 -0.0214480393 0.1854440038 0.1462621464 -0.537998567 0.1462196641 -0.5383243664 -0.0485050935 0.1740205128
620296280.0 -0.0195467262 0.1856621467 0.1410272265 -0.5394839309 0.1405181547 -0.5396025949 -0.0472218406 0.1746784876
625296250.0 -0.0179367552 0.1857750457 0.1353082258 -0.5407777297 0.1344647496 -0.5410919045 -0.0449310043 0.1749277118
630296220.0 -0.0149857546 0.1863030279 0.1279998179 -0.5421826241 0.1284359658 -0.542060599 -0.0433438114 0.1757621005
635296190.0 -0.0139163741 0.1863245163 0.1229766902 -0.5436033277 0.1228439268 -0.5437717691 -0.0414331574 0.1760525962
640296160.0 -0.0117965379 0.1870283787 0.1167772831 -0.5445824405 0.1170472987 -0.5448886344 -0.0397357491 0.1769925351
645296130.0 -0.0093359666 0.187313247 0.1108241799 -0.5456575586 0.111120261 -0.5461457261 -0.0379377078 0.1774229169
650296100.0 -0.0072052906 0.1873821193 0.105137864 -0.5466660263 0.1051066027 -0.5469780768 -0.0358377646 0.1773785963
655296070.0 -0.0054363431 0.1875862847 0.0992012148 -0.5481620013 0.0992806522 -0.5482797183 -0.0341388979 0.1781034628
660296040.0 -0.0037248555 0.1874636761 0.0935992109 -0.5490596928 0.093298553 -0.549378095 -0.0324122743 0.1787038266
665296010.0 -0.0009799468 0.1878614347 0.0869156277 -0.550290946 0.0875261432 -0.5500694547 -0.0306984988 0.1795141342
670295980.0 0.0001609014 0.1881336361 0.0812027302 -0.5511943478 0.0814676445 -0.5505237047 -0.0294453663 0.1798609658
675295950.0 0.002879198 0.1883139766 0.0760121897 -0.5518596954 0.075764997 -0.551426609 -0.0274637456 0.1803401107
680295920.0 0.0045166788 0.1884165668 0.069665301 -0.5523024156 0.0691309553 -0.5529732462 -0.0255105632 0.1815504139
685295890.0 0.0067779634 0.1890294882 0.0635956269 -0.5530539336 0.0636400695 -0.5532752807 -0.0238084127 0.1816782398
690295860.0 0.009320104 0.1886579751 0.0573023286 -0.553214612 0.0575853292 -0.5540639486 -0.0222644008 0.182557991
695295830.0 0.0112400387 0.188517347 0.0517269226 -0.5540976183 0.0515451667 -0.5546405203 -0.0200636415 0.1825423057
700295800.0 0.013378342 0.1884929629 0.0454009869 -0.5545647528 0.0454248534 -0.5545896091 -0.0186270328 0.1833162105
705295770.0 0.0149127476 0.188973939 0.0395179577 -0.5549688654 0.0399501768 -0.5554255695 -0.0171105843 0.183353507
710295740.0 0.017304146 0.1888486937 0.0341984571 -0.5562185805 0.0337178609 -0.5559229739 -0.0150036931 0.1834002503
715295710.0 0.0191042666 0.1886598707 0.0279850942 -0.5563582564 0.0274674648 -0.5559085103 -0.0134214522 0.1837335133
720295680.0 0.0215039586 0.1886296746 0.0218725474 -0.5563137945 0.0217837451 -0.5566111407 -0.0118573486 0.1847466015
725295650.0 0.0237418417 0.1887310337 0.015578924 -0.5562529796 0.0155773563 -0.5566794791 -0.0102980964 0.1852415545
730295620.0 0.0256979998 0.1887449824 0.0096857002 -0.5565731952 0.0098977202 -0.5566242501 -0.0085529096 0.1848268048
735295590.0 0.0276731508 0.1883327011 0.0033269767 -0.5565431867 0.0032963855 -0.5565001122 -0.0068141343 0.1849358528
740295560.0 0.0296201081 0.1881997033 -0.0023891525 -0.5562603719 -0.0023932031 -0.5567721326 -0.004342839 0.1855821357
745295530.0 0.031857748 0.1879795953 -0.0084777932 -0.5559999925 -0.0083238094 -0.5564674314 -0.0030861538 0.1853807505
750295500.0 0.0340385695 0.1877772984 -0.0139301827 -0.5559223944 -0.0146118567 -0.5564814957 -0.001178672 0.1857831637
755295470.0 0.0361758091 0.1872052528 -0.0201552872 -0.5560464225 -0.0202911194 -0.556147773 0.0008462584 0.1853812582
760295440.0 0.0378907513 0.187089885 -0.0262440037 -0.5558453044 -0.0266197633 -0.5560751143 0.0023332129 0.1858448992
765295410.0 0.040027231 0.1868130815 -0.0319265281 -0.5553126927 -0.0327565772 -0.5558195824 0.0043861478 0.1859724826
770295380.0 0.0417693643 0.1865225501 -0.0382050694 -0.5549877857 -0.0387061942 -0.5550636323 0.0056197045 0.1861258123
775295350.0 0.0439201829 0.1859190452 -0.0449349555 -0.5543419997 -0.0440136998 -0.5541542647 0.0072098775 0.1863297293
780295320.0 0.0458797853 0.1856289958 -0.0501189698 -0.5539815831 -0.0501330791 -0.5535121589 0.0093026392 0.1855789213
785295290.0 0.0478490227 0.18495466 -0.0563915131 -0.5529856105 -0.0563319922 -0.5531223402 0.0118451965 0.1858907122
790295260.0 0.0508127948 0.1852042496 -0.062109729 -0.5526070632 -0.0614720809 -0.5527830881 0.0133396793 0.1861272056
795295230.0 0.0520998812 0.1844619177 -0.0679359831 -0.5517805038 -0.0678193537 -0.5522085321 0.0152863604 0.1860459581
800295200.0 0.0541782147 0.1840334588 -0.0746345979 -0.5509471228 -0.074208427 -0.5512141922 0.0171391415 0.1858990324
805295170.0 0.0564327428 0.1835852352 -0.0802940254 -0.5500670284 -0.0801085992 -0.5506777659 0.0187684822 0.1862694431
810295140.0 0.0581952251 0.1825615319 -0.0854506602 -0.5488506179 -0.0859234333 -0.548980812 0.0211111414 0.1861352558
815295110.0 0.0604242362 0.1819407691 -0.0919509057 -0.5477087807 -0.0917355846 -0.5482450612 0.0226650207 0.1859576169
820295080.0 0.0618112512 0.1822877078 -0.0974917448 -0.5473981729 -0.0970740356 -0.5472558968 0.0245001068 0.1860692071
825295050.0 0.0647441097 0.1813520303 -0.1030619977 -0.5457936621 -0.1034799318 -0.5460287285 0.0266582109 0.1857412293
830295020.0 0.066222627 0.1809471019 -0.1096051768 -0.5444345772 -0.1093445714 -0.5448238661 0.0288298746 0.1859293247
