!Created with skrf (http://scikit-rf.org).
# Hz S RI R 50.0 
!freq ReS11 ImS11 ReS21 ImS21 ReS12 ImS12 ReS22 ImS22
300000.0 -0.2401075685 -0.0791380775 0.4721309577 0.0529041864 0.4660826114 0.0531431109 -0.24045639 -0.0929392088
5299970.0 -0.2441827086 0.0072671631 0.4735242618 0.0050186898 0.4733093624 0.0050782894 -0.2442407912 0.0073403366
10299940.0 -0.2410434824 0.0188889499 0.4755078965 0.0060566226 0.4755216192 0.0064593949 -0.2406903333 0.0200787891
15299910.0 -0.2368102682 0.0278088447 0.4795311687 0.0074566337 0.4790804726 0.0079512306 -0.2362451579 0.0295525156
20299880.0 -0.2319504262 0.0353972158 0.4836363024 0.0085408283 0.4840078409 0.0084578772 -0.2308577069 0.0375954376
25299850.0 -0.2269460724 0.042253998 0.4893757636 0.0070301716 0.4889557618 0.007713446 -0.2248763996 0.0438165278
30299820.0 -0.2214664249 0.0472969714 0.4944239255 0.0050435097 0.4947417048 0.0052459172 -0.2191583101 0.0492026036
35299790.0 -0.2165304821 0.0515756659 0.499823622 0.0022256018 0.5001420119 0.0024939763 -0.2136802959 0.053344898
40299760.0 -0.2113796716 0.0549233139 0.5049177027 -0.0018708558 0.5053754637 -0.0015505164 -0.2082709509 0.0559888311
45299730.0 -0.2067751387 0.0577946609 0.5097237643 -0.0066043332 0.5099737218 -0.0063405635 -0.2033662822 0.058666322
50299700.0 -0.2023538642 0.060077953 0.5145956525 -0.0120463178 0.5141922271 -0.0118328653 -0.1983564711 0.0607471457
55299670.0 -0.198476131 0.06184909 0.5183138229 -0.018139197 0.5180308527 -0.0176816987 -0.1944368806 0.0622382501
60299640.0 -0.1944981791 0.0635444495 0.5212989714 -0.0244174102 0.5215576938 -0.0240893894 -0.1905104479 0.0632176838
65299610.0 -0.191165952 0.06482547 0.5239837557 -0.0307391264 0.5242603921 -0.0304290209 -0.1871588285 0.0643950118
70299580.0 -0.1878075578 0.0661212351 0.5266283741 -0.0376412534 0.5266239586 -0.0369807761 -0.1839460306 0.0648591549
75299550.0 -0.1850705088 0.0672283248 0.5282060114 -0.0438900497 0.5284151625 -0.0441380955 -0.1809701134 0.065270934
80299520.0 -0.1825293212 0.0681606216 0.5302733476 -0.0509072057 0.5306134866 -0.0511650217 -0.1785744246 0.0661727789
85299490.0 -0.1800302394 0.0688692048 0.5314691753 -0.0577119733 0.5316179586 -0.0576379492 -0.1761557884 0.0661091215
90299460.0 -0.1778581759 0.0697223164 0.5322170221 -0.0646290746 0.5328852273 -0.0645460817 -0.1735684768 0.0668255336
95299430.0 -0.1756401009 0.0704491527 0.533774562 -0.0715581829 0.5335059899 -0.071697548 -0.1714730165 0.0673086056
100299400.0 -0.1738998461 0.0712962324 0.5333522485 -0.0783530454 0.5340743023 -0.0787526472 -0.1695664963 0.067691374
105299370.0 -0.1720590615 0.0722914029 0.534485576 -0.0854220585 0.5347520791 -0.0855173237 -0.1674646664 0.0680013051
110299340.0 -0.1703352934 0.0732202604 0.534610915 -0.0921562128 0.5346739592 -0.0921884412 -0.1664090793 0.0685959028
115299310.0 -0.1686773262 0.0738561068 0.5344124097 -0.0990148515 0.5345460119 -0.0990220673 -0.1649044675 0.0691923909
120299280.0 -0.1673366877 0.0746906796 0.5340200593 -0.1058832679 0.5342911093 -0.105656221 -0.1631838634 0.0696429833
125299250.0 -0.1661777171 0.0755777068 0.5342057028 -0.1125268139 0.5339898673 -0.1123599117 -0.1624585869 0.0695648462
130299220.0 -0.1650328297 0.0766970128 0.5331036347 -0.1192019054 0.533201167 -0.1187710453 -0.161098615 0.0702669122
135299190.0 -0.1635730011 0.0780743865 0.5327458234 -0.1262025219 0.532825324 -0.1257107511 -0.1601374214 0.0709351627
140299160.0 -0.1627539122 0.0789116974 0.531582635 -0.1327127926 0.5318444912 -0.1328639952 -0.1587374766 0.0720808933
145299130.0 -0.1615040327 0.0800418109 0.5311587835 -0.1393100479 0.5307070623 -0.1392491714 -0.1577801469 0.0727352567
150299100.0 -0.1602865495 0.0814089571 0.5298290119 -0.1454741133 0.5300792581 -0.1451551634 -0.1568795209 0.0738993223
155299070.0 -0.1593501905 0.0819882686 0.5287524125 -0.1525929731 0.5282053387 -0.1521498232 -0.155795035 0.0746850943
160299040.0 -0.1581175261 0.0834403558 0.5269188402 -0.1583692702 0.5267198036 -0.1587131788 -0.1551959698 0.0753754351
165299010.0 -0.1575008554 0.0847046397 0.5256365936 -0.1653258219 0.526059473 -0.1652059558 -0.1543317788 0.0768651498
170298980.0 -0.1564227863 0.0856852208 0.5242730834 -0.171769106 0.5243640358 -0.1715475805 -0.1535247427 0.0775360766
175298950.0 -0.1555962139 0.0870572208 0.5230680883 -0.1780299613 0.5221888989 -0.1777362994 -0.1529035213 0.0785030535
180298920.0 -0.1547632148 0.0882950714 0.5211132226 -0.1840603785 0.5207168903 -0.1837544352 -0.1521143148 0.0797866833
185298890.0 -0.1533010231 0.0895019655 0.5192401341 -0.1906259206 0.5189003734 -0.1900241726 -0.15132592 0.0810227544
190298860.0 -0.1525540037 0.091040841 0.5174742041 -0.1967048413 0.5175762922 -0.1964463872 -0.1506340817 0.0817984519
195298830.0 -0.1518204086 0.0920010007 0.5151267156 -0.2024671329 0.5153518381 -0.202604042 -0.1496149263 0.0828369439
200298800.0 -0.1505552731 0.0936568573 0.5128975527 -0.2090140905 0.5129810956 -0.2088161041 -0.1494138488 0.0841552235
205298770.0 -0.1499295313 0.0952790444 0.5106835367 -0.2149618125 0.5109167351 -0.2143789199 -0.1482884096 0.0848068492
210298740.0 -0.1489199269 0.096300913 0.5082345971 -0.2204399595 0.5085644343 -0.2203543081 -0.1475113836 0.0866264455
215298710.0 -0.1482630412 0.0978433352 0.5064800008 -0.2267745852 0.5063974299 -0.2270922038 -0.1472828893 0.0879374123
220298680.0 -0.146858956 0.0988828557 0.5032314364 -0.2329298483 0.503896415 -0.2322721818 -0.146990997 0.0887532764
225298650.0 -0.1460621608 0.1004318391 0.501244086 -0.2385409765 0.5014384997 -0.2384785192 -0.1461961285 0.089635378
230298620.0 -0.1450419174 0.1023120101 0.4989926776 -0.2439775448 0.4995696254 -0.2440437846 -0.1455253336 0.0908490897
235298590.0 -0.1440401191 0.1036932066 0.4961892485 -0.250215123 0.4964509123 -0.2493716758 -0.1445740528 0.0920333436
240298560.0 -0.1430492667 0.1049992683 0.4936270234 -0.2558983037 0.4934401237 -0.2559679546 -0.1438700273 0.0936930184
245298530.0 -0.142009055 0.1065890811 0.4911470188 -0.2613628169 0.4907757191 -0.261667877 -0.1428267397 0.0943820428
250298500.0 -0.1408373063 0.1078119576 0.4875264909 -0.267224218 0.4874986662 -0.2668442446 -0.1424984104 0.0957769728
255298470.0 -0.1398927708 0.1092238491 0.4844918444 -0.2726893806 0.4847965979 -0.2724320102 -0.1414150131 0.0966356716
260298440.0 -0.1388016945 0.1108694212 0.4817358377 -0.2784913435 0.4824340916 -0.2777460433 -0.140127636 0.0981905404
265298410.0 -0.1376140498 0.1124513352 0.4789500926 -0.2838306392 0.4791306931 -0.2838474704 -0.139841025 0.0995946513
270298380.0 -0.1367745291 0.1137451309 0.4763369146 -0.2891346953 0.4763360199 -0.2889463197 -0.1391717252 0.1006859986
275298350.0 -0.1351505722 0.115074896 0.4727491449 -0.2947897674 0.4733242714 -0.2945640045 -0.138015697 0.1018328847
280298320.0 -0.1338095026 0.1172031092 0.4699046616 -0.3002963059 0.4698868375 -0.2999894025 -0.1369127336 0.102943396
285298290.0 -0.1328293069 0.1183698321 0.4665236171 -0.3054473024 0.4662572885 -0.3055357294 -0.1360616265 0.1045372148
290298260.0 -0.1315547706 0.1195810146 0.4629289861 -0.3103878562 0.4631796474 -0.3106191438 -0.1350171474 0.1057616888
295298230.0 -0.130165098 0.120963623 0.4594171878 -0.3157918961 0.4596876342 -0.3156737459 -0.1334220314 0.1066836713
300298200.0 -0.1290728345 0.1225371694 0.4566090017 -0.3207115978 0.4564495854 -0.3212416022 -0.1326794054 0.1080806797
305298170.0 -0.1276114055 0.1238324423 0.4524456633 -0.326590771 0.4524303117 -0.3265360511 -0.1311485561 0.1093615881
310298140.0 -0.1265194439 0.1251143111 0.4491908807 -0.3318886766 0.4494859815 -0.3312553415 -0.1304063882 0.1103286564
315298110.0 -0.1252127849 0.1262414187 0.4454818412 -0.336892081 0.4456621297 -0.3367672033 -0.1297340254 0.1114081582
320298080.0 -0.123805289 0.1276573447 0.4415153544 -0.3420637932 0.4420063376 -0.3418730769 -0.1285955969 0.1128461746
325298050.0 -0.1224438323 0.1289147743 0.4379376863 -0.3466708012 0.437919099 -0.3469781174 -0.1278613755 0.1140672591
330298020.0 -0.1215443949 0.1299334504 0.4335889887 -0.3520728629 0.4341034316 -0.3520859947 -0.1271213266 0.1152119116
335297990.0 -0.1201635338 0.1312273985 0.4300782512 -0.3563088953 0.4297493553 -0.3566475554 -0.1266148532 0.1168858588
340297960.0 -0.1193882571 0.1329632098 0.4256564876 -0.3616064078 0.4256663025 -0.3617598644 -0.1251256823 0.1180462949
345297930.0 -0.1177604374 0.1348634244 0.4215175216 -0.3664323435 0.4213354289 -0.3664537986 -0.1240463216 0.1190601174
350297900.0 -0.1164158891 0.1354948956 0.4168905972 -0.3711982347 0.4173908949 -0.3709038081 -0.1235235412 0.1211994835
355297870.0 -0.1150318781 0.1376359752 0.413295842 -0.3754021135 0.4134297819 -0.3750382981 -0.1226420947 0.1218654086
360297840.0 -0.1138934058 0.1387055309 0.4099494902 -0.3794000337 0.4093997337 -0.3796116397 -0.1213979587 0.1235437507
365297810.0 -0.1124101605 0.1402157343 0.4049380052 -0.3848268731 0.4051181617 -0.3843847257 -0.1200323825 0.1249626825
370297780.0 -0.1106797176 0.1414452823 0.4008098241 -0.3887295105 0.4011517594 -0.3885133241 -0.1190426858 0.1265027928
375297750.0 -0.1092215467 0.142680782 0.3966616783 -0.3931224606 0.3971314455 -0.3933145505 -0.1180525528 0.1272349977
380297720.0 -0.1077923174 0.1439104534 0.3918438065 -0.3973634222 0.3923267435 -0.3969468449 -0.1170723695 0.1287504023
385297690.0 -0.1063965135 0.1454235889 0.3873882767 -0.4019786373 0.387587539 -0.4017810722 -0.1157050214 0.130082693
390297660.0 -0.1047032958 0.1470580609 0.3831386185 -0.4062610721 0.3830895 -0.4059797791 -0.1148943068 0.1313912228
395297630.0 -0.1030361335 0.1484837968 0.3789302772 -0.4105728737 0.3788861236 -0.4102141096 -0.1130069287 0.1325950689
400297600.0 -0.1016128605 0.1496217771 0.3738272576 -0.4145726187 0.374330713 -0.4147083458 -0.1125613379 0.1339100911
405297570.0 -0.1003779753 0.1508867003 0.3697125785 -0.4183330436 0.3697613878 -0.4181186548 -0.1111122854 0.1348069038
410297540.0 -0.0982609324 0.1521920482 0.3651719599 -0.4227998619 0.3654438077 -0.4225666668 -0.1099370255 0.1364976137
415297510.0 -0.0964855035 0.1530586126 0.3599737418 -0.4266759165 0.3609041463 -0.4266838237 -0.1086635127 0.1374606869
420297480.0 -0.0950832484 0.1547745048 0.3554776779 -0.4305910258 0.3557614585 -0.4306585638 -0.1075454484 0.1386625197
425297450.0 -0.0934412106 0.1553028554 0.3511244141 -0.4345611615 0.3516067287 -0.43436616 -0.1065556971 0.1400209353
430297420.0 -0.0917643284 0.1566180796 0.3459078256 -0.4374262411 0.3463090754 -0.4380150453 -0.1053484228 0.1407606324
435297390.0 -0.0902805349 0.1579966658 0.3409632517 -0.4418593002 0.3412909411 -0.4418341749 -0.1031022635 0.1420244779
440297360.0 -0.088530388 0.1591212214 0.3363890756 -0.4453295621 0.3365498727 -0.4455016759 -0.1022305896 0.1429576259
445297330.0 -0.0868122317 0.1601575768 0.3316018081 -0.4492971387 0.3316996235 -0.4490286333 -0.1007086384 0.1435508751
450297300.0 -0.0849410387 0.1613186093 0.3266991124 -0.4529530986 0.326832667 -0.4531412318 -0.0995254475 0.1449881575
455297270.0 -0.0831686736 0.1620531512 0.3213917573 -0.4563091553 0.3219771674 -0.4566797844 -0.0980824968 0.1458443621
460297240.0 -0.081483404 0.1632515335 0.3163306803 -0.4594361791 0.3165228285 -0.4598797967 -0.0968579091 0.1474099267
465297210.0 -0.0794696149 0.1644313766 0.3113665178 -0.4637928669 0.3116269996 -0.4636248268 -0.0950566519 0.1483506435
470297180.0 -0.077726826 0.1649893685 0.3061585801 -0.4663098474 0.306597354 -0.4667139305 -0.0938679204 0.1495545566
475297150.0 -0.0762130742 0.1658525605 0.3012407479 -0.4689334095 0.3018913417 -0.4695208619 -0.0919505803 0.1498746604
480297120.0 -0.074405062 0.1672748978 0.2962938636 -0.473062364 0.2960113047 -0.4735444617 -0.0905397373 0.151370368
485297090.0 -0.0722274604 0.1683004607 0.2907720266 -0.4762288696 0.291473644 -0.4764000915 -0.0888176484 0.1521768962
490297060.0 -0.0709427891 0.1692990121 0.2859362948 -0.4794799167 0.2861805626 -0.4792873087 -0.0875817579 0.1534027838
495297030.0 -0.0688681977 0.1700872861 0.2803807296 -0.4825365588 0.2813768219 -0.482345369 -0.0862954166 0.1544267695
500297000.0 -0.0667190978 0.1708671208 0.2750517311 -0.4853209997 0.2750613407 -0.485114173 -0.0843740421 0.1557771111
505296970.0 -0.0646611497 0.1717476394 0.2700811098 -0.4882406973 0.2699654834 -0.488385755 -0.0831034631 0.1565057576
510296940.0 -0.0631434434 0.1725203602 0.2647436999 -0.4910716612 0.2643097821 -0.4915405075 -0.0816180084 0.1578768496
515296910.0 -0.0611708995 0.1734403298 0.2589507183 -0.4942076254 0.259372305 -0.49396196 -0.0799862905 0.158765638
520296880.0 -0.0591683226 0.1743667989 0.2536686169 -0.4972068763 0.2543067165 -0.4966561434 -0.0788242538 0.1596555487
525296850.0 -0.0571817711 0.1746003034 0.2480620076 -0.4992497105 0.248725706 -0.4997590469 -0.0773266632 0.1603570071
530296820.0 -0.055387142 0.1761058344 0.2431872456 -0.5022654347 0.2430929032 -0.5020175537 -0.0755494678 0.1612996153
535296790.0 -0.0538219551 0.1767006837 0.2377854587 -0.5046689165 0.2377638952 -0.5043195749 -0.0741959336 0.1618216936
540296760.0 -0.0516302581 0.1773541253 0.2318635437 -0.5077683076 0.2318962506 -0.5074171945 -0.0729912309 0.1634847495
545296730.0 -0.0497646414 0.1780433123 0.2262179917 -0.5097910313 0.226450885 -0.5100226284 -0.0711662184 0.1641179117
550296700.0 -0.047463525 0.1788595544 0.2208368748 -0.5121865216 0.2211376354 -0.5124613495 -0.0699255676 0.1648766872
555296670.0 -0.045764609 0.179303849 0.2151138675 -0.5148098776 0.2157415301 -0.5146755691 -0.0679375749 0.1658610483
560296640.0 -0.0435646477 0.1805242534 0.2096047292 -0.5170370474 0.210110898 -0.5173011052 -0.0663579778 0.1664811705
565296610.0 -0.0418320739 0.1807519284 0.203962561 -0.5191871716 0.2040847386 -0.5189864282 -0.0649872757 0.1671203232
570296580.0 -0.0401294142 0.1813093504 0.198773938 -0.5216965925 0.1982088838 -0.5214373254 -0.0634824628 0.1684794089
575296550.0 -0.0381339525 0.1821886895 0.1928247729 -0.5233460322 0.1928383437 -0.523571851 -0.0616394209 0.1688983786
580296520.0 -0.0358676803 0.1828653974 0.1868402374 -0.5258588637 0.1870715131 -0.525688358 -0.0603378664 0.1694165144
585296490.0 -0.0339220399 0.182659952 0.1814870697 -0.5269523938 0.1817380091 -0.5274034022 -0.0584378575 0.1703351804
590296460.0 -0.031616415 0.1835564627 0.1756036451 -0.528861398 0.1758291878 -0.5291742124 -0.0573960052 0.1710417266
595296430.0 -0.029799726 0.184172445 0.1696874418 -0.5319069103 0.1696603592 -0.5312323443 -0.0553211179 0.1714328228
600296400.0 -0.0279297823 0.184617053 0.1640348041 -0.5327425231 0.1640630374 -0.5326993311 -0.053820234 0.1718694852
605296370.0 -0.025916048 0.184957607 0.1580948566 -0.5347040653 0.1584274097 -0.534836944 -0.0518968186 0.1729245349
610296340.0 -0.0237502278 0.1855746479 0.1519353913 -0.5363730905 0.1528977379 -0.5359402875 -0.0502118426 0.1731815701
615296310.0 -0.0214966292 0.185577622 0.1464961909 -0.5378328318 0.1465405294 -0.5379579759 -0.048304877 0.1738059084
620296280.0 -0.0194672685 0.1856833716 0.1404841434 -0.5392074708 0.1408941716 -0.5390777165 -0.047204881 0.1744225844
625296250.0 -0.0178799941 0.1857189243 0.1357252743 -0.5410209002 0.1350640128 -0.5410641393 -0.0447993746 0.1752723377
630296220.0 -0.0147921743 0.1866133471 0.1284709337 -0.542661547 0.1286801235 -0.5423598721 -0.0432208431 0.1761797816
635296190.0 -0.0138473617 0.1867890247 0.1230981023 -0.5434904083 0.1233199013 -0.5436153311 -0.0415774014 0.1760866256
640296160.0 -0.0117615104 0.1872166246 0.117228021 -0.5447380517 0.1177779478 -0.5445772329 -0.0398324851 0.176792223
645296130.0 -0.0094789305 0.1876023136 0.1112558935 -0.5456321127 0.1116395737 -0.5459359685 -0.0381380075 0.177331245
650296100.0 -0.0072158726 0.1874398101 0.1051381893 -0.5470609627 0.1056976846 -0.546888342 -0.0359805717 0.1776288519
655296070.0 -0.0054237626 0.1876956408 0.0995819692 -0.5477138725 0.0997743317 -0.5483529807 -0.0342251795 0.1784150222
660296040.0 -0.0037989891 0.1876994066 0.093862443 -0.5492276391 0.0937268974 -0.5494405878 -0.0320827158 0.1790151801
665296010.0 -0.0009655153 0.1880607187 0.0876294131 -0.5500058344 0.0879832755 -0.5498605591 -0.0307730226 0.1798492664
670295980.0 2.15246e-05 0.1882417 0.0816893154 -0.5512894973 0.0817218017 -0.5511271656 -0.0291590061 0.1799657929
675295950.0 0.0028694425 0.1885032089 0.0761914694 -0.5516159318 0.0760904086 -0.5509621251 -0.0278372464 0.1806344597
680295920.0 0.0046904417 0.1885682237 0.0696761392 -0.552556829 0.0694948231 -0.552951215 -0.0256007613 0.1814506332
685295890.0 0.0070754497 0.1891113707 0.0638456258 -0.5533343681 0.0634378872 -0.5535132206 -0.0237944838 0.1816041386
690295860.0 0.0092261722 0.1887486998 0.05805754 -0.553442836 0.0577380652 -0.5540343224 -0.0220912118 0.1822812172
695295830.0 0.0111530562 0.1886978823 0.052159323 -0.5539068708 0.051653042 -0.5543189005 -0.0205028704 0.182545419
700295800.0 0.0133160821 0.1884293273 0.0459637116 -0.5544930777 0.0457836341 -0.5546037947 -0.0188230963 0.183254419
705295770.0 0.015120922 0.1895261112 0.0397059327 -0.5553818367 0.0404516018 -0.5557247274 -0.0172183941 0.1838550572
710295740.0 0.017393829 0.189171842 0.0336577251 -0.5563298408 0.0339803371 -0.5559710392 -0.0153159172 0.1832233797
715295710.0 0.0190496473 0.1886653456 0.0282640213 -0.5560902966 0.0278424391 -0.5560279077 -0.0132512053 0.183831774
720295680.0 0.0213819595 0.1887953412 0.021957273 -0.5564322994 0.0223118551 -0.5562057053 -0.0118763533 0.1845999609
725295650.0 0.0239523352 0.1888654193 0.0160497567 -0.5563427158 0.0161922094 -0.5569032236 -0.0103500582 0.1851877547
730295620.0 0.0259343258 0.1887937752 0.0096523962 -0.5563923569 0.0099773567 -0.5564722844 -0.0085439216 0.1849329647
735295590.0 0.02776647 0.1887480056 0.0038042257 -0.5567458996 0.003936814 -0.5565545195 -0.0069937029 0.1846344576
740295560.0 0.0297884366 0.1885378626 -0.0022509271 -0.5564738546 -0.0020937255 -0.5568226769 -0.0046185294 0.1856486977
745295530.0 0.0316238562 0.1883954887 -0.0078366245 -0.5562595583 -0.0084012857 -0.5565541411 -0.0027845094 0.1853205085
750295500.0 0.0340673132 0.1880490731 -0.0138898336 -0.556073093 -0.0141306792 -0.5567178158 -0.0013160193 0.1857891984
755295470.0 0.0360992157 0.1874076422 -0.0196729239 -0.5560420626 -0.019856071 -0.556224953 0.0009855162 0.1853497195
760295440.0 0.0378865973 0.1874620558 -0.025923846 -0.5559582736 -0.0259447493 -0.5562624056 0.0025499265 0.1855087039
765295410.0 0.0399515528 0.1871028932 -0.0323227261 -0.5553823441 -0.0323960545 -0.555881151 0.004315109 0.1860045304
770295380.0 0.0419912514 0.1866573287 -0.0385304666 -0.555107488 -0.0380838974 -0.5550219412 0.0059120247 0.1860881251
775295350.0 0.0437292145 0.1859851953 -0.0444754311 -0.5543898386 -0.0439278864 -0.5544985455 0.0076926278 0.1859260549
780295320.0 0.0463083937 0.1860817853 -0.0504245971 -0.5538145273 -0.0494573104 -0.5541640718 0.0093450631 0.1854846015
785295290.0 0.0478565338 0.1851802674 -0.0562715086 -0.5530111872 -0.0560091183 -0.5531433919 0.0117280792 0.1860433321
790295260.0 0.0506631341 0.1854271603 -0.0615771317 -0.5523617146 -0.0608685608 -0.5526076514 0.0133941753 0.1859430549
795295230.0 0.0523405108 0.1846436051 -0.0679929187 -0.5516737712 -0.0677167965 -0.5521674325 0.0157243311 0.186272527
800295200.0 0.0542785552 0.1844036121 -0.074152445 -0.5508649031 -0.0733456776 -0.5511251417 0.0170049802 0.1857884253
805295170.0 0.0563032136 0.1835929638 -0.0800408256 -0.5502437736 -0.0795860769 -0.5506155953 0.0188294325 0.1858655243
810295140.0 0.0581854513 0.1829359633 -0.0851619413 -0.549033545 -0.08538227 -0.5498741682 0.0212858035 0.1863068016
815295110.0 0.0603137687 0.1824080644 -0.0915698196 -0.5482885534 -0.0912420352 -0.5483390737 0.0228902388 0.1860336339
820295080.0 0.0620583203 0.1824880398 -0.0972231476 -0.5471108443 -0.0970409149 -0.5473760085 0.0246238528 0.1857831019
825295050.0 0.0646890861 0.1819203959 -0.1029118733 -0.5459320531 -0.1028917442 -0.5463804023 0.0266915498 0.1859841619
830295020.0 0.0663912344 0.1811819061 -0.1094434012 -0.5449321572 -0.1089072549 -0.5447412201 0.0288923386 0.1857268643
