!Created with skrf (http://scikit-rf.org).
# Hz S RI R 50.0 
!freq ReS11 ImS11 ReS21 ImS21 ReS12 ImS12 ReS22 ImS22
300000.0 -0.2351230179 -0.1109429052 0.4674889308 0.071901634 0.4715423757 0.0744511468 -0.2388803666 -0.1148072633
5299970.0 -0.2407016406 0.006963877 0.475015083 0.0053717436 0.4752042851 0.00583381 -0.2449148074 0.0056119294
10299940.0 -0.237212158 0.0199199201 0.4773479393 0.0064200633 0.4770505203 0.0067440979 -0.2417167412 0.0175259309
15299910.0 -0.2331049857 0.0298348197 0.4804872209 0.0072979224 0.4806409264 0.0074426199 -0.2374773454 0.0266955822
20299880.0 -0.2275483743 0.0378763803 0.4851375335 0.0078339781 0.4855219298 0.008114144 -0.2330481489 0.0341605793
25299850.0 -0.2217642997 0.0442529859 0.4906161226 0.0068360266 0.490653865 0.0068097677 -0.2278182465 0.0401985233
30299820.0 -0.2158530268 0.0495495931 0.4962126867 0.0050904945 0.495665582 0.0049201935 -0.2226651244 0.0449802532
35299790.0 -0.2099274072 0.0539224867 0.5012100504 0.0017404032 0.5014264423 0.0018565245 -0.2173439909 0.0485945622
40299760.0 -0.2047689192 0.0570458191 0.5064728334 -0.0022155756 0.5064103178 -0.0022454564 -0.2127838277 0.0520339212
45299730.0 -0.1994723066 0.0600962079 0.5109708957 -0.0074919635 0.511145005 -0.0067155044 -0.2081479772 0.0543552106
50299700.0 -0.1946192523 0.0618669187 0.515091186 -0.0124879404 0.5151104162 -0.0129322047 -0.2039786496 0.0565175718
55299670.0 -0.1905110053 0.0638724268 0.5186017401 -0.0186882413 0.5189337719 -0.0185613215 -0.2000402655 0.0581347823
60299640.0 -0.1863975005 0.0650807211 0.5220792783 -0.0246653733 0.5220599431 -0.0247505338 -0.1961897526 0.0594846631
65299610.0 -0.1830774827 0.0663872506 0.5249593485 -0.0307810828 0.5251395855 -0.0312389847 -0.192844996 0.0606384111
70299580.0 -0.1797351617 0.0672738577 0.5274182733 -0.0373397827 0.5272246138 -0.0377859194 -0.1902330223 0.06150909
75299550.0 -0.1765034215 0.0679464933 0.5291372783 -0.0445892265 0.5290394069 -0.0447297973 -0.1872082103 0.0625063387
80299520.0 -0.1738593374 0.0691959782 0.5312796984 -0.0517282619 0.5314334515 -0.0512673485 -0.1850463001 0.0628443467
85299490.0 -0.1715101134 0.0694890898 0.5323437391 -0.05823779 0.5324503138 -0.0584850694 -0.1827039194 0.0638417499
90299460.0 -0.1693935452 0.0701377935 0.53345239 -0.0652285086 0.5336952218 -0.0651833401 -0.1799804012 0.0642062229
95299430.0 -0.1670448075 0.070854454 0.5346870553 -0.0722984461 0.5344270724 -0.0723078478 -0.1782479164 0.065053377
100299400.0 -0.165455475 0.0718855563 0.5347256216 -0.079102562 0.5346313014 -0.079039766 -0.1771976808 0.0654567621
105299370.0 -0.1633989726 0.0722784565 0.5343018561 -0.0856546773 0.535051805 -0.0859349424 -0.1752589778 0.0661365001
110299340.0 -0.1620136911 0.0729846194 0.5348979426 -0.0923743886 0.5352246831 -0.0929791292 -0.1737399906 0.0669834775
115299310.0 -0.1602758284 0.0734989844 0.5349350206 -0.099330823 0.5352354566 -0.0993931028 -0.1722285662 0.0672666738
120299280.0 -0.1590945575 0.0745071622 0.5349907923 -0.106650951 0.5349527478 -0.1063387111 -0.1711782245 0.0677226681
125299250.0 -0.1578533704 0.0751255158 0.5343709899 -0.1129364141 0.5352004804 -0.1132661254 -0.1702146348 0.0683064427
130299220.0 -0.1565532903 0.0760413902 0.5337153752 -0.1194589962 0.5339912974 -0.1196664721 -0.1690667359 0.0694937799
135299190.0 -0.1554161987 0.0767043956 0.5334509613 -0.1261555873 0.5328090846 -0.1263033954 -0.1679991399 0.070263676
140299160.0 -0.1543231904 0.078086148 0.5324532051 -0.133129385 0.5325441724 -0.1331767421 -0.1667232104 0.0710988623
145299130.0 -0.1530639171 0.078910073 0.5320742625 -0.1393641238 0.5314689729 -0.139404077 -0.1661531097 0.0717037036
150299100.0 -0.1521265733 0.0798214018 0.5305519781 -0.1461468292 0.5303828114 -0.1462760676 -0.1650276336 0.0724821475
155299070.0 -0.1512468466 0.0814270139 0.5291002459 -0.1530594126 0.5293532839 -0.1528892214 -0.1648183768 0.0734914171
160299040.0 -0.1502677849 0.0821135774 0.5278540762 -0.1586251879 0.5278560518 -0.1590252571 -0.1634537776 0.0746176978
165299010.0 -0.1491948389 0.083267941 0.5263107294 -0.1656692036 0.5264612498 -0.1657233023 -0.162621671 0.0755900033
170298980.0 -0.1486126084 0.0844277727 0.5244840475 -0.171531635 0.5247784296 -0.1719326962 -0.1616413393 0.0764287288
175298950.0 -0.1472976846 0.0855795006 0.5234307029 -0.1779264954 0.5235406014 -0.1779121974 -0.1613665941 0.0771161917
180298920.0 -0.146480988 0.0868724497 0.5214614094 -0.184845181 0.5217636314 -0.1843158472 -0.1604718882 0.078756666
185298890.0 -0.1453322581 0.0880190873 0.5194605406 -0.1910188743 0.5199437623 -0.1904752632 -0.1595613191 0.0796354284
190298860.0 -0.1443852444 0.0893547409 0.5175045403 -0.197046685 0.5175610193 -0.1970530721 -0.1580625017 0.0807912548
195298830.0 -0.1434643113 0.0903142001 0.5155676374 -0.202631556 0.5155932256 -0.2031912844 -0.1579303455 0.0815815434
200298800.0 -0.1424519063 0.0916543494 0.5138254185 -0.2086620937 0.5137672408 -0.2089737394 -0.1569441373 0.0833265654
205298770.0 -0.1417372134 0.0931025223 0.5115998119 -0.2149288795 0.5114376623 -0.2150215859 -0.1562731177 0.0839943375
210298740.0 -0.1411108057 0.0941384462 0.5095186273 -0.2211324213 0.509467059 -0.2211015276 -0.1556677581 0.0855262667
215298710.0 -0.139806927 0.095880892 0.507063188 -0.227292254 0.5070072657 -0.2266583685 -0.1551847088 0.0868728323
220298680.0 -0.1388991795 0.0969561877 0.504564278 -0.2328505396 0.5043911221 -0.2329428787 -0.1541002258 0.0882319906
225298650.0 -0.1375783378 0.0985894223 0.501826656 -0.2382721215 0.5021421533 -0.2383657355 -0.1535876467 0.0894566764
230298620.0 -0.1368950864 0.0998300981 0.499906208 -0.2444327615 0.4996200803 -0.2441353989 -0.1526480414 0.0903022752
235298590.0 -0.135993321 0.1011379657 0.4970641582 -0.2499705053 0.4972437921 -0.2504714891 -0.1517381142 0.0915712797
240298560.0 -0.1351294778 0.1025645912 0.4950017719 -0.2556704395 0.4946225423 -0.2556193848 -0.1509593525 0.0929318621
245298530.0 -0.1337334852 0.1041073603 0.4907105929 -0.2617101099 0.4916192012 -0.2616168611 -0.150051467 0.0947754754
250298500.0 -0.1328343992 0.1053762151 0.4883132674 -0.2666797851 0.4888572216 -0.2669557607 -0.1489498075 0.0961828739
255298470.0 -0.131885717 0.1067554317 0.4856594728 -0.2730430724 0.4859116308 -0.2726869611 -0.148115307 0.0967088963
260298440.0 -0.1310805773 0.1077898277 0.483330047 -0.2780859612 0.4828870282 -0.2785105288 -0.1470432954 0.0983198703
265298410.0 -0.1293193568 0.1100344458 0.4795626106 -0.2845254036 0.4794520259 -0.2842125984 -0.1463133984 0.0995579194
270298380.0 -0.1282273201 0.1110497098 0.4761848585 -0.2894272043 0.4768806292 -0.2896075154 -0.1455474828 0.1014213328
275298350.0 -0.1273826972 0.1123821734 0.4736387551 -0.2950119148 0.4740274278 -0.2950253688 -0.144336818 0.102460551
280298320.0 -0.1265283421 0.1140669804 0.4703678658 -0.2995239028 0.470065536 -0.3002210077 -0.1434656816 0.1037846578
285298290.0 -0.1249008275 0.1153918078 0.4669777894 -0.3050392941 0.46668029 -0.3054136053 -0.1426035116 0.1052048212
290298260.0 -0.1236504122 0.1166519793 0.4638847574 -0.3106122076 0.4637455053 -0.3108093898 -0.1414344045 0.1066563391
295298230.0 -0.1226831821 0.1181760544 0.4606832449 -0.3162060342 0.4599062911 -0.3161540792 -0.140308604 0.107764163
300298200.0 -0.1208543988 0.119555435 0.4567416013 -0.3214382144 0.4570933075 -0.3216423237 -0.1394911691 0.1093230229
305298170.0 -0.1197602005 0.1207754283 0.4535951589 -0.3266584631 0.454023937 -0.3269053253 -0.137811873 0.1110114715
310298140.0 -0.1181285223 0.1218187994 0.4501322008 -0.3318604365 0.450287808 -0.3321749542 -0.1374045679 0.1124222828
315298110.0 -0.117203748 0.1233718647 0.4461315929 -0.3368296794 0.4466327203 -0.3371333286 -0.135819703 0.113338455
320298080.0 -0.1157632855 0.124640395 0.4427597374 -0.342413081 0.4426475413 -0.3420618428 -0.1349935433 0.1147352346
325298050.0 -0.1148738224 0.1257612365 0.4392020395 -0.3470879466 0.4387059022 -0.3472558842 -0.1337965562 0.1159392299
330298020.0 -0.1136345943 0.1272816251 0.4345975111 -0.3523789339 0.4344039383 -0.3522873019 -0.1330580303 0.1170675181
335297990.0 -0.112212617 0.128195027 0.4307357276 -0.3570664649 0.4305553031 -0.3572846125 -0.1323964274 0.1185034247
340297960.0 -0.1112514192 0.1297133353 0.4264522992 -0.3617054449 0.4267930683 -0.3616740777 -0.1311780177 0.1200753014
345297930.0 -0.1102868627 0.1312955235 0.4227836937 -0.3661688397 0.4221092402 -0.3660513022 -0.1301021218 0.1211727795
350297900.0 -0.1081936439 0.1327296855 0.4180047076 -0.3706643763 0.4184076022 -0.3710389563 -0.1289688879 0.123149356
355297870.0 -0.1071655483 0.1335758262 0.4137710544 -0.375451835 0.4141851865 -0.3757737843 -0.1278380351 0.124222468
360297840.0 -0.1055847395 0.1352738215 0.4099451336 -0.3801938481 0.4099733395 -0.3802095511 -0.1265270622 0.1258813078
365297810.0 -0.1041725693 0.1363655376 0.4057549564 -0.3848337427 0.4055285653 -0.3845620623 -0.1256445024 0.1275960718
370297780.0 -0.1025213742 0.1375323735 0.4014245655 -0.3889385092 0.4016703132 -0.3895756533 -0.1242627223 0.1289876723
375297750.0 -0.1012151512 0.1394482235 0.3976323029 -0.3934767134 0.3971513674 -0.3938038916 -0.1229816297 0.1302114607
380297720.0 -0.0999503481 0.1402221341 0.3928537518 -0.397582777 0.3930737388 -0.3977132926 -0.1217150301 0.1318201798
385297690.0 -0.0979982609 0.1416475006 0.3881870955 -0.4017141479 0.3885154211 -0.4022357675 -0.1208460264 0.133480789
390297660.0 -0.0965700104 0.1427974774 0.3838708368 -0.4067334728 0.3840539471 -0.4070647143 -0.1193746156 0.1342219283
395297630.0 -0.0948638484 0.1441090368 0.3796993259 -0.4102583199 0.3794791084 -0.4107139616 -0.1182523969 0.1359654181
400297600.0 -0.0935756918 0.145408843 0.3751676716 -0.4146441036 0.375310075 -0.4149435085 -0.1170234529 0.1370632801
405297570.0 -0.0917511598 0.1465581249 0.3703130179 -0.4187417961 0.370502865 -0.4191988736 -0.1157722752 0.1386908864
410297540.0 -0.089843319 0.1476005079 0.3651983773 -0.4225672606 0.3657424903 -0.4228931465 -0.1145714728 0.1398831779
415297510.0 -0.0886798126 0.149114205 0.3608428064 -0.4265142397 0.3615104985 -0.4267454621 -0.1134375104 0.1412770334
420297480.0 -0.0870122438 0.1495503802 0.356341293 -0.4305331342 0.3564757973 -0.4305578761 -0.1116624444 0.1421367534
425297450.0 -0.0850672551 0.1507555583 0.3518723751 -0.4347560824 0.352095062 -0.4346368201 -0.1104998507 0.1439139844
430297420.0 -0.0835617096 0.1520735223 0.3473087908 -0.4387611701 0.3470541592 -0.43844697 -0.1092719614 0.1448104935
435297390.0 -0.0817642534 0.153194489 0.34230976 -0.4421340154 0.342213885 -0.4419538089 -0.1077749717 0.1464650811
440297360.0 -0.0798585488 0.1539592966 0.3369461371 -0.4455274629 0.337085818 -0.4459591809 -0.1064537269 0.1472982491
445297330.0 -0.0780292047 0.1552238812 0.3318836516 -0.4500817973 0.3323633999 -0.4494961312 -0.105134705 0.148734203
450297300.0 -0.0764885405 0.156105369 0.3274551207 -0.4531948936 0.3276813406 -0.4530470227 -0.1036828172 0.1496951066
455297270.0 -0.0750009447 0.1569563334 0.3228867808 -0.456569265 0.3228253943 -0.4565482529 -0.1020785956 0.1511592475
460297240.0 -0.0734957025 0.1580018187 0.3178995968 -0.4598257786 0.3172294636 -0.4602822017 -0.1002501054 0.15241114
465297210.0 -0.0711064389 0.1589632047 0.3124044854 -0.4636728257 0.3129631259 -0.4637295492 -0.0996355713 0.1534291943
470297180.0 -0.0696454149 0.1597851896 0.307569302 -0.4666770222 0.3076568544 -0.4670198951 -0.0983741727 0.1545960808
475297150.0 -0.0678749107 0.1604656379 0.3022585512 -0.4699299542 0.3025767049 -0.4695203395 -0.0965724248 0.1558248021
480297120.0 -0.0656098332 0.1612412563 0.2969151303 -0.4732184241 0.2971781514 -0.4732364998 -0.0949911029 0.1574430963
485297090.0 -0.063780297 0.1624184809 0.2919798005 -0.4768499044 0.2917935131 -0.4766886405 -0.0937379778 0.1579022425
490297060.0 -0.0622296809 0.1630388909 0.2867522995 -0.4795604946 0.2870899627 -0.4796757312 -0.092011728 0.1593622304
495297030.0 -0.0605398147 0.1643546495 0.2815974844 -0.482747815 0.2814208491 -0.4826981651 -0.090588538 0.16009539
500297000.0 -0.0583517836 0.1648234287 0.2759245363 -0.4860441901 0.2761929644 -0.4857606354 -0.0895759577 0.1612083055
505296970.0 -0.0570288363 0.1653823149 0.2705988065 -0.4883494584 0.2706280564 -0.4884419536 -0.0881975296 0.1625554192
510296940.0 -0.0550817836 0.1664891375 0.2654403314 -0.4914530181 0.2654373769 -0.4916780555 -0.0858957084 0.1636396971
515296910.0 -0.0534576651 0.1672186689 0.2598539938 -0.494242545 0.2604127334 -0.4944634599 -0.0846577175 0.1646344838
520296880.0 -0.0514935629 0.1679660652 0.2550724029 -0.4970487445 0.2550649559 -0.4973176033 -0.0829866643 0.1653738271
525296850.0 -0.0495029489 0.1683043308 0.2492163999 -0.4998366262 0.2492908762 -0.4999199321 -0.0812884775 0.1662715295
530296820.0 -0.0474922344 0.1691237227 0.2444073921 -0.5020790351 0.2437757212 -0.5022412855 -0.080095923 0.1670591551
535296790.0 -0.0457337894 0.1697160141 0.2380720577 -0.5043895876 0.2385136436 -0.5048490548 -0.0786359308 0.1680706745
540296760.0 -0.0440390572 0.1702504383 0.2329573556 -0.5077702187 0.2328576219 -0.5081681113 -0.0771818189 0.1695124521
545296730.0 -0.0419600895 0.1710743868 0.2273926279 -0.5097517536 0.2275489024 -0.5103746807 -0.0754253811 0.1697269871
550296700.0 -0.0401479501 0.171612558 0.2218627212 -0.5127565744 0.2220823311 -0.5128332564 -0.0737831578 0.1711172234
555296670.0 -0.037846985 0.1720017076 0.2160556344 -0.5151481033 0.2165167797 -0.5149272516 -0.07246692 0.1720843197
560296640.0 -0.036214494 0.1726508573 0.210562924 -0.5170098464 0.2110724801 -0.5165941998 -0.0706368247 0.173013816
565296610.0 -0.0348507818 0.1730895528 0.205303294 -0.5191701643 0.2050248866 -0.5192508102 -0.0690686037 0.1733533982
570296580.0 -0.0320433093 0.1736256791 0.1994466447 -0.5215660998 0.1996827717 -0.5213402181 -0.0673633005 0.1750100724
575296550.0 -0.0303665498 0.1745223579 0.193675544 -0.5231994196 0.1942401019 -0.5236309168 -0.0654206709 0.1751942209
580296520.0 -0.0285777362 0.1746236464 0.1883192351 -0.5256835883 0.1882046333 -0.5255874413 -0.0639675163 0.1760050751
585296490.0 -0.0264066991 0.1748106091 0.1827940948 -0.5275808729 0.182783878 -0.5275282074 -0.0625283643 0.1764116318
590296460.0 -0.0247595229 0.1751737937 0.1764396646 -0.5292298914 0.1766461856 -0.5295695196 -0.0606800477 0.1776378041
595296430.0 -0.0227206317 0.1757645213 0.1710870988 -0.53120001 0.1709551125 -0.5315206387 -0.0589130442 0.1778497138
600296400.0 -0.0206948061 0.1764813554 0.1654245875 -0.5330877708 0.1656758267 -0.5331758493 -0.0573226903 0.1793995213
605296370.0 -0.01861086 0.1769650455 0.1595052968 -0.5350734258 0.1595547908 -0.5348558843 -0.0557358207 0.1797910665
610296340.0 -0.0169019339 0.1772012051 0.1538493817 -0.5362288054 0.1542835862 -0.5365116782 -0.0539651784 0.1807149774
615296310.0 -0.0148597881 0.1773867965 0.1478611164 -0.5379529027 0.1479382318 -0.538119683 -0.0520956833 0.1813975865
620296280.0 -0.0126823771 0.1776995075 0.1421405318 -0.5395464996 0.1419139827 -0.5397352482 -0.0504196234 0.1813381213
625296250.0 -0.0107314317 0.1778956831 0.136002576 -0.5412772878 0.1363099312 -0.5414187818 -0.0486953925 0.182628022
630296220.0 -0.0086481598 0.1782940201 0.1302688476 -0.5426969015 0.1306400067 -0.5428753089 -0.0469895712 0.1833494798
635296190.0 -0.0069074484 0.1787656719 0.1242371414 -0.5439254746 0.1243754932 -0.543734476 -0.0450517438 0.183493642
640296160.0 -0.0049512973 0.1785664348 0.1187006201 -0.5447548734 0.1187410482 -0.545359594 -0.0433132815 0.1840633848
645296130.0 -0.0029659143 0.1789268486 0.1124724214 -0.5466204771 0.1129122458 -0.5461293438 -0.0421292854 0.1843754698
650296100.0 -0.0011407131 0.1794616846 0.1069849224 -0.5470520308 0.1065842314 -0.5471843393 -0.0402155175 0.1851224564
655296070.0 0.0011577009 0.1793147271 0.1010773998 -0.5481450975 0.1010613315 -0.5487270065 -0.0380887166 0.186227327
660296040.0 0.0027312844 0.1799115757 0.0951217519 -0.5496214803 0.0955916716 -0.5494674422 -0.0369806665 0.1861258774
665296010.0 0.0052135131 0.1796117259 0.0892805145 -0.550199566 0.0897280184 -0.5507470622 -0.0351489744 0.1871100507
670295980.0 0.007553955 0.1797965839 0.083217391 -0.5514127536 0.0837284512 -0.5512582269 -0.0332212584 0.1872351749
675295950.0 0.0092818085 0.179827565 0.077455872 -0.5520099312 0.0774562321 -0.5527788446 -0.0313092354 0.1878955714
680295920.0 0.0111206327 0.1801940972 0.0712393275 -0.5533947673 0.0711239396 -0.5534407194 -0.0295052691 0.1883844364
685295890.0 0.0130664763 0.1800221746 0.0655766626 -0.5534711921 0.064887253 -0.5541183733 -0.027591522 0.1890067343
690295860.0 0.0153626839 0.1800300072 0.0596652219 -0.5537611836 0.0592990242 -0.5542440365 -0.0256675958 0.1892773169
695295830.0 0.0174648882 0.1797095245 0.0528989567 -0.5546381663 0.0530967751 -0.5549866559 -0.0244294856 0.1896484218
700295800.0 0.0194087158 0.1798680633 0.0470733052 -0.5552593939 0.0472330496 -0.5561218282 -0.0224857806 0.1897704803
705295770.0 0.0213707549 0.1798168683 0.0413042741 -0.5556729306 0.0414704191 -0.5561317889 -0.0206968873 0.1904886453
710295740.0 0.0232824144 0.1800192664 0.0351211078 -0.5561215751 0.0353213698 -0.556283425 -0.019456893 0.1910411072
715295710.0 0.0255431855 0.1796981508 0.0292570409 -0.5566598631 0.0297366119 -0.5566009841 -0.0170300242 0.1905942911
720295680.0 0.0271181253 0.1793799881 0.0234303061 -0.556329869 0.0233743797 -0.5572580733 -0.0148798376 0.1914496862
725295650.0 0.0295322461 0.1792688672 0.0167751423 -0.5564597055 0.0169935429 -0.5571244695 -0.0127440907 0.1916887758
730295620.0 0.0311723996 0.1792461247 0.0111521119 -0.5571724331 0.0110417493 -0.5570662289 -0.0112536396 0.191322795
735295590.0 0.0336743349 0.1790566015 0.0056688002 -0.557113983 0.0054419892 -0.5573735408 -0.0097158967 0.1920657716
740295560.0 0.0354734163 0.1789602721 -0.0007784943 -0.556865238 -0.0008643218 -0.5570687265 -0.007362 0.1921877013
745295530.0 0.0375329113 0.1781982158 -0.0068436455 -0.5570979491 -0.0068209193 -0.5575253847 -0.0059707001 0.1927173035
750295500.0 0.039422306 0.1781991499 -0.0124485223 -0.5568062549 -0.012614663 -0.5572330516 -0.0041403204 0.1922206639
755295470.0 0.0420011718 0.1780821098 -0.0187441498 -0.5564887649 -0.0187271957 -0.5569208072 -0.0024209958 0.1928731839
760295440.0 0.0433890417 0.1775598821 -0.0248866063 -0.5563251371 -0.0245865996 -0.5564604766 -0.0005788888 0.1929463871
765295410.0 0.0452011369 0.1771029845 -0.0302057509 -0.5556312933 -0.0306585811 -0.556398076 0.0018727286 0.1935715011
770295380.0 0.0477850213 0.1771512856 -0.0364819812 -0.5555444091 -0.0367301281 -0.5559044492 0.0040359433 0.193259831
775295350.0 0.0494713611 0.1767051796 -0.0425943947 -0.5550855342 -0.0423153339 -0.5554894239 0.0050987077 0.1934163971
780295320.0 0.0516717852 0.1761901051 -0.047918054 -0.5547611234 -0.0482865155 -0.5549682525 0.0071210958 0.1937805086
785295290.0 0.0533236138 0.1759829662 -0.054497531 -0.553273143 -0.0544063378 -0.5543039495 0.0085936626 0.1936319126
790295260.0 0.0552958549 0.1755084526 -0.060342451 -0.5535077964 -0.0603817378 -0.5537361665 0.0110594961 0.1937095483
795295230.0 0.057314303 0.1750102379 -0.065976422 -0.5524275789 -0.0660213085 -0.5530523931 0.0128240724 0.1943773309
800295200.0 0.0594030382 0.1746818215 -0.0724617261 -0.5521184902 -0.0725521962 -0.5519956553 0.0146564468 0.1940634606
805295170.0 0.0610932024 0.1741677999 -0.0783622066 -0.5509576771 -0.0781176876 -0.551177262 0.0160198575 0.193644905
810295140.0 0.0631425077 0.1734898141 -0.0841118653 -0.5502708327 -0.0840518972 -0.5506831844 0.0183106858 0.1941994532
815295110.0 0.0651654383 0.1730135858 -0.0903485006 -0.549042037 -0.090285489 -0.5492890005 0.0198731067 0.19387534
820295080.0 0.0670769218 0.172163764 -0.0959452574 -0.5482846851 -0.0962844831 -0.5484631162 0.021648339 0.1936935819
825295050.0 0.0692210551 0.1714620892 -0.1014666647 -0.5468014092 -0.1020243174 -0.5475240974 0.0238403279 0.1939961505
830295020.0 0.0707716698 0.171177972 -0.1076250761 -0.546049373 -0.108019161 -0.5464890388 0.0257287755 0.1937121785
