!Created with skrf (http://scikit-rf.org).
# Hz S RI R 50.0 
!freq ReS11 ImS11 ReS21 ImS21 ReS12 ImS12 ReS22 ImS22
300000.0 -0.2361027865 -0.1094418478 0.4674375001 0.0696367768 0.4702415315 0.0728908758 -0.2373307742 -0.1109655657
5299970.0 -0.2408200209 0.0071163948 0.4752312616 0.005421115 0.4752855082 0.0059473777 -0.2447896973 0.0055061873
10299940.0 -0.2372585431 0.0199779917 0.4773256387 0.0063243334 0.4770408025 0.0061178754 -0.2417571591 0.0177224148
15299910.0 -0.2331536426 0.0297993985 0.480425191 0.0075551384 0.4806859289 0.0079198646 -0.2376849387 0.0264384832
20299880.0 -0.2275259281 0.0379865741 0.4853692419 0.0081712376 0.4855036795 0.0079907661 -0.2330351699 0.033980431
25299850.0 -0.2217600877 0.0443316176 0.4906751742 0.0070038467 0.4905528255 0.0071451829 -0.2279835361 0.0400736605
30299820.0 -0.2156798267 0.049334477 0.4957993806 0.005168123 0.4956079203 0.0049633122 -0.2225778081 0.04502465
35299790.0 -0.2101017761 0.0539175534 0.5016659138 0.0018277875 0.5010946609 0.0017115035 -0.217439686 0.0485414025
40299760.0 -0.2045683223 0.0569672454 0.5063047574 -0.0020832592 0.5065598295 -0.002245535 -0.2126599734 0.0522439057
45299730.0 -0.1995365471 0.0600923465 0.5110005 -0.0073059539 0.5112996828 -0.006730711 -0.2080797306 0.0545894974
50299700.0 -0.1947934935 0.062063426 0.5148881016 -0.012252515 0.5151573146 -0.0126605047 -0.2034032074 0.0564648045
55299670.0 -0.1907462286 0.0637916641 0.5185074305 -0.0188607637 0.5189729322 -0.0185617973 -0.2000560582 0.0577951889
60299640.0 -0.1863093717 0.0648801572 0.5216467272 -0.0249819785 0.5220541506 -0.024753153 -0.196326621 0.0593460608
65299610.0 -0.183077649 0.0665058071 0.5251797023 -0.0309087503 0.5250817919 -0.0310931865 -0.1927032459 0.0607750152
70299580.0 -0.1798239211 0.0669330984 0.5276469052 -0.0378855728 0.527375212 -0.0376915898 -0.1899733185 0.0613765423
75299550.0 -0.1767044851 0.0679615142 0.5289119969 -0.044563123 0.5292983998 -0.044831581 -0.187258258 0.062627216
80299520.0 -0.1741270566 0.0691389269 0.5317671395 -0.051396926 0.5313873046 -0.0515138483 -0.1848717732 0.0628892343
85299490.0 -0.1711914811 0.0691193868 0.5323786394 -0.0583346471 0.5324669954 -0.0583989013 -0.1825852915 0.0634596395
90299460.0 -0.1696505762 0.0702453183 0.5335367252 -0.0650587122 0.5336123181 -0.0653295578 -0.1800826705 0.0642293629
95299430.0 -0.1672116055 0.0710756736 0.5343957146 -0.072745984 0.5345251673 -0.0723945792 -0.1783831911 0.0652213206
100299400.0 -0.165192791 0.0718634825 0.5345083577 -0.0791994244 0.5346946171 -0.0792292914 -0.1769366231 0.0657007164
105299370.0 -0.1636249941 0.0725719828 0.5348802322 -0.0859003831 0.535101963 -0.0860071771 -0.1748120416 0.0662450793
110299340.0 -0.1619865409 0.0729801327 0.5348286535 -0.0925646225 0.5351046543 -0.0931511905 -0.1738232796 0.0670094944
115299310.0 -0.1600526902 0.0733645067 0.535003528 -0.0988689557 0.5353217407 -0.0995744046 -0.1721393859 0.0671944697
120299280.0 -0.1591724942 0.0745064748 0.5347920094 -0.1063621176 0.534801487 -0.1066121991 -0.1709997724 0.0679199989
125299250.0 -0.1577940693 0.0753405914 0.5344842684 -0.1134002984 0.53454984 -0.1130957656 -0.1696480554 0.0681792989
130299220.0 -0.156635435 0.0762057215 0.534065673 -0.1193982318 0.5340006989 -0.1198064227 -0.1688791384 0.0693722543
135299190.0 -0.1554253523 0.0768253909 0.5332480517 -0.1263140461 0.5330891441 -0.1263332846 -0.1679548374 0.0700156466
140299160.0 -0.1543888792 0.0781056155 0.5326893789 -0.1330978505 0.532591558 -0.1333640699 -0.1668657879 0.0712114794
145299130.0 -0.1529757115 0.0788668964 0.5317848022 -0.1398702065 0.5312484555 -0.1392564277 -0.1662702703 0.0715691796
150299100.0 -0.1520940264 0.0798552162 0.530548395 -0.1463291593 0.53075166 -0.1460735696 -0.1651728108 0.0725230667
155299070.0 -0.1511741406 0.0813805371 0.5293389061 -0.1528642742 0.52928228 -0.15308234 -0.1644899739 0.0737146918
160299040.0 -0.1499627572 0.0820905489 0.5273286606 -0.1587429981 0.5276904027 -0.1591153085 -0.1634662855 0.0749287145
165299010.0 -0.1492157775 0.0830386816 0.5266171148 -0.165333377 0.5263016403 -0.1657692375 -0.1626894518 0.075609816
170298980.0 -0.1485744473 0.0844158186 0.5244730835 -0.1719726081 0.5247073668 -0.1719212526 -0.1619041171 0.0765008505
175298950.0 -0.1475800773 0.0855851497 0.5236564678 -0.177802057 0.523333747 -0.1781373235 -0.1609740273 0.077553335
180298920.0 -0.1462520534 0.0868194048 0.5218558068 -0.1847101804 0.5216557586 -0.1841357619 -0.1602050118 0.0788340099
185298890.0 -0.1452227071 0.0877048457 0.5193949794 -0.190892041 0.5195822582 -0.1906882958 -0.1595515239 0.0796144435
190298860.0 -0.1445539951 0.089006056 0.5178518905 -0.1967672831 0.5179114852 -0.1968339613 -0.1584733699 0.0806522103
195298830.0 -0.1433475546 0.0900559011 0.5153807927 -0.2025851358 0.5159211279 -0.2033222329 -0.1579463194 0.0817389328
200298800.0 -0.1425418134 0.0918593206 0.5138461202 -0.2086318199 0.5138158163 -0.2086343212 -0.1570494113 0.0833317668
205298770.0 -0.1417595437 0.092993884 0.5116427625 -0.2148228144 0.5120734772 -0.2149772943 -0.1565648998 0.0838595103
210298740.0 -0.1408282041 0.0942492168 0.509488715 -0.2216491342 0.509403739 -0.2211373749 -0.155642598 0.0854162401
215298710.0 -0.1396152014 0.0954300286 0.5071321869 -0.2269623853 0.5068274675 -0.2264767734 -0.1550535848 0.0865826908
220298680.0 -0.1389784869 0.0970313356 0.5044361903 -0.2326556161 0.5043347433 -0.2326683818 -0.153831767 0.0880836657
225298650.0 -0.1374896695 0.0983971774 0.5017650519 -0.2384608532 0.5018208146 -0.2384676271 -0.1535723463 0.0895499785
230298620.0 -0.1368415038 0.0998067202 0.4997137008 -0.2440589699 0.4997172747 -0.2444781308 -0.152540057 0.0905292901
235298590.0 -0.1360126834 0.1010236867 0.4968263994 -0.2502442566 0.4969797462 -0.2507794797 -0.1516827304 0.0916143023
240298560.0 -0.1351104511 0.1025618896 0.494039559 -0.2555602025 0.4941750546 -0.2557730142 -0.1510978284 0.093008635
245298530.0 -0.1338054488 0.103797966 0.4908012076 -0.2617362107 0.4913308551 -0.2617034045 -0.1501055094 0.0947146691
250298500.0 -0.1329425754 0.1051625787 0.4885459596 -0.2665823806 0.4890134967 -0.2665361725 -0.1491019453 0.0955749554
255298470.0 -0.1318122496 0.1067835583 0.4852507373 -0.2732097046 0.4860415039 -0.2724792774 -0.1482242191 0.0967784166
260298440.0 -0.1308833377 0.1083992698 0.4829054846 -0.2783960066 0.4828042846 -0.2784660657 -0.1469103487 0.0982712384
265298410.0 -0.1294661368 0.1098803671 0.4795309509 -0.2844146695 0.4796392001 -0.2839864643 -0.1462472846 0.0997875751
270298380.0 -0.1284175119 0.1109443372 0.476162507 -0.2893049679 0.4770195708 -0.2892363376 -0.1455070224 0.1010593372
275298350.0 -0.1272674378 0.1123855184 0.4733975749 -0.2949182318 0.4739854809 -0.2951872171 -0.1444433241 0.1026744646
280298320.0 -0.1263456467 0.1138708052 0.4704382624 -0.2994641126 0.4703430936 -0.3001663304 -0.1433906253 0.1038019907
285298290.0 -0.1248065175 0.1153375386 0.4668374841 -0.3049369886 0.4669077291 -0.3054096362 -0.1426144909 0.105249971
290298260.0 -0.1235711788 0.116648467 0.4636914968 -0.3104755595 0.4637134927 -0.3105572731 -0.1412944222 0.1067158002
295298230.0 -0.1223806819 0.1181282565 0.4606607064 -0.3160674156 0.4599993613 -0.3160511924 -0.1403317007 0.1077731053
300298200.0 -0.1208226883 0.1192925951 0.456541725 -0.3213437938 0.4571094816 -0.321429116 -0.1395311743 0.1094692148
305298170.0 -0.1196879736 0.1205640438 0.4535073406 -0.3262154472 0.4533510869 -0.3267475537 -0.1379443187 0.1107734519
310298140.0 -0.1181734682 0.1218346215 0.4500956248 -0.332097586 0.4501706068 -0.3317864627 -0.1372369485 0.1125370496
315298110.0 -0.1175277881 0.1231994175 0.4464371953 -0.3370074758 0.4466564208 -0.3372696642 -0.1357458487 0.1131860213
320298080.0 -0.1158425933 0.1244665993 0.4427150937 -0.3422085317 0.4427563995 -0.3420800803 -0.1350797584 0.1147288223
325298050.0 -0.114793456 0.1254448243 0.4390762969 -0.3470366198 0.4390434451 -0.347124864 -0.1339741071 0.1156928939
330298020.0 -0.1135043746 0.1271642567 0.4340802002 -0.3527466616 0.4343725182 -0.3523399364 -0.13325045 0.1170738842
335297990.0 -0.1120516597 0.1281238979 0.4304403223 -0.357179826 0.4305691086 -0.3570923787 -0.1321687871 0.1184522494
340297960.0 -0.1115601674 0.1297733233 0.4262529022 -0.3615394722 0.4268015654 -0.3617700729 -0.1311578477 0.1198504127
345297930.0 -0.1101165779 0.1309943393 0.4225010659 -0.3660290519 0.4219812719 -0.3661366974 -0.1298002501 0.1212401459
350297900.0 -0.1080681172 0.1323923366 0.4179233059 -0.3707139442 0.4182284404 -0.3711066627 -0.1288480424 0.1227332809
355297870.0 -0.1073356828 0.1338164646 0.4141711465 -0.3751970887 0.4144659374 -0.375896335 -0.1279613475 0.1243412209
360297840.0 -0.1057465026 0.1351066619 0.4104001789 -0.3800054973 0.4098004123 -0.3803364847 -0.1264402742 0.1258061942
365297810.0 -0.1039642247 0.1364564182 0.4057897081 -0.385037422 0.4058994813 -0.3846982644 -0.1256098152 0.1276205302
370297780.0 -0.1025420366 0.1375413432 0.4012793044 -0.3888906361 0.4011836091 -0.3894979916 -0.1240849155 0.1288172563
375297750.0 -0.1012341933 0.1391565883 0.3976856774 -0.3936224251 0.3968038994 -0.3936119706 -0.1227985575 0.1301177847
380297720.0 -0.0994462332 0.1403454563 0.3927865669 -0.3973693701 0.3927662003 -0.3979694027 -0.1218636509 0.1319513207
385297690.0 -0.0981426213 0.1416932306 0.3885983982 -0.401650457 0.3881582658 -0.4019047477 -0.120990959 0.1330308243
390297660.0 -0.0967743202 0.1427356576 0.3839049538 -0.4065233381 0.3840590244 -0.4067518669 -0.1194506397 0.1341821913
395297630.0 -0.0949179396 0.1441688194 0.3798591993 -0.4107716376 0.3793727193 -0.4103421695 -0.1181667902 0.1358710567
400297600.0 -0.0932642729 0.1454559251 0.3752054934 -0.4150147195 0.3751744956 -0.4150400647 -0.1170307901 0.1367004588
405297570.0 -0.0915350365 0.14661329 0.370418063 -0.4189069439 0.3704761798 -0.4189835006 -0.1159565659 0.1384581112
410297540.0 -0.0900290666 0.1474996018 0.3653518355 -0.42265563 0.365412107 -0.4227914677 -0.1143221631 0.1397029009
415297510.0 -0.0887239554 0.1490459183 0.3615010142 -0.4267389185 0.3614622569 -0.4266034425 -0.1131960965 0.1409826327
420297480.0 -0.0865547176 0.1497773323 0.3559524314 -0.4308795167 0.356372472 -0.4305306501 -0.1114724826 0.1420209429
425297450.0 -0.0850327473 0.1505725458 0.3517242499 -0.4342495253 0.3519490072 -0.4347098713 -0.1101283778 0.1439044878
430297420.0 -0.0836195567 0.1520409341 0.3472505669 -0.4386882591 0.3470521549 -0.4385783303 -0.1091650926 0.1448231239
435297390.0 -0.0816976478 0.1529834951 0.342108863 -0.4418994349 0.3422248411 -0.4419088728 -0.1076314612 0.1464758623
440297360.0 -0.0797966034 0.15395302 0.3369206687 -0.4458678722 0.336637832 -0.4456998022 -0.1061802968 0.147120567
445297330.0 -0.078070446 0.1548692195 0.3319921135 -0.4500297427 0.3320228325 -0.4494076654 -0.1047601696 0.148391955
450297300.0 -0.0762906987 0.1559063327 0.3272693257 -0.4529465151 0.3272229485 -0.4534359504 -0.1036311776 0.1500413336
455297270.0 -0.0749421839 0.1568376143 0.3227232457 -0.456910767 0.3229168887 -0.4567737407 -0.101799992 0.151187346
460297240.0 -0.0732829403 0.1576930281 0.3172032371 -0.4598638718 0.3168057877 -0.4602861915 -0.1006293762 0.1529527747
465297210.0 -0.0708636305 0.1587881459 0.3121837575 -0.4638859014 0.312565055 -0.4635019218 -0.0993864901 0.1533798104
470297180.0 -0.0697064031 0.1597926233 0.3075871494 -0.4663409715 0.3073950789 -0.4668683145 -0.0983770805 0.1546828009
475297150.0 -0.0679879369 0.1604422931 0.3024933137 -0.4701612384 0.3022740063 -0.4698120422 -0.0962869391 0.1559191125
480297120.0 -0.0659467263 0.1612392095 0.2970022198 -0.4728060092 0.2973824192 -0.4736204548 -0.0951865722 0.1574274119
485297090.0 -0.063862635 0.1622879874 0.29188706 -0.4766316084 0.2920986376 -0.476719793 -0.0938292033 0.1578771271
490297060.0 -0.0623246057 0.1630113102 0.286967947 -0.4796233759 0.2866261717 -0.4798580684 -0.0920516707 0.15928076
495297030.0 -0.0606759518 0.1640291822 0.2810346004 -0.4826357713 0.2812509452 -0.4830071818 -0.0903689658 0.160153631
500297000.0 -0.0585732185 0.1647461013 0.2761599304 -0.4860044584 0.2762714795 -0.4855703722 -0.0893377921 0.1611990284
505296970.0 -0.0570472169 0.1652798209 0.2706024087 -0.4883719858 0.2705791679 -0.4885042496 -0.088084577 0.1626180281
510296940.0 -0.0549226314 0.1662796579 0.2657499384 -0.4913747576 0.265588879 -0.4917442469 -0.0863080748 0.1635615669
515296910.0 -0.053385466 0.1674471317 0.2596192309 -0.4944314165 0.2599801515 -0.4944562242 -0.0846553712 0.1646975244
520296880.0 -0.0510704143 0.1677130231 0.2546318434 -0.4972561863 0.25485295 -0.4972272611 -0.0830817338 0.1655085609
525296850.0 -0.0496271351 0.1682857621 0.2492275667 -0.4998861855 0.24959621 -0.4998728955 -0.0812652811 0.166401016
530296820.0 -0.0477296443 0.1691666366 0.2440460619 -0.5021558369 0.2436556546 -0.502477714 -0.0800612206 0.1670464134
535296790.0 -0.0456249038 0.1696701964 0.2381168124 -0.5047863909 0.2384381349 -0.5050243812 -0.0784153493 0.1678599864
540296760.0 -0.0438790386 0.1698007914 0.2327692232 -0.5077965332 0.2325987956 -0.5078097736 -0.077013312 0.1690973401
545296730.0 -0.0419074294 0.1709734206 0.2273710694 -0.5098867802 0.2274406171 -0.5104169904 -0.075404991 0.1697183004
550296700.0 -0.0400810581 0.171405039 0.2218478108 -0.5124263004 0.2223287626 -0.5125572187 -0.0738886555 0.171247426
555296670.0 -0.037804262 0.171804082 0.2161816258 -0.5146789325 0.2162673593 -0.5150824119 -0.0724056097 0.171987162
560296640.0 -0.0362800294 0.1724940783 0.210632986 -0.5170693158 0.21082318 -0.5170468451 -0.0705247084 0.1729890578
565296610.0 -0.0347181837 0.1730110854 0.2050510913 -0.5194416042 0.2047192975 -0.5197522802 -0.0691140849 0.1733858556
570296580.0 -0.032241689 0.1735304192 0.1987291351 -0.5211779079 0.1995340981 -0.5216431834 -0.0673049954 0.174844765
575296550.0 -0.0303737867 0.1743742841 0.1937914909 -0.5232381002 0.1943135096 -0.5234239816 -0.0654953428 0.1752662612
580296520.0 -0.0284671071 0.1747456184 0.1881819087 -0.52585264 0.1877426544 -0.5254303734 -0.0640609688 0.1761386486
585296490.0 -0.0264120023 0.1748643238 0.1826152388 -0.5274734819 0.1822034615 -0.5273316648 -0.0625634114 0.1763963538
590296460.0 -0.0247876513 0.1752252605 0.1767381823 -0.5294585201 0.1761827481 -0.5296631439 -0.0605156864 0.1774929569
595296430.0 -0.0227127924 0.1758206415 0.1709560105 -0.5312804966 0.1708817856 -0.5314547721 -0.0588735785 0.1779946855
600296400.0 -0.0206068021 0.1762441924 0.1649151824 -0.5332170719 0.1653406685 -0.5332425158 -0.0571769172 0.1791147585
605296370.0 -0.0185320655 0.176981234 0.159452642 -0.535108136 0.1593996343 -0.5347324571 -0.0556790844 0.1794767892
610296340.0 -0.0167921973 0.1770888999 0.1537904645 -0.5365310153 0.1537040127 -0.5366865678 -0.0539800866 0.1806966021
615296310.0 -0.0148857881 0.177761802 0.1476618582 -0.5379292378 0.1477778035 -0.5380259958 -0.0521044815 0.1809510968
620296280.0 -0.01303046 0.1775811751 0.1422285127 -0.5396422354 0.1421634309 -0.5396813609 -0.0503900797 0.1811905103
625296250.0 -0.0107021977 0.1779273981 0.1359098335 -0.5413822394 0.1363353779 -0.5412807826 -0.0487127046 0.1825720378
630296220.0 -0.0088912917 0.1784246786 0.1303863342 -0.5426457031 0.1303770703 -0.5427178137 -0.0471573124 0.1829182547
635296190.0 -0.0068170038 0.1786767473 0.1243704979 -0.5436947601 0.1244851709 -0.5434523506 -0.0455845154 0.1835414833
640296160.0 -0.005091946 0.1786163755 0.1187151248 -0.5450233415 0.1184895345 -0.5449857878 -0.0431192297 0.1841741117
645296130.0 -0.002704902 0.17895212 0.1123282223 -0.5464516649 0.1127362392 -0.5462011202 -0.0421934782 0.184432057
650296100.0 -0.0009990746 0.1794191786 0.1072254499 -0.5475305492 0.1069532221 -0.5472826636 -0.0404152954 0.1850994728
655296070.0 0.0008974385 0.1793326121 0.1011322707 -0.5485997138 0.100881882 -0.5483471996 -0.038068668 0.1859382931
660296040.0 0.0025419867 0.1798583318 0.0952549029 -0.5492249985 0.0950711515 -0.5493809127 -0.0366466045 0.1861611538
665296010.0 0.0052246506 0.1794592602 0.0891908408 -0.5501728734 0.0894832073 -0.5501825795 -0.0351428481 0.1868695035
670295980.0 0.0073666991 0.179685932 0.0829952768 -0.5514030745 0.0835051743 -0.5512196204 -0.0336927482 0.1870861429
675295950.0 0.0091602222 0.1796953196 0.0768768504 -0.5520963215 0.0773920502 -0.5524517494 -0.0312709033 0.1878179879
680295920.0 0.0112119283 0.1801460844 0.0710603331 -0.5533064129 0.0709886905 -0.5529376881 -0.0295363964 0.1879647969
685295890.0 0.0128979601 0.1798353194 0.0658939675 -0.5538799293 0.0652404196 -0.5537988358 -0.0278638331 0.1886778968
690295860.0 0.0153487638 0.1799816931 0.0589478988 -0.5540118572 0.0589438766 -0.5540459693 -0.0256926167 0.189398947
695295830.0 0.0174375886 0.1798308604 0.0524277459 -0.5548141114 0.052918156 -0.5552889195 -0.0242200415 0.1897359458
700295800.0 0.0194737082 0.1797934613 0.0469824627 -0.5552608002 0.0472016068 -0.5556695669 -0.0221050767 0.18963433
705295770.0 0.0214463388 0.1797997443 0.0409911012 -0.5556106421 0.0411431561 -0.5558325268 -0.0207828436 0.1903287323
710295740.0 0.0235088661 0.1800493458 0.0349582242 -0.5560114548 0.0353585107 -0.5561589137 -0.0193926147 0.190641624
715295710.0 0.025226889 0.1797402609 0.0291420833 -0.5569180854 0.0294137249 -0.5566622523 -0.0169336922 0.190618463
720295680.0 0.0270606821 0.1794097042 0.0228694533 -0.5568083437 0.0229780195 -0.5572932317 -0.0147144756 0.1915444182
725295650.0 0.029616351 0.1794565521 0.0168343358 -0.5569342234 0.0172217771 -0.557232546 -0.0133043925 0.1914911342
730295620.0 0.0309964177 0.1792464458 0.0111972366 -0.557198881 0.0111070465 -0.5570514049 -0.0112143518 0.1914593236
735295590.0 0.0337553744 0.1789192012 0.0051835357 -0.557569005 0.0054391534 -0.5570442348 -0.0093692912 0.1920493203
740295560.0 0.0355730554 0.179026404 -0.0008977121 -0.5567261068 -0.000883243 -0.5570178262 -0.0076389784 0.192119432
745295530.0 0.0375678058 0.1784224505 -0.0069085063 -0.55728015 -0.0066105752 -0.5571505908 -0.0056976544 0.1924141565
750295500.0 0.0393239437 0.1780162633 -0.0127627789 -0.5563933949 -0.0128157063 -0.556836425 -0.0038800046 0.1920281023
755295470.0 0.0418509979 0.1779126002 -0.0188634076 -0.5565665985 -0.0185334518 -0.5568999127 -0.0025535554 0.1926668633
760295440.0 0.0433444247 0.1775570979 -0.0247560963 -0.5566225395 -0.0245677723 -0.5566251624 -0.0008276152 0.1927602099
765295410.0 0.0456166917 0.1771773928 -0.0302948349 -0.5561343572 -0.0306091691 -0.5562965666 0.0019969535 0.1934146397
770295380.0 0.0476701319 0.1771845754 -0.0369846195 -0.5554369441 -0.0367481111 -0.5558869913 0.0038052975 0.1932942189
775295350.0 0.0494449176 0.1766709795 -0.042460667 -0.5548710793 -0.0425985781 -0.5552008429 0.0048708038 0.1927493542
780295320.0 0.0517287685 0.1761536758 -0.0484085989 -0.5548017391 -0.0485021304 -0.5550026332 0.0071817119 0.1937701176
785295290.0 0.0532546931 0.1760520881 -0.054318391 -0.5537323402 -0.0546372763 -0.5540985843 0.0086192831 0.1937496519
790295260.0 0.0552574717 0.1754054803 -0.060407498 -0.5535142318 -0.0605216675 -0.5540618845 0.0109999298 0.1935765999
795295230.0 0.0572980496 0.1749394117 -0.0662308734 -0.5524554561 -0.0663432067 -0.5527987068 0.0129710816 0.1941896955
800295200.0 0.059215576 0.1745692867 -0.0725622778 -0.5521360285 -0.0728253926 -0.5520482913 0.0146654331 0.1934926544
805295170.0 0.0611447374 0.1739561584 -0.0780927785 -0.5509474372 -0.0785923246 -0.5513003117 0.016075134 0.1937897591
810295140.0 0.0632491954 0.1734210262 -0.0840164218 -0.5500440227 -0.0841633477 -0.5510080547 0.0185702576 0.1940382952
815295110.0 0.0651147339 0.1728250063 -0.0900119528 -0.548956386 -0.0903919279 -0.5492439314 0.0199366778 0.1938139161
820295080.0 0.0671783093 0.1722924639 -0.0961212022 -0.5480722013 -0.0958843039 -0.5487333798 0.0216813875 0.1936584692
825295050.0 0.0690772033 0.171399671 -0.1018637779 -0.5465414125 -0.1017632405 -0.547259927 0.0240825879 0.1937657619
830295020.0 0.0711104088 0.1715275154 -0.1079223166 -0.5459691136 -0.1082313613 -0.5457226322 0.0254637868 0.1934578106
