!Created with skrf (http://scikit-rf.org).
# Hz S RI R 50.0 
!freq ReS11 ImS11 ReS21 ImS21 ReS12 ImS12 ReS22 ImS22
300000.0 -0.3138525635 -0.1320888202 0.3718225817 0.0655213404 0.3722779386 0.0648167063 -0.3152878957 -0.1313956777
5299970.0 -0.3251845959 0.0025704554 0.3783065535 0.0030744411 0.3790430022 0.0031740759 -0.3259209991 0.0019471023
10299940.0 -0.3227564696 0.0140750316 0.3798170609 0.0028689137 0.379903127 0.0031746287 -0.3231816096 0.0123529747
15299910.0 -0.3188694248 0.0222283039 0.3817149604 0.0028501432 0.3822292803 0.0026166599 -0.3204399973 0.0200286877
20299880.0 -0.3157927635 0.0290963928 0.384798468 0.0016306796 0.3853960903 0.001904601 -0.317861775 0.0260476254
25299850.0 -0.3114024526 0.0348754909 0.3886235049 0.0004666303 0.3888417863 4.4782e-05 -0.3148774473 0.0314213208
30299820.0 -0.3082478318 0.03919497 0.3918247876 -0.0020442794 0.3922898289 -0.002213869 -0.3118624088 0.0357443522
35299790.0 -0.3043513755 0.0434503124 0.3947184475 -0.0050579011 0.3954839083 -0.0050615223 -0.3092576517 0.039855384
40299760.0 -0.301367291 0.0471115984 0.3987249892 -0.0087533996 0.3987204994 -0.0087100542 -0.3063850241 0.043411003
45299730.0 -0.2982616758 0.0499125073 0.401496537 -0.0123113676 0.401529048 -0.0128533953 -0.3034660867 0.0465740895
50299700.0 -0.2947939988 0.0527309155 0.4037314151 -0.0172022761 0.4036832193 -0.0170976889 -0.3013653604 0.0497470211
55299670.0 -0.2922910332 0.0555302593 0.4056633134 -0.0217441593 0.4060952482 -0.0216698907 -0.2993639284 0.0524026546
60299640.0 -0.2897817137 0.0579779139 0.4081469019 -0.0272047646 0.4080733668 -0.0269548159 -0.2970266964 0.0548255678
65299610.0 -0.2874550668 0.060365567 0.4097204822 -0.0315038295 0.4096251282 -0.0318779844 -0.2950180543 0.0574989661
70299580.0 -0.2853414049 0.0623017153 0.4107875069 -0.0365741452 0.4109369626 -0.0367692518 -0.2935473449 0.0599827294
75299550.0 -0.2836277333 0.0642857084 0.4117898806 -0.0422927877 0.4119822222 -0.042295665 -0.2918619791 0.062378194
80299520.0 -0.2817190862 0.066552617 0.4129222795 -0.0474701602 0.4132970435 -0.0474253898 -0.2905711919 0.0648564302
85299490.0 -0.2801377701 0.0682784474 0.4132784331 -0.0524733084 0.4136273554 -0.0522664682 -0.2894018767 0.0670509232
90299460.0 -0.2782397389 0.0708955541 0.413623422 -0.0576256522 0.4138147998 -0.0575591813 -0.2877700299 0.0694410427
95299430.0 -0.2769703587 0.0723599221 0.4138382731 -0.0628942918 0.4143220164 -0.0634181714 -0.2864344498 0.07178685
100299400.0 -0.2751816909 0.0746969922 0.4141387245 -0.0682504465 0.4140695437 -0.0681700233 -0.2850350288 0.0744741544
105299370.0 -0.2738392883 0.0769068786 0.4137695433 -0.0732711201 0.4142086224 -0.0735770486 -0.2838935791 0.0763654588
110299340.0 -0.2725357104 0.0789025903 0.4135792395 -0.0783673119 0.4140285709 -0.0782328025 -0.2830356584 0.0786959203
115299310.0 -0.271524556 0.0811721027 0.4133850278 -0.0831862965 0.4135690423 -0.0838653736 -0.282204205 0.0813861979
120299280.0 -0.2704226576 0.0829811741 0.4132702707 -0.088728612 0.4131821383 -0.0890840681 -0.2809522646 0.0833564782
125299250.0 -0.2692820382 0.0852751247 0.412357488 -0.0937748005 0.4127945589 -0.0938233226 -0.2801081015 0.0862212149
130299220.0 -0.2683917784 0.087433522 0.4122612285 -0.0988037378 0.4118809701 -0.0994490406 -0.2790171299 0.0883832891
135299190.0 -0.2672640475 0.0899938661 0.4114095433 -0.1036612111 0.4115692151 -0.1041694356 -0.2781562647 0.0908689198
140299160.0 -0.2662213524 0.0922021852 0.4105800056 -0.1092104024 0.4105302952 -0.1088260469 -0.2777518151 0.0931200905
145299130.0 -0.2655807621 0.0944664649 0.4097740517 -0.1139189131 0.4096426894 -0.1142305064 -0.2765322953 0.0957960861
150299100.0 -0.2644019797 0.096986474 0.408416315 -0.1189012158 0.4086744894 -0.1191934646 -0.2757077378 0.0986409747
155299070.0 -0.2631420244 0.0992091528 0.406756348 -0.1236016846 0.4075067983 -0.1236415232 -0.2746207907 0.1010693864
160299040.0 -0.2622525333 0.1019253053 0.4059759239 -0.1285381243 0.406187096 -0.1289910773 -0.2738614726 0.1035636436
165299010.0 -0.2611304552 0.1045672894 0.4050211374 -0.1336558057 0.4047862582 -0.1335376707 -0.2727909554 0.1058364879
170298980.0 -0.2603947026 0.1067397363 0.4031070576 -0.1382366792 0.4034742584 -0.1381672498 -0.2721715749 0.1086774305
175298950.0 -0.2587991749 0.1092687724 0.4020683667 -0.1430832252 0.4025540689 -0.143320695 -0.2710031989 0.1117999372
180298920.0 -0.2583768237 0.1119281182 0.4006654831 -0.1480993362 0.4010402924 -0.1483155763 -0.2698706225 0.1140781442
185298890.0 -0.2572157378 0.1143305172 0.3994636447 -0.1527081241 0.3991889315 -0.1527134314 -0.2687362957 0.1164003468
190298860.0 -0.2557716803 0.1171917215 0.3970025351 -0.1570731972 0.3978265938 -0.1574265118 -0.2677396994 0.119205903
195298830.0 -0.2548967079 0.1198192576 0.39630905 -0.1619161752 0.3964066501 -0.1620882418 -0.2669204179 0.1221967969
200298800.0 -0.2537534467 0.1218506643 0.3944226816 -0.1665935159 0.3945723326 -0.1667690418 -0.265552492 0.1246896089
205298770.0 -0.2527269245 0.12479259 0.3922470445 -0.1709352406 0.3927026663 -0.1708869142 -0.2648720337 0.1272200254
210298740.0 -0.2516229786 0.1274354262 0.3908973553 -0.1756135188 0.3905896878 -0.175838792 -0.2636383626 0.1302322779
215298710.0 -0.2502389903 0.1299268766 0.3884889154 -0.1797136879 0.3886716434 -0.1804816472 -0.2619930095 0.1328295806
220298680.0 -0.2488718123 0.1325168669 0.3863018964 -0.1846701822 0.3867421145 -0.1848276293 -0.2609654004 0.1356203802
225298650.0 -0.2478998965 0.1352658666 0.384767766 -0.1890282354 0.3849086676 -0.1885064947 -0.2599685504 0.1381063679
230298620.0 -0.2464604952 0.1381296126 0.3824595655 -0.1934044411 0.3830526943 -0.193659065 -0.2588084172 0.1407574594
235298590.0 -0.2455998777 0.140822607 0.3806068393 -0.198043945 0.3809057796 -0.1978488694 -0.2572707161 0.1436327753
240298560.0 -0.2441113519 0.1432389585 0.3781405706 -0.2019545462 0.3784681322 -0.2020848213 -0.2556850949 0.1459696331
245298530.0 -0.2427533964 0.1458437464 0.3759603854 -0.2065028029 0.3761418508 -0.2064993498 -0.2548855627 0.1488529708
250298500.0 -0.2414984336 0.1482743999 0.3737794289 -0.2106774684 0.3741139826 -0.2103293061 -0.2533495582 0.1515737624
255298470.0 -0.2398517363 0.1511197959 0.3717772912 -0.2144786571 0.372170082 -0.2151026439 -0.2521686847 0.1539668081
260298440.0 -0.2386869905 0.1533567908 0.3693716984 -0.2185507935 0.3695613949 -0.2190026054 -0.2506774407 0.1571543748
265298410.0 -0.2373305496 0.156094993 0.3667732381 -0.22339071 0.3670252649 -0.2239146158 -0.2487412194 0.1594402773
270298380.0 -0.2360091404 0.1584290942 0.3647567264 -0.2273443635 0.3646450832 -0.2273451019 -0.2474389313 0.162362028
275298350.0 -0.2342614492 0.1616168509 0.3612992373 -0.2315035389 0.3621412608 -0.231607388 -0.2457319423 0.1650958552
280298320.0 -0.2329481812 0.1639831586 0.3594960851 -0.2351968935 0.3597946023 -0.2355689084 -0.2443905418 0.1677722559
285298290.0 -0.231577135 0.1665780843 0.3565293227 -0.2397069944 0.3570723944 -0.2395736743 -0.2427789016 0.170776319
290298260.0 -0.2297770512 0.1694540719 0.3545787612 -0.2436903696 0.3542763974 -0.2437564095 -0.2410455389 0.1730936331
295298230.0 -0.2282429399 0.1714405442 0.3514777383 -0.2478072166 0.3517447223 -0.2479238012 -0.2393501515 0.1755555309
300298200.0 -0.2266489952 0.1743137895 0.3489512595 -0.2518276476 0.3491322681 -0.2515877141 -0.2376282877 0.1782115069
305298170.0 -0.225326638 0.1765578231 0.3463102823 -0.2555020668 0.3463687533 -0.2556947298 -0.2356255606 0.180287499
310298140.0 -0.2232032042 0.1788593901 0.3433973105 -0.2595198824 0.3437698682 -0.2594123624 -0.234081852 0.1832095064
315298110.0 -0.2221174936 0.1813700034 0.3406864038 -0.263664421 0.3406316737 -0.2637003424 -0.2322776133 0.1857001276
320298080.0 -0.2201695241 0.1836926067 0.3372643797 -0.2673134167 0.3377254695 -0.2676564319 -0.2302803237 0.1880836789
325298050.0 -0.2188634068 0.1858738417 0.3343676079 -0.2709190595 0.3347322059 -0.2712227298 -0.2282923415 0.1903142452
330298020.0 -0.2172846655 0.1883032754 0.3313824585 -0.2748790429 0.3319225842 -0.2752399169 -0.2270952764 0.1931186174
335297990.0 -0.2152950388 0.1907879787 0.3283625657 -0.2785770114 0.3289167991 -0.2790744805 -0.2248304594 0.1956028738
340297960.0 -0.213525035 0.1933431684 0.3248016087 -0.2824149992 0.3252847919 -0.2823844989 -0.2232197304 0.1981343089
345297930.0 -0.2118862391 0.1956139558 0.3216445179 -0.2860176958 0.3218977838 -0.2859505955 -0.2210777675 0.2003877687
350297900.0 -0.2102623767 0.1977272243 0.3188139427 -0.2886302055 0.3191583388 -0.2891737731 -0.2193947748 0.2027411522
355297870.0 -0.2083328672 0.2003063464 0.3156879884 -0.2923550298 0.3156803327 -0.2928226318 -0.2170027053 0.2057795109
360297840.0 -0.2063441964 0.2028924166 0.3122168706 -0.2961497868 0.3124806748 -0.296594733 -0.2151333836 0.2078380888
365297810.0 -0.2044638667 0.2053518146 0.3086561499 -0.2997145193 0.3091426422 -0.2995233964 -0.2135675908 0.2102197354
370297780.0 -0.2024507463 0.2073337158 0.3053857733 -0.3029769484 0.3058508836 -0.3029219855 -0.2110866458 0.2127892711
375297750.0 -0.2008733092 0.2096851291 0.3023672824 -0.3063414593 0.3023728954 -0.3065190528 -0.2086768937 0.2152758439
380297720.0 -0.1986650246 0.2123282587 0.2990371489 -0.3100456609 0.2991742189 -0.3097288173 -0.206642278 0.2176430555
385297690.0 -0.1965412981 0.2142436979 0.2952439689 -0.3129961623 0.2954889003 -0.3132714932 -0.2045273176 0.220347161
390297660.0 -0.1939586457 0.2159378727 0.2919945591 -0.3157734395 0.2921558432 -0.3160644272 -0.2021582405 0.2219583601
395297630.0 -0.1921143203 0.2186879534 0.2885621912 -0.319087466 0.2885183245 -0.318955287 -0.1998259479 0.2241719863
400297600.0 -0.1901615236 0.2206948175 0.2850278596 -0.3223415468 0.285359567 -0.3226645176 -0.197505908 0.226802653
405297570.0 -0.1881753301 0.222326721 0.2816116947 -0.3253232554 0.2816914973 -0.3256549115 -0.1948796924 0.2290263857
410297540.0 -0.1852906984 0.2250519819 0.2782465882 -0.3290009034 0.2781923836 -0.3285116919 -0.1927020555 0.2313488919
415297510.0 -0.1835712098 0.2267252686 0.2739320731 -0.3313899202 0.2746918913 -0.3315290785 -0.1904781791 0.2336393521
420297480.0 -0.1811139442 0.2287018939 0.2704657659 -0.3347486714 0.2708666759 -0.3346432875 -0.1876127572 0.2360877502
425297450.0 -0.1786534311 0.2309077223 0.2668042323 -0.3375297755 0.2667775612 -0.3375697966 -0.185564749 0.2373809627
430297420.0 -0.1765695469 0.2329040874 0.2636047927 -0.3406820984 0.2634810515 -0.3405357751 -0.1828831923 0.2401235585
435297390.0 -0.1739713441 0.2349159415 0.2590298146 -0.3438630849 0.2593702827 -0.3433320748 -0.1806844906 0.2422806999
440297360.0 -0.1715417109 0.2366064231 0.2552854955 -0.346325959 0.2555261586 -0.3463209574 -0.1782058467 0.2443582449
445297330.0 -0.1693297615 0.2382592593 0.2520776123 -0.3485519965 0.2523348157 -0.3490040227 -0.1754663793 0.2465676548
450297300.0 -0.1666115928 0.2403556293 0.2479756673 -0.3515641045 0.2481996949 -0.3515123679 -0.1724040966 0.2482070601
455297270.0 -0.1646435735 0.2421473448 0.2442289696 -0.3543018349 0.2442080313 -0.354267091 -0.169967845 0.2502486191
460297240.0 -0.1612875929 0.2441181483 0.2399003663 -0.3573272844 0.2403961057 -0.3571939267 -0.167664658 0.2523272514
465297210.0 -0.1591019239 0.2457671095 0.2359975477 -0.3596303261 0.2358458528 -0.3600700355 -0.1646324509 0.2543174517
470297180.0 -0.1566093866 0.2476978312 0.2319577752 -0.3619197214 0.2323817535 -0.3622441997 -0.1622138537 0.2560940551
475297150.0 -0.1540892168 0.2496966918 0.2280560831 -0.3647125211 0.2283962574 -0.3649945798 -0.1594899025 0.2581246134
480297120.0 -0.1510661404 0.2511801535 0.2240886947 -0.3671696262 0.2244943961 -0.3666968232 -0.1569316984 0.2600148344
485297090.0 -0.1485502426 0.2530341152 0.2196638863 -0.3694521274 0.2203594427 -0.3696413677 -0.1545207787 0.2617193617
490297060.0 -0.1453988266 0.2548142155 0.2155874596 -0.3720871669 0.2162553149 -0.3721253827 -0.1517019192 0.2633969159
495297030.0 -0.143115455 0.2561331165 0.2122398418 -0.3741274494 0.211951666 -0.3745009942 -0.1485137145 0.265300764
500297000.0 -0.1404772328 0.2578762603 0.2079951406 -0.3763283933 0.2079893926 -0.3768083911 -0.1458506416 0.2668282993
505296970.0 -0.1371471497 0.2593479988 0.2036594598 -0.3788740743 0.2038645271 -0.378575812 -0.1430247988 0.2682402753
510296940.0 -0.1346389076 0.2608974472 0.1997748595 -0.3811748422 0.1997110255 -0.3813700343 -0.1399520286 0.2706353951
515296910.0 -0.1318877123 0.2625917345 0.1951937317 -0.3831841941 0.1950480777 -0.3829179873 -0.1371828248 0.2716532814
520296880.0 -0.1288086106 0.2641596724 0.1910222343 -0.3849933721 0.1908693288 -0.3849133839 -0.1340636161 0.273760391
525296850.0 -0.1262990378 0.2652487493 0.1867834993 -0.3869648255 0.186861079 -0.3870887762 -0.131361377 0.274901391
530296820.0 -0.1235945195 0.2670253186 0.182519804 -0.3890766486 0.1824989693 -0.3890549137 -0.1284545603 0.2760227308
535296790.0 -0.1197912855 0.2684150741 0.1780604653 -0.3906804686 0.1783223984 -0.3912351688 -0.1252782643 0.2782220004
540296760.0 -0.1173744302 0.2700887009 0.1739526836 -0.392974821 0.1736895983 -0.392686277 -0.1226281131 0.2789248718
545296730.0 -0.1144932985 0.2717649054 0.1698356578 -0.3946244742 0.1692096546 -0.3943790458 -0.1193694262 0.2808713063
550296700.0 -0.1113544905 0.2730053827 0.165335714 -0.3964940747 0.1652593984 -0.3966451483 -0.1165993176 0.2819328459
555296670.0 -0.1082995776 0.2741524563 0.1610284653 -0.3983230944 0.1608833157 -0.3981941328 -0.1139149564 0.2833670876
560296640.0 -0.105233497 0.2754212711 0.1562331348 -0.3999558942 0.1568135439 -0.4000747203 -0.1108030509 0.2849909999
565296610.0 -0.1028284616 0.2769296779 0.1523272127 -0.4015091254 0.1521368358 -0.4012074015 -0.1073230698 0.2864130584
570296580.0 -0.099444623 0.2781452935 0.1476059753 -0.4030337139 0.1476418011 -0.4033596444 -0.1044970006 0.2873148571
575296550.0 -0.0962655225 0.2791725598 0.1431442879 -0.4047146091 0.143194433 -0.4048264732 -0.1013444513 0.2884524942
580296520.0 -0.093376242 0.2804821042 0.1390383983 -0.4062741896 0.1388290762 -0.4065105984 -0.0986555637 0.2898420854
585296490.0 -0.0899667529 0.2817840387 0.1345405111 -0.40778151 0.134024432 -0.4075751611 -0.095018322 0.2909349287
590296460.0 -0.0863668466 0.2829188904 0.1299817807 -0.4089982224 0.129910746 -0.4093284332 -0.0922616159 0.2922887208
595296430.0 -0.0838813186 0.2839519456 0.125211845 -0.4103165182 0.1249962945 -0.4106256353 -0.0893751579 0.2932212533
600296400.0 -0.0809185044 0.2853322016 0.1207027727 -0.4113305084 0.1206785684 -0.4117510732 -0.0862601972 0.2941831724
605296370.0 -0.0781362283 0.2863746034 0.116918314 -0.4128008518 0.1163041576 -0.4133165391 -0.0828824297 0.295472001
610296340.0 -0.0745013289 0.2875421956 0.1121693582 -0.4137029534 0.1118219151 -0.4140436913 -0.0798128219 0.2965482681
615296310.0 -0.0711697255 0.2882465683 0.1074543817 -0.4153017437 0.1072625984 -0.4157302633 -0.076662978 0.2976703489
620296280.0 -0.0687148175 0.2900032935 0.1027328879 -0.4163506016 0.1025706742 -0.4163691073 -0.073782236 0.2983537061
625296250.0 -0.0655163131 0.2904758495 0.0983623699 -0.4175488847 0.098548369 -0.4174399173 -0.0709726269 0.2992709118
630296220.0 -0.0622045668 0.2916640235 0.0935229447 -0.4186580229 0.0935173998 -0.4184664989 -0.0671526129 0.3001225208
635296190.0 -0.0593529922 0.2924244985 0.0894419495 -0.4193054219 0.089110177 -0.4196499565 -0.064417401 0.3011050176
640296160.0 -0.0560107337 0.2932244815 0.0851313052 -0.4201218228 0.0843961916 -0.420200135 -0.0612541623 0.3016511932
645296130.0 -0.0524335869 0.2943603397 0.0801110931 -0.420943801 0.0800994829 -0.4210854216 -0.0579816414 0.3022085982
650296100.0 -0.0496301284 0.2949538719 0.0759540192 -0.422168091 0.075002515 -0.4222829547 -0.0544306153 0.3032600171
655296070.0 -0.0467191039 0.2958489781 0.0709082331 -0.4229284754 0.0707060868 -0.4224917497 -0.0517064108 0.3041462605
660296040.0 -0.0433728307 0.2965792273 0.066366084 -0.4234889321 0.0660441344 -0.4235798905 -0.0481592437 0.3044596971
665296010.0 -0.0406242746 0.2973061731 0.0615941784 -0.423822178 0.0614168592 -0.424089026 -0.045073559 0.3054218344
670295980.0 -0.0373558425 0.2982135313 0.0570592067 -0.4245096793 0.0568762825 -0.424313567 -0.0422492852 0.3057078586
675295950.0 -0.0343010885 0.2987262184 0.0522293542 -0.4249169962 0.0523394076 -0.4251789126 -0.0387742084 0.3064160849
680295920.0 -0.031162451 0.2997050048 0.0479483987 -0.4259381489 0.0478727329 -0.4255077244 -0.0353389639 0.3065246721
685295890.0 -0.0277098272 0.3003121115 0.0432684207 -0.4262799383 0.0431571882 -0.4262393563 -0.0318290334 0.3077386118
690295860.0 -0.0244966668 0.3009247099 0.0385004583 -0.4267165832 0.0382695488 -0.4265931191 -0.0292320047 0.3080431578
695295830.0 -0.0217511936 0.3011735876 0.0341716184 -0.4269719924 0.0341152693 -0.4271079483 -0.0262474107 0.3082649797
700295800.0 -0.0184771528 0.3017707879 0.0295903962 -0.4270940934 0.0295080948 -0.4272420246 -0.0226423145 0.3088698963
705295770.0 -0.0157475641 0.3020517694 0.0247116581 -0.4274986827 0.0246313162 -0.4275747156 -0.0194413408 0.3094128218
710295740.0 -0.0123877421 0.3026574046 0.020096933 -0.4275139719 0.0199995468 -0.4278638243 -0.0160954394 0.3093284736
715295710.0 -0.0091552821 0.3029214181 0.0156341681 -0.4279512135 0.0153111553 -0.4277624305 -0.0129147031 0.3094755176
720295680.0 -0.0056539978 0.3033258903 0.0109338093 -0.4279634229 0.01077584 -0.4282664378 -0.0096462866 0.3098234053
725295650.0 -0.0030295093 0.3038080912 0.0066957423 -0.4279039934 0.0063083601 -0.4283296785 -0.0067180129 0.3105315801
730295620.0 -0.0003680725 0.3037773354 0.0015954316 -0.4276738767 0.0016700269 -0.4277740783 -0.0033705689 0.3108022117
735295590.0 0.0032082319 0.3044269004 -0.0028640975 -0.4278669722 -0.0029808744 -0.4280341822 0.000158499 0.310775104
740295560.0 0.0057895703 0.3042009517 -0.0073751376 -0.4279367831 -0.007406361 -0.4282273573 0.0031425461 0.3110290907
745295530.0 0.0089157629 0.3045301538 -0.0118981681 -0.4271323377 -0.011550759 -0.4278214012 0.0059900674 0.3112239194
750295500.0 0.0119575874 0.3049887215 -0.0161418248 -0.4274689145 -0.0168891969 -0.4278293455 0.0097197564 0.3112824478
755295470.0 0.0152941914 0.304876984 -0.0208975248 -0.4275565681 -0.0213745744 -0.4276409006 0.0132975884 0.3115940507
760295440.0 0.0183182178 0.3055947541 -0.0260505522 -0.4270785223 -0.0260896725 -0.4269205447 0.0163425868 0.3108178497
765295410.0 0.0215888325 0.3048534706 -0.0306055985 -0.4265793142 -0.0304304986 -0.426745029 0.0194820217 0.3113312774
770295380.0 0.0244856269 0.3054081312 -0.0346740853 -0.4260487192 -0.0351209697 -0.4267749254 0.0225080807 0.3113666477
775295350.0 0.0275035492 0.3049741323 -0.039421991 -0.425676978 -0.0397239147 -0.4257880308 0.0260836952 0.3111021285
780295320.0 0.0305245566 0.3052131316 -0.0436348747 -0.425304416 -0.0441502461 -0.4254847698 0.0295809547 0.3110328835
785295290.0 0.0334104538 0.3049323115 -0.0483247049 -0.424926931 -0.0489668091 -0.425227217 0.0322530355 0.3109908527
790295260.0 0.0365128729 0.3045877404 -0.0531237928 -0.4240305885 -0.0531159837 -0.4245464771 0.0354679596 0.3110642286
795295230.0 0.039766049 0.30429085 -0.0576920503 -0.4236275644 -0.0578828293 -0.4238041992 0.0387204378 0.3098308977
800295200.0 0.0424635734 0.3045371576 -0.0620523932 -0.4227453568 -0.0623531869 -0.4232825681 0.0420782156 0.3098832524
805295170.0 0.0456606811 0.3042383231 -0.0667291772 -0.4222150054 -0.0663926524 -0.4225379874 0.0456225747 0.3095650003
810295140.0 0.0490448299 0.303853732 -0.0711482979 -0.4214258423 -0.0715068873 -0.4213351715 0.0488732464 0.3092127262
815295110.0 0.0513697993 0.3035823427 -0.0757242956 -0.4209723309 -0.0759664527 -0.4210110233 0.0520255021 0.3090326978
820295080.0 0.0548700132 0.3033502326 -0.0799650752 -0.4199364338 -0.0803507607 -0.4200030399 0.0546948297 0.3089213621
825295050.0 0.057651674 0.3028178201 -0.0850069284 -0.4190785062 -0.0847891028 -0.4193243123 0.0585617922 0.3084767426
830295020.0 0.0611254095 0.302408706 -0.0893977999 -0.4179604167 -0.0892433767 -0.4182791097 0.0612050151 0.3075621403
