!Created with skrf (http://scikit-rf.org).
# Hz S RI R 50.0 
!freq ReS11 ImS11 ReS21 ImS21 ReS12 ImS12 ReS22 ImS22
300000.0 -0.7768079136 -0.1027178633 -0.0007066599 -0.0003029804 0.0003196961 0.0019860915 -0.0507443973 -0.0624116589
5299970.0 -0.7853041418 -0.005785662 5.60537e-05 -0.0002132181 -5.54494e-05 -4.7528e-06 -0.0497513938 0.0155433058
10299940.0 -0.7879485716 -0.0039086654 3.89635e-05 -0.0001482365 -0.0002543537 -0.0001243929 -0.0439498571 0.0340334135
15299910.0 -0.7935568972 -0.0023112586 0.0002150041 4.36196e-05 8.42319e-05 -8.1742e-05 -0.0356919719 0.0480498863
20299880.0 -0.8005003269 0.0022523302 7.76217e-05 0.0001871255 1.06248e-05 3.00772e-05 -0.0254651662 0.0598537883
25299850.0 -0.8062586582 0.0076396173 -0.0001000348 1.8553e-06 -5.71901e-05 0.0001289085 -0.0138502923 0.0693266812
30299820.0 -0.8123959329 0.0154490129 0.0001242322 2.12909e-05 5.0082e-06 -5.40393e-05 -0.0022023191 0.0758403715
35299790.0 -0.8173744691 0.0247747346 -0.0001544306 4.85887e-05 -0.0001611499 1.26679e-05 0.0090458538 0.0810989272
40299760.0 -0.8210982913 0.0335197936 -1.55648e-05 5.15274e-05 3.8142e-06 0.000125814 0.0206590373 0.083394773
45299730.0 -0.8247420095 0.042989596 -8.32622e-05 0.0001309445 5.89483e-05 -5.57237e-05 0.0315279777 0.0852712426
50299700.0 -0.827095511 0.0528716636 0.0001582113 -9.42647e-05 0.0001691434 3.30708e-05 0.0414943506 0.0846678202
55299670.0 -0.8294071128 0.0629900119 -0.0002487676 0.0002239477 -2.07575e-05 1.16302e-05 0.0508062851 0.0835351073
60299640.0 -0.8306467761 0.0736109604 -0.0002027436 1.90292e-05 2.877e-06 -2.45312e-05 0.0593800078 0.081400589
65299610.0 -0.8316480226 0.0834809467 3.97876e-05 -0.0001211755 4.26161e-05 -3.39052e-05 0.0671894258 0.0788758909
70299580.0 -0.8315939893 0.0933325161 -8.94468e-05 6.81309e-05 -7.594e-06 -0.0001975033 0.0739483095 0.076198571
75299550.0 -0.8321215742 0.1036395693 3.04287e-05 0.0002546024 1.26059e-05 0.0001639833 0.0804443143 0.0723129513
80299520.0 -0.8320620312 0.1135400321 0.0002096768 8.36799e-05 -4.26326e-05 8.15714e-05 0.0860388107 0.06891544
85299490.0 -0.8309134139 0.1224661583 -0.000295815 -0.0001176297 4.54595e-05 -0.0001923835 0.0910044354 0.0651762616
90299460.0 -0.8303429313 0.1324780954 0.0001692269 0.0001119167 -3.83728e-05 2.97164e-05 0.0958583313 0.0608365275
95299430.0 -0.8297889169 0.1423794757 0.000261422 5.44304e-05 5.51219e-05 3.95365e-05 0.099598621 0.0571051903
100299400.0 -0.8280039186 0.151520421 -6.64455e-05 0.0001327715 -0.0001117146 4.08117e-05 0.1037980488 0.0528559933
105299370.0 -0.8272520022 0.1603638422 -0.0001071265 2.27586e-05 0.0001787952 4.72889e-05 0.1068284917 0.0486847839
110299340.0 -0.8256432922 0.1692345196 9.96709e-05 2.0755e-05 4.496e-06 -0.0001736906 0.1097187201 0.0447746273
115299310.0 -0.8241738844 0.1787069073 -0.0001377524 -1.6763e-06 1.02804e-05 -3.02447e-05 0.1121893126 0.0405789493
120299280.0 -0.8224722944 0.1869636195 -0.0001639158 0.0001866837 0.000114915 0.0001260536 0.1145778929 0.0367715589
125299250.0 -0.8201101558 0.1955915314 -6.67885e-05 8.32636e-05 9.915e-06 1.53755e-05 0.1165272723 0.0325858872
130299220.0 -0.8183906906 0.2054857674 -1.60498e-05 0.0001174612 6.89611e-05 -3.144e-06 0.1182267401 0.0285943093
135299190.0 -0.8166221978 0.2142536506 0.000301965 -5.97383e-05 4.80677e-05 0.0001549116 0.1197542714 0.0252256106
140299160.0 -0.8143684982 0.2230285503 -0.000109775 0.0002192966 3.47309e-05 -6.35317e-05 0.1207602738 0.0217074098
145299130.0 -0.8124605786 0.2323767305 2.64648e-05 0.0002001686 3.77327e-05 -0.0002098405 0.1218409475 0.0178777641
150299100.0 -0.8101908136 0.2410657509 1.48807e-05 7.80689e-05 -3.12509e-05 0.0001247971 0.1228496328 0.0145559771
155299070.0 -0.8079334057 0.2496908594 7.6839e-05 0.0001135129 6.00909e-05 -0.00012032 0.1240157193 0.0112884322
160299040.0 -0.8053397877 0.2580258444 1.69171e-05 7.72228e-05 7.3955e-06 0.0002748784 0.1239310662 0.0083266848
165299010.0 -0.8030160345 0.2668196722 -2.03303e-05 2.3148e-06 -4.83549e-05 7.3499e-06 0.1249231412 0.0047488205
170298980.0 -0.8002068972 0.2750820898 4.7612e-06 1.69894e-05 1.03811e-05 -7.68727e-05 0.1253641687 0.0014481685
175298950.0 -0.7971359397 0.2841438191 3.34484e-05 -2.59953e-05 -4.96527e-05 -3.83604e-05 0.1254953502 -0.00167031
180298920.0 -0.7953714349 0.2928119264 -4.09564e-05 -5.9794e-06 0.0001026994 -1.06958e-05 0.1252526157 -0.0042745298
185298890.0 -0.7910412472 0.3009852358 6.35038e-05 0.000228557 0.000160465 5.18918e-05 0.1253372695 -0.0072857866
190298860.0 -0.7883118635 0.3097621421 0.0001358165 -0.0001231004 3.32491e-05 0.0001465856 0.125544635 -0.0096682161
195298830.0 -0.7853460729 0.3181680046 4.74737e-05 0.0001525946 -1.61172e-05 0.0001600613 0.1251746918 -0.0130202065
200298800.0 -0.781304127 0.3260370797 7.74284e-05 0.0001310457 -6.72355e-05 0.0001380542 0.1249391019 -0.0158111258
205298770.0 -0.7779804619 0.3344882499 4.90995e-05 7.6603e-06 0.000185769 0.0002586042 0.1243631435 -0.0185730807
210298740.0 -0.7751144405 0.3423915227 2.23574e-05 -2.8448e-06 1.0142e-06 -0.0001190857 0.1244021903 -0.0209753514
215298710.0 -0.7720997269 0.3506952261 0.0001323656 -4.30692e-05 -8.911e-06 -0.0001697977 0.123385796 -0.0237951507
220298680.0 -0.7675173246 0.3588826806 -8.09917e-05 0.0002414199 -2.2626e-05 8.36714e-05 0.1226817562 -0.0261163495
225298650.0 -0.7645425334 0.366557649 6.39103e-05 -0.0001624072 9.14692e-05 0.0002126888 0.1222536264 -0.0287051316
230298620.0 -0.7598581966 0.3748361917 7.99377e-05 9.6687e-06 0.0002069534 -0.0001658074 0.1216016674 -0.0313188473
235298590.0 -0.7567712408 0.3834320047 -7.60713e-05 -2.2193e-05 0.0001388639 0.0001368025 0.1209661999 -0.033770057
240298560.0 -0.7522266859 0.3913768765 2.0477e-05 0.0001622878 3.529e-06 -7.07867e-05 0.1202417907 -0.0357469527
245298530.0 -0.7485473961 0.3989207734 -0.0001028343 7.4186e-06 9.03848e-05 -3.07104e-05 0.1195818138 -0.0386316351
250298500.0 -0.7442510173 0.406647831 0.0001808521 3.56084e-05 -4.17824e-05 0.0001471151 0.1187120654 -0.0408221743
255298470.0 -0.7400475094 0.4140312867 1.24655e-05 8.34844e-05 -0.0001085201 -7.89694e-05 0.117775527 -0.0433837374
260298440.0 -0.7356300276 0.422005901 -0.0002620377 0.0002013619 -8.81409e-05 6.49081e-05 0.1173112676 -0.0453861404
265298410.0 -0.7314670725 0.4300272033 -0.0001549978 4.69235e-05 -2.07051e-05 7.30225e-05 0.1164975896 -0.0471370153
270298380.0 -0.7272388685 0.4373019983 3.16644e-05 -3.90312e-05 -0.000140057 8.28123e-05 0.1157704704 -0.0491491123
275298350.0 -0.7223485429 0.4446973512 0.0001649854 -0.0001772513 0.0002810691 0.0001244831 0.1148360992 -0.0516172759
280298320.0 -0.7167345895 0.4523237584 4.45808e-05 0.000135257 4.50071e-05 -2.38085e-05 0.1140192556 -0.0535263889
285298290.0 -0.7129697646 0.4601311825 -4.78367e-05 1.30885e-05 2.22034e-05 8.18256e-05 0.1128222977 -0.05558097
290298260.0 -0.7075248258 0.4674044189 -7.84251e-05 -0.0001396014 0.0001146274 8.87157e-05 0.1121046948 -0.0572684928
295298230.0 -0.7026414076 0.4741576827 0.0002193205 0.0001804904 -6.81143e-05 3.73234e-05 0.1114184268 -0.059488706
300298200.0 -0.6979829029 0.4817364055 -6.14537e-05 -5.62419e-05 6.90006e-05 0.000129467 0.1104511396 -0.0612967709
305298170.0 -0.692457749 0.48843357 1.68504e-05 0.0001075425 0.0001782019 3.59313e-05 0.1095399813 -0.0635952918
310298140.0 -0.6874852487 0.4964500048 0.0002111334 0.0001863209 -0.0001638644 2.52409e-05 0.1080461027 -0.0656172916
315298110.0 -0.6827059252 0.5034662629 -1.25446e-05 -6.06217e-05 0.0001502047 0.0001190799 0.1068895035 -0.0672959024
320298080.0 -0.676801684 0.5102856915 0.0001180074 0.0001144653 2.6659e-06 5.84092e-05 0.1059628653 -0.0692305667
325298050.0 -0.6721723448 0.5175604805 -3.14168e-05 0.000161049 6.93874e-05 9.89812e-05 0.1043665412 -0.0711742071
330298020.0 -0.6663056818 0.5242015983 0.0001323069 8.10655e-05 0.0001021706 2.48807e-05 0.102629162 -0.0724522416
335297990.0 -0.6609734099 0.5308176236 0.0002008905 0.000124134 0.0002059218 -4.84704e-05 0.1011277932 -0.0735816253
340297960.0 -0.6560102835 0.5374602981 0.0003078508 -0.0001504716 0.0002641625 8.8589e-06 0.1002287442 -0.0749457334
345297930.0 -0.6499464837 0.544316466 0.0001511353 1.4088e-06 -2.83679e-05 5.35771e-05 0.0986853328 -0.076597068
350297900.0 -0.6441263442 0.5512697794 -5.97763e-05 2.34982e-05 0.0001507377 8.53814e-05 0.097302432 -0.0776729938
355297870.0 -0.6379235225 0.5580030028 -3.86293e-05 0.0001874167 -7.63211e-05 6.78559e-05 0.0958251409 -0.0792140371
360297840.0 -0.6326260065 0.5638149945 -1.41663e-05 2.70986e-05 0.0002110119 0.0001876596 0.0945918543 -0.0805518643
365297810.0 -0.6268678042 0.5702978214 3.6535e-05 -0.0001908737 0.0001683634 -2.73286e-05 0.0934322843 -0.0820291898
370297780.0 -0.6209893424 0.5766553621 0.0002332339 0.0001810542 0.0002070891 -4.79302e-05 0.0920776375 -0.0833156322
375297750.0 -0.614690257 0.5833012243 0.0002289954 3.19931e-05 -7.26967e-05 0.0001066775 0.0899113221 -0.0846151116
380297720.0 -0.6091611494 0.5888088037 -4.3715e-06 0.0002939985 2.66588e-05 0.0001511354 0.0884136439 -0.0858742233
385297690.0 -0.6032495843 0.5951782514 9.67257e-05 7.00054e-05 -5.08848e-05 -0.0001395492 0.0873099003 -0.0869959508
390297660.0 -0.596320904 0.6017006131 0.0002714925 -0.0001775108 -9.7738e-05 0.0002672557 0.0854901063 -0.0878716529
395297630.0 -0.5905804389 0.6081224964 0.0003300857 8.12837e-05 -8.07025e-05 -7.0213e-06 0.0844194033 -0.0894247095
400297600.0 -0.5841800353 0.6138866589 0.0003216392 0.0003442631 7.99706e-05 -5.21456e-05 0.0829291166 -0.090350164
405297570.0 -0.5778787888 0.6198315562 -0.0001630546 0.0001599894 0.0002019528 -2.2487e-05 0.0813054305 -0.0918768263
410297540.0 -0.5711660126 0.6255008358 5.8574e-05 2.54894e-05 0.000215308 -7.07855e-05 0.0798695956 -0.0926573314
415297510.0 -0.5643901994 0.6312521967 5.90507e-05 -6.83943e-05 0.0001577561 -0.0001128474 0.0779943981 -0.0939245219
420297480.0 -0.559756995 0.6368761205 -2.64194e-05 -0.0001443061 -7.16056e-05 -6.31701e-05 0.0767520636 -0.0948380927
425297450.0 -0.5513923108 0.6422761251 0.0001139086 1.1181e-05 -0.0001630406 0.0001189122 0.0755575554 -0.0961770358
430297420.0 -0.545598206 0.6484582831 -2.02142e-05 3.30557e-05 0.0002459405 0.0001102503 0.0732957257 -0.0970525088
435297390.0 -0.5391069262 0.6538543245 8.49386e-05 -3.46664e-05 9.8475e-05 -4.07186e-05 0.0720888268 -0.0983524673
440297360.0 -0.5312825084 0.6591169398 0.0002315711 0.0002350992 4.1257e-06 -3.0398e-05 0.0709241732 -0.0992177722
445297330.0 -0.5245779831 0.6644652493 -5.94056e-05 0.0001120214 6.64377e-05 6.99048e-05 0.0692116512 -0.100500801
450297300.0 -0.5179227471 0.6697677661 0.0002321336 2.88873e-05 0.0001064961 -0.0001201668 0.0677904641 -0.1012270487
455297270.0 -0.5115302636 0.6744353107 3.36514e-05 1.0476e-05 0.0001548668 -4.01655e-05 0.0664173629 -0.1021251974
460297240.0 -0.5050151614 0.6796640541 5.50791e-05 -5.5078e-05 -5.56202e-05 0.0001514013 0.0647570624 -0.1026573964
465297210.0 -0.4978062719 0.6850798531 0.0002055846 0.0001568461 0.0002667531 1.26807e-05 0.0629386729 -0.1038195108
470297180.0 -0.4903289416 0.6899116254 5.70504e-05 0.0002849148 0.0002373868 6.83032e-05 0.0617702237 -0.104510694
475297150.0 -0.4836779318 0.694666516 0.0001078466 -3.60432e-05 0.000205494 -6.23673e-05 0.060093668 -0.1055158547
480297120.0 -0.4767883223 0.6998488237 0.0002134538 8.7625e-05 0.0002004743 1.226e-07 0.058582827 -0.1061365801
485297090.0 -0.46881064 0.7043440242 2.537e-05 -0.0002330772 0.0002593928 1.622e-05 0.0572487049 -0.1069901334
490297060.0 -0.4620151939 0.7090147673 0.000111269 -1.78003e-05 0.0002102292 0.0001525705 0.0553765347 -0.1076589051
495297030.0 -0.4545975601 0.7124662721 0.0001539634 -0.000117759 0.0001158123 1.29855e-05 0.0536472248 -0.1080355795
500297000.0 -0.4474461624 0.7179495435 0.0001534531 0.0001086148 -5.0926e-06 8.1826e-05 0.0522877252 -0.1083166458
505296970.0 -0.4399867422 0.7227406428 0.0001695949 -3.6258e-06 5.82753e-05 9.30306e-05 0.0505817327 -0.1092083142
510296940.0 -0.4328716037 0.7268418069 0.0001021816 8.12429e-05 -3.55003e-05 -2.60954e-05 0.0488596406 -0.1097353723
515296910.0 -0.4248060196 0.7305008215 0.0002832407 0.0001580312 2.57988e-05 0.0002013692 0.0475291998 -0.1101105831
520296880.0 -0.4181141409 0.7353739081 0.0001523023 -6.10264e-05 0.0001378288 0.0001420115 0.0457059003 -0.1109813552
525296850.0 -0.410177052 0.7392610904 0.0001040154 2.82476e-05 5.62949e-05 -0.0001760935 0.0441364657 -0.1113821813
530296820.0 -0.4029329136 0.7433101241 -5.9459e-05 0.0002052307 -7.551e-07 8.16465e-05 0.0424587787 -0.1116116169
535296790.0 -0.3953934979 0.7469013489 0.0001590328 2.35313e-05 0.0002752404 0.0002347493 0.0402467627 -0.1121515978
540296760.0 -0.3876779567 0.7509135966 0.000268459 -1.70286e-05 0.0001845718 6.30883e-05 0.038500926 -0.1125718343
545296730.0 -0.3804824613 0.7552060255 -5.00176e-05 -7.58087e-05 0.0001217021 7.35121e-05 0.0370292476 -0.1131346789
550296700.0 -0.3729505014 0.7591932408 9.71078e-05 0.000181521 0.0001451254 -0.0001344154 0.0353872649 -0.1134527701
555296670.0 -0.36557464 0.7620323074 3.55434e-05 -0.0002528321 0.0002397487 3.66259e-05 0.0336370938 -0.113484342
560296640.0 -0.3570754446 0.7664780119 0.0001860997 -0.0003241912 0.0003255857 -0.0001883058 0.032029603 -0.1138720529
565296610.0 -0.3498650143 0.7699075088 0.0001414386 -0.0001890512 1.56212e-05 6.24481e-05 0.0302368587 -0.114337763
570296580.0 -0.3423230661 0.7723076931 0.0002292578 -0.000126153 7.76666e-05 -1.37776e-05 0.0281924616 -0.114656454
575296550.0 -0.3342782228 0.7773002164 1.69649e-05 5.62927e-05 0.0003247357 -0.0001887796 0.0267182609 -0.1148061261
580296520.0 -0.3261556551 0.7795340457 0.0001859938 7.1454e-05 0.0001084197 1.70888e-05 0.025238116 -0.1151961512
585296490.0 -0.3184229529 0.7828883289 9.84566e-05 0.0002945358 0.0002517991 -8.05841e-05 0.0233576955 -0.1157145875
590296460.0 -0.3105256003 0.7857849468 0.0001763894 -3.00456e-05 0.0002420432 0.0001255911 0.0215119435 -0.1154212559
595296430.0 -0.3023826465 0.7885508604 0.0003108074 9.23619e-05 -0.0001386179 3.28657e-05 0.0197268403 -0.116355922
600296400.0 -0.2945868471 0.7920758313 3.40699e-05 0.0004061309 0.0001881511 0.0001717161 0.0180819599 -0.1164490708
605296370.0 -0.287185601 0.7944882301 -9.79672e-05 -5.8591e-06 0.0002443574 0.0001745634 0.0167586255 -0.1165018193
610296340.0 -0.2790159577 0.7971711137 0.0001220205 -0.0001196371 0.0001154835 6.44877e-05 0.0149420654 -0.1164326236
615296310.0 -0.2701017431 0.8004572529 2.38584e-05 -0.0001822861 0.0001759507 -0.0001350438 0.0134875402 -0.1166910311
620296280.0 -0.2629924502 0.8022260298 0.0001591969 -6.96436e-05 0.0001508997 -0.0002095582 0.0114795728 -0.1170101845
625296250.0 -0.2546440837 0.8051663073 -6.49235e-05 4.78294e-05 0.0001650261 4.87898e-05 0.0102620009 -0.1170280169
630296220.0 -0.2462881389 0.8077816485 1.98335e-05 -3.56728e-05 3.34342e-05 -9.79479e-05 0.0081628732 -0.1168685099
635296190.0 -0.2380124006 0.8102344922 0.0002653395 2.271e-06 5.22539e-05 -7.16047e-05 0.0069305323 -0.1171093644
640296160.0 -0.230847885 0.8122795275 0.0001635441 0.0003355173 0.0003490942 -0.000291844 0.0051647947 -0.1172637788
645296130.0 -0.2224482651 0.8154738928 0.0001225244 7.59528e-05 8.2444e-05 -0.0001401444 0.0036411006 -0.1166715194
650296100.0 -0.2141452113 0.8168461612 0.0003845652 -0.0001102922 0.000164726 -1.65065e-05 0.0018766391 -0.1168998027
655296070.0 -0.206104981 0.8190809962 0.0002026747 0.0001132821 0.0001112639 -2.48487e-05 0.0005269407 -0.1166989578
660296040.0 -0.197808011 0.8201688056 0.0002295359 -8.76876e-05 0.0002781405 4.31636e-05 -0.0014682635 -0.1164666833
665296010.0 -0.1892218246 0.822448782 7.65309e-05 -2.10879e-05 0.0002330192 -6.9619e-05 -0.0029789095 -0.1165680324
670295980.0 -0.1817598082 0.825054234 4.77158e-05 9.72984e-05 9.72872e-05 4.89264e-05 -0.0046039202 -0.1158931764
675295950.0 -0.1732844948 0.8259444095 0.0001004527 -7.055e-06 -3.34936e-05 -5.84268e-05 -0.006490651 -0.1157013961
680295920.0 -0.1649456853 0.828261262 7.07135e-05 0.0002928958 0.0002057089 0.0001103209 -0.0076008827 -0.1152039456
685295890.0 -0.1564410842 0.8302480983 0.0002109737 -5.01888e-05 0.0001556695 -0.0001948535 -0.0095393197 -0.115032994
690295860.0 -0.148299018 0.8309484726 -9.80607e-05 -6.8072e-06 8.87097e-05 -0.0002412764 -0.0114118617 -0.1144250268
695295830.0 -0.14060755 0.8323203803 0.0001954971 7.54217e-05 0.0001901641 2.30607e-05 -0.0129172649 -0.1141835029
700295800.0 -0.1321058859 0.8340104706 6.6263e-06 -3.14637e-05 0.000115575 8.48102e-05 -0.0145581831 -0.113936648
705295770.0 -0.1240008855 0.8354920261 4.90536e-05 -0.00035654 0.000168281 -3.97476e-05 -0.0161793574 -0.1131125624
710295740.0 -0.114909315 0.8360645956 0.0002219012 0.0001121002 0.0001467878 -0.0001416715 -0.0180208905 -0.1132381903
715295710.0 -0.1067780511 0.8377132912 0.0001936303 -0.000127856 0.0001904411 -6.15956e-05 -0.0197025575 -0.1128109698
720295680.0 -0.0988595842 0.8382781026 0.0002180056 -0.0001798134 0.0001608471 0.0002351065 -0.0210904019 -0.1121834677
725295650.0 -0.0906217639 0.8391903169 2.42947e-05 -5.92513e-05 0.0002039246 0.0001454579 -0.0231980507 -0.1118457193
730295620.0 -0.0822027971 0.8397572524 0.0003101608 0.0002333491 0.0001674123 -2.50867e-05 -0.0249288666 -0.1115967019
735295590.0 -0.0744490794 0.8412170843 0.0002616418 -0.0001057047 -8.2291e-06 -3.87711e-05 -0.0267350266 -0.1112991452
740295560.0 -0.0653968582 0.8418368 0.000196484 -0.0002195062 -1.29655e-05 3.70036e-05 -0.0278792054 -0.1103676857
745295530.0 -0.0569799488 0.8428151633 9.08041e-05 0.0002379483 -7.10996e-05 -6.86886e-05 -0.0293250566 -0.1103125421
750295500.0 -0.0485888639 0.8427551256 0.0001727416 3.74611e-05 -5.0851e-06 7.16119e-05 -0.0313620867 -0.1094130216
755295470.0 -0.0403954472 0.8431184438 0.0003301703 -7.5404e-05 0.000130631 -9.4886e-05 -0.0327368384 -0.1092622451
760295440.0 -0.0324206232 0.8435429722 0.0001192602 -0.0001973546 0.0002138217 9.12317e-05 -0.0345060468 -0.1087005359
765295410.0 -0.0236302285 0.8441487697 0.0001951391 -0.0003657624 3.48663e-05 -0.0001724435 -0.0361361828 -0.107740094
770295380.0 -0.0155207089 0.8442393416 0.0001330863 -9.20542e-05 0.0001927619 9.35611e-05 -0.038040494 -0.1076713308
775295350.0 -0.0073614932 0.8440558795 0.0002653682 0.0001384683 0.0001558409 -6.50609e-05 -0.0392949524 -0.1069501185
780295320.0 0.0014654828 0.843990354 -8.13922e-05 8.80724e-05 -3.56425e-05 -5.05404e-05 -0.0409097294 -0.1064949382
785295290.0 0.0094089315 0.8431432321 0.0002406664 -3.18911e-05 0.0001985602 -0.0001517592 -0.041810987 -0.1056611466
790295260.0 0.018116912 0.8437763264 0.0002606571 -0.0002397905 0.0003155682 3.45618e-05 -0.0437450731 -0.1049431569
795295230.0 0.0256620931 0.8432680227 0.0001782543 -0.0002474254 0.0001772066 3.03483e-05 -0.0451347732 -0.1041428879
800295200.0 0.0342932945 0.8433940518 0.000354877 -0.0001900904 -6.65049e-05 -0.0001771159 -0.0469370116 -0.1031853859
805295170.0 0.0432811416 0.8429471923 0.0002570993 -0.0002728634 0.0002558828 -0.0001381538 -0.0481621004 -0.102683816
810295140.0 0.0514456158 0.841898943 -9.5657e-06 -0.0001540326 0.0001330496 9.7374e-05 -0.049122354 -0.1021334377
815295110.0 0.059499953 0.8415509027 0.0002099022 -0.0002115632 3.37807e-05 -2.10899e-05 -0.0508582748 -0.1010988674
820295080.0 0.0675947253 0.8412095764 0.0004593202 -0.0001122424 2.66411e-05 -0.0001055347 -0.0520224266 -0.1001456761
825295050.0 0.0769549572 0.8404078377 0.0003215381 -0.0001509589 0.0002070984 -0.0001089342 -0.0535524517 -0.0995300644
830295020.0 0.0845624001 0.8397844628 0.0002938983 -0.0001319956 0.0001154323 -2.52874e-05 -0.0545303301 -0.0986944057
835294990.0 0.092055932 0.8389426397 -2.23205e-05 0.0001640068 6.97956e-05 9.81483e-05 -0.0562667449 -0.0979441481
840294960.0 0.1003325831 0.8381805154 9.85698e-05 3.9616e-05 0.0003505382 4.27076e-05 -0.0575689866 -0.0969154926
845294930.0 0.1085490848 0.8372331251 0.0001988081 -0.0003087127 0.0002225696 6.93736e-05 -0.0593785967 -0.0959263302
850294900.0 0.1172319659 0.8358169034 -0.0001526969 -0.0001672739 0.0003590933 -9.65576e-05 -0.0606398365 -0.0947127115
