!Created with skrf (http://scikit-rf.org).
# Hz S RI R 50.0 
!freq ReS11 ImS11 ReS21 ImS21 ReS12 ImS12 ReS22 ImS22
300000.0 -0.3213998963 -0.0778385779 0.3774773853 0.041478071 0.3751674698 0.038507264 -0.3237486542 -0.0928876038
5299970.0 -0.3265849535 0.0044757002 0.3783297687 0.0025371543 0.3785766243 0.0023151057 -0.3246435829 0.0051051486
10299940.0 -0.3242196947 0.0133648061 0.3794925077 0.0017105972 0.3796890743 0.002265734 -0.3220413421 0.0160457011
15299910.0 -0.3214379601 0.0204040505 0.3818021553 0.0022203765 0.3820210722 0.0021181243 -0.318832622 0.0237534604
20299880.0 -0.3187117714 0.0260924319 0.385186667 0.0018795759 0.3849666974 0.0015196342 -0.3152658565 0.0301956179
25299850.0 -0.3157943127 0.0315311885 0.3882113725 0.0003326182 0.3882058313 0.0002444435 -0.3110608969 0.0357658379
30299820.0 -0.3128001403 0.0358741368 0.3914651024 -0.0021043831 0.391560583 -0.0023117745 -0.3074103047 0.0406398552
35299790.0 -0.3101052736 0.0400878229 0.3948900835 -0.0059001565 0.3949457685 -0.0054435252 -0.3037624466 0.0449833152
40299760.0 -0.3073117039 0.0436876873 0.3981378996 -0.0087187535 0.398060413 -0.0086510203 -0.3002474065 0.048173234
45299730.0 -0.304484977 0.0466494149 0.4004876496 -0.0126992552 0.4010373106 -0.0125316017 -0.2975130515 0.0517323466
50299700.0 -0.3024916083 0.0492698584 0.4037723459 -0.0168176767 0.4035279312 -0.0166936434 -0.2941874982 0.0541214213
55299670.0 -0.3002744889 0.0522526518 0.4058571169 -0.0221198916 0.4058381124 -0.0220862578 -0.2915437057 0.0571500968
60299640.0 -0.2979293627 0.0548924368 0.4072793729 -0.02687131 0.4076523441 -0.0266009585 -0.2891359737 0.0591322397
65299610.0 -0.2962618611 0.0573765525 0.4089649588 -0.0318459732 0.4094124642 -0.0319016112 -0.2872164251 0.0617742556
70299580.0 -0.2947170995 0.0599223198 0.4105191055 -0.0368877215 0.4103917547 -0.0368620903 -0.2848165344 0.063582081
75299550.0 -0.2929777492 0.0625162934 0.411107961 -0.0421880115 0.4111914427 -0.04209863 -0.28323594 0.06568544
80299520.0 -0.2917320199 0.0645474546 0.4125556073 -0.0473172319 0.412281007 -0.047547672 -0.281240007 0.0679642309
85299490.0 -0.2900519957 0.0665664152 0.4125830632 -0.0521706875 0.4129438712 -0.0524391263 -0.280086062 0.0700150924
90299460.0 -0.2888135467 0.0694537172 0.4133786057 -0.0582171545 0.4135555637 -0.0577195315 -0.2781572084 0.0720818016
95299430.0 -0.2873316331 0.0714526209 0.4134899236 -0.0629423178 0.4137885549 -0.063054768 -0.276307593 0.0744782729
100299400.0 -0.2861707822 0.0739908786 0.4132476619 -0.068169697 0.4132682077 -0.0680364546 -0.2751511012 0.0760787704
105299370.0 -0.2852404398 0.0761811051 0.4132794489 -0.0733720964 0.4135514557 -0.0734614662 -0.2736739586 0.0782894642
110299340.0 -0.2841650006 0.0787228553 0.4133737292 -0.0785607491 0.4132288533 -0.078431152 -0.2730331077 0.0805013977
115299310.0 -0.2831003483 0.0808490236 0.4132155558 -0.0834242916 0.4129189094 -0.0839922258 -0.2714498157 0.0828505224
120299280.0 -0.2819315744 0.082980609 0.4125913731 -0.0889892514 0.4125793327 -0.0891337752 -0.2706335431 0.0846285329
125299250.0 -0.2808786187 0.0854650623 0.4119145966 -0.0937334156 0.4122898896 -0.0934042135 -0.2695857591 0.0865258223
130299220.0 -0.2805105076 0.08828992 0.411218982 -0.0991424037 0.4109754299 -0.0992664357 -0.2688399627 0.0887835452
135299190.0 -0.2794263345 0.0907918758 0.4109099057 -0.1041289047 0.4104983098 -0.1036760731 -0.2674520186 0.0912464995
140299160.0 -0.278609638 0.0931024872 0.4098347015 -0.109146287 0.4101693149 -0.1093167359 -0.2667282254 0.0938172116
145299130.0 -0.277595063 0.0956777608 0.4091798508 -0.1139774889 0.4089481282 -0.113795685 -0.2658058568 0.095885215
150299100.0 -0.2763946723 0.0983060656 0.407822307 -0.1184958199 0.4078474607 -0.118378966 -0.2647660809 0.0987796073
155299070.0 -0.2757652614 0.1006416415 0.4068536135 -0.1241217564 0.406618722 -0.1236065459 -0.2635250838 0.10096806
160299040.0 -0.2749463163 0.1034123022 0.4056193569 -0.1285992728 0.4053562211 -0.128434396 -0.2628950144 0.1032488008
165299010.0 -0.2736543 0.1061069555 0.4042664069 -0.1339541985 0.404610705 -0.1338193303 -0.2617726477 0.1058456654
170298980.0 -0.2727966247 0.1083952054 0.4025019209 -0.138392212 0.4031710229 -0.1384503315 -0.2607005434 0.1081557805
175298950.0 -0.2717404802 0.1112151839 0.4014957426 -0.1432130953 0.401503032 -0.1432162735 -0.2601327345 0.1108430895
180298920.0 -0.2710645722 0.1140544397 0.400280653 -0.148042195 0.3999985097 -0.1476204411 -0.2589236011 0.1130595191
185298890.0 -0.2696237685 0.1164068363 0.3985752679 -0.1525479389 0.3983291604 -0.1523762659 -0.2577836933 0.1156662713
190298860.0 -0.2685757695 0.1192624557 0.3969079363 -0.1574126243 0.3972665551 -0.1570647235 -0.2567009767 0.1182367419
195298830.0 -0.2678260677 0.1219284815 0.3956664561 -0.161641736 0.3953222722 -0.1617423225 -0.2552925379 0.1206620804
200298800.0 -0.2665400111 0.1245606291 0.3931898842 -0.1666045276 0.393664933 -0.1666829285 -0.2544259746 0.1231560329
205298770.0 -0.2654420788 0.1272039543 0.3915013637 -0.1711360264 0.391690496 -0.1709072952 -0.2533150943 0.1250927474
210298740.0 -0.2645843505 0.1298677946 0.3899608202 -0.1753263276 0.3900076941 -0.1752931981 -0.2523088391 0.1284366691
215298710.0 -0.2635332734 0.1326359614 0.3882146318 -0.1800256374 0.3879324948 -0.1802867884 -0.2513935447 0.1309586767
220298680.0 -0.2620879216 0.1351613794 0.3857725892 -0.1848104246 0.3859690632 -0.1844508692 -0.2503009319 0.1330971908
225298650.0 -0.2610488543 0.13774414 0.384039091 -0.1889998834 0.3842333317 -0.1888494398 -0.248967469 0.1357630198
230298620.0 -0.2598500754 0.1408253582 0.3820017743 -0.193173522 0.3825149578 -0.1932692432 -0.2481387461 0.1384943078
235298590.0 -0.2582136223 0.1433281709 0.3798738416 -0.1977741204 0.3799233159 -0.1976123143 -0.246533392 0.1410435593
240298560.0 -0.2570870302 0.1462809076 0.3779119516 -0.2025425944 0.3776557148 -0.2021124386 -0.2450235314 0.1436738305
245298530.0 -0.2559330879 0.1489086909 0.3757830998 -0.206628516 0.375400611 -0.2066804582 -0.24374186 0.1456612862
250298500.0 -0.2542520164 0.1517494766 0.3728603021 -0.2108120844 0.3730455017 -0.210616497 -0.2425690688 0.1484186959
255298470.0 -0.2531705654 0.1542337956 0.3706567279 -0.2149468994 0.3709758643 -0.214875616 -0.2411979388 0.1506631184
260298440.0 -0.2517248721 0.1567429836 0.3683620889 -0.2192725244 0.3687745945 -0.2190740997 -0.239721621 0.1537842277
265298410.0 -0.2500064484 0.1599066428 0.3661317108 -0.2235527584 0.3662955649 -0.2231090946 -0.2382112078 0.1564631892
270298380.0 -0.2485578995 0.1624336474 0.363948471 -0.2272445114 0.3640136449 -0.2273206207 -0.2365908441 0.1587823854
275298350.0 -0.2468008064 0.1652197727 0.3609846581 -0.2318465288 0.3615219432 -0.2315300148 -0.2351892383 0.1612036423
280298320.0 -0.2452655529 0.1678970566 0.3588884315 -0.2357078217 0.3587615162 -0.2352887808 -0.2334123808 0.1637842468
285298290.0 -0.2435460881 0.170424653 0.356066604 -0.2395130997 0.3561618229 -0.2396603072 -0.2317150101 0.1661809786
290298260.0 -0.2417141335 0.1729450378 0.3531625008 -0.2433255112 0.3535547938 -0.2437380904 -0.230365117 0.1688693203
295298230.0 -0.240131217 0.1754743535 0.3509094493 -0.2473447946 0.3510613054 -0.2476233092 -0.2283923692 0.171151901
300298200.0 -0.238791128 0.17827695 0.3482763944 -0.2509610079 0.3483284145 -0.2520680423 -0.2269521992 0.1738079699
305298170.0 -0.23643186 0.1806427192 0.3449680729 -0.2560193637 0.3452068984 -0.2556266007 -0.2247502584 0.1763799404
310298140.0 -0.2349045426 0.1834458598 0.3424987787 -0.2594252227 0.3424904921 -0.2595250267 -0.2232738719 0.1785474035
315298110.0 -0.2331046965 0.1856984641 0.3396890064 -0.2634213463 0.33973593 -0.2632597977 -0.2215928122 0.1808612057
320298080.0 -0.231364163 0.1882957492 0.3363248946 -0.2675012536 0.3368180269 -0.2675142663 -0.2197801442 0.1834043967
325298050.0 -0.2294268926 0.1908727523 0.3339256127 -0.2712205571 0.3335373942 -0.2713266525 -0.2184992293 0.1856982052
330298020.0 -0.227530938 0.1929714626 0.3300342761 -0.2751162718 0.3307751393 -0.2748035168 -0.2165310115 0.1879145686
335297990.0 -0.2258127205 0.1955406583 0.3271966092 -0.2784401108 0.3271870566 -0.2789823575 -0.2151635298 0.1908498234
340297960.0 -0.2242006644 0.1984862804 0.3240732161 -0.2820183143 0.3240196887 -0.2822874581 -0.2127854252 0.1930888579
345297930.0 -0.2221640392 0.2008883556 0.3205201872 -0.2858253037 0.3205792137 -0.2858440501 -0.2109579721 0.1951995018
350297900.0 -0.2202199729 0.202929138 0.3173008452 -0.2892779318 0.3173234469 -0.2893150037 -0.2093344312 0.1977616248
355297870.0 -0.2181835197 0.2059793634 0.3143387191 -0.29272404 0.3146423957 -0.292776843 -0.207466862 0.2001006445
360297840.0 -0.216090761 0.2084981602 0.3113986949 -0.2962818622 0.3114631214 -0.2963358638 -0.2054692611 0.2030356681
365297810.0 -0.2141940232 0.2111586079 0.3074089081 -0.2994261532 0.3079796354 -0.2997277892 -0.2030563114 0.2048861501
370297780.0 -0.2118977154 0.2131815693 0.3043006304 -0.3031061762 0.3047511571 -0.3028679181 -0.2009317173 0.2075909336
375297750.0 -0.2092647855 0.2152951034 0.3009023532 -0.3062382828 0.3012879493 -0.306477942 -0.1988520463 0.2090560322
380297720.0 -0.2075044112 0.2177795757 0.2976077398 -0.309519083 0.2979058267 -0.3090887533 -0.19721213 0.2116442279
385297690.0 -0.2055954411 0.2201946515 0.2942027064 -0.3125998661 0.2941262263 -0.3126827108 -0.1945758728 0.2138651753
390297660.0 -0.2032488082 0.2225569658 0.2909837906 -0.3159026606 0.2907326782 -0.3157332922 -0.1930942626 0.2160684805
395297630.0 -0.2006685151 0.2252869529 0.287298463 -0.3194104367 0.2873797496 -0.3195328274 -0.1901443227 0.2186453846
400297600.0 -0.1986591867 0.2274239777 0.2835593687 -0.3224924103 0.2839119309 -0.3224551679 -0.1882609596 0.2202421274
405297570.0 -0.1966005337 0.2295868582 0.2800125637 -0.3253245036 0.2803833865 -0.3254066458 -0.1862928004 0.2227891654
410297540.0 -0.1936337878 0.2319029752 0.2766071688 -0.3287452317 0.2770707721 -0.3288956043 -0.1837338323 0.2251297351
415297510.0 -0.1913343075 0.2338169124 0.2724986547 -0.331524127 0.2732007176 -0.3315329772 -0.1816192046 0.2271005986
420297480.0 -0.1893921851 0.236582534 0.2694986493 -0.3346930501 0.2691466121 -0.3348137954 -0.179111275 0.2290275942
425297450.0 -0.1865035812 0.238046567 0.2657730808 -0.3374106965 0.2658839312 -0.3376260357 -0.1769034687 0.2313925515
430297420.0 -0.1842174377 0.2401173053 0.261893523 -0.339931929 0.2618372827 -0.3397677852 -0.1747003685 0.232822697
435297390.0 -0.1817922997 0.2424751874 0.2576331448 -0.3430569288 0.2577627733 -0.3431239595 -0.1714718213 0.2351809797
440297360.0 -0.1791415694 0.244482674 0.2539726569 -0.3453930057 0.2542822859 -0.3458212554 -0.1696376543 0.2369237609
445297330.0 -0.1766840878 0.2462206063 0.2504576481 -0.3481966107 0.2504941494 -0.3484725996 -0.1670412885 0.2388685402
450297300.0 -0.1739636267 0.2484142707 0.2463576371 -0.3512411268 0.2465277581 -0.3514831263 -0.1643553802 0.2407514282
455297270.0 -0.1716284844 0.2505026683 0.2424329189 -0.3540414633 0.2431022428 -0.353992888 -0.1620977421 0.2426613583
460297240.0 -0.1691801544 0.2524387358 0.2383935531 -0.3567476469 0.2389908883 -0.356463453 -0.1596770919 0.2447750805
465297210.0 -0.166269947 0.2545286497 0.2347572331 -0.359132313 0.2347195298 -0.3593820545 -0.1570949961 0.2462800609
470297180.0 -0.1635208468 0.2562427034 0.2306416347 -0.3614159364 0.2310659788 -0.3619143835 -0.1543102855 0.2486560431
475297150.0 -0.1609998497 0.2579559706 0.2265594737 -0.3635182793 0.2267971881 -0.3640537793 -0.1517017073 0.2496907504
480297120.0 -0.1584936428 0.2602991101 0.2227138387 -0.3668806002 0.2226100985 -0.3667558629 -0.148901901 0.2517082074
485297090.0 -0.1555746593 0.2619206425 0.2186836583 -0.368669038 0.2190207059 -0.3687064237 -0.1465273913 0.2538198824
490297060.0 -0.1530911795 0.2635677874 0.2146884993 -0.3713178009 0.2149073618 -0.3712715561 -0.1438576548 0.2553087275
495297030.0 -0.15039404 0.2654720654 0.2105370882 -0.3733341849 0.2108727584 -0.3734856204 -0.1413757696 0.2569997385
500297000.0 -0.1474534087 0.267073481 0.2062913151 -0.3754363151 0.20623871 -0.3753631565 -0.1384717961 0.2587660203
505296970.0 -0.1446228188 0.2686825527 0.2025443076 -0.3775871463 0.2021782666 -0.3781858728 -0.1360376739 0.2605363928
510296940.0 -0.141787473 0.2704215054 0.198158603 -0.3801625945 0.1980716699 -0.380211893 -0.133091976 0.2618681721
515296910.0 -0.1390817471 0.2719298744 0.1935430715 -0.382059859 0.193996281 -0.3824597767 -0.1300798359 0.2636031955
520296880.0 -0.1363611689 0.273508099 0.1898179252 -0.3842516352 0.1897396549 -0.3839897751 -0.1277144792 0.26505617
525296850.0 -0.1329973732 0.2750346268 0.1853415088 -0.3862470094 0.1858780501 -0.3861738167 -0.1251101904 0.2667101485
530296820.0 -0.1303714531 0.276841835 0.1812234826 -0.3885408513 0.1814350227 -0.3881827398 -0.1220367652 0.2677320155
535296790.0 -0.1276802659 0.278061667 0.1772941013 -0.3901128662 0.177499227 -0.3900165009 -0.1197434582 0.26909142
540296760.0 -0.1246622111 0.2799054298 0.1728008759 -0.3923471542 0.172969266 -0.3923744008 -0.117022304 0.2708979634
545296730.0 -0.1219033405 0.2811652141 0.1680996899 -0.3935380212 0.1686553736 -0.3941787276 -0.1140063015 0.2723080647
550296700.0 -0.1185656739 0.2825935312 0.1639356192 -0.39578876 0.1645518717 -0.3958855687 -0.1111998767 0.2737953112
555296670.0 -0.1158859239 0.2838269559 0.1601351106 -0.3973555053 0.1599458406 -0.3972189935 -0.1080299303 0.2752988876
560296640.0 -0.1125971656 0.2854006548 0.1554408406 -0.3991727377 0.155717572 -0.3992798954 -0.105089108 0.2760540588
565296610.0 -0.1097212052 0.2869725759 0.1508325842 -0.4007900303 0.1514404327 -0.4011595657 -0.1023251516 0.2771863161
570296580.0 -0.1069387623 0.287906935 0.146612402 -0.4026814457 0.1464302278 -0.4026476158 -0.0995711996 0.2790991158
575296550.0 -0.104389211 0.2896467856 0.1427732102 -0.4041610162 0.1422289731 -0.4041192203 -0.0962834478 0.2799900961
580296520.0 -0.1008780708 0.2908119765 0.1378081827 -0.4056783412 0.1379936193 -0.4054090094 -0.0936252256 0.2808778328
585296490.0 -0.0979187801 0.2917260095 0.1337417907 -0.4065572669 0.1336784206 -0.4070253838 -0.0906758271 0.2820763112
590296460.0 -0.0946818182 0.2929559869 0.1289187956 -0.4078185196 0.1291898358 -0.4082781294 -0.087943506 0.283826525
595296430.0 -0.0917588032 0.2939884726 0.1244195749 -0.4096089067 0.1244057463 -0.4095392447 -0.0847785183 0.2840962694
600296400.0 -0.0887686071 0.2953143611 0.120231724 -0.4108127749 0.1203215552 -0.4108120246 -0.0820159619 0.2853269848
605296370.0 -0.0858559388 0.2964064589 0.1156268835 -0.4122274652 0.1159343503 -0.4121041532 -0.0786333538 0.2862524367
610296340.0 -0.0823621833 0.2973841835 0.1109569915 -0.4132048784 0.1112762558 -0.4135158031 -0.0755652522 0.2873253926
615296310.0 -0.0790314211 0.2983078535 0.1065809298 -0.414492388 0.1065637473 -0.4148044248 -0.0721253383 0.2884553352
620296280.0 -0.0763073335 0.298989864 0.1021198225 -0.4154803223 0.102040714 -0.4154712597 -0.0697006061 0.2894480311
625296250.0 -0.0732085928 0.2997949412 0.0978546766 -0.4164870356 0.0978793728 -0.4168065922 -0.0660954368 0.2899057678
630296220.0 -0.0693785233 0.3009323329 0.0923831819 -0.417819305 0.0924667627 -0.417489613 -0.0631129277 0.2911925376
635296190.0 -0.0671537545 0.3018919569 0.0887308421 -0.4183137885 0.0885439319 -0.4184635959 -0.0601289589 0.2916022316
640296160.0 -0.0637493663 0.3025697785 0.0840851377 -0.4192617293 0.0839849056 -0.41937115 -0.057043195 0.292639769
645296130.0 -0.060286327 0.3038466953 0.0790900228 -0.4200643071 0.0795625239 -0.420334681 -0.0540886925 0.293503804
650296100.0 -0.0572137005 0.3041695578 0.0749259969 -0.4210101018 0.0749739265 -0.4211425178 -0.051013986 0.2937029721
655296070.0 -0.0544441276 0.3049975763 0.0704218761 -0.4213210748 0.0701360783 -0.4220997616 -0.0477301438 0.2947868771
660296040.0 -0.0508959629 0.3055935157 0.0656061163 -0.4225425203 0.0659376117 -0.4225179446 -0.0443679712 0.2954024643
665296010.0 -0.0474600987 0.305989358 0.0606818514 -0.4228892676 0.0612069569 -0.4231016105 -0.0415353938 0.2963563124
670295980.0 -0.0450453711 0.3071835703 0.0567332388 -0.4233087857 0.0567236328 -0.423401672 -0.0387661691 0.2966523694
675295950.0 -0.0413865117 0.3075373219 0.05176564 -0.423890651 0.0522648052 -0.4237130003 -0.0358744582 0.2970559014
680295920.0 -0.0381703853 0.308098648 0.0471800145 -0.4243605783 0.0467816547 -0.4249134922 -0.0323937344 0.297871929
685295890.0 -0.0346232938 0.3091742809 0.0426046556 -0.4251408065 0.0425772125 -0.4252843958 -0.029078554 0.298398374
690295860.0 -0.0316182828 0.3093204461 0.0382376788 -0.4253307836 0.0380469256 -0.4257675339 -0.026356249 0.2995297911
695295830.0 -0.0285133004 0.3094824553 0.0339256111 -0.4255847564 0.0335552945 -0.4260486959 -0.0230326561 0.2994951124
700295800.0 -0.0251097534 0.3098276843 0.0286045829 -0.4260424368 0.0288121413 -0.4261882985 -0.0203281514 0.3000892885
705295770.0 -0.021941744 0.310895663 0.0239233841 -0.4266518638 0.0245846039 -0.4267886816 -0.0172946195 0.300323792
710295740.0 -0.0188902932 0.3108363779 0.0198215756 -0.4268832457 0.0198323799 -0.426962796 -0.0136219935 0.3004747197
715295710.0 -0.0157836997 0.3112006934 0.015386652 -0.4267960425 0.0151183669 -0.4268089192 -0.0103821648 0.3005330281
720295680.0 -0.0124354718 0.3115233571 0.0104816171 -0.4270555768 0.0105152876 -0.4270146726 -0.0072646589 0.3011799013
725295650.0 -0.0090267266 0.3118258293 0.0055691659 -0.4270759462 0.0060122818 -0.4271358876 -0.0046162342 0.301458754
730295620.0 -0.0057247319 0.3123624493 0.0011765214 -0.4267891552 0.001382106 -0.4268958197 -0.0013713165 0.3011242112
735295590.0 -0.0025783998 0.3122234183 -0.0033976746 -0.426950829 -0.0033483936 -0.4266982245 0.0016651275 0.3014516705
740295560.0 0.000515659 0.3126542418 -0.0082254049 -0.4269961404 -0.0078906779 -0.4269204425 0.0055140097 0.3016928386
745295530.0 0.0036828661 0.3127628841 -0.0127057793 -0.426240641 -0.0128734688 -0.4264076097 0.0085864228 0.301462211
750295500.0 0.007166173 0.3126533726 -0.0170867753 -0.4263170096 -0.0171829681 -0.4265182178 0.0115843737 0.3016894413
755295470.0 0.0104397982 0.3126733268 -0.0216380681 -0.4260914979 -0.0219139104 -0.4263770077 0.0151150687 0.3012662941
760295440.0 0.0134530617 0.3126138218 -0.0262499149 -0.4261139255 -0.0265843241 -0.4262941505 0.0179634864 0.3015394578
765295410.0 0.0170648952 0.3125345783 -0.0311660823 -0.4254743781 -0.0314977226 -0.4258144083 0.0216210759 0.3016042684
770295380.0 0.0202731141 0.3126293924 -0.0359029939 -0.4250507561 -0.0358228843 -0.4249208487 0.0242999961 0.3014145596
775295350.0 0.0231007346 0.3120612136 -0.0403618073 -0.4243419767 -0.039816685 -0.4247581723 0.0269235023 0.3012308339
780295320.0 0.0268601869 0.3120707431 -0.0449215229 -0.4236168679 -0.0444021983 -0.4241971087 0.0303493256 0.3011154641
785295290.0 0.0296795923 0.3115416637 -0.0497567027 -0.4231282452 -0.0492963041 -0.423380102 0.033966768 0.3010767877
790295260.0 0.0337074843 0.3119794229 -0.0538853346 -0.4230669685 -0.0534700452 -0.4227998572 0.0369975339 0.3009628122
795295230.0 0.0364347836 0.3112680546 -0.0585475608 -0.4219574322 -0.0582118975 -0.4226971687 0.0405576091 0.3009366848
800295200.0 0.039437589 0.3113138307 -0.0633896235 -0.421498442 -0.0630834007 -0.421656924 0.0437016368 0.3004041545
805295170.0 0.0432093035 0.3110432136 -0.0676299749 -0.4208014491 -0.0676290471 -0.4212016992 0.0464793536 0.3003196623
810295140.0 0.0460319298 0.310356091 -0.0719328917 -0.4197571727 -0.0721630237 -0.4200950443 0.0498452656 0.2997769928
815295110.0 0.0495680752 0.3101103675 -0.0764790451 -0.41900778 -0.0763944827 -0.4190472387 0.0530288104 0.2991656911
820295080.0 0.0524625487 0.3100991386 -0.0811394125 -0.4184087162 -0.0805497688 -0.4182548528 0.0563313247 0.2990604501
825295050.0 0.0565462202 0.3095811318 -0.0855945631 -0.4172962812 -0.0858339815 -0.4177626646 0.0594338247 0.2987513952
830295020.0 0.0591791299 0.3088883164 -0.0903127147 -0.4160868905 -0.0903543551 -0.4162990117 0.0630378143 0.2982262556
