!Created with skrf (http://scikit-rf.org).
# Hz S RI R 50.0 
!freq ReS11 ImS11 ReS21 ImS21 ReS12 ImS12 ReS22 ImS22
300000.0 -0.7788312466 -0.1551142055 -0.000466809 -0.0005577439 -0.000777273 0.000243203 0.8600467351 -0.0013430375
5299970.0 -0.7853355215 -0.007988079 -0.000159789 3.92079e-05 -6.23983e-05 0.0001921614 0.8590416916 -0.010737364
10299940.0 -0.7877381969 -0.0046234832 -9.13498e-05 -6.4401e-06 1.97516e-05 3.98665e-05 0.8584550664 -0.0189836525
15299910.0 -0.7934033898 -0.0014821913 -6.46349e-05 -2.09863e-05 0.0001545778 -0.0002050736 0.8575183631 -0.0274138588
20299880.0 -0.799866676 0.0023048104 9.30115e-05 6.32784e-05 6.1921e-06 9.17536e-05 0.8568800425 -0.0362404705
25299850.0 -0.8065472105 0.0082680294 2.93714e-05 0.0002380037 0.0001053161 -4.43393e-05 0.8557507898 -0.0433547474
30299820.0 -0.8115366259 0.0160376789 -8.40658e-05 0.0001010001 -4.29321e-05 3.5254e-06 0.8547687323 -0.0525887
35299790.0 -0.8169439861 0.0253106059 -0.0001471618 -0.000339488 2.18019e-05 -0.0001028139 0.8540745005 -0.0603829558
40299760.0 -0.8212984293 0.0343067959 -3.44874e-05 6.06128e-05 8.71174e-05 0.0001124409 0.8534734858 -0.0689165296
45299730.0 -0.8249755055 0.0444871809 -0.0001064667 -0.0001255913 1.81557e-05 -4.52086e-05 0.8526984376 -0.0770059957
50299700.0 -0.8267518919 0.0541812436 -9.58691e-05 -6.21926e-05 -3.80267e-05 -0.0002320612 0.8515282559 -0.0855334374
55299670.0 -0.8290390524 0.064490526 4.63255e-05 -0.0001747192 -0.0001522416 -0.0002009058 0.8504208585 -0.0931314139
60299640.0 -0.8301905518 0.0745955895 -7.69119e-05 2.1213e-06 -7.74447e-05 8.76371e-05 0.8494866264 -0.1019280745
65299610.0 -0.831037037 0.0845999852 2.42478e-05 0.0001179406 -2.3222e-06 0.0001046275 0.8484995156 -0.1103785658
70299580.0 -0.8314665718 0.0947170399 -0.0001860875 -0.0001231077 -6.77997e-05 0.0001587793 0.8474403822 -0.1186714271
75299550.0 -0.8312349518 0.1048703543 -5.20723e-05 3.2156e-05 0.0001539426 9.94771e-05 0.8467629846 -0.1259548118
80299520.0 -0.8312039634 0.1146575211 -8.36574e-05 -8.78454e-05 0.0001998988 -5.0244e-06 0.8452218432 -0.1344144839
85299490.0 -0.8306264569 0.124432073 -0.0001593265 -0.0001210653 -0.0001396956 -5.7999e-06 0.8434024359 -0.1428700705
90299460.0 -0.829922516 0.1342288776 0.000160032 0.0001132503 -0.0001550225 -2.26467e-05 0.8419348001 -0.1512829885
95299430.0 -0.8287426038 0.1437384667 -3.06993e-05 2.78819e-05 -1.36987e-05 5.14898e-05 0.8404008363 -0.15911058
100299400.0 -0.8283773208 0.1530527967 -0.0001378705 -0.0002901201 2.02209e-05 0.000185734 0.8388672036 -0.1675674091
105299370.0 -0.8264365448 0.1621677393 -5.48218e-05 6.3916e-05 6.0394e-05 -4.54962e-05 0.8373195708 -0.175566363
110299340.0 -0.8252660105 0.1711124612 6.80922e-05 4.76726e-05 3.21897e-05 -0.0001398742 0.8347312503 -0.1834445717
115299310.0 -0.8240592776 0.1802261725 -2.97516e-05 -8.7587e-06 -0.0001467445 0.0003119714 0.8328528733 -0.1922414633
120299280.0 -0.8219322841 0.1896171163 2.31761e-05 5.06867e-05 -6.19713e-05 -9.2913e-06 0.8308140338 -0.1998137995
125299250.0 -0.8204266117 0.1984208185 -0.0003485725 -1.924e-07 -0.0001793412 4.32603e-05 0.8289896104 -0.2082828339
130299220.0 -0.8182218921 0.20761955 0.0001271521 2.80466e-05 -2.16369e-05 -9.68808e-05 0.8264267925 -0.2162262572
135299190.0 -0.8166782993 0.2166159217 3.94836e-05 8.06897e-05 -8.74462e-05 6.12072e-05 0.8250907116 -0.2242523679
140299160.0 -0.8148995522 0.2256121574 0.0001209084 0.0001216552 0.0001164515 6.08693e-05 0.8223184042 -0.2321515553
145299130.0 -0.8123059994 0.2344345723 -0.0001014022 -1.6592e-05 6.73405e-05 7.88486e-05 0.8203020103 -0.2406275821
150299100.0 -0.8102039481 0.2431444654 3.09597e-05 -0.0001051787 4.13217e-05 -8.25702e-05 0.8178279553 -0.2483572416
155299070.0 -0.8075064148 0.252273005 -7.4453e-05 0.0001091726 0.0001217431 8.47167e-05 0.8151534824 -0.2564181167
160299040.0 -0.8049537135 0.2610687319 0.0001292613 2.07941e-05 -0.0001500692 -0.0001156413 0.8124694121 -0.2645259429
165299010.0 -0.8019340778 0.2692970244 -0.0002389657 5.7961e-06 -0.00021457 -3.34869e-05 0.8104288174 -0.2722723331
170298980.0 -0.7996345699 0.2779669568 -0.0001156038 0.0001372468 -5.99349e-05 5.88931e-05 0.807181908 -0.2804720431
175298950.0 -0.7971982142 0.2869227469 0.0001118309 1.51284e-05 -0.0001177504 -1.27092e-05 0.8045895037 -0.2881744714
180298920.0 -0.7939247567 0.2951324399 0.0001713294 0.0001657667 0.0002698268 -0.0002182478 0.801498069 -0.2962877163
185298890.0 -0.7904971793 0.3040906396 -1.07129e-05 -0.0001882353 9.6976e-05 3.53713e-05 0.7988508237 -0.3041914625
190298860.0 -0.7877343927 0.3125804291 1.6995e-05 -7.51876e-05 4.9438e-06 7.08702e-05 0.795769257 -0.3115961671
195298830.0 -0.7839809376 0.3204255357 -2.18013e-05 0.0001133461 -0.0001234911 1.52316e-05 0.7927812507 -0.3193938333
200298800.0 -0.7809383911 0.3291883269 -7.54044e-05 -0.0002029298 9.05754e-05 -1.95752e-05 0.7898796598 -0.3277156396
205298770.0 -0.7770091667 0.337405848 -3.29879e-05 8.44836e-05 4.02786e-05 -8.06408e-05 0.7866347005 -0.334803857
210298740.0 -0.773618048 0.3462547138 0.0001869737 1.28787e-05 -9.17815e-05 6.77798e-05 0.783485493 -0.3425620993
215298710.0 -0.7706179052 0.3542924205 -1.72382e-05 -7.969e-07 -0.000138607 -8.71996e-05 0.7800877429 -0.3504171394
220298680.0 -0.7671889154 0.3626273298 0.0001477053 0.0001527576 0.0001150447 0.0002122985 0.7765914986 -0.3574432003
225298650.0 -0.7630370957 0.3706801261 4.04918e-05 -3.35133e-05 -0.0001327679 -2.77763e-05 0.7728853106 -0.3651224838
230298620.0 -0.7582221797 0.3789243367 0.0001647071 -0.0001560823 -5.1206e-05 -5.25949e-05 0.7692985474 -0.3729286118
235298590.0 -0.7544847923 0.3871339925 -4.53367e-05 2.34236e-05 -3.11105e-05 -8.1376e-05 0.766351966 -0.379745792
240298560.0 -0.750825999 0.3955052836 -0.0001607309 -7.22355e-05 0.0001130355 -4.83131e-05 0.7619370915 -0.3875013509
245298530.0 -0.7463252839 0.4028188727 2.2292e-05 7.5155e-06 -6.86324e-05 -0.0001608583 0.7579176131 -0.3948287579
250298500.0 -0.742234481 0.4111405041 -2.28394e-05 -0.0001482764 -3.21311e-05 -0.0001250169 0.7540745505 -0.4022439252
255298470.0 -0.7378227646 0.4182568937 0.0001740992 6.61787e-05 0.0002955612 -0.0001230326 0.7506388527 -0.4093768344
260298440.0 -0.7334071682 0.4260025322 0.0001200741 -0.0001983151 3.82521e-05 1.89147e-05 0.7467471208 -0.4164212045
265298410.0 -0.7290651661 0.434541979 0.0001128391 -0.0001394398 -8.0915e-06 7.91505e-05 0.7430625727 -0.424593327
270298380.0 -0.7246046772 0.4416575403 0.000127608 -0.0001690006 -0.0001011175 -9.61843e-05 0.7389346618 -0.4305405158
275298350.0 -0.7195460486 0.4493057751 8.65776e-05 7.02675e-05 -0.0002057268 0.0001555169 0.7343861129 -0.4376857887
280298320.0 -0.7152574985 0.4562899963 6.51956e-05 -0.0001117927 -5.9561e-06 -3.3823e-05 0.7309443237 -0.4455892461
285298290.0 -0.7104054275 0.4642871468 -8.97732e-05 7.6505e-06 -7.4188e-05 7.87455e-05 0.7261812932 -0.4516932158
290298260.0 -0.7053341583 0.471765726 -8.88416e-05 -9.06524e-05 5.13313e-05 2.314e-07 0.7221932435 -0.4591459156
295298230.0 -0.7000313031 0.4793866028 -9.69371e-05 3.2121e-05 -8.84339e-05 2.98691e-05 0.7185153343 -0.4656090843
300298200.0 -0.6951128076 0.4864733784 -1.89703e-05 5.49597e-05 -0.0001137085 3.20325e-05 0.7139286131 -0.4733177872
305298170.0 -0.6902939799 0.4939026567 0.0001259191 -8.90386e-05 -7.30469e-05 -6.01784e-05 0.7096770112 -0.4795947519
310298140.0 -0.6844737465 0.5009749845 -6.68826e-05 -3.81622e-05 3.30845e-05 -0.0001245132 0.7052226527 -0.4865974733
315298110.0 -0.6793211144 0.5083278428 3.96658e-05 8.49847e-05 -2.14995e-05 0.0001499219 0.7007779158 -0.4941806928
320298080.0 -0.673980747 0.5160446084 -4.18097e-05 0.0001048145 4.99419e-05 -3.9888e-05 0.6963829398 -0.5021368375
325298050.0 -0.6685914757 0.5222685346 -0.0001554886 -0.0001125201 1.85738e-05 6.55604e-05 0.6909688517 -0.5094100648
330298020.0 -0.662729975 0.5293634383 -0.0001219242 -0.0001394864 -7.95283e-05 0.0001677231 0.6850308062 -0.5164793241
335297990.0 -0.6570529815 0.5363736831 -0.0001315978 -0.0001652997 -0.0001569232 -0.0001918723 0.6799484737 -0.5231932867
340297960.0 -0.6521722811 0.5426463129 -7.61804e-05 -8.02605e-05 5.08328e-05 3.65273e-05 0.6743172691 -0.5294988625
345297930.0 -0.6460270212 0.5488062557 -5.15778e-05 9.844e-07 -0.0001070192 9.2244e-06 0.6684013529 -0.5355159785
350297900.0 -0.6403305744 0.5561488795 -0.0001007083 -9.8897e-05 -5.66771e-05 5.1011e-05 0.6628684289 -0.5414572088
355297870.0 -0.6342710896 0.5624849193 4.69865e-05 -4.83371e-05 -9.93837e-05 2.91414e-05 0.657136083 -0.5481514406
360297840.0 -0.6287228982 0.5693104463 -2.80135e-05 -1.7307e-05 -1.43412e-05 1.29776e-05 0.6517684843 -0.5538769405
365297810.0 -0.6222584073 0.5754068171 0.0002243475 -4.22255e-05 -0.0001711708 6.30573e-05 0.6464226573 -0.5606436757
370297780.0 -0.6166183173 0.5823119453 -5.96978e-05 -0.0001068544 -8.74883e-05 0.0001585496 0.6407637913 -0.5654963146
375297750.0 -0.6102704656 0.5881686032 0.0001414227 -7.81926e-05 -2.82252e-05 0.0002653403 0.6350357019 -0.5716793268
380297720.0 -0.6045987982 0.5948243904 1.41441e-05 6.41135e-05 4.5682e-06 5.72086e-05 0.6298340354 -0.5769861773
385297690.0 -0.5977552174 0.6012353586 0.0003028275 0.0001345334 9.56907e-05 0.000167461 0.6243408234 -0.5829151842
390297660.0 -0.5916236117 0.6070566917 8.1926e-06 5.99101e-05 -0.0001529325 0.0003727895 0.6186306368 -0.5894870064
395297630.0 -0.5854903315 0.6135681484 0.0002312854 0.0002587885 6.41504e-05 0.0001044309 0.6127870643 -0.5956505692
400297600.0 -0.5793157229 0.6193652134 0.0001169483 -8.27661e-05 -0.0001742998 7.47774e-05 0.6066754336 -0.6014810653
405297570.0 -0.5727350489 0.6251887441 -0.0002145224 0.0001612085 8.52493e-05 -4.75301e-05 0.6013557851 -0.6067435555
410297540.0 -0.5651262669 0.6308371801 -0.0001640693 1.87904e-05 -3.19151e-05 1.84632e-05 0.5950291851 -0.6123991465
415297510.0 -0.5592739181 0.6364147824 3.01914e-05 -1.41931e-05 0.0001028345 -6.08345e-05 0.5886059011 -0.618075546
420297480.0 -0.551625124 0.6425239767 -5.07935e-05 -7.08328e-05 4.3473e-06 8.60638e-05 0.5823507883 -0.6240532407
425297450.0 -0.5458862329 0.6481316666 -0.0001398005 -0.0001365471 0.0002044098 1.9708e-05 0.5766273 -0.628608435
430297420.0 -0.5393784009 0.6532980544 8.32205e-05 -1.68147e-05 0.0001118635 -8.2051e-06 0.5708982043 -0.634654385
435297390.0 -0.5320452183 0.6588894379 0.000266585 -0.0002138206 -0.000145539 -7.8902e-06 0.5642290723 -0.6399809262
440297360.0 -0.5254151994 0.66442866 -0.0002499618 2.12709e-05 -0.0001430205 0.0001518442 0.5579672112 -0.6458708273
445297330.0 -0.5182079777 0.6701313109 3.5214e-06 4.2487e-05 0.0001947867 -1.07354e-05 0.5514132256 -0.6512954811
450297300.0 -0.5111422598 0.6747875958 0.0001094665 -0.0001079873 0.0001602649 -0.0001267003 0.544767234 -0.6565685417
455297270.0 -0.5040452456 0.6800846647 6.11929e-05 -0.0001022193 8.86344e-05 9.84102e-05 0.5384363726 -0.6617912088
460297240.0 -0.4975895986 0.6858442754 0.0001511592 -0.000105802 -0.0001284532 9.29808e-05 0.5325639812 -0.6664470559
465297210.0 -0.4904193101 0.6901211242 0.0001674224 9.9539e-06 -2.29187e-05 3.18667e-05 0.5251375305 -0.6722584771
470297180.0 -0.4828713914 0.6944448134 -0.0002728234 -0.0002266871 -8.9289e-06 5.22089e-05 0.5186023648 -0.677118806
475297150.0 -0.4757890473 0.7002967752 0.0001269849 -1.49186e-05 -0.0001030039 2e-05 0.5123450141 -0.6817253515
480297120.0 -0.4686806967 0.7044172087 -9.95103e-05 -0.0001377996 -8.80372e-05 -5.92096e-05 0.5054467334 -0.6864151832
485297090.0 -0.4613029198 0.709354456 -5.97327e-05 0.000282869 7.42576e-05 -5.86323e-05 0.498728627 -0.6919197672
490297060.0 -0.4539875342 0.7146894824 -6.6158e-06 -5.05536e-05 0.0001397584 -6.58135e-05 0.4919633622 -0.6967065096
495297030.0 -0.447157616 0.7188216302 6.36937e-05 -5.74214e-05 -0.000131859 2.64996e-05 0.4856349434 -0.7010986606
500297000.0 -0.4391235186 0.7234094985 -0.0001371307 4.37911e-05 8.67272e-05 -1.136e-07 0.4777650419 -0.7059059165
505296970.0 -0.4315076487 0.7270832572 0.0001092247 0.0001324986 -0.0001048045 4.81176e-05 0.4706890251 -0.7104999813
510296940.0 -0.4239670737 0.7318699551 9.0453e-05 9.9806e-06 0.0001795478 4.87613e-05 0.4633340704 -0.7142494819
515296910.0 -0.4168675162 0.7363411049 1.94293e-05 -1.80672e-05 1.61516e-05 -4.27196e-05 0.4559354762 -0.7189913879
520296880.0 -0.4090612095 0.7406629813 3.05555e-05 -2.73941e-05 -0.0001944061 9.03944e-05 0.4491168531 -0.7238092767
525296850.0 -0.4017187184 0.744857349 -7.1642e-05 1.2785e-05 0.0001379843 0.0001215132 0.4418893356 -0.7282571682
530296820.0 -0.3946428525 0.7480911269 0.0001108598 3.61103e-05 -0.0001827496 -0.00017407 0.4346168074 -0.7329690077
535296790.0 -0.3856616687 0.7524396361 3.6336e-06 -2.8978e-05 -1.15369e-05 -7.8272e-05 0.4272913007 -0.7375447945
540296760.0 -0.3778496174 0.7561596664 -0.0001190369 -0.0001110405 -5.70664e-05 -0.0001337606 0.4199207364 -0.7407902939
545296730.0 -0.3713609345 0.7596582755 0.0002440135 -0.0002081452 -2.63907e-05 -8.9345e-06 0.4125911321 -0.7451428068
550296700.0 -0.3630741779 0.7640742886 0.0003424181 0.0001179182 -8.88722e-05 -7.351e-07 0.4047773232 -0.7494615529
555296670.0 -0.3548171478 0.7671548341 0.0001432239 2.41904e-05 -2.64154e-05 -0.0001016229 0.3977975978 -0.7527956214
560296640.0 -0.3468445524 0.7707198704 4.24382e-05 9.79432e-05 -5.12185e-05 6.93407e-05 0.3899566628 -0.7571401659
565296610.0 -0.3397270046 0.7740376272 -0.000222878 -0.0001506759 8.7947e-05 0.0001629216 0.3822161515 -0.7603456245
570296580.0 -0.3316708784 0.777447454 -0.0001222168 6.5047e-05 3.69182e-05 -0.0001321155 0.3745384583 -0.7640366575
575296550.0 -0.3236355281 0.7805959897 2.05603e-05 -4.90887e-05 0.0001613432 -0.0001425785 0.3664383597 -0.7674389371
580296520.0 -0.3155001974 0.7842135898 0.0001135961 -7.37653e-05 -5.70815e-05 3.00528e-05 0.358740353 -0.7707887278
585296490.0 -0.3077198744 0.7862320238 2.78583e-05 2.19598e-05 0.0001145813 2.88604e-05 0.3517075089 -0.7746376116
590296460.0 -0.2999435113 0.7897054 0.0001036476 4.78557e-05 -0.0001782139 5.98194e-05 0.343684159 -0.7778080606
595296430.0 -0.2911343669 0.7933893964 -0.0001006905 -0.0002374287 7.4151e-05 -4.08964e-05 0.335642574 -0.7811453103
600296400.0 -0.2838333606 0.7956682266 -6.53485e-05 -0.0001147202 -5.56606e-05 3.7321e-05 0.3281446409 -0.7840429104
605296370.0 -0.2754459019 0.7987746569 -0.000211157 0.0003378536 6.14891e-05 0.0001016665 0.3199895655 -0.7873532783
610296340.0 -0.2671483172 0.8018043594 5.1125e-05 0.0001393592 -8.92516e-05 6.06407e-05 0.3116723401 -0.7897619321
615296310.0 -0.2591998535 0.8042272667 -3.32822e-05 -0.00020636 8.44333e-05 -5.87262e-05 0.3047701374 -0.7937078483
620296280.0 -0.2507524554 0.8066867434 -6.62276e-05 -0.0001233003 8.60466e-05 -4.22437e-05 0.2969052519 -0.7967908948
625296250.0 -0.2431301674 0.8089771828 -0.0001477141 8.33848e-05 0.0001709989 6.58093e-05 0.2881294322 -0.7983936072
630296220.0 -0.2342849119 0.8116906241 0.0001425286 -6.93561e-05 -3.26117e-05 2.39991e-05 0.2803344961 -0.8009922543
635296190.0 -0.2263132425 0.8141789375 -3.82366e-05 8.51923e-05 6.36177e-05 3.54001e-05 0.2724361182 -0.8034666721
640296160.0 -0.2177506317 0.8156720859 3.83125e-05 3.28778e-05 7.61008e-05 -2.797e-06 0.2642467777 -0.8065006766
645296130.0 -0.2096911939 0.8180539316 -0.0002592819 -9.41295e-05 4.45777e-05 -7.98862e-05 0.2560711863 -0.8093410631
650296100.0 -0.2015190864 0.8204873109 -4.91372e-05 -6.3742e-05 4.61891e-05 -5.29632e-05 0.2479320588 -0.8109643235
655296070.0 -0.1927146248 0.822026504 -2.31e-07 -0.0002145437 5.13697e-05 5.16933e-05 0.2393631726 -0.8132881561
660296040.0 -0.1855064888 0.8242023387 0.0001547861 -3.78807e-05 -8.5914e-06 -6.73283e-05 0.2318512701 -0.8155464127
665296010.0 -0.1767653314 0.8260914818 0.0001049282 -1.60788e-05 2.82995e-05 0.0002035896 0.2237542487 -0.8176030698
670295980.0 -0.1678636712 0.8272960697 -0.0001614775 -6.28421e-05 -7.87466e-05 2.47276e-05 0.2154251204 -0.81975148
675295950.0 -0.1600087184 0.8283796132 1.8698e-06 0.0001763586 8.52489e-05 -2.7289e-05 0.2075075711 -0.8216610819
680295920.0 -0.1520164372 0.8304178239 0.0001901057 -9.00122e-05 5.50158e-05 4.4978e-06 0.1984482668 -0.8238166407
685295890.0 -0.1426176826 0.8317316533 0.0001622833 -7.98205e-05 1.25719e-05 0.0001131089 0.1908655257 -0.8252235915
690295860.0 -0.1345469736 0.8337916323 0.0001750756 9.8473e-06 -2.82633e-05 -0.0001523434 0.1828971425 -0.8270352714
695295830.0 -0.1261673925 0.8341013405 -0.0002468938 3.95157e-05 -0.0001481623 6.01857e-05 0.1736356258 -0.8290379868
700295800.0 -0.1178109146 0.8355787952 3.82873e-05 -7.34689e-05 -5.36579e-05 -0.0001409182 0.1654848833 -0.83029167
705295770.0 -0.1093030817 0.8370327152 -0.0001109213 -0.0001934733 0.000186485 7.92477e-05 0.1575117059 -0.8307850354
710295740.0 -0.1008501983 0.8382852253 0.0001734381 7.4281e-05 1.42917e-05 -7.92436e-05 0.1489134877 -0.8319849517
715295710.0 -0.0929379731 0.8395584117 7.07211e-05 -5.65406e-05 0.0001965464 -1.89807e-05 0.1411986368 -0.8340873506
720295680.0 -0.0845724096 0.8397033585 0.0002017934 -9.358e-07 -6.32768e-05 -1.02043e-05 0.1330178328 -0.8358410668
725295650.0 -0.0747599567 0.8410473812 4.82439e-05 -7.22118e-05 -1.98799e-05 -2.7801e-06 0.1247009744 -0.8364244632
730295620.0 -0.0671967277 0.8414215562 7.96909e-05 -2.13851e-05 6.30711e-05 -9.18518e-05 0.1158251174 -0.8382507862
735295590.0 -0.0580681144 0.8416596254 -0.0002311675 -8.52434e-05 6.61521e-05 0.0001148178 0.1077959036 -0.838670783
740295560.0 -0.050159665 0.8425540603 1.60286e-05 4.8614e-06 -1.1208e-06 7.8473e-06 0.0986082916 -0.8401388907
745295530.0 -0.0417474508 0.8430125154 0.0001538705 -6.03213e-05 -1.02827e-05 0.0001615821 0.0901873261 -0.8403474992
750295500.0 -0.0337294407 0.8431440171 -6.87145e-05 0.0001917742 -3.97739e-05 0.0001402868 0.0823527746 -0.8414443813
755295470.0 -0.0244980297 0.8436148517 -9.74789e-05 -3.57741e-05 -2.26819e-05 -0.0001558108 0.0736556984 -0.8417343902
760295440.0 -0.0162673939 0.8435979243 8.68013e-05 0.0001736443 -9.63259e-05 -7.81998e-05 0.0651410406 -0.8422892888
765295410.0 -0.0078256011 0.8439925607 0.0002031034 -0.0001177453 9.25008e-05 6.9005e-06 0.0569862328 -0.8423956159
770295380.0 0.0004792363 0.8443523969 2.0001e-05 -0.0001776911 7.72762e-05 1.96582e-05 0.0491133415 -0.8427411003
775295350.0 0.0092570703 0.8441438535 3.2651e-05 -1.01062e-05 2.62561e-05 -0.0001352317 0.0402986727 -0.8447323441
780295320.0 0.0176060544 0.843146394 0.0002577721 -7.94516e-05 -8.2259e-05 3.91628e-05 0.0312658864 -0.8434222008
785295290.0 0.0256599323 0.8437578517 8.074e-05 0.0001039508 0.0001496644 -0.0001074836 0.0230242825 -0.8442158741
790295260.0 0.0346381559 0.8427374417 -0.0002358837 0.0002020286 -6.42856e-05 0.0001275186 0.0151097495 -0.8440107535
795295230.0 0.0428788557 0.8434365405 2.5458e-06 0.0001001534 -1.76351e-05 0.0001056979 0.0069546882 -0.8440823779
800295200.0 0.0513082632 0.843016855 9.9421e-05 -2.305e-05 0.0002338587 -0.0001754225 -0.0017009047 -0.8436173697
805295170.0 0.0599075219 0.8420210353 5.1094e-05 3.563e-07 4.83802e-05 -5.01201e-05 -0.0108626983 -0.8440318345
810295140.0 0.0685286987 0.8415000184 3.87626e-05 -5.63014e-05 -8.41634e-05 2.2893e-05 -0.0186079294 -0.8432553597
815295110.0 0.0767228265 0.8402211575 7.04548e-05 -0.0001272821 -0.0001168421 0.0001771023 -0.0270990461 -0.8432777822
820295080.0 0.0853256394 0.8389063721 9.40798e-05 -7.79272e-05 7.631e-05 0.0001849228 -0.0363637913 -0.8426000995
825295050.0 0.0941033452 0.8385372296 -0.0001515973 -0.0001321643 5.17367e-05 9.27833e-05 -0.0439075136 -0.8417948672
830295020.0 0.1023796269 0.8379735119 4.82737e-05 1.07297e-05 -0.0001060907 -0.000110811 -0.0528136725 -0.8413320181
835294990.0 0.1100430229 0.8368688712 0.0002154377 -0.0002115897 0.0002017722 -4.87969e-05 -0.0608708347 -0.8406351481
840294960.0 0.1188889682 0.8353876991 0.0001420816 -6.42345e-05 -8.5911e-06 0.0001291421 -0.0695042115 -0.839395796
845294930.0 0.126816187 0.8344833836 -0.0002539826 0.0001172861 -3.35912e-05 7.96674e-05 -0.077257075 -0.8386779408
850294900.0 0.1357947553 0.8326953292 2.82062e-05 7.7887e-06 1.796e-07 9.85508e-05 -0.0858292182 -0.8379292143
