!Created with skrf (http://scikit-rf.org).
# Hz S RI R 50.0 
!freq ReS11 ImS11 ReS21 ImS21 ReS12 ImS12 ReS22 ImS22
300000.0 -0.3154521638 -0.1227506431 0.3729926306 0.0612088179 0.3731845416 0.0632197316 -0.3181916756 -0.1267884389
5299970.0 -0.3249110524 0.0030991382 0.378495038 0.0030920387 0.3787996233 0.003099527 -0.3259294868 0.0022296418
10299940.0 -0.3226568732 0.0143485073 0.379866913 0.002750422 0.3798842856 0.0031552617 -0.3233085426 0.0126062474
15299910.0 -0.3189569514 0.0222142233 0.3820250078 0.0026627058 0.3822239728 0.0027305577 -0.3208276049 0.0199567127
20299880.0 -0.315567435 0.0292596753 0.3850089372 0.0012825172 0.3853268714 0.0017844279 -0.3180143124 0.0259216002
25299850.0 -0.3117490631 0.03487662 0.388751487 0.0004481191 0.3886413963 0.0002428567 -0.3153740055 0.0313978443
30299820.0 -0.308160004 0.0392707942 0.392246839 -0.0019648118 0.3922287613 -0.0024068898 -0.311955698 0.0358488258
35299790.0 -0.3045327579 0.0435122956 0.3949401878 -0.004922652 0.3950015212 -0.005173779 -0.3094945468 0.0399124192
40299760.0 -0.3011983943 0.0467947387 0.3984865515 -0.0087254791 0.3987179357 -0.0083199271 -0.3065393925 0.0432401246
45299730.0 -0.2980494537 0.0501262776 0.4011152857 -0.0123275175 0.4018026582 -0.012718418 -0.304069941 0.0467703888
50299700.0 -0.294732301 0.0527715356 0.4036281062 -0.017373556 0.403759327 -0.0173079271 -0.3010412357 0.0495923662
55299670.0 -0.2922540072 0.0553912498 0.4059812885 -0.0216482205 0.4062223719 -0.0218789865 -0.2994811023 0.0522563942
60299640.0 -0.2895152833 0.0578185134 0.408045287 -0.0270249609 0.4081124132 -0.0271327351 -0.2973388367 0.0548026708
65299610.0 -0.2873390538 0.0601443148 0.4097719676 -0.0317982549 0.4098264635 -0.0316407265 -0.2955666074 0.0573815852
70299580.0 -0.2855513786 0.0621578596 0.4108171106 -0.0365733657 0.4110302655 -0.0365994584 -0.2938908279 0.0595873821
75299550.0 -0.2830886353 0.0644315844 0.4115431467 -0.0423264566 0.4121326975 -0.0422779367 -0.2922195044 0.0622917114
80299520.0 -0.2816326579 0.0668001641 0.4127027323 -0.0475774592 0.4131299134 -0.0473389022 -0.2904758834 0.0647081509
85299490.0 -0.2796885183 0.0685552111 0.4131430082 -0.052743102 0.4135255769 -0.0524530562 -0.2893779669 0.0669477008
90299460.0 -0.2782388425 0.0708093336 0.4136907058 -0.0580072512 0.4138214044 -0.0579228661 -0.2878517406 0.069180416
95299430.0 -0.2766640045 0.0729172409 0.413987391 -0.0627750426 0.4144256202 -0.0632756155 -0.2868515086 0.0720825951
100299400.0 -0.2754684668 0.074665983 0.4141693582 -0.0681002111 0.4141793174 -0.0683142316 -0.2853854946 0.074432946
105299370.0 -0.2739760469 0.0767981407 0.4134979631 -0.0731350658 0.4143261679 -0.0737281319 -0.284189468 0.0762398069
110299340.0 -0.2725535749 0.0790775853 0.4137643685 -0.0783441365 0.4139093192 -0.0784433972 -0.2832415426 0.0786530508
115299310.0 -0.2715278891 0.081023987 0.4135182606 -0.0832812618 0.4135828489 -0.0837298319 -0.2822764883 0.0813341999
120299280.0 -0.2703945269 0.083287556 0.4128670084 -0.0891292808 0.412962911 -0.0892467356 -0.2813181786 0.0831181311
125299250.0 -0.2693715719 0.0853453572 0.4125973914 -0.0937800648 0.4129312528 -0.0937945551 -0.2800741731 0.0858331971
130299220.0 -0.2681427624 0.0878116643 0.4120872452 -0.099038185 0.4117466633 -0.0995079763 -0.2791126666 0.0881550371
135299190.0 -0.2672800452 0.090025882 0.4111056103 -0.1036966898 0.4112170086 -0.1040061191 -0.2787620112 0.0904644322
140299160.0 -0.2661062872 0.0920918698 0.4105731701 -0.1089941057 0.4104790348 -0.1088519854 -0.2778018075 0.0932691498
145299130.0 -0.2655212784 0.0947253565 0.4094836792 -0.113920319 0.4098111425 -0.1137927272 -0.276784884 0.0956022938
150299100.0 -0.2640438875 0.0969532633 0.4082906286 -0.1190146034 0.4084593053 -0.1188374857 -0.2757722661 0.0981958328
155299070.0 -0.2629849181 0.0993860919 0.406782112 -0.1236126297 0.4071689417 -0.1239837502 -0.2744572263 0.1009656716
160299040.0 -0.262485617 0.1021097138 0.4061721584 -0.128597596 0.405846351 -0.1288446483 -0.2738910376 0.1036989951
165299010.0 -0.2612020988 0.1039728745 0.4050604025 -0.1331324374 0.4050292473 -0.1338563839 -0.2729777409 0.1061270559
170298980.0 -0.2601743596 0.1068771408 0.4032853584 -0.1385743666 0.4036107577 -0.138874799 -0.272284798 0.1087182444
175298950.0 -0.2592808089 0.1091609402 0.4023002665 -0.1431016346 0.4023811658 -0.143258278 -0.2711960011 0.1116542357
180298920.0 -0.2582415888 0.1118550874 0.4004746079 -0.1479900576 0.4007348233 -0.1481173505 -0.2699736684 0.1136993848
185298890.0 -0.2571380533 0.1142345295 0.3992681626 -0.1526186482 0.3993256489 -0.1525399509 -0.2691223397 0.1164973915
190298860.0 -0.2559616345 0.1173508373 0.3973445926 -0.1572211909 0.3974608469 -0.1573604834 -0.267755555 0.1190270387
195298830.0 -0.2548733583 0.1197937366 0.396076434 -0.1617780244 0.3961823667 -0.1618494186 -0.2672371893 0.1219207822
200298800.0 -0.2535593185 0.1222610812 0.3943106848 -0.1668705729 0.3943359104 -0.1667102808 -0.2657606509 0.1244093848
205298770.0 -0.2529236026 0.1248505377 0.3925873233 -0.170938276 0.3925289117 -0.1710129381 -0.2649486505 0.1273335568
210298740.0 -0.2514987931 0.1275522248 0.39088695 -0.1756190192 0.3904765935 -0.1755124561 -0.2641430148 0.1298047453
215298710.0 -0.2503364382 0.1302840193 0.3881909074 -0.1799445814 0.3886508285 -0.1804929146 -0.2624016823 0.1325390113
220298680.0 -0.2489022104 0.1323778314 0.3863896468 -0.184559968 0.3867896654 -0.1850648292 -0.2613145533 0.1354534928
225298650.0 -0.2476862661 0.1355701866 0.3845729996 -0.1891675993 0.3848806116 -0.1888412315 -0.259871173 0.1379118383
230298620.0 -0.2465976719 0.1379862708 0.3827122248 -0.193610927 0.3828610308 -0.1935483238 -0.2586912377 0.1405213292
235298590.0 -0.2454416022 0.1406912175 0.3806959256 -0.1978987194 0.380447088 -0.1979265102 -0.2574308567 0.1433350348
240298560.0 -0.2440618566 0.1434854437 0.3783955079 -0.2022100385 0.3783785748 -0.2020661984 -0.2561679257 0.1458521626
245298530.0 -0.2427739584 0.1457542684 0.3761168569 -0.2064821513 0.3761586689 -0.2068361473 -0.2548378568 0.1488695461
250298500.0 -0.2416469504 0.1482788318 0.3739491223 -0.2105381242 0.3740070986 -0.2107596765 -0.2536477061 0.1517907175
255298470.0 -0.2401298828 0.1511159823 0.3718631167 -0.2148827103 0.3719741399 -0.2152003098 -0.2521231266 0.1539353332
260298440.0 -0.2388037948 0.1536617659 0.3693829006 -0.2185349606 0.3695120948 -0.2191100007 -0.2507068168 0.1566823226
265298410.0 -0.2375763368 0.156016971 0.3669568799 -0.2234100876 0.3667813497 -0.2236769634 -0.2487538853 0.1590653885
270298380.0 -0.235816243 0.1587538943 0.3643036748 -0.2273709413 0.3645650903 -0.2276224528 -0.2474989027 0.1620487697
275298350.0 -0.2346503718 0.1615440065 0.3617467744 -0.2315356841 0.3618973333 -0.2315512851 -0.245925673 0.1647470988
280298320.0 -0.2332840358 0.1638686931 0.3596989142 -0.235183914 0.3596328874 -0.2359644041 -0.2443535477 0.1673860772
285298290.0 -0.2314990324 0.1670153962 0.356596179 -0.2396153064 0.3571053043 -0.2394782519 -0.2431061899 0.1702974009
290298260.0 -0.2298692873 0.1693718886 0.3543602379 -0.2436585353 0.3544994599 -0.2438919154 -0.2414752036 0.1729481158
295298230.0 -0.2283794548 0.1716969355 0.3517163895 -0.2481952095 0.3513027572 -0.2480370214 -0.2395334981 0.175182376
300298200.0 -0.2267455628 0.1743745298 0.3492297523 -0.2517311605 0.3490981178 -0.2515870516 -0.2377101188 0.1779891473
305298170.0 -0.2250752405 0.1766976601 0.346103456 -0.2556679631 0.3466477479 -0.255738001 -0.2359030488 0.1802392466
310298140.0 -0.2232538387 0.1788714015 0.3432645387 -0.2593463783 0.3437254877 -0.2595173131 -0.23394242 0.1830869512
315298110.0 -0.2219315315 0.1813763379 0.3408921362 -0.2638220001 0.3403581267 -0.2635074293 -0.232210565 0.1851662565
320298080.0 -0.2200368387 0.1837905465 0.3371818946 -0.2677069553 0.3377835966 -0.2676340624 -0.2305634597 0.1877738834
325298050.0 -0.2187408641 0.1857336994 0.3343520161 -0.2710820248 0.3348424071 -0.2712226928 -0.2284857299 0.1901352331
330298020.0 -0.217011715 0.1886991929 0.331575233 -0.2751808798 0.3317600371 -0.2753282149 -0.2268445673 0.1928766081
335297990.0 -0.2155189749 0.190695928 0.3282944157 -0.2785248578 0.3284450927 -0.2786864409 -0.2251190624 0.1952096938
340297960.0 -0.2136230749 0.1931302512 0.3249724253 -0.2822511841 0.3249483299 -0.2824358057 -0.2231249583 0.1981991808
345297930.0 -0.2118827057 0.1957199672 0.3217088463 -0.2859932289 0.3217898883 -0.2860272054 -0.2210105405 0.200082255
350297900.0 -0.2101618547 0.1979790955 0.3186869761 -0.2892487349 0.3189962919 -0.2890934341 -0.219576166 0.2026803196
355297870.0 -0.2082973787 0.2004354747 0.3156261404 -0.2923740776 0.3155371299 -0.292700373 -0.2175965944 0.2054233268
360297840.0 -0.2060602398 0.2026780372 0.3119961633 -0.2965640103 0.3122371938 -0.2965211225 -0.2151063911 0.2077535855
365297810.0 -0.2045050746 0.2051573283 0.3090641876 -0.2997642302 0.3088849973 -0.299972888 -0.2133626391 0.2104817858
370297780.0 -0.2024069066 0.2073797171 0.3053302019 -0.3032938057 0.3057798927 -0.3029926901 -0.2107948757 0.2123719066
375297750.0 -0.2004035258 0.2095927013 0.3022266718 -0.3064434799 0.3021630643 -0.3063046445 -0.20882629 0.2146196193
380297720.0 -0.198331334 0.2119974317 0.2988389569 -0.3099876901 0.2986792414 -0.3098786851 -0.2066627206 0.2175007802
385297690.0 -0.1964741551 0.2141409629 0.2956309937 -0.312972871 0.2954405251 -0.3133463012 -0.2043668456 0.2197508324
390297660.0 -0.194226616 0.2160941982 0.2917155917 -0.3159655427 0.292026243 -0.3160880561 -0.2019507399 0.2218220919
395297630.0 -0.1919540164 0.2185904282 0.2886158853 -0.3189865265 0.288408009 -0.3191611517 -0.2000386502 0.2240675684
400297600.0 -0.1901794478 0.220703543 0.2849316546 -0.3228389287 0.2852943626 -0.3227603964 -0.1975523739 0.2265969476
405297570.0 -0.1877947953 0.2223580625 0.2812196497 -0.3255138855 0.2814632666 -0.3254495627 -0.195019103 0.2287788966
410297540.0 -0.1854406656 0.2246491622 0.2777606261 -0.3286786053 0.2778025707 -0.3285611974 -0.192584963 0.2311710361
415297510.0 -0.1834171729 0.2267957051 0.2739607482 -0.3317279663 0.2745732706 -0.331783529 -0.1905912077 0.2334280059
420297480.0 -0.1809772421 0.2285657204 0.2706465612 -0.3346070416 0.2705152823 -0.3351300417 -0.187787599 0.2358616489
425297450.0 -0.178398515 0.2308495506 0.2666790877 -0.3376128527 0.2668460705 -0.3376228488 -0.1856164489 0.2373964342
430297420.0 -0.1764685361 0.2328937959 0.2634865508 -0.3407359127 0.2636664413 -0.3404398564 -0.1833323881 0.2398949783
435297390.0 -0.1739907312 0.2346100585 0.2592216739 -0.3437555153 0.2591642934 -0.3433768485 -0.1808414214 0.2419261322
440297360.0 -0.1712538873 0.2364867497 0.2552355757 -0.3459777242 0.2555485309 -0.3464154528 -0.178155095 0.2440737179
445297330.0 -0.1688867157 0.2383982759 0.2516757561 -0.3486519181 0.2520451217 -0.3491289512 -0.175574073 0.2460875235
450297300.0 -0.1664906154 0.2401245387 0.2475563118 -0.3514251565 0.2480837575 -0.3516153187 -0.1724470877 0.2481191425
455297270.0 -0.1644278539 0.2419635426 0.2440436604 -0.3540483635 0.2443414878 -0.3547039086 -0.1704895957 0.2500119212
460297240.0 -0.1612821051 0.2440628471 0.2399979692 -0.3574642447 0.240203809 -0.3572067544 -0.1676150395 0.2518802742
465297210.0 -0.1592146267 0.2457569101 0.235849101 -0.3596075277 0.235906435 -0.3598440783 -0.1647649327 0.2540961219
470297180.0 -0.1562508661 0.2476155805 0.2317099166 -0.3619371497 0.2322884902 -0.3620645969 -0.1621683526 0.2557875402
475297150.0 -0.1538949989 0.2495700688 0.2279766598 -0.3647843001 0.2281652061 -0.364629759 -0.1594898587 0.2576941659
480297120.0 -0.1508856204 0.2513656183 0.2237841856 -0.367262993 0.2243652228 -0.3672969057 -0.157200501 0.259588943
485297090.0 -0.1483749873 0.2529278441 0.2197675886 -0.3696819561 0.2201151936 -0.369785332 -0.1545916736 0.2616649824
490297060.0 -0.1453921147 0.2546414895 0.2157518903 -0.3723069769 0.2159681174 -0.3720666707 -0.1514030178 0.2628539927
495297030.0 -0.1426930388 0.2561328635 0.2118212906 -0.3741919079 0.2117292127 -0.3743220954 -0.1484862854 0.2646723744
500297000.0 -0.1404126771 0.2580441133 0.2079489786 -0.3762363288 0.207683723 -0.3767970222 -0.1458309927 0.2666854835
505296970.0 -0.1369674066 0.2596847406 0.2035252946 -0.3790823173 0.2036268434 -0.3782853243 -0.1428130452 0.2679202717
510296940.0 -0.1343487105 0.2609020882 0.1995112325 -0.3812237614 0.1995709432 -0.3813603653 -0.1397324192 0.2702864053
515296910.0 -0.1316906432 0.262840048 0.1948600625 -0.3832504267 0.1948883168 -0.3829748612 -0.1369665635 0.2713177823
520296880.0 -0.1287153826 0.2643371838 0.1909210915 -0.3852065959 0.190889933 -0.385045027 -0.1341030885 0.273116315
525296850.0 -0.1260355079 0.2656708952 0.1867116703 -0.3871993783 0.1864198012 -0.3869123758 -0.1312717999 0.2747645777
530296820.0 -0.1235064142 0.2671213845 0.1824792016 -0.3888667003 0.1824724689 -0.3889702107 -0.1284669187 0.2759246104
535296790.0 -0.1197109172 0.2684575845 0.1779385542 -0.3910087712 0.1780500273 -0.3909093611 -0.1252704418 0.2778234492
540296760.0 -0.1169648028 0.2702500339 0.1736110817 -0.392987027 0.1733348282 -0.3927150628 -0.1223683716 0.2786600933
545296730.0 -0.1146575501 0.2715869426 0.1697063327 -0.3946407173 0.169363391 -0.3946418646 -0.1193980528 0.2806067915
550296700.0 -0.1110515244 0.2731061871 0.1649058944 -0.3964799826 0.1648184187 -0.3967386518 -0.1164617665 0.2820258016
555296670.0 -0.1083563328 0.2743001422 0.161165099 -0.3986105561 0.1607782339 -0.3983345728 -0.113820824 0.2829137004
560296640.0 -0.1047951247 0.2755599289 0.1558863809 -0.3999059182 0.1565628599 -0.4000406174 -0.1108583515 0.284635312
565296610.0 -0.1025603519 0.2769528726 0.1522869259 -0.4015036889 0.1520846339 -0.401427583 -0.1072943412 0.2857283804
570296580.0 -0.0993574321 0.2781062621 0.1473568116 -0.4031443495 0.1476884383 -0.403084798 -0.104787615 0.2867686972
575296550.0 -0.0961442339 0.2792736815 0.143301751 -0.4049323213 0.143044016 -0.4044008765 -0.1015837214 0.2883189542
580296520.0 -0.093296534 0.2808715296 0.1388125405 -0.4066711545 0.1385109553 -0.4062373485 -0.0985329799 0.2895372793
585296490.0 -0.0901812196 0.2818517862 0.1346344485 -0.4075396915 0.1339227536 -0.4077143324 -0.0949914965 0.2909536269
590296460.0 -0.0867478166 0.2829488962 0.1300713339 -0.4094667899 0.1300753204 -0.4091827987 -0.0921930823 0.2916835234
595296430.0 -0.0834373411 0.2841603279 0.1249098067 -0.4104314248 0.1247939104 -0.410560685 -0.0891701559 0.2929023444
600296400.0 -0.0806616489 0.2849068015 0.1206921588 -0.4113804444 0.120413275 -0.4116000035 -0.086152518 0.2937800612
605296370.0 -0.0776077866 0.286293637 0.1165638443 -0.4127705397 0.1160767618 -0.4129893052 -0.0830915779 0.2952369882
610296340.0 -0.0742742818 0.2877104566 0.1119716891 -0.4138309119 0.1121593253 -0.4142166799 -0.0802543576 0.2963493552
615296310.0 -0.0713090517 0.2885125671 0.1071524025 -0.4153778078 0.1068091046 -0.4155125852 -0.0765144444 0.2971412209
620296280.0 -0.0685591282 0.2898449324 0.1028303836 -0.4164592235 0.1025861895 -0.4163059272 -0.0735785714 0.2982543175
625296250.0 -0.0655286117 0.290273072 0.0981390125 -0.4179033876 0.098015272 -0.4174027595 -0.0705373079 0.2989495364
630296220.0 -0.0622498558 0.2915165408 0.0936601557 -0.4183512962 0.0935011661 -0.4184914314 -0.0674330215 0.2996963818
635296190.0 -0.0594887619 0.2926499534 0.0893725308 -0.4190503444 0.0888202299 -0.4195154038 -0.0641116685 0.3006379031
640296160.0 -0.0558579941 0.2931710731 0.084686778 -0.4202819082 0.0843657032 -0.4203786885 -0.0613336123 0.3015400563
645296130.0 -0.0526143961 0.2943308243 0.0801754157 -0.4210404702 0.0798075229 -0.4209803668 -0.0582000975 0.3017369405
650296100.0 -0.0497216678 0.294932921 0.0755710445 -0.4221274247 0.0749454984 -0.4221614001 -0.054341178 0.302983706
655296070.0 -0.0466079427 0.295655452 0.0703799082 -0.4225610314 0.0705133273 -0.4226171865 -0.0518152683 0.3038985789
660296040.0 -0.043427708 0.2964197193 0.0664587278 -0.423414983 0.0656592629 -0.4233928182 -0.0479581194 0.3042424649
665296010.0 -0.0404128273 0.2972069805 0.0615114686 -0.4236893057 0.0612673112 -0.4240498828 -0.045196609 0.304685676
670295980.0 -0.0373378955 0.2981425052 0.0568913578 -0.4244456838 0.0565820551 -0.4244191337 -0.0420354286 0.3053000701
675295950.0 -0.0342319136 0.2985617688 0.0522832613 -0.4246315152 0.0522655195 -0.4252541858 -0.0385943773 0.3061874353
680295920.0 -0.03127626 0.2994795328 0.0480791571 -0.4253163602 0.0476872606 -0.4254547429 -0.0353304565 0.306457713
685295890.0 -0.0277798497 0.300248301 0.0430255541 -0.4264846548 0.042913065 -0.4263049076 -0.032186563 0.3073093207
690295860.0 -0.0245425886 0.3004054378 0.0385271758 -0.4264462351 0.0379679962 -0.4265581905 -0.0288902423 0.3077041194
695295830.0 -0.0213068587 0.3010348257 0.0340693134 -0.4269930514 0.0339896068 -0.4267983779 -0.026021876 0.3082978436
700295800.0 -0.0183995733 0.3016962988 0.0297586563 -0.4270672132 0.0295096395 -0.4271968274 -0.0225217159 0.3085002174
705295770.0 -0.0157482352 0.3022693011 0.0250069288 -0.4278660248 0.024650097 -0.4274451163 -0.0192672569 0.3090538388
710295740.0 -0.0124625506 0.3022450226 0.0200967835 -0.4273794406 0.0198004031 -0.4280893083 -0.0161828918 0.3094419926
715295710.0 -0.0090548777 0.3030358123 0.0155122846 -0.427994982 0.0153067732 -0.4280162096 -0.0127286554 0.30919658
720295680.0 -0.0058255572 0.3031789034 0.0106565987 -0.427931184 0.0106070469 -0.428228453 -0.0091643901 0.3097346954
725295650.0 -0.0028646043 0.3036581836 0.0060553868 -0.4278353773 0.0061214508 -0.4283286971 -0.0064980589 0.3103983646
730295620.0 -0.00047227 0.3038635972 0.0020087062 -0.4278381607 0.0014819576 -0.4277743687 -0.0032184014 0.3104794941
735295590.0 0.0030451055 0.3043516597 -0.0029571472 -0.4278114478 -0.0032307422 -0.4280077015 0.0002187664 0.3105946154
740295560.0 0.0059032445 0.3042818482 -0.0075162664 -0.428038597 -0.0076493421 -0.4281810631 0.003372383 0.3106627602
745295530.0 0.0094216505 0.3045006091 -0.0120366293 -0.4272432241 -0.0118552381 -0.4277178642 0.0063816212 0.3108680028
750295500.0 0.0119962352 0.3046064117 -0.0165938152 -0.4273935336 -0.0171563048 -0.4276435432 0.0097783959 0.3108800036
755295470.0 0.0152936209 0.3047895677 -0.021064188 -0.427513877 -0.0215406706 -0.4276292548 0.0129706383 0.3115011963
760295440.0 0.0182848924 0.3051827793 -0.0264250817 -0.4273126025 -0.0263817453 -0.4268041214 0.0163617434 0.3103862937
765295410.0 0.0217387261 0.3048116996 -0.0304983682 -0.4266584756 -0.0308423965 -0.426819009 0.0198060499 0.310769466
770295380.0 0.0242843677 0.3052084891 -0.0347918037 -0.4262313259 -0.035337275 -0.4268473035 0.0226659186 0.3108663814
775295350.0 0.027724834 0.3045622302 -0.0398470956 -0.4257087956 -0.0396758322 -0.4257850412 0.0262325025 0.3107040073
780295320.0 0.0308976644 0.3052721488 -0.0442890653 -0.4250838365 -0.0444679559 -0.4255241228 0.0294972262 0.3103662195
785295290.0 0.0337015636 0.3046667283 -0.0486424017 -0.4247383277 -0.0489124675 -0.4251724489 0.0325441428 0.3106866201
790295260.0 0.036592798 0.3045086923 -0.0533448622 -0.4242716763 -0.0535211773 -0.4246727134 0.0358488226 0.3104032017
795295230.0 0.0398021675 0.3044221596 -0.0579569514 -0.4238509774 -0.0581351012 -0.4240522108 0.0390203692 0.3097532903
800295200.0 0.0427187522 0.3045199618 -0.0620237427 -0.4227287722 -0.0627027736 -0.4232204473 0.0420430368 0.3096976139
805295170.0 0.0456926419 0.3040732817 -0.0667914071 -0.4222713608 -0.0671874441 -0.4225637052 0.0457894104 0.3096193903
810295140.0 0.049049763 0.3038808624 -0.0714612487 -0.4214686075 -0.0718968222 -0.4215525552 0.0491853277 0.3090954184
815295110.0 0.0518589999 0.3035345672 -0.076028622 -0.4209961791 -0.0758818525 -0.4208918308 0.0517591197 0.3088913036
820295080.0 0.0547639445 0.3030386278 -0.0801324177 -0.4197111386 -0.0805242157 -0.4201369723 0.054804079 0.3088196086
825295050.0 0.0578068216 0.3027016836 -0.0849964625 -0.4189781792 -0.085301371 -0.4192572074 0.0584932076 0.3080455279
830295020.0 0.0611286141 0.3023158797 -0.0895063971 -0.4180611157 -0.0896271375 -0.4178264951 0.0618320799 0.3068895897
