!Created with skrf (http://scikit-rf.org).
# Hz S RI R 50.0 
!freq ReS11 ImS11 ReS21 ImS21 ReS12 ImS12 ReS22 ImS22
300000.0 -0.2383747583 -0.0751012726 0.4715950959 0.0518112491 0.4670520222 0.0501035202 -0.2413387113 -0.0920358262
5299970.0 -0.2442956242 0.007335886 0.4734357443 0.0051269948 0.47371663 0.0049923956 -0.2441421303 0.0072757931
10299940.0 -0.2412131649 0.0188591531 0.475565523 0.0061871348 0.4754684648 0.0062207964 -0.2406039422 0.0200282465
15299910.0 -0.2368193299 0.0279485178 0.4791676799 0.0077554641 0.4793573934 0.0077691403 -0.2359512972 0.0294069242
20299880.0 -0.2320383264 0.0356782777 0.4839155105 0.0084381916 0.4840450212 0.0083413792 -0.2310834694 0.0373507686
25299850.0 -0.2267425555 0.0422387621 0.4889221681 0.007284048 0.4890108519 0.0072918925 -0.224961201 0.0438639982
30299820.0 -0.2213922193 0.0472191524 0.4949545468 0.0054636767 0.4946593857 0.0052053883 -0.2192322462 0.0492427324
35299790.0 -0.2161756264 0.0513756526 0.499804661 0.0015782 0.5000261185 0.0019955551 -0.2138816059 0.0531364861
40299760.0 -0.2115553205 0.0549278301 0.5049751169 -0.0019896342 0.505003049 -0.0017876871 -0.2081827227 0.0561584783
45299730.0 -0.2067363088 0.0575875783 0.5098286059 -0.0065808162 0.5098118348 -0.0062677175 -0.2034574496 0.0587636888
50299700.0 -0.2025199571 0.0598478623 0.5140257557 -0.0121038223 0.5138979799 -0.0120236511 -0.1983489647 0.0607474542
55299670.0 -0.1982840636 0.0620390405 0.5180963971 -0.0187876622 0.5178856422 -0.0180059417 -0.194531151 0.0620884574
60299640.0 -0.1943630827 0.0634282385 0.5213106331 -0.0242616361 0.521354468 -0.0240702789 -0.1904820731 0.0631945938
65299610.0 -0.1911290187 0.0646903641 0.5239930916 -0.030749468 0.5241486909 -0.0308456111 -0.1872938604 0.0641678633
70299580.0 -0.1876832892 0.0660900738 0.5267476015 -0.0371268487 0.5267262038 -0.0371281227 -0.1840207159 0.0647198179
75299550.0 -0.1852269592 0.0673831904 0.5284191641 -0.0439775268 0.5286929279 -0.0437500889 -0.1807970328 0.0650795967
80299520.0 -0.1826679085 0.0681054133 0.5303398097 -0.0511823642 0.5308133111 -0.0511523391 -0.1784916368 0.0658351907
85299490.0 -0.1799201576 0.0688806105 0.5313590115 -0.0576727827 0.531678216 -0.0578021191 -0.1762455054 0.0662920577
90299460.0 -0.1779088066 0.0698707432 0.5321053116 -0.0646620701 0.5332452506 -0.0646879752 -0.1736569061 0.0666713739
95299430.0 -0.175672445 0.0704625618 0.5336872787 -0.0718616912 0.5335670257 -0.071869523 -0.1714464254 0.0672177263
100299400.0 -0.1739078322 0.0715427707 0.5334385555 -0.0781236259 0.5339138367 -0.0786735035 -0.1694686956 0.0676308649
105299370.0 -0.171848707 0.0722355156 0.5341217537 -0.0857545978 0.5343587573 -0.0856510556 -0.1675401364 0.0681257056
110299340.0 -0.170428972 0.073192356 0.5347731256 -0.0922266526 0.5342803792 -0.0919119513 -0.1663361483 0.0685526485
115299310.0 -0.168881725 0.0740309165 0.5348725166 -0.098977582 0.5345446755 -0.099007008 -0.1648950231 0.0686651814
120299280.0 -0.1673945706 0.0745096908 0.5341611032 -0.1059805004 0.5341108971 -0.1062580884 -0.1631630222 0.0694605543
125299250.0 -0.1661605819 0.0753097904 0.5341352185 -0.1123477238 0.5341525154 -0.1127452727 -0.1624365129 0.0699120248
130299220.0 -0.1650756011 0.0768731781 0.5334124114 -0.1193842826 0.5331423509 -0.1195918155 -0.1611944577 0.0704211137
135299190.0 -0.1638962427 0.0779071535 0.532688558 -0.1263783005 0.532677626 -0.1261730606 -0.1596341537 0.0712208611
140299160.0 -0.1627534557 0.0788265201 0.5317077205 -0.132977755 0.531801562 -0.1329891517 -0.1591287647 0.0721400518
145299130.0 -0.1613265295 0.0801373667 0.5313535147 -0.1394393251 0.5307693415 -0.1393166683 -0.157946937 0.0726269991
150299100.0 -0.1601351755 0.0813990302 0.529474069 -0.1454234261 0.5298844137 -0.1451971129 -0.1567644509 0.0740457702
155299070.0 -0.1594353883 0.082136365 0.528824497 -0.1529980612 0.5284033586 -0.1523889103 -0.1559723737 0.0747467682
160299040.0 -0.1580335469 0.0832455901 0.5272190864 -0.1592474643 0.5270623204 -0.1587658846 -0.1555207142 0.0755553394
165299010.0 -0.1573947041 0.0847494463 0.5254374134 -0.1655711583 0.5258236972 -0.1653805954 -0.1542314619 0.0768379254
170298980.0 -0.1566045573 0.0856105695 0.5241752406 -0.1716341766 0.5244339079 -0.171570774 -0.1535398094 0.0775329081
175298950.0 -0.1554985367 0.0868491012 0.522779291 -0.1775631229 0.5227581412 -0.1778572137 -0.1530890112 0.0786541095
180298920.0 -0.1547203096 0.08853363 0.5212662562 -0.1845462578 0.5210739558 -0.1840039677 -0.1519038955 0.0797491668
185298890.0 -0.1531473058 0.0893288076 0.5189230632 -0.1905539838 0.5188157655 -0.1902009008 -0.1512636664 0.0810409865
190298860.0 -0.1527134685 0.0911124378 0.5173619203 -0.1966749697 0.5177235428 -0.1966920379 -0.1508229922 0.0818094299
195298830.0 -0.151808858 0.0919804325 0.5152788927 -0.2028532259 0.5154544308 -0.2026634139 -0.1494943262 0.0829687248
200298800.0 -0.1507399728 0.0936337495 0.5128481481 -0.209052276 0.5133108535 -0.2093535604 -0.1494175079 0.0841333425
205298770.0 -0.1498319464 0.0951673818 0.5105641345 -0.2152722762 0.5107898344 -0.2149578128 -0.1485873122 0.0847532186
210298740.0 -0.1489270428 0.0962623477 0.5088339622 -0.2208737652 0.5084429319 -0.2208074304 -0.1478600353 0.0864332733
215298710.0 -0.1482874334 0.097607882 0.5063475149 -0.2272653759 0.5060228415 -0.2271086188 -0.1472611677 0.0874410158
220298680.0 -0.1469989623 0.0988622767 0.5033469908 -0.2327176176 0.5036784017 -0.2330427993 -0.1469414294 0.0888168369
225298650.0 -0.1460981392 0.1003590008 0.5012944402 -0.2385654147 0.501550166 -0.2386488013 -0.1461726542 0.0896915844
230298620.0 -0.1449592944 0.1020844441 0.4990452594 -0.2443080374 0.4992126764 -0.2445975452 -0.1456010877 0.0907600838
235298590.0 -0.1440229783 0.103772723 0.4959796403 -0.2502363866 0.4963323564 -0.249640975 -0.1444321949 0.0925736712
240298560.0 -0.1434192951 0.1050274214 0.4938112615 -0.2559351264 0.493600624 -0.2560860976 -0.1439411166 0.0935492879
245298530.0 -0.1421849615 0.1062970522 0.490984459 -0.2621314334 0.4907795242 -0.2620800213 -0.1429171651 0.0945383431
250298500.0 -0.1407491533 0.1081572376 0.4873430178 -0.267803853 0.4873721253 -0.2669923389 -0.1424130406 0.0958242948
255298470.0 -0.1398512117 0.109072173 0.4844787684 -0.2725365955 0.4850919557 -0.2725792163 -0.1415438294 0.0963417271
260298440.0 -0.1391516451 0.1104938809 0.4816156248 -0.2784285694 0.4820418544 -0.2784419509 -0.1406827895 0.0983104221
265298410.0 -0.1377533803 0.1125115579 0.4786433435 -0.2842506938 0.4788831548 -0.2838186229 -0.1397418984 0.0993598162
270298380.0 -0.136740925 0.113658117 0.4760834925 -0.288980465 0.475963257 -0.2891185069 -0.1390541004 0.1006221492
275298350.0 -0.1353819056 0.1152387541 0.4724591869 -0.2948126344 0.4731540574 -0.294619701 -0.1377591424 0.1016776785
280298320.0 -0.133989739 0.1169485727 0.4696299539 -0.3007987786 0.4695616758 -0.300360013 -0.1368917573 0.103090777
285298290.0 -0.1328223708 0.1183125348 0.4663075677 -0.305506242 0.4662961733 -0.3057710845 -0.1361635804 0.1043558615
290298260.0 -0.1316655637 0.1194786141 0.4631632342 -0.3104561191 0.4628326446 -0.3107516963 -0.1348240406 0.1056412904
295298230.0 -0.1300122721 0.1207699173 0.4598677756 -0.3160744808 0.4596239139 -0.3159822177 -0.1337493373 0.1067707318
300298200.0 -0.1291104585 0.1224864602 0.4562170006 -0.3211557481 0.4567479138 -0.3213543 -0.1327597533 0.1081256737
305298170.0 -0.1277430857 0.1235294879 0.4522368017 -0.3270092776 0.4529222899 -0.3262838088 -0.1313779003 0.1090434054
310298140.0 -0.1264204125 0.1248413392 0.4488541251 -0.331636044 0.4493393845 -0.3315852893 -0.1307617513 0.11028883
315298110.0 -0.125255972 0.1262187618 0.4454335912 -0.3369908538 0.4458611443 -0.3372051273 -0.1297246562 0.1114534325
320298080.0 -0.1237835355 0.1275676122 0.4412687038 -0.3421324047 0.4419970657 -0.3422001947 -0.1286333501 0.1128575623
325298050.0 -0.122556725 0.1290477431 0.4377736984 -0.3474790449 0.4377742176 -0.3469932278 -0.128189632 0.1138183441
330298020.0 -0.1215048864 0.1298150965 0.4334727646 -0.3520707063 0.4337390031 -0.352554542 -0.1272624217 0.1150466223
335297990.0 -0.1201438516 0.131408734 0.4296364564 -0.3568602352 0.4295584179 -0.3571646252 -0.1265764569 0.1168289675
340297960.0 -0.1193606785 0.1329085366 0.4255040534 -0.3614010931 0.4253111066 -0.3619295224 -0.124855347 0.1183191603
345297930.0 -0.1178454675 0.1346351343 0.4219387424 -0.3663934713 0.4212485859 -0.3669596934 -0.1241138606 0.1190903709
350297900.0 -0.116584729 0.1356798674 0.4169460014 -0.3712703791 0.4170544158 -0.3712570918 -0.1234296162 0.1211148848
355297870.0 -0.1152238714 0.1375242693 0.4130936026 -0.3758454926 0.4133869172 -0.3754165339 -0.122638316 0.1219247862
360297840.0 -0.1137872131 0.1385790826 0.4095650883 -0.379877988 0.409605648 -0.3800570881 -0.1215779407 0.1236970087
365297810.0 -0.1122113435 0.1404012997 0.4044992421 -0.3847495769 0.4053197065 -0.3847638261 -0.1201933663 0.1246496811
370297780.0 -0.1106459834 0.1412700076 0.4000803221 -0.388858437 0.4007915038 -0.3886888603 -0.1191110513 0.1261054273
375297750.0 -0.1091712153 0.1427600259 0.3961383096 -0.3934540522 0.3964987025 -0.3932391239 -0.1180754851 0.1274751292
380297720.0 -0.1078042507 0.1441900363 0.3917773128 -0.3977071844 0.3923032132 -0.3973620904 -0.1173848551 0.1287281494
385297690.0 -0.106315136 0.1453519374 0.3874047733 -0.4018558662 0.3872067372 -0.4018408776 -0.1158412938 0.1301008362
390297660.0 -0.1047297625 0.1469820441 0.3832098454 -0.4066512096 0.3830759519 -0.4060201589 -0.1149594631 0.1314875606
395297630.0 -0.1032179997 0.148098883 0.378578746 -0.4104466884 0.3785122241 -0.4105210012 -0.1132006981 0.1324946813
400297600.0 -0.1020054475 0.1496350033 0.3742002628 -0.4149173722 0.3744710566 -0.4146852342 -0.1122876539 0.1339347887
405297570.0 -0.1003288392 0.1506917818 0.3698523164 -0.4186346749 0.3695054366 -0.4183114285 -0.1110729327 0.1349252719
410297540.0 -0.0981950252 0.151832973 0.364828652 -0.4228416513 0.3651144434 -0.4228566825 -0.1099215532 0.136616989
415297510.0 -0.0965323867 0.1530494154 0.3600900252 -0.4270270794 0.3604275347 -0.4271703764 -0.1088236811 0.1374292653
420297480.0 -0.0949672243 0.1549702113 0.3553115018 -0.4308291247 0.3553393416 -0.4306143809 -0.1076170969 0.1382599366
425297450.0 -0.0937068767 0.1554217487 0.3508526291 -0.4346311923 0.3509796142 -0.4347361373 -0.1065638665 0.1399531226
430297420.0 -0.092012376 0.1565836104 0.3459814865 -0.4380628968 0.3459889286 -0.4383015168 -0.1052608894 0.1408316436
435297390.0 -0.0901171601 0.1579394093 0.3412217901 -0.4419409277 0.3409555406 -0.442179696 -0.1033116303 0.1418207201
440297360.0 -0.0883642545 0.1589325909 0.3361031083 -0.4455456557 0.3363935665 -0.4456475489 -0.1023310887 0.142674121
445297330.0 -0.086893329 0.159585379 0.3314876076 -0.4489881877 0.331352551 -0.4491330704 -0.1009364717 0.1434779693
450297300.0 -0.0847462186 0.1608826854 0.3263146122 -0.4530301853 0.3267003672 -0.4527847289 -0.099393551 0.1448055426
455297270.0 -0.0830944908 0.1620332109 0.3209342055 -0.4558716982 0.321801421 -0.4565932161 -0.098246778 0.1458156166
460297240.0 -0.0816077986 0.1632308904 0.3164833689 -0.4598908635 0.3166986371 -0.4601783824 -0.0969017834 0.1473230499
465297210.0 -0.0795600385 0.1642623813 0.3117136284 -0.4635772994 0.311547805 -0.4637293461 -0.0951428745 0.1481333688
470297180.0 -0.0776325566 0.164923357 0.3061828427 -0.466703514 0.3064121813 -0.4668195758 -0.0935866773 0.1494495815
475297150.0 -0.0759126843 0.1657805667 0.3011146541 -0.4695197325 0.3014284674 -0.4692944753 -0.0920529825 0.1498190873
480297120.0 -0.0744070342 0.1674144827 0.2965328761 -0.473564684 0.2957798438 -0.4738029647 -0.0901465703 0.1510314129
485297090.0 -0.0725889413 0.1683612368 0.2912996337 -0.4761748474 0.2910581338 -0.4765138315 -0.0890067617 0.1523184939
490297060.0 -0.0708946281 0.1689834755 0.2861734732 -0.4797744442 0.2858519642 -0.4793936459 -0.0875520047 0.1534402604
495297030.0 -0.0688915581 0.1698744015 0.2803610073 -0.4823788256 0.2807523731 -0.4823353633 -0.086281442 0.1543355507
500297000.0 -0.0668341898 0.1708587546 0.2748481469 -0.4853851214 0.2745138478 -0.4852003646 -0.0845850062 0.155865209
505296970.0 -0.0647712427 0.1716201121 0.2697068841 -0.4883716708 0.2696994955 -0.4885555219 -0.0832785386 0.1563875239
510296940.0 -0.0630397437 0.1728614807 0.2642721849 -0.491862023 0.264242195 -0.4917057967 -0.0814196605 0.1574800063
515296910.0 -0.0610549136 0.1733613858 0.2588279405 -0.4943625502 0.2589332002 -0.4937474957 -0.0801690805 0.1583639723
520296880.0 -0.0594663688 0.1742272775 0.2539881775 -0.4974417302 0.2536172291 -0.4968929982 -0.0786764546 0.159235714
525296850.0 -0.0573154414 0.1743909671 0.2479291891 -0.5000529927 0.2482407757 -0.4996746631 -0.0772276492 0.1603205737
530296820.0 -0.0554430915 0.1757730876 0.2426948929 -0.5024671982 0.2427744831 -0.5024648019 -0.0756733414 0.1611845886
535296790.0 -0.0540335706 0.1766574712 0.2377299843 -0.5050125292 0.2376318498 -0.5045431857 -0.0741504333 0.1619157439
540296760.0 -0.0517782468 0.1773370774 0.231734124 -0.5079108642 0.2315275668 -0.5077398739 -0.0725696977 0.1635013678
545296730.0 -0.0499155327 0.1777228065 0.2261597263 -0.5096878198 0.2261583884 -0.5100514714 -0.0711158264 0.1638185894
550296700.0 -0.0474892598 0.178860011 0.2204036368 -0.5120879043 0.2204817476 -0.5123009486 -0.0698971868 0.1649775711
555296670.0 -0.0457656744 0.1793417109 0.2151342173 -0.5151292092 0.2152152795 -0.514505636 -0.0679892314 0.1658723776
560296640.0 -0.0436242474 0.180411263 0.2094764272 -0.5171174226 0.2095992093 -0.5172715665 -0.0666766042 0.166462353
565296610.0 -0.0420898172 0.1805785978 0.2036923138 -0.5190253129 0.2040192407 -0.5193891801 -0.0650479011 0.1671912732
570296580.0 -0.0399935246 0.1810648044 0.1981686769 -0.5215663708 0.1978042629 -0.5212585739 -0.0635068485 0.1682977261
575296550.0 -0.0382663694 0.182122408 0.1927105894 -0.5235720561 0.1921690664 -0.5235494479 -0.061716798 0.168976236
580296520.0 -0.0359562691 0.182532029 0.1868929244 -0.5256703909 0.186653163 -0.5255693983 -0.0600155922 0.1693560363
585296490.0 -0.0339029902 0.1826542232 0.1813670285 -0.5269489171 0.1814318664 -0.5277992104 -0.0587352767 0.1704369789
590296460.0 -0.0315177407 0.1833182001 0.1756274289 -0.5288315459 0.175452664 -0.5291820583 -0.0572719384 0.1711096533
595296430.0 -0.0299061556 0.1837220233 0.1695244317 -0.5315643095 0.1692651062 -0.5307391298 -0.0552378503 0.1711228196
600296400.0 -0.0279014901 0.184502276 0.163658955 -0.5333003601 0.163655632 -0.532898734 -0.0538828344 0.1723391984
605296370.0 -0.0258825503 0.1849173305 0.1579115146 -0.5345215862 0.157785604 -0.5345672276 -0.0520287185 0.1729522561
610296340.0 -0.0238153382 0.1852623923 0.1518456674 -0.5362133337 0.152316037 -0.5367194041 -0.0504844837 0.1732337276
615296310.0 -0.0216315539 0.1855072681 0.1462851478 -0.5376398965 0.1462339249 -0.5384015463 -0.0485528801 0.1742022389
620296280.0 -0.0198866151 0.1855530075 0.1404848531 -0.5390778255 0.1402091973 -0.5393920595 -0.0473500539 0.1745666222
625296250.0 -0.0176722935 0.1857433557 0.1353927767 -0.5412786089 0.1348859659 -0.5412680647 -0.0448259295 0.1749601422
630296220.0 -0.0148536641 0.1865268892 0.1283031247 -0.5423295865 0.1283696897 -0.5421112634 -0.0433655525 0.1758611526
635296190.0 -0.0137646154 0.1865546589 0.122795913 -0.5431128055 0.1228882213 -0.5439512134 -0.0414571918 0.1765673778
640296160.0 -0.0118319729 0.1869778571 0.1170967663 -0.5446315708 0.1172291139 -0.5448357513 -0.0399737075 0.1767845773
645296130.0 -0.0094037013 0.1875383256 0.1108765997 -0.5460949941 0.111288528 -0.5461685155 -0.0378209856 0.1772510057
650296100.0 -0.0073327439 0.1873668241 0.1052325342 -0.5471261826 0.1052702181 -0.5471304088 -0.0362211157 0.1773033022
655296070.0 -0.0053584427 0.1876015583 0.0991572116 -0.5482258453 0.099540229 -0.5483151464 -0.0343946166 0.1784781674
660296040.0 -0.0038579942 0.1878092119 0.0938497549 -0.5491635947 0.0933518773 -0.5491717955 -0.0324357255 0.1788057979
665296010.0 -0.000835134 0.1876505343 0.0872706551 -0.5499033982 0.0873333056 -0.5504748641 -0.0306779698 0.1798068715
670295980.0 0.0001786181 0.1882937476 0.0817402955 -0.550991802 0.0815462643 -0.5510381154 -0.0292729339 0.1801143475
675295950.0 0.0026234694 0.1884410793 0.0756661455 -0.5515460889 0.0759272568 -0.5512840836 -0.0278268117 0.1806228893
680295920.0 0.0046845622 0.1883333753 0.0693016577 -0.5525154696 0.0690956234 -0.5529110242 -0.025493326 0.1815683986
685295890.0 0.0069500283 0.1887777886 0.063446998 -0.5532993244 0.0633330072 -0.5534149406 -0.0238441776 0.1813353321
690295860.0 0.0091928878 0.1886601618 0.0570283729 -0.5533202082 0.0574094204 -0.5542752799 -0.0223299944 0.1825410915
695295830.0 0.0113520864 0.1885016278 0.0518401944 -0.5545688429 0.0514154958 -0.5546718761 -0.0202540029 0.1826015083
700295800.0 0.0131368019 0.1884589083 0.044998326 -0.5546517325 0.0451209857 -0.5544023565 -0.0188677684 0.1832830251
705295770.0 0.0153295963 0.188980969 0.0393579881 -0.5554641236 0.0398512061 -0.5556365215 -0.0171278361 0.1835967925
710295740.0 0.0174747512 0.1889106748 0.0338104455 -0.5563133994 0.0339459213 -0.5561475008 -0.0152429422 0.1835523205
715295710.0 0.0191048069 0.1886654163 0.0281070322 -0.5562521038 0.0275213615 -0.5558806878 -0.0131854449 0.1837042607
720295680.0 0.0212075101 0.1886015526 0.0218668077 -0.5564576241 0.0216992628 -0.5565640116 -0.0115531349 0.184839962
725295650.0 0.0236931969 0.1884707105 0.0157706151 -0.5565027352 0.0154107004 -0.5567480055 -0.0100045424 0.1852781601
730295620.0 0.0256964627 0.1885593991 0.0093712556 -0.5563484263 0.0096605405 -0.5567825887 -0.0085819568 0.1849464261
735295590.0 0.0279109789 0.188456839 0.0036981533 -0.5569430624 0.0033223072 -0.5565636329 -0.006870333 0.184684336
740295560.0 0.0294812462 0.1882703441 -0.0022124599 -0.556522526 -0.0028846776 -0.5566498676 -0.004374784 0.1854542012
745295530.0 0.0316531347 0.187949973 -0.0085925519 -0.5561064126 -0.0086835313 -0.5567681585 -0.0027831704 0.185286931
750295500.0 0.03401564 0.1879007737 -0.0145329511 -0.5559418805 -0.0147251385 -0.5564162755 -0.001046878 0.1856400264
755295470.0 0.0361223498 0.187499334 -0.0201540259 -0.5562035128 -0.0206731425 -0.5564451028 0.0010682077 0.1855819892
760295440.0 0.0377573614 0.1874260588 -0.0264419584 -0.5559326003 -0.026694552 -0.5564716706 0.0023973785 0.1858273933
765295410.0 0.0402460701 0.1870505718 -0.0324077837 -0.5550199473 -0.0329115515 -0.5558859414 0.0045736714 0.1860450228
770295380.0 0.0419109359 0.1863460319 -0.038557933 -0.5546953146 -0.0387510889 -0.5546455708 0.005845532 0.1859469581
775295350.0 0.0438534287 0.185908516 -0.0443259269 -0.5542410929 -0.0443835847 -0.5544611632 0.0071067749 0.1860819939
780295320.0 0.0463319286 0.1857949073 -0.0507646621 -0.5537340692 -0.0500973359 -0.554095937 0.0093887104 0.1857110698
785295290.0 0.0478414454 0.1850273347 -0.0567423228 -0.5527958898 -0.056512806 -0.5533517757 0.0120533124 0.1859227133
790295260.0 0.0505378691 0.1852391808 -0.0619862989 -0.553064941 -0.0618147417 -0.552698741 0.0133094436 0.1861574445
795295230.0 0.0524123797 0.1842625005 -0.067997854 -0.5514905506 -0.0678671465 -0.5520295304 0.0153060197 0.1863539584
800295200.0 0.0544315502 0.1842160155 -0.0748483891 -0.5511471091 -0.0737208754 -0.5510509983 0.0172808411 0.1863235882
805295170.0 0.0564847076 0.1833080092 -0.0800348039 -0.5499481623 -0.0804107033 -0.5503291116 0.0189139914 0.1861300527
810295140.0 0.0581900898 0.1828084363 -0.0858488647 -0.5492277705 -0.0861196685 -0.5495625395 0.0212637254 0.1859225733
815295110.0 0.060291477 0.1820873723 -0.0919088701 -0.5478167913 -0.091672016 -0.5484866297 0.0227449184 0.1858482261
820295080.0 0.0618033831 0.1822132123 -0.0974581207 -0.5468780507 -0.0974832941 -0.5474106432 0.0246455185 0.1861341781
825295050.0 0.0647340197 0.1814195751 -0.1031254084 -0.545746139 -0.1038328206 -0.5462688769 0.0267952597 0.1860800683
830295020.0 0.0659718662 0.1809324906 -0.1095857831 -0.5446469444 -0.1092609241 -0.5448516357 0.0291262463 0.1859289777
