!Created with skrf (http://scikit-rf.org).
# Hz S RI R 50.0 
!freq ReS11 ImS11 ReS21 ImS21 ReS12 ImS12 ReS22 ImS22
300000.0 -0.2406818179 -0.0752472357 0.4724836703 0.0494256188 0.4684926481 0.0491654679 -0.2427331761 -0.0837527409
5299970.0 -0.2443798272 0.0074987509 0.4737360686 0.0048251526 0.473539689 0.0052212934 -0.2445495136 0.0076661801
10299940.0 -0.2411931117 0.0188311449 0.4754798602 0.0060164052 0.4755242314 0.0063181021 -0.2411148867 0.0203585224
15299910.0 -0.2369883211 0.0279552292 0.4795580739 0.007793152 0.4795728101 0.0078094933 -0.2368863976 0.0295943249
20299880.0 -0.2320173672 0.0354058834 0.4837361173 0.0086413729 0.4836736944 0.0079887803 -0.2314609195 0.037301205
25299850.0 -0.2269681664 0.0419751824 0.4891410287 0.0074125263 0.4889654516 0.0073532172 -0.2252669104 0.0436480407
30299820.0 -0.2214876969 0.0471322595 0.4946028167 0.005432559 0.4945866311 0.0052999276 -0.2191115047 0.0490514342
35299790.0 -0.2162231927 0.0512683486 0.499840771 0.001711005 0.4999559537 0.0022504528 -0.2140671082 0.0528958748
40299760.0 -0.2114633671 0.0549856947 0.5047823332 -0.0018078529 0.5050039424 -0.0018284578 -0.2084815429 0.0557491164
45299730.0 -0.2063001508 0.0576083415 0.5097492845 -0.0067131782 0.509762968 -0.0064669802 -0.2034854581 0.0585694308
50299700.0 -0.2020520396 0.059742678 0.5139158864 -0.0121583759 0.5140678916 -0.0118120535 -0.1985209564 0.060168404
55299670.0 -0.1983377136 0.0618407481 0.518176291 -0.0182097843 0.5177522396 -0.0177933243 -0.1942983412 0.0620853374
60299640.0 -0.1941870348 0.0635446394 0.5212815275 -0.0240170997 0.52190499 -0.023967501 -0.1904656284 0.062982776
65299610.0 -0.191144097 0.0647615313 0.5242781849 -0.030411977 0.5244492499 -0.0305973421 -0.1870216071 0.0639930877
70299580.0 -0.1878383922 0.0660993878 0.5265635753 -0.0373908187 0.5265815376 -0.0366375551 -0.1837298776 0.0647445352
75299550.0 -0.1852295386 0.0669464912 0.5284018568 -0.0435554017 0.5283956532 -0.0440865656 -0.1807960733 0.0650761374
80299520.0 -0.1824849546 0.0680236086 0.5302952646 -0.050986129 0.5308284361 -0.0508548535 -0.1781410022 0.0661858288
85299490.0 -0.1798139327 0.0685207553 0.5314263733 -0.0572482876 0.5320954612 -0.0574968848 -0.1759261483 0.0661101055
90299460.0 -0.1779250777 0.069671901 0.5322906166 -0.0645071732 0.5330748029 -0.0643203038 -0.1733397247 0.0664608762
95299430.0 -0.175494264 0.0704372485 0.5340349263 -0.0715864774 0.5335723928 -0.0715716662 -0.1712370405 0.0674682724
100299400.0 -0.1739079943 0.0714484313 0.5336783539 -0.0782554256 0.5336623619 -0.0785449002 -0.1693679435 0.0675545422
105299370.0 -0.1720765333 0.0721284415 0.5342192287 -0.0859482004 0.5346920685 -0.0853527244 -0.1672857643 0.0680316826
110299340.0 -0.1703661094 0.0732440612 0.5348356946 -0.0922587741 0.5344867435 -0.0920821759 -0.1663898885 0.0686162328
115299310.0 -0.1686900196 0.0742001371 0.5346855913 -0.098988634 0.5347193909 -0.0986582109 -0.1647500291 0.0691431007
120299280.0 -0.1671195414 0.0743504916 0.5339531391 -0.1060437843 0.5345499835 -0.1054949968 -0.1633985256 0.0695100286
125299250.0 -0.1658300711 0.0753450394 0.5340192762 -0.1123499849 0.5339598966 -0.11201167 -0.1623704637 0.0701102346
130299220.0 -0.1648776355 0.076653391 0.5332859016 -0.1193046118 0.5333480127 -0.1190833066 -0.1611642131 0.0703069103
135299190.0 -0.1637142147 0.0781713535 0.5331686106 -0.1262226095 0.5327769864 -0.1258888079 -0.1600451519 0.071489957
140299160.0 -0.1626329046 0.0789248086 0.5319435067 -0.1330412264 0.5318455236 -0.1325261584 -0.1590437507 0.0725966573
145299130.0 -0.1614023642 0.080233583 0.5313387323 -0.1394299973 0.5308949388 -0.1387568325 -0.1583722298 0.0729539031
150299100.0 -0.1602121554 0.0810355138 0.5299471269 -0.1451791117 0.5298056568 -0.1454791554 -0.1572444233 0.07399949
155299070.0 -0.1594707577 0.0820420042 0.5286333645 -0.1529633428 0.5285407113 -0.1521209035 -0.1562043064 0.0749100081
160299040.0 -0.1584610889 0.0833702029 0.5272934215 -0.1589098771 0.5270293611 -0.1587138986 -0.1559394848 0.0757093184
165299010.0 -0.1574381167 0.0844886901 0.5257101238 -0.1650636197 0.5260845675 -0.1654817943 -0.1547485345 0.0766438606
170298980.0 -0.1563963493 0.0856641239 0.5241624757 -0.171719751 0.5243454909 -0.1716342052 -0.1538124348 0.0776995711
175298950.0 -0.1556734843 0.0871273555 0.5232035888 -0.1776835029 0.5226495754 -0.1777673699 -0.1533218251 0.0787666161
180298920.0 -0.1545452332 0.088436636 0.5208518019 -0.1840140843 0.5208655636 -0.1836514754 -0.1522791329 0.0799095714
185298890.0 -0.1533642615 0.0894683631 0.5190069346 -0.190450138 0.519166531 -0.1902633648 -0.1517231213 0.0809917778
190298860.0 -0.1527991414 0.091029378 0.517249551 -0.1965342593 0.5176699238 -0.1963920961 -0.1509423912 0.0819393432
195298830.0 -0.1516743642 0.0920912495 0.5152971778 -0.2026831751 0.5155188243 -0.2024570111 -0.1499108278 0.0828349878
200298800.0 -0.1508295004 0.093711887 0.5131793004 -0.2090118184 0.5128953118 -0.2087366791 -0.1492472976 0.0839695251
205298770.0 -0.1496747004 0.094862622 0.5105163865 -0.2148754788 0.5107585569 -0.214772682 -0.1486416702 0.0843646326
210298740.0 -0.1487607861 0.0961777786 0.5087076369 -0.2202272609 0.508415691 -0.22054951 -0.1477077797 0.086364087
215298710.0 -0.1482169861 0.0976586103 0.5065524469 -0.226551541 0.5061380374 -0.2270247815 -0.1472649163 0.0873401726
220298680.0 -0.1468923272 0.0990746267 0.5031953892 -0.2325657744 0.5036872354 -0.2325039025 -0.1468736629 0.0883222283
225298650.0 -0.1462574752 0.1003921523 0.5017972966 -0.2386890068 0.5018262116 -0.238457662 -0.1462559266 0.0897450102
230298620.0 -0.1448686215 0.1020650901 0.4989659726 -0.2442928272 0.4995540297 -0.2442332685 -0.1456222118 0.0905651968
235298590.0 -0.1438132057 0.1038647829 0.4964310671 -0.2504812666 0.4963848731 -0.2496160799 -0.1442895091 0.0918150946
240298560.0 -0.143008559 0.1048986607 0.4936634454 -0.2558539424 0.493728375 -0.2555617549 -0.1437189629 0.0934083046
245298530.0 -0.1421256107 0.1065254139 0.491312678 -0.2614914952 0.4911876523 -0.2614475933 -0.1428719956 0.0941259968
250298500.0 -0.1407229989 0.1079440599 0.4877169212 -0.2672377444 0.487447018 -0.2671437475 -0.1420257918 0.095792945
255298470.0 -0.1398475864 0.1089521703 0.4847579706 -0.2724217351 0.4850279329 -0.2724294902 -0.1410567068 0.0964823334
260298440.0 -0.1391094612 0.1103784509 0.4820254357 -0.2784364289 0.482130131 -0.2778596399 -0.1399942109 0.0980742632
265298410.0 -0.1378017676 0.1124479394 0.4791190916 -0.2837962735 0.4790817762 -0.2836007701 -0.1395373557 0.0997326692
270298380.0 -0.1366477736 0.1137095704 0.4762113436 -0.2885876184 0.4760699328 -0.2889264826 -0.1385774371 0.1007801964
275298350.0 -0.1350141651 0.1149089164 0.4727572285 -0.2946015266 0.4733004701 -0.2947651661 -0.1377987205 0.1018991886
280298320.0 -0.1338112483 0.1166056015 0.4698770597 -0.3002246728 0.4696920484 -0.2999886956 -0.1365096871 0.1033912641
285298290.0 -0.1330491792 0.1184431044 0.4669378166 -0.3049387488 0.4665411378 -0.3053422708 -0.1358869668 0.104588358
290298260.0 -0.1316270773 0.1194740788 0.4632092989 -0.3100898413 0.4631025964 -0.3103645111 -0.1350086686 0.1060286563
295298230.0 -0.1303402045 0.1209459088 0.4600183831 -0.3157738845 0.4595608785 -0.3158674871 -0.1334535742 0.1066592237
300298200.0 -0.1294460559 0.1222858742 0.4566423256 -0.3208768433 0.4566955886 -0.3210390253 -0.1329119607 0.1084470088
305298170.0 -0.1277541255 0.1235413033 0.4522532434 -0.3268002491 0.4525180861 -0.3261648306 -0.1314781649 0.1093275133
310298140.0 -0.1262593468 0.1251600154 0.4491945872 -0.3315631952 0.4497877905 -0.3313759432 -0.1307996643 0.1108730721
315298110.0 -0.1253732258 0.1262983108 0.4456794478 -0.3368315755 0.4458263243 -0.336798205 -0.1297872658 0.1118179059
320298080.0 -0.1238617756 0.1276592986 0.4416435861 -0.3421320607 0.442214085 -0.3419125159 -0.1288689198 0.1129622492
325298050.0 -0.1227271663 0.1292114388 0.4380544178 -0.3471560296 0.4379879178 -0.3468987175 -0.1282419304 0.1142636995
330298020.0 -0.1216969077 0.1300847641 0.4337198173 -0.3521830323 0.4342952116 -0.3522692551 -0.1275056843 0.1153669647
335297990.0 -0.120390657 0.131321808 0.4304801582 -0.356543769 0.4299102207 -0.356812382 -0.1272166034 0.1171415225
340297960.0 -0.119293643 0.1328945298 0.4256930177 -0.3609070819 0.4256787984 -0.3615593976 -0.1254933887 0.1182487427
345297930.0 -0.1177760696 0.1348018906 0.4215746801 -0.3666210164 0.4218433254 -0.3662903617 -0.1246253728 0.1191020401
350297900.0 -0.1166499608 0.1358076191 0.4172878406 -0.371267838 0.4177894023 -0.370894256 -0.1240012339 0.1211492767
355297870.0 -0.1150559712 0.137635554 0.413255345 -0.3759199853 0.4136221087 -0.3752276428 -0.1229015624 0.1221028589
360297840.0 -0.1137891768 0.1386200192 0.4096667894 -0.379510411 0.410000159 -0.3794866492 -0.1216114594 0.1236866917
365297810.0 -0.1124940099 0.1403404463 0.4053491894 -0.3846909155 0.4053953802 -0.3844438184 -0.1203698448 0.1248243441
370297780.0 -0.1105058437 0.1414154611 0.4005306847 -0.3888464841 0.4010663963 -0.3884150772 -0.1194450381 0.12623075
375297750.0 -0.1090719982 0.1426003707 0.3962792997 -0.3932546656 0.3967643305 -0.3933675793 -0.1180674567 0.1273657302
380297720.0 -0.1077841142 0.1440119323 0.3920710288 -0.3980519217 0.3923136722 -0.3967679201 -0.1177417024 0.1283788167
385297690.0 -0.1064328183 0.1453156248 0.3875280979 -0.4019034296 0.3873994454 -0.402045416 -0.1160443235 0.1300754432
390297660.0 -0.1049207891 0.146840584 0.3834581057 -0.4060895407 0.3830666544 -0.4059893633 -0.1148205424 0.1312637274
395297630.0 -0.1030579271 0.148200161 0.3788372016 -0.4102637467 0.3787695921 -0.4101323265 -0.1132254642 0.1321403169
400297600.0 -0.1015370704 0.1495532893 0.3739821959 -0.4150957067 0.3745345841 -0.414571345 -0.1121394774 0.1333814529
405297570.0 -0.100435166 0.1506233339 0.3699174339 -0.4180825243 0.3698519176 -0.4180008575 -0.1111849145 0.1347121535
410297540.0 -0.0986392594 0.1519643508 0.3651870823 -0.4227519665 0.3650789737 -0.4223124079 -0.1096236661 0.1363530439
415297510.0 -0.0966740515 0.1528842271 0.3603352624 -0.4266757257 0.3606842731 -0.4267370747 -0.1086270106 0.1373704776
420297480.0 -0.0953252207 0.1544404659 0.3561180876 -0.430527337 0.3558820424 -0.4306746024 -0.1073209716 0.1379530458
425297450.0 -0.0933149694 0.1553295614 0.3511915299 -0.4344702205 0.3514424787 -0.4343299159 -0.1063902608 0.1399145092
430297420.0 -0.0918627757 0.1564859912 0.3464280734 -0.4376043274 0.3466504407 -0.4375861019 -0.1048075926 0.1404811022
435297390.0 -0.0901842771 0.1578672239 0.341244284 -0.441970486 0.3412315642 -0.4418711241 -0.1031081384 0.1420855919
440297360.0 -0.0883552966 0.1590320197 0.3363881341 -0.4455853498 0.3366643741 -0.4455500175 -0.1019951499 0.1427718093
445297330.0 -0.0866778449 0.1598593899 0.3319056356 -0.4491939712 0.3317394311 -0.4491121405 -0.1006071964 0.1438965604
450297300.0 -0.0848249271 0.1609469023 0.3265515604 -0.4528814572 0.3269110421 -0.4531997184 -0.0995391325 0.1452104498
455297270.0 -0.0835279908 0.1620632606 0.3214013388 -0.4562633457 0.3224119664 -0.4566698025 -0.0979234765 0.1461011318
460297240.0 -0.0816518631 0.1631715855 0.3168544711 -0.4597336792 0.3170006797 -0.4599513082 -0.0968823483 0.1477631977
465297210.0 -0.0795366847 0.1642803229 0.3120712777 -0.4636285651 0.3118103076 -0.4635310441 -0.0951562165 0.1483394484
470297180.0 -0.0778869977 0.1650332973 0.306619581 -0.4663440324 0.3067891189 -0.4667160815 -0.0935706419 0.149734651
475297150.0 -0.0759582958 0.1659436081 0.3012682597 -0.4694591968 0.301708578 -0.4695442328 -0.0920336499 0.1504788404
480297120.0 -0.0741204482 0.1673718393 0.2963810804 -0.4733157724 0.2963486547 -0.4735174871 -0.0905800546 0.1516042081
485297090.0 -0.0725112194 0.1683884786 0.2913279907 -0.4758689905 0.2915323056 -0.4760576268 -0.089117186 0.1525429534
490297060.0 -0.070919 0.169039872 0.285978241 -0.4793430921 0.2862484671 -0.4792629314 -0.0877717769 0.1538847387
495297030.0 -0.0688497969 0.1701103892 0.2804738612 -0.4821770892 0.2812301668 -0.4824364234 -0.0868727855 0.1546296134
500297000.0 -0.0668148439 0.1706850908 0.2753928862 -0.4852076986 0.2754820856 -0.4852072753 -0.0847879901 0.1560341713
505296970.0 -0.0648751746 0.1719378186 0.2701495981 -0.4887608546 0.2700799124 -0.4882964573 -0.0836730048 0.1566796855
510296940.0 -0.0631621033 0.1728455783 0.2646001378 -0.4913474609 0.2645948012 -0.4915347788 -0.081917171 0.1576374057
515296910.0 -0.0613373196 0.1735053461 0.2592995002 -0.4942424174 0.2593525095 -0.4943660566 -0.0802849914 0.1586469061
520296880.0 -0.0593631175 0.1744397275 0.2538885127 -0.4970347758 0.2543155204 -0.4968124319 -0.0789449375 0.1593021824
525296850.0 -0.0571189005 0.174710525 0.2482795436 -0.4992591548 0.2491173004 -0.4995213194 -0.0776659303 0.1603619713
530296820.0 -0.0553074562 0.1757238627 0.242884355 -0.5024617607 0.2430076087 -0.5023299318 -0.0757915482 0.1612997511
535296790.0 -0.053976791 0.1763444056 0.2376929665 -0.5045352457 0.2380713087 -0.5042527067 -0.0747803937 0.1618706438
540296760.0 -0.0518456081 0.177203871 0.2321039632 -0.5075065123 0.2320455468 -0.507530668 -0.0731223513 0.1633338717
545296730.0 -0.0499096399 0.1780207591 0.2263895476 -0.5095392523 0.2264709386 -0.5096317579 -0.0716017605 0.1636536843
550296700.0 -0.0477349789 0.1788462843 0.2210153194 -0.5123642875 0.221162423 -0.512156555 -0.0702829689 0.1646936304
555296670.0 -0.0457835968 0.1792866164 0.215736264 -0.5147549796 0.2156880231 -0.5145150266 -0.0681155125 0.1656619661
560296640.0 -0.0436550972 0.1802797631 0.2097793872 -0.5171561411 0.2097720045 -0.5167997704 -0.0664365061 0.1662008734
565296610.0 -0.0419146152 0.1806602019 0.2041164298 -0.5193804217 0.2045040011 -0.519189126 -0.0654066955 0.1666103774
570296580.0 -0.0400285224 0.1813652239 0.1984878583 -0.5217326178 0.1984086631 -0.5214589211 -0.0636409556 0.1681403891
575296550.0 -0.0383042705 0.1817921321 0.1931072339 -0.5238302641 0.1928966316 -0.5234524988 -0.0617813783 0.1690341946
580296520.0 -0.0359741585 0.1823500034 0.1869123029 -0.5258837323 0.1873970244 -0.5256540972 -0.0600992274 0.1694812319
585296490.0 -0.0340805294 0.1825078853 0.1812449479 -0.5270558585 0.1816476305 -0.527560485 -0.0584826638 0.1704122733
590296460.0 -0.0316338958 0.1834572054 0.1757982415 -0.5289286019 0.175723276 -0.5294632472 -0.0573645348 0.1709742141
595296430.0 -0.0297849175 0.184000858 0.1696203063 -0.5318847941 0.1699611808 -0.5314261517 -0.0550470756 0.1711807654
600296400.0 -0.0279976435 0.1843629563 0.1643782904 -0.5330193451 0.1642918346 -0.5327060042 -0.0537800949 0.1722028693
605296370.0 -0.026007693 0.1850228811 0.1580073178 -0.5347427729 0.1588151689 -0.5349348813 -0.0516350554 0.1729782796
610296340.0 -0.0240632453 0.1850805186 0.1524179654 -0.5361773889 0.1524527833 -0.5361552532 -0.0500415677 0.1735974043
615296310.0 -0.0214035499 0.1856161075 0.1462773694 -0.5377892071 0.1466783797 -0.5380642759 -0.048099356 0.1740926535
620296280.0 -0.0197528429 0.1855972277 0.1413830637 -0.5390829732 0.1411697606 -0.5393012456 -0.0469126171 0.1748117885
625296250.0 -0.0178395026 0.185774471 0.135499172 -0.5409705011 0.13528662 -0.5411969215 -0.0445832313 0.1753207506
630296220.0 -0.0148634312 0.1866282481 0.1288501763 -0.5425610206 0.1291982329 -0.542386753 -0.0435488229 0.1763197474
635296190.0 -0.0137900443 0.1867384957 0.1232300056 -0.5435043469 0.1236385724 -0.5437975817 -0.041348548 0.1768571233
640296160.0 -0.0114276124 0.187096379 0.1172938388 -0.544493222 0.1176598955 -0.544528487 -0.0398340076 0.1770526536
645296130.0 -0.0094863575 0.1877357776 0.111199769 -0.5458284463 0.1119280855 -0.5460166487 -0.0381597089 0.1778200197
650296100.0 -0.0070848575 0.1875460845 0.1054422634 -0.5468231481 0.105739129 -0.5472322898 -0.0360801095 0.1781002551
655296070.0 -0.0052948362 0.1877666018 0.0996677205 -0.5481189695 0.0995528867 -0.5484238981 -0.0342848869 0.1785817609
660296040.0 -0.0034543091 0.1879020394 0.0937281536 -0.5491842915 0.0938439199 -0.5496449515 -0.0323905955 0.1793044938
665296010.0 -0.0008471182 0.1880558479 0.0875961768 -0.5501096084 0.0881198302 -0.5502374467 -0.0308524118 0.1802190887
670295980.0 0.0004444953 0.1885352344 0.0819152225 -0.5511361121 0.0820384111 -0.5508634708 -0.0298541807 0.1799712228
675295950.0 0.0027245757 0.1887793947 0.0762188649 -0.551652651 0.0759897928 -0.5515993781 -0.0281124376 0.1808735027
680295920.0 0.0044429691 0.1885603957 0.0696750456 -0.552457041 0.0698387136 -0.5529732808 -0.0260601327 0.1816070786
685295890.0 0.0071358567 0.1890938762 0.0635444381 -0.5536525661 0.0637912504 -0.5535566192 -0.0242260097 0.1815193109
690295860.0 0.0093212779 0.1889848648 0.0580933357 -0.5539220382 0.0581001973 -0.5539840676 -0.022639863 0.1825539593
695295830.0 0.0111927518 0.1886415426 0.052037304 -0.5539826789 0.0517542768 -0.5544666747 -0.0206208109 0.1828009011
700295800.0 0.0133271103 0.1886151938 0.0455544884 -0.5545736052 0.045928755 -0.5549009572 -0.019210667 0.1835076904
705295770.0 0.0150144222 0.189259581 0.0398395426 -0.5557110634 0.0401070548 -0.5555521326 -0.0173917849 0.1835447089
710295740.0 0.0171706768 0.1889815023 0.0341543773 -0.5563413336 0.0344455932 -0.5560836584 -0.0154112493 0.1832684841
715295710.0 0.0191295547 0.1886676742 0.0282916118 -0.5557386645 0.0280850827 -0.5559560924 -0.0135313749 0.183859755
720295680.0 0.0213185891 0.1884015608 0.0221074218 -0.5564469553 0.0224133632 -0.5565108752 -0.0118586562 0.1846094048
725295650.0 0.0236228871 0.1885953042 0.0158388831 -0.5566418674 0.0162216066 -0.5566796148 -0.0102572087 0.1847404933
730295620.0 0.0256764106 0.1888312167 0.0100223181 -0.5562979904 0.0102249613 -0.5568695733 -0.0088857503 0.1847329654
735295590.0 0.0275674641 0.1884419729 0.0040630234 -0.5565860288 0.0041061334 -0.5567629889 -0.0071321773 0.1845527811
740295560.0 0.0297034641 0.1884449258 -0.0020187183 -0.5567791555 -0.0015388615 -0.5567633539 -0.0047772101 0.1851185112
745295530.0 0.0315313379 0.188239042 -0.0080742491 -0.5561127356 -0.0082238885 -0.5565391569 -0.0027398826 0.1849775411
750295500.0 0.0340663035 0.1879711735 -0.0137745374 -0.5561652651 -0.0136840915 -0.556592879 -0.0014113832 0.1854294482
755295470.0 0.0360671902 0.1875673502 -0.0199008983 -0.5561836578 -0.0199792884 -0.5560428634 0.0010798878 0.1851493759
760295440.0 0.0376423314 0.1874924242 -0.0260888664 -0.5564672398 -0.0261154038 -0.5560737354 0.0025846732 0.1852695227
765295410.0 0.0399839711 0.1870168802 -0.0319043088 -0.5556643079 -0.0323220895 -0.556032796 0.0046566514 0.185872902
770295380.0 0.0417678367 0.1864827314 -0.0382064964 -0.5550001745 -0.0380461218 -0.5553794214 0.0058806235 0.18556468
775295350.0 0.0438112379 0.1862295556 -0.0442431022 -0.5545864242 -0.043704474 -0.5549088636 0.0071977692 0.1860741946
780295320.0 0.0462008792 0.1860031037 -0.0503577777 -0.5540602143 -0.0492124188 -0.554035533 0.0094524046 0.1858261047
785295290.0 0.0478737016 0.1851136447 -0.0561896011 -0.5532363012 -0.0555516518 -0.55356472 0.0119257943 0.1859878442
790295260.0 0.0505727436 0.1854567821 -0.0617007278 -0.5530526111 -0.06098758 -0.5525538235 0.0136433134 0.1859350074
795295230.0 0.052292754 0.1845088739 -0.0679063414 -0.5518448853 -0.0673082664 -0.5522115912 0.0156764292 0.1862930989
800295200.0 0.0540650224 0.1845582387 -0.0740242073 -0.5514398792 -0.0735110272 -0.5515972386 0.0173605879 0.1861768499
805295170.0 0.0561306969 0.1837558758 -0.0795933561 -0.5502726386 -0.0797984972 -0.5504754325 0.0188446539 0.1864681255
810295140.0 0.058129647 0.1828403505 -0.0853759758 -0.5493126963 -0.0855779408 -0.5496937029 0.0210792635 0.1865712467
815295110.0 0.0604464606 0.1823808047 -0.0915675302 -0.5478902933 -0.0914305059 -0.5485762455 0.0227538212 0.1862666643
820295080.0 0.0620130003 0.1824399683 -0.0973197055 -0.5473776368 -0.0965540268 -0.5472765965 0.02456176 0.1862318285
825295050.0 0.0647832823 0.1815780381 -0.1032121702 -0.5460078642 -0.1031882672 -0.5465470229 0.026799984 0.1863776728
830295020.0 0.0664429414 0.1812591514 -0.1090581727 -0.5446726785 -0.1090215901 -0.5451210711 0.0289205001 0.1864378069
