!Created with skrf (http://scikit-rf.org).
# Hz S RI R 50.0 
!freq ReS11 ImS11 ReS21 ImS21 ReS12 ImS12 ReS22 ImS22
300000.0 -0.2337583149 -0.1307635828 0.4665387373 0.0850958299 0.4692498129 0.0821469278 -0.2367467605 -0.1266706478
5299970.0 -0.2418753961 0.0053922107 0.4748092829 0.0057482077 0.4755483173 0.0056950314 -0.244254244 0.0047594845
10299940.0 -0.2386453632 0.0189547806 0.4775469305 0.0064401841 0.4770574233 0.007136745 -0.2409756348 0.0173197612
15299910.0 -0.2336797977 0.0286456054 0.4804598963 0.0080283298 0.4806786736 0.0078832406 -0.2369696757 0.0263423877
20299880.0 -0.2285998809 0.036706294 0.485382528 0.0080619008 0.485591989 0.0083267631 -0.2322207678 0.0338997888
25299850.0 -0.2223788492 0.0437062456 0.4904284935 0.0073084062 0.490620442 0.0072094082 -0.2270287567 0.0400329761
30299820.0 -0.2169873995 0.0487394455 0.4960029356 0.0049582551 0.4959483502 0.004967676 -0.2216152749 0.0447507016
35299790.0 -0.2114049528 0.0529246985 0.5008679138 0.0022224017 0.5012473774 0.0019625759 -0.217060602 0.0490330832
40299760.0 -0.2060907932 0.0561735239 0.5064315317 -0.0022683763 0.5062337506 -0.0023848029 -0.2119574752 0.0521766857
45299730.0 -0.2011003396 0.0587969583 0.5111287332 -0.0062265517 0.5116467822 -0.0072053655 -0.2071453997 0.0549021725
50299700.0 -0.1963737289 0.060625216 0.5153652657 -0.0121002514 0.5153106334 -0.0127491323 -0.2024529418 0.057084919
55299670.0 -0.1918737468 0.0625274107 0.518928768 -0.0180202551 0.5188298506 -0.0185685865 -0.1992058379 0.058513587
60299640.0 -0.1880276263 0.0639690751 0.5224184904 -0.024840531 0.5222838841 -0.0247769708 -0.1952087306 0.0597469793
65299610.0 -0.1843077146 0.0652317241 0.5257026034 -0.0308508991 0.5255502445 -0.0310915788 -0.1919096002 0.0608446135
70299580.0 -0.1807333511 0.0659907086 0.5276373124 -0.0372695902 0.5275643047 -0.0375222223 -0.1892365994 0.0616920979
75299550.0 -0.1778188136 0.0669424096 0.529317369 -0.0447227709 0.5295062179 -0.0444807294 -0.1861190972 0.062624946
80299520.0 -0.17516631 0.0677931671 0.5313664171 -0.051375187 0.5316566727 -0.0513290482 -0.183968854 0.0637134843
85299490.0 -0.1727345448 0.0683617927 0.5329121986 -0.0581120434 0.5327968116 -0.0581013771 -0.1815825167 0.0636310787
90299460.0 -0.1701665515 0.0691611207 0.5336866104 -0.0650840623 0.5338572761 -0.0648860219 -0.1792566583 0.0647388139
95299430.0 -0.1679674317 0.0698868688 0.5343785056 -0.072020672 0.5349288358 -0.0723577185 -0.1774889184 0.0654930541
100299400.0 -0.1659943201 0.0701626632 0.5351528131 -0.0788187101 0.5351735942 -0.0788184352 -0.1760585483 0.0664819616
105299370.0 -0.1641689226 0.0707546224 0.5349418706 -0.0854744944 0.5355751931 -0.0859144692 -0.1740480772 0.0665437519
110299340.0 -0.1622311918 0.0713703258 0.5352808538 -0.0919500677 0.5358602353 -0.092073589 -0.1728269542 0.0671512477
115299310.0 -0.1609998966 0.0726345542 0.5352760651 -0.099087078 0.5353905307 -0.0995599468 -0.1716766359 0.0682391933
120299280.0 -0.1594465047 0.0733885226 0.535255761 -0.1068786681 0.5350407158 -0.1063786086 -0.170181834 0.0682924418
125299250.0 -0.1577602713 0.0739439505 0.534663366 -0.1130596054 0.5348295594 -0.1131285154 -0.1688585482 0.0697982073
130299220.0 -0.1566173348 0.0745529083 0.5347578704 -0.1196507116 0.5341823882 -0.1201793678 -0.1677706984 0.0704490865
135299190.0 -0.1554558039 0.0759050402 0.5338912475 -0.1261461905 0.5334649556 -0.1264412857 -0.1667194221 0.0708391977
140299160.0 -0.1541552932 0.0768788591 0.5329409337 -0.1332819745 0.5327706456 -0.1327538479 -0.1662362395 0.0716622767
145299130.0 -0.1532483139 0.0778364907 0.5315329022 -0.1395605082 0.5319378475 -0.1397276987 -0.1650675522 0.0727045918
150299100.0 -0.1520919989 0.0787194684 0.5307990085 -0.1461470559 0.5308016792 -0.1458834709 -0.164315702 0.0738740673
155299070.0 -0.1507867034 0.0801449197 0.5290575397 -0.1524951259 0.5295267432 -0.152357496 -0.163236607 0.0746863071
160299040.0 -0.1501459847 0.0814103299 0.5284007624 -0.158982131 0.5281482619 -0.1590700608 -0.1627178972 0.0760623441
165299010.0 -0.1489669987 0.0821801908 0.5269114927 -0.1650962386 0.5267506491 -0.1651178947 -0.1615806689 0.0765170643
170298980.0 -0.1480839773 0.0834370838 0.5246794802 -0.1715740805 0.5249743746 -0.1718050487 -0.1611418041 0.0778161259
175298950.0 -0.1469126831 0.084788953 0.5236746566 -0.1779520376 0.5236977933 -0.1784110329 -0.1603353493 0.0790439942
180298920.0 -0.1459136039 0.086116019 0.521533489 -0.1845185676 0.5219771921 -0.1845143755 -0.1593520841 0.0802884467
185298890.0 -0.1452180441 0.0871831517 0.5207105353 -0.1901743393 0.5200087345 -0.1907155843 -0.1586025339 0.0809430696
190298860.0 -0.1440504366 0.088943559 0.5175450839 -0.1970514366 0.5182108735 -0.1966337421 -0.1578272671 0.0822579912
195298830.0 -0.1428994482 0.0899677905 0.5158118836 -0.2026793055 0.5163596614 -0.2028504951 -0.1572858409 0.0835262407
200298800.0 -0.1418935078 0.0910317189 0.5136494128 -0.2093902485 0.5139489577 -0.2090502117 -0.1565225101 0.0845270923
205298770.0 -0.1414443876 0.0924551291 0.5119230415 -0.2148641184 0.5121645612 -0.2147293968 -0.1556187209 0.0857377819
210298740.0 -0.1403030411 0.0941736536 0.5093214744 -0.2208206941 0.5094679569 -0.2209826521 -0.1551445557 0.087018616
215298710.0 -0.1392744507 0.0955638815 0.5066487565 -0.226791012 0.5072776497 -0.2272745854 -0.1544638378 0.088159008
220298680.0 -0.1384054651 0.0971076664 0.5044568891 -0.2329599816 0.5047977368 -0.2328279111 -0.1537244215 0.0895799737
225298650.0 -0.1373561606 0.0983209828 0.5018631496 -0.238227562 0.5020124346 -0.2380781522 -0.152864213 0.0907562754
230298620.0 -0.1361690046 0.0996618607 0.4996472188 -0.2445631539 0.4998038378 -0.2447451032 -0.1521617133 0.0916926154
235298590.0 -0.1354489833 0.101302429 0.4975987852 -0.2503230871 0.4973654286 -0.2504546969 -0.1512606711 0.0933276672
240298560.0 -0.1341063785 0.1028552189 0.4943320918 -0.2557075197 0.4943116009 -0.2559647368 -0.1505415984 0.0944046163
245298530.0 -0.1333718687 0.104063932 0.4915859072 -0.2613964126 0.4915211251 -0.2617995021 -0.1496954334 0.0960140745
250298500.0 -0.1323008664 0.1053952968 0.4887687083 -0.2669391856 0.4891278324 -0.2669262679 -0.1490385553 0.0974389448
255298470.0 -0.1311321097 0.1073960969 0.4858847229 -0.272376391 0.4868134982 -0.2730337784 -0.1484391873 0.0987535026
260298440.0 -0.1301856556 0.1083602086 0.4836347897 -0.2777613553 0.4831790028 -0.2777790912 -0.1475753988 0.0997216528
265298410.0 -0.1292666311 0.1100110367 0.4800971428 -0.2841498796 0.4796100685 -0.2838146094 -0.1458237754 0.1010180342
270298380.0 -0.1284572098 0.111283831 0.4768068541 -0.2892763199 0.4770525352 -0.2890433945 -0.1452608168 0.1024370811
275298350.0 -0.1270187122 0.112935185 0.4731430445 -0.2942762704 0.4736687237 -0.2942486799 -0.144724415 0.1040450388
280298320.0 -0.1260996136 0.1143531442 0.4705824152 -0.2992142973 0.4709432953 -0.2999198729 -0.143480474 0.1053357089
285298290.0 -0.1248098455 0.1159518738 0.4675866544 -0.30513166 0.4675070223 -0.3051784237 -0.1429587567 0.1068260646
290298260.0 -0.1237296617 0.1172121264 0.4645012538 -0.3101805697 0.4642330736 -0.3104032473 -0.1416096533 0.1081798354
295298230.0 -0.1224183644 0.1185101525 0.4607139429 -0.3162224075 0.4605136962 -0.3161176449 -0.140557105 0.1090480751
300298200.0 -0.1212815351 0.1201467614 0.4574501683 -0.3212368046 0.4575280788 -0.3206581663 -0.1401698679 0.1104368558
305298170.0 -0.1200416741 0.1211763575 0.4537709887 -0.3262581001 0.45435406 -0.3262757872 -0.1386394527 0.1117161534
310298140.0 -0.1184083507 0.1227148914 0.4503193559 -0.331438122 0.450681487 -0.3311822743 -0.1375729235 0.1129804168
315298110.0 -0.1178013541 0.1235723292 0.4474231094 -0.336690107 0.4470984899 -0.337026002 -0.1366950743 0.1142407825
320298080.0 -0.1164198324 0.1248691062 0.4425477429 -0.3418004107 0.4432745104 -0.3420278982 -0.1356335992 0.1151824275
325298050.0 -0.1156710375 0.1258675048 0.4393211558 -0.3466348833 0.4394012474 -0.3465863382 -0.1347912063 0.116436404
330298020.0 -0.1146575052 0.127627983 0.4355736562 -0.3519762484 0.435803752 -0.3519885176 -0.1340575003 0.1176485111
335297990.0 -0.1134001743 0.1288570798 0.4311840475 -0.3564482495 0.431721724 -0.3564298121 -0.1331819292 0.1191131413
340297960.0 -0.1126298198 0.13037201 0.4269980918 -0.3617693395 0.4267414515 -0.3617474143 -0.1319328897 0.1206087826
345297930.0 -0.1112556829 0.1314967111 0.4230615784 -0.3662599091 0.4230722685 -0.3664069338 -0.1309757781 0.1218895362
350297900.0 -0.110174974 0.1329708641 0.419381188 -0.370397909 0.4196131017 -0.3708082378 -0.1303324315 0.1230034524
355297870.0 -0.1086894494 0.1343017151 0.4150271791 -0.3747879574 0.4152449675 -0.3750749063 -0.1288943234 0.1244998954
360297840.0 -0.1073537094 0.1358339556 0.4108835246 -0.3798332073 0.4108766032 -0.3802651399 -0.1277364341 0.1260305981
365297810.0 -0.1062832003 0.1371048224 0.4066168003 -0.384126906 0.4066546149 -0.3846173522 -0.1270219541 0.1273632748
370297780.0 -0.104653792 0.1382219523 0.4018866795 -0.3888037443 0.4023521127 -0.3887303309 -0.1256429333 0.1287164796
375297750.0 -0.1034047945 0.139480041 0.3982919288 -0.392987602 0.3982076673 -0.3934101669 -0.1243596246 0.1299996187
380297720.0 -0.1023922001 0.1410198195 0.3942473978 -0.3976995835 0.393499814 -0.3976812283 -0.1232273554 0.1312896416
385297690.0 -0.1006904869 0.1423007733 0.3891161483 -0.4016225238 0.3896612425 -0.402465926 -0.1220101154 0.1330585639
390297660.0 -0.0990091331 0.1431565426 0.3848850477 -0.4057802747 0.3851382099 -0.4060461316 -0.1206375167 0.1341264968
395297630.0 -0.0974361161 0.1444710864 0.3806954982 -0.4096139232 0.3803804692 -0.4100815091 -0.1195772617 0.1351834082
400297600.0 -0.0963311406 0.1457783728 0.3761553345 -0.4143233974 0.3764230395 -0.4144373945 -0.1182891953 0.1368110206
405297570.0 -0.0945532353 0.1466105038 0.3713721295 -0.418037939 0.3717471601 -0.4183845361 -0.1167753132 0.1379993459
410297540.0 -0.0929922033 0.1481338469 0.3666137754 -0.4227256041 0.3670257611 -0.4226002875 -0.1155648865 0.1394054966
415297510.0 -0.0919107588 0.1493149107 0.362181024 -0.4268695942 0.3625356007 -0.4266596334 -0.1139436876 0.1404202571
420297480.0 -0.0901223245 0.1500002406 0.3573167128 -0.4303564944 0.3580328626 -0.430974631 -0.11250355 0.1423186112
425297450.0 -0.088261401 0.1512479445 0.3528164764 -0.4343445912 0.3527088221 -0.434390446 -0.111513017 0.1428741439
430297420.0 -0.0868104356 0.1524349079 0.3485884905 -0.4383279648 0.3482612468 -0.4378859781 -0.1097250373 0.1441787926
435297390.0 -0.085338066 0.1532250116 0.3431847446 -0.44261011 0.3433640255 -0.4421029444 -0.1091418016 0.1458162729
440297360.0 -0.0832690112 0.1543310965 0.3383498792 -0.4460217162 0.3383178595 -0.4455985935 -0.1075424942 0.1466987786
445297330.0 -0.0815684503 0.1552036586 0.3338480355 -0.4492793302 0.3336874916 -0.4495071329 -0.1057517314 0.148162802
450297300.0 -0.0799759827 0.1563976622 0.3287276455 -0.4526969337 0.3291127377 -0.4527614681 -0.1043932833 0.1491967948
455297270.0 -0.0788057952 0.157210477 0.3239134125 -0.4565773485 0.3237772477 -0.45657893 -0.1027369867 0.1501925519
460297240.0 -0.0763128987 0.1585324338 0.318677928 -0.4608661102 0.318843598 -0.4602920687 -0.101791313 0.15125643
465297210.0 -0.0746548758 0.1591736039 0.3132459134 -0.4635484431 0.3133192231 -0.4637299554 -0.0998597731 0.1529255058
470297180.0 -0.073195534 0.1597732133 0.3083505846 -0.4665297794 0.3090108434 -0.4666832926 -0.0984875032 0.1534857086
475297150.0 -0.0716521012 0.161238047 0.3035357888 -0.4701113253 0.3035173466 -0.4703696684 -0.0965733793 0.1548829174
480297120.0 -0.0693290413 0.1623398486 0.2980148075 -0.4735426181 0.2983778978 -0.4732550672 -0.0955882145 0.1557941637
485297090.0 -0.0675995504 0.162521405 0.2930131723 -0.4767537627 0.2931769694 -0.476738322 -0.0943802504 0.1572286406
490297060.0 -0.065457377 0.1639618173 0.2879039806 -0.4805063859 0.2876084366 -0.4800788445 -0.0922827807 0.1579162289
495297030.0 -0.0640765855 0.1644462884 0.2830310496 -0.4830758957 0.2828204097 -0.4833073536 -0.0907853944 0.1588708463
500297000.0 -0.0621769546 0.1655057525 0.277684047 -0.4856394873 0.2774827414 -0.4863757731 -0.0890901033 0.1600373354
505296970.0 -0.0598152064 0.1663004643 0.2719715398 -0.4892606092 0.2723053671 -0.4888680536 -0.0876206187 0.1607706243
510296940.0 -0.0581202184 0.1670203971 0.266780907 -0.4924920022 0.2671796326 -0.4923967777 -0.0857283504 0.1622559914
515296910.0 -0.0563333889 0.1680021823 0.2611824973 -0.4947552237 0.2606626987 -0.4947983704 -0.0841928985 0.1625477886
520296880.0 -0.0544590931 0.1687902654 0.2558515871 -0.4976304228 0.2552764337 -0.4975870427 -0.0822583784 0.1641512005
525296850.0 -0.0520554664 0.1691302684 0.2503191897 -0.500298099 0.250262658 -0.5002858229 -0.0809286102 0.1648824578
530296820.0 -0.0506849103 0.1697226844 0.2450496326 -0.5032922173 0.2451291603 -0.502747664 -0.0793389322 0.1653215178
535296790.0 -0.0480680269 0.170635928 0.2391160084 -0.5051641835 0.2392814122 -0.5056808724 -0.0773253915 0.1666844368
540296760.0 -0.0462927878 0.1715564659 0.2336598044 -0.5078632718 0.2337536476 -0.5080232113 -0.0760814133 0.1673077915
545296730.0 -0.0447025362 0.172512847 0.2284289718 -0.5103675801 0.228024059 -0.51040025 -0.0738235582 0.168397536
550296700.0 -0.0420592045 0.1730268374 0.2226068597 -0.5131912901 0.2223458153 -0.5128651432 -0.0721618321 0.1690111835
555296670.0 -0.0405516827 0.1735546604 0.2172218877 -0.5156848999 0.2171061553 -0.5153342314 -0.0711736848 0.1694069669
560296640.0 -0.0379209588 0.1738445772 0.2113013701 -0.5175473576 0.211557368 -0.5178009323 -0.0690748966 0.1708016756
565296610.0 -0.0365797733 0.1747802849 0.2063626654 -0.5200849608 0.2060956511 -0.5194465655 -0.0673962056 0.1715840644
570296580.0 -0.0345037609 0.1753530995 0.2003904734 -0.5217665161 0.2000277453 -0.5223621656 -0.065562851 0.172320811
575296550.0 -0.0321138971 0.1757769828 0.1948154047 -0.5240203003 0.1944182919 -0.5241511006 -0.0639948 0.1729163176
580296520.0 -0.0301652658 0.1766248877 0.1893113766 -0.5264182889 0.188734438 -0.5264927793 -0.0626573031 0.1736933154
585296490.0 -0.0282535058 0.1771767748 0.1833218029 -0.5282659681 0.1828514067 -0.5282847173 -0.0602737993 0.1748000949
590296460.0 -0.0255299441 0.1775884098 0.1773600751 -0.5300396623 0.1775935606 -0.5303165579 -0.0589475392 0.1754861949
595296430.0 -0.0235221535 0.1780924272 0.1713814431 -0.5314873336 0.1713486535 -0.5320589857 -0.057222685 0.1756774676
600296400.0 -0.0215616326 0.1785310898 0.1653713693 -0.5337995431 0.1654551976 -0.5341008297 -0.0554275655 0.1765804107
605296370.0 -0.0199971295 0.1789911303 0.1605767442 -0.5355161916 0.159482606 -0.535746978 -0.053788601 0.1772272708
610296340.0 -0.0174458569 0.1795762731 0.1542764649 -0.5364814295 0.1545090362 -0.5367952698 -0.0521527155 0.1780298529
615296310.0 -0.0152450981 0.1800228982 0.1483494125 -0.5391866124 0.1479193006 -0.5388643968 -0.0497699802 0.1787335055
620296280.0 -0.0135926915 0.1807912876 0.1426637513 -0.5407340623 0.142429674 -0.5404080558 -0.0487175957 0.1794624925
625296250.0 -0.0116945503 0.1808195897 0.1363768478 -0.5421656901 0.1365560839 -0.5420602106 -0.046813151 0.1798688119
630296220.0 -0.0094218078 0.1813045555 0.130462067 -0.5438613962 0.1306448104 -0.5429220754 -0.0449243674 0.1804270008
635296190.0 -0.0076326036 0.1817726991 0.1251611783 -0.5443187909 0.1248736442 -0.5445922602 -0.0432402067 0.1810232789
640296160.0 -0.005495177 0.1819911889 0.1188990833 -0.546417347 0.1189138354 -0.5463311275 -0.0416995834 0.1813858629
645296130.0 -0.0029618443 0.182790601 0.1131558001 -0.5469974039 0.1132870658 -0.5467687479 -0.039991803 0.1817384105
650296100.0 -0.0009623844 0.1826642304 0.1070595596 -0.5486883164 0.1068062692 -0.5483134642 -0.0374597106 0.1824873004
655296070.0 0.0008392347 0.1827899722 0.1010582676 -0.5491476613 0.1009461417 -0.5493085905 -0.0361337873 0.1830244103
660296040.0 0.0032040569 0.1830832429 0.0953988769 -0.5505084633 0.0952170324 -0.5505093956 -0.0345031519 0.1831502794
665296010.0 0.0048803226 0.1832648384 0.0888858877 -0.5511813207 0.0888169023 -0.5513140389 -0.0323616692 0.1839533181
670295980.0 0.0072852945 0.1838693708 0.0830260096 -0.5523741605 0.0828659043 -0.551908094 -0.0308829904 0.1844163328
675295950.0 0.0089972565 0.1840031678 0.0772322078 -0.5529380598 0.0773841565 -0.5532086543 -0.0290876145 0.1851180641
680295920.0 0.010812784 0.1842469072 0.0717383179 -0.5535347741 0.0712961195 -0.5538114701 -0.0267963087 0.1850959536
685295890.0 0.0133340838 0.1844884912 0.0652788483 -0.5548669865 0.0651535361 -0.5545810237 -0.0251776549 0.1860495342
690295860.0 0.0152364785 0.184481723 0.059372834 -0.5553986773 0.0590044574 -0.555317178 -0.0237301344 0.1859645874
695295830.0 0.017212883 0.1843398354 0.0539196555 -0.5559153848 0.0534594984 -0.5555990202 -0.0217415224 0.1865089461
700295800.0 0.0194604274 0.1845198622 0.0476095619 -0.5559729731 0.047517726 -0.5561431642 -0.0198768364 0.1868409812
705295770.0 0.0209918105 0.1847409024 0.0414089388 -0.5570935252 0.0414704507 -0.5564932809 -0.0180756375 0.1873657849
710295740.0 0.0231675556 0.1844722006 0.0353282724 -0.5573201849 0.0352905926 -0.5576061963 -0.0161030093 0.1878020662
715295710.0 0.0253331268 0.1848471239 0.0296647683 -0.5576459927 0.0295380211 -0.5576628552 -0.0142529701 0.1876732654
720295680.0 0.0276158258 0.1849555618 0.023355302 -0.5573138932 0.0235829249 -0.5578573108 -0.0128919628 0.1881945933
725295650.0 0.0289516167 0.1849306179 0.0179696081 -0.5578498552 0.0176506433 -0.5578997662 -0.0110923576 0.1885837999
730295620.0 0.0303527641 0.1845328379 0.0117169534 -0.5579851487 0.0115285434 -0.5577163575 -0.009070784 0.1891590113
735295590.0 0.0329648516 0.1846778533 0.005489164 -0.558358343 0.0053173013 -0.5581007209 -0.0071944579 0.1889233177
740295560.0 0.034717288 0.1843215939 -9.42814e-05 -0.558566295 -0.000466088 -0.5582248188 -0.0057845175 0.1893125614
745295530.0 0.0367987397 0.1843983137 -0.00595217 -0.5574203844 -0.0058091851 -0.5578376224 -0.0040017928 0.1894553222
750295500.0 0.038373523 0.184478093 -0.0122286589 -0.5579132625 -0.0123486273 -0.5581473922 -0.0018604414 0.1898157974
755295470.0 0.0404250776 0.1839940841 -0.0178910902 -0.5579332215 -0.0182215298 -0.5580655037 2.55869e-05 0.1902159339
760295440.0 0.0426340337 0.1844203397 -0.0247218349 -0.5573828987 -0.0243241495 -0.5572009728 0.0017636135 0.1897938496
765295410.0 0.0447988458 0.183462142 -0.0304483037 -0.5570540951 -0.0299978317 -0.5570008169 0.0038162004 0.1901977798
770295380.0 0.0463922303 0.1836103546 -0.0358025368 -0.5562908789 -0.0365110702 -0.5571540289 0.0053234584 0.1907089191
775295350.0 0.0483870604 0.1832308271 -0.0420503333 -0.5563374868 -0.0420103465 -0.5557434501 0.0075586154 0.1906529848
780295320.0 0.0501485611 0.1831433805 -0.0480170696 -0.5552413802 -0.0483370196 -0.5559577631 0.0094458773 0.19061217
785295290.0 0.0520769075 0.1822815991 -0.0537999938 -0.5550936634 -0.0538984326 -0.5554873537 0.0105983415 0.1911468496
790295260.0 0.0541095525 0.1817820818 -0.0597181808 -0.5546426663 -0.0597650455 -0.5548362319 0.0127269972 0.1912251951
795295230.0 0.0562041 0.1814889731 -0.0662947295 -0.5534852755 -0.0659686011 -0.5541403253 0.0144582234 0.1903193897
800295200.0 0.0577518792 0.1814437246 -0.071441549 -0.5530591988 -0.0720935861 -0.5530869778 0.0161945822 0.1907267122
805295170.0 0.0594603914 0.181024065 -0.0777922914 -0.552333533 -0.0776649511 -0.5525526321 0.0187057384 0.1908261418
810295140.0 0.0619453124 0.180539 -0.0837806831 -0.5512537234 -0.0838798013 -0.5515011313 0.0204146807 0.1906950899
815295110.0 0.063539557 0.180227736 -0.0897246612 -0.5503562238 -0.0896137761 -0.5508747956 0.022011105 0.1908742936
820295080.0 0.0656151987 0.1796923056 -0.0950164568 -0.5489326135 -0.0951498883 -0.5501320105 0.0231643959 0.191246919
825295050.0 0.06728363 0.1788004334 -0.1014473921 -0.5481837219 -0.1011422629 -0.5486307297 0.0260698387 0.1910006016
830295020.0 0.0690026983 0.1783489348 -0.1072745797 -0.5472437437 -0.1069242736 -0.5474973885 0.0273260129 0.1904220197
