!Created with skrf (http://scikit-rf.org).
# Hz S RI R 50.0 
!freq ReS11 ImS11 ReS21 ImS21 ReS12 ImS12 ReS22 ImS22
300000.0 -0.239674115 -0.0979514123 0.468360479 0.0638435245 0.4688615935 0.0691381057 -0.2351774442 -0.1088235657
5299970.0 -0.2435753666 0.0071764399 0.4738354662 0.0055558613 0.4737879205 0.0054326823 -0.2441863567 0.0058802293
10299940.0 -0.2403899149 0.0199457335 0.4760927471 0.006241905 0.4760220207 0.0062533561 -0.2409685935 0.0183651705
15299910.0 -0.2360526169 0.0295487907 0.4796223627 0.0077461433 0.4792748259 0.0077887788 -0.2365971605 0.0276284237
20299880.0 -0.2303523095 0.0373234534 0.4840050997 0.0080674367 0.484085802 0.0083827748 -0.2320457046 0.035374511
25299850.0 -0.22492226 0.043686409 0.4894843408 0.0071703422 0.4892672546 0.0073413919 -0.2268436451 0.0415381119
30299820.0 -0.2188692739 0.0485004722 0.4954993858 0.0054596102 0.494660165 0.0054061282 -0.2215399796 0.0468044342
35299790.0 -0.212854911 0.0529617696 0.5003301782 0.0021942574 0.5005204392 0.0020358523 -0.2161391764 0.0513313348
40299760.0 -0.207775319 0.0557662511 0.5057124942 -0.0015804733 0.5055881711 -0.0018941782 -0.2114449185 0.0546593256
45299730.0 -0.2024399407 0.0583766611 0.5103713421 -0.0063874379 0.5101181005 -0.0063590022 -0.2065608283 0.0573617464
50299700.0 -0.1974828025 0.0602073678 0.5141092103 -0.012122721 0.5144131857 -0.0121751542 -0.201937474 0.0596491659
55299670.0 -0.1933840504 0.0618263926 0.5179411224 -0.0179658777 0.518488937 -0.0178218005 -0.1983026703 0.0614079565
60299640.0 -0.1892794967 0.0628292486 0.520970396 -0.0245558293 0.5213621265 -0.024167703 -0.1943628679 0.0630505951
65299610.0 -0.1860067354 0.0639996971 0.5243557199 -0.0302403301 0.5246605397 -0.0305764861 -0.190967924 0.0647987812
70299580.0 -0.1824999855 0.0642982504 0.5265611255 -0.0371906751 0.5266205287 -0.0370338255 -0.1878805765 0.065438315
75299550.0 -0.1796128348 0.0650877293 0.5289505275 -0.0439521902 0.5287884395 -0.0441654029 -0.1850287831 0.0671792935
80299520.0 -0.1773422559 0.0657568543 0.5307213869 -0.0510381954 0.5304909159 -0.0507536884 -0.1824055714 0.067260321
85299490.0 -0.1745328697 0.06602228 0.5319785 -0.0578211645 0.5320297955 -0.0579044235 -0.1805825935 0.0682883313
90299460.0 -0.1725985315 0.0667388602 0.533003838 -0.0647502988 0.5335850985 -0.0646211186 -0.1779124639 0.0693044267
95299430.0 -0.1705297058 0.0671392309 0.5340422179 -0.0719268504 0.5341026119 -0.0718837516 -0.175765518 0.0699467594
100299400.0 -0.1689722012 0.0675367401 0.5343771164 -0.0783995778 0.5343156516 -0.0789396739 -0.1742745428 0.070917495
105299370.0 -0.1670882964 0.0679726021 0.5344536993 -0.085373673 0.5350145032 -0.0855306086 -0.1721818444 0.071618247
110299340.0 -0.165311697 0.0683818774 0.5347973943 -0.0923469195 0.5346385957 -0.0927181218 -0.1706863852 0.0723802821
115299310.0 -0.1640912723 0.0687581114 0.5346603673 -0.0989118431 0.5350418956 -0.0990210129 -0.1688330325 0.0730546015
120299280.0 -0.1631724143 0.0694099126 0.5348784573 -0.1061921195 0.5348054307 -0.1060048467 -0.1680815023 0.07429626
125299250.0 -0.1618483063 0.0698821167 0.5345620933 -0.1122110903 0.5342779477 -0.112747275 -0.1663344468 0.0747438563
130299220.0 -0.1606044857 0.0706424889 0.5337755028 -0.1191124963 0.5336375975 -0.1198097832 -0.1653445353 0.0763990907
135299190.0 -0.1592949607 0.0709985029 0.5329835841 -0.1260261558 0.5325579334 -0.126228378 -0.1642024812 0.0769697697
140299160.0 -0.1585780863 0.072330447 0.5323390082 -0.1327055512 0.5323489026 -0.1327569912 -0.1629377799 0.078039273
145299130.0 -0.1575543151 0.0727129736 0.5315675199 -0.1393643233 0.5312916073 -0.1391090436 -0.1620129778 0.0787680206
150299100.0 -0.1564519164 0.0734886204 0.5302678931 -0.1459593819 0.5300308601 -0.1459406528 -0.1609409778 0.0797247342
155299070.0 -0.1560802835 0.0746320883 0.5287975047 -0.1522396454 0.5293264414 -0.1525674274 -0.1602331367 0.0808819315
160299040.0 -0.1550746464 0.0753890614 0.5275139325 -0.1585279165 0.5273972891 -0.1588059133 -0.1587495193 0.0823970628
165299010.0 -0.1543159326 0.0763613971 0.5264016402 -0.1655777092 0.5263235987 -0.1653204907 -0.1581054409 0.0833346457
170298980.0 -0.1536365605 0.0773107499 0.52392989 -0.1718798298 0.5246876625 -0.1719174555 -0.1568039956 0.084341781
175298950.0 -0.1527239143 0.07821145 0.5234829867 -0.1781578352 0.523155227 -0.1780575472 -0.1558669407 0.0857538823
180298920.0 -0.1519413648 0.0789621968 0.52115271 -0.1844224959 0.5214663538 -0.1842535508 -0.1549537698 0.0872728217
185298890.0 -0.1508709254 0.0799907021 0.51931144 -0.1904612373 0.5198413586 -0.190395225 -0.1543983142 0.0880582702
190298860.0 -0.1500849518 0.0812569197 0.5169671413 -0.196558179 0.5176837939 -0.196963425 -0.1526611614 0.0895173068
195298830.0 -0.1494304275 0.0819576016 0.5158045986 -0.2023529854 0.5155660793 -0.2030131115 -0.1517359069 0.0905574484
200298800.0 -0.1487005894 0.0833916615 0.5136251164 -0.2084291156 0.5135670381 -0.2088339638 -0.1507508192 0.0922862447
205298770.0 -0.1480750682 0.0846820607 0.5116634898 -0.2147393141 0.5113851337 -0.2146563382 -0.1499149318 0.0929984547
210298740.0 -0.1475484778 0.0853360447 0.5092517065 -0.2210582532 0.5091924287 -0.2211897594 -0.1491219599 0.0947505731
215298710.0 -0.1467125459 0.0868711375 0.5072646322 -0.2269137291 0.5067769825 -0.2265888518 -0.148471628 0.0962574369
220298680.0 -0.1458672353 0.0879431149 0.5044502896 -0.2331283392 0.5044082764 -0.2329646758 -0.1470262336 0.0977713733
225298650.0 -0.1449117752 0.0891567793 0.5016678518 -0.2383983637 0.5014713245 -0.2381730067 -0.1462421827 0.0990487963
230298620.0 -0.1444963837 0.0905506384 0.4995509614 -0.2443866852 0.4996549343 -0.2446215266 -0.1449527296 0.1002999591
235298590.0 -0.1436205885 0.0916102507 0.4967867414 -0.250213398 0.496951431 -0.2503894112 -0.1442123474 0.1014389702
240298560.0 -0.1429888138 0.0928898611 0.4944490977 -0.2558310577 0.4938838716 -0.2555350812 -0.1430065324 0.1029370139
245298530.0 -0.1416717408 0.0941634178 0.4905820156 -0.2616587747 0.4914213504 -0.2615373357 -0.1420546359 0.1047323505
250298500.0 -0.1414282983 0.095245062 0.4885070338 -0.2669555198 0.4885671791 -0.2667786611 -0.1404339128 0.1060551853
255298470.0 -0.1406684595 0.0968228913 0.4857135426 -0.2733215434 0.4855390355 -0.272961474 -0.1396808211 0.1074899795
260298440.0 -0.1397374076 0.0980835721 0.4825636329 -0.2781684132 0.4824357863 -0.2783373696 -0.1381020624 0.1088552377
265298410.0 -0.1386888393 0.099409277 0.4793639328 -0.2840051219 0.4793131568 -0.2839876865 -0.1377131778 0.1100469104
270298380.0 -0.1377765723 0.1004287293 0.4759634692 -0.2893227552 0.4763552842 -0.2895043555 -0.1358596339 0.1120494903
275298350.0 -0.1370106319 0.1018785992 0.4732383776 -0.2946302557 0.4736918246 -0.2950288914 -0.1346552074 0.1134096815
280298320.0 -0.1363045599 0.1030941355 0.4698349083 -0.2993874541 0.4699428324 -0.3002680524 -0.1335047421 0.1149958174
285298290.0 -0.1351182652 0.1047273744 0.4667131121 -0.3053814972 0.4666909916 -0.3055089772 -0.1324687617 0.1164242527
290298260.0 -0.1343232953 0.1059657746 0.4640117098 -0.3107866446 0.463454559 -0.3108464078 -0.130664217 0.1176937035
295298230.0 -0.1334639544 0.1071813746 0.4605672675 -0.3159629882 0.459841787 -0.3159816788 -0.1295013405 0.1192834191
300298200.0 -0.1318663702 0.1084027422 0.4564230916 -0.3214633447 0.4567848261 -0.3210999083 -0.1283929577 0.1206602207
305298170.0 -0.1311046107 0.109525803 0.4534848797 -0.326635894 0.4534214802 -0.326769746 -0.1267925532 0.1222438554
310298140.0 -0.1299076563 0.1104754461 0.4498921897 -0.3316962079 0.4497497367 -0.3320082456 -0.1255658846 0.1239004259
315298110.0 -0.1290387877 0.1118605169 0.446223028 -0.3369356148 0.4460058775 -0.3372372034 -0.1238310188 0.125044174
320298080.0 -0.1281785663 0.1129364152 0.4423442231 -0.3421533355 0.4422466587 -0.3419944476 -0.1227712444 0.1261383977
325298050.0 -0.1271993264 0.1140886453 0.4387181265 -0.3472296309 0.4385419881 -0.3474438223 -0.1214711002 0.1275438784
330298020.0 -0.1263653175 0.1154152596 0.4338456493 -0.352208369 0.4342654699 -0.352272336 -0.1203636482 0.1286520384
335297990.0 -0.1253253687 0.116476677 0.4303532157 -0.3573041585 0.4304392049 -0.3575250642 -0.118980524 0.1301879308
340297960.0 -0.1247128531 0.1182255225 0.4257384603 -0.3623139737 0.4264603881 -0.3617230638 -0.117886628 0.1317946009
345297930.0 -0.1237781465 0.119524391 0.4218890345 -0.3663199445 0.4218457949 -0.3663565086 -0.1162915143 0.1330375484
350297900.0 -0.1223364787 0.1208394634 0.4180618242 -0.3707426226 0.4184726481 -0.3710809925 -0.1152966273 0.1348264815
355297870.0 -0.1216713176 0.1221778301 0.4140680538 -0.3752452908 0.4137183826 -0.3757577357 -0.1139153066 0.1363173168
360297840.0 -0.1202043902 0.1232692053 0.4094614858 -0.3801113633 0.4093913718 -0.3802227127 -0.1122045422 0.1377452379
365297810.0 -0.1192079411 0.1245329783 0.4053370855 -0.3849050534 0.4055775965 -0.3847512925 -0.1110733223 0.1396344295
370297780.0 -0.1178566691 0.1258029215 0.4011933803 -0.388774041 0.4016348393 -0.389624328 -0.1093070468 0.1408458667
375297750.0 -0.1169601125 0.127535798 0.3976555127 -0.3935552192 0.396878268 -0.3937482576 -0.1075751582 0.1422257531
380297720.0 -0.1155658152 0.1283952319 0.3927274092 -0.3979216466 0.3924989736 -0.3980067531 -0.1057934326 0.1438414473
385297690.0 -0.1141089777 0.1298634867 0.388070322 -0.4021915028 0.3881520783 -0.4024599452 -0.1045817695 0.145113662
390297660.0 -0.1131617698 0.1311915446 0.3835795397 -0.4067033338 0.3836832697 -0.40677761 -0.102797714 0.14606813
395297630.0 -0.1118837314 0.1322062652 0.3792647224 -0.4100306423 0.3792727863 -0.4105099664 -0.1013802007 0.1479280304
400297600.0 -0.1107194871 0.1336995734 0.3745965421 -0.4151120523 0.3747801198 -0.4151307844 -0.1003697552 0.1488791805
405297570.0 -0.1092281385 0.1348702237 0.3700681863 -0.4189001538 0.3701212788 -0.4193977843 -0.0983810143 0.1507261486
410297540.0 -0.1079841654 0.135824431 0.3652534305 -0.4228147966 0.3653348607 -0.4230998371 -0.0968238741 0.1518470166
415297510.0 -0.1065992967 0.137388667 0.3608495083 -0.4267435821 0.3605471662 -0.4269317426 -0.0954496007 0.153536432
420297480.0 -0.1051194759 0.1380695388 0.355563603 -0.4311540944 0.3561426103 -0.4307997855 -0.0934273916 0.1539145764
425297450.0 -0.1039326372 0.1391161277 0.3509221536 -0.4346904796 0.3516123728 -0.4347903916 -0.0916605849 0.1556198237
430297420.0 -0.1025835873 0.1404661504 0.3460810198 -0.4386820546 0.3465575502 -0.438691168 -0.0902199732 0.1566303165
435297390.0 -0.1010711943 0.1415589536 0.3418351353 -0.4420453349 0.3417130371 -0.4421821739 -0.0885694014 0.1583921665
440297360.0 -0.0999145507 0.1424630126 0.3364557414 -0.4458086654 0.3361909176 -0.4460834837 -0.0867892044 0.1589206288
445297330.0 -0.098090725 0.1438040889 0.3316416575 -0.4500402393 0.3317383752 -0.4497480829 -0.0850073167 0.1601925355
450297300.0 -0.0970239335 0.1445972152 0.3266415001 -0.4532974734 0.3269982749 -0.4535959187 -0.0834449004 0.1618256897
455297270.0 -0.0957831162 0.145668602 0.3223094633 -0.4568416294 0.322183916 -0.456947097 -0.0814524589 0.1626585488
460297240.0 -0.0942645464 0.1468774292 0.3168591304 -0.4597790665 0.3163956124 -0.4604145375 -0.0796688339 0.1641388871
465297210.0 -0.0924894305 0.1476354776 0.31215662 -0.4636233211 0.3120061025 -0.4636105293 -0.0781540361 0.1647165358
470297180.0 -0.0915044377 0.1487774292 0.3072288183 -0.4671660858 0.3070707062 -0.4669313563 -0.0766955325 0.1656551941
475297150.0 -0.0899137924 0.1496496434 0.3013314797 -0.4698992702 0.3014866442 -0.469737304 -0.0744154589 0.1668694541
480297120.0 -0.0880944496 0.1504108351 0.2963605971 -0.4734302454 0.2962824966 -0.4731956863 -0.072726409 0.1684044759
485297090.0 -0.0868569091 0.1515279182 0.2915001886 -0.4766258387 0.2914880775 -0.4765009104 -0.0713265844 0.1688942153
490297060.0 -0.0853171295 0.1523486373 0.2862446734 -0.4794370971 0.2861940433 -0.4797237451 -0.0692857572 0.1701703967
495297030.0 -0.0843718439 0.1539969973 0.2809848865 -0.4827679548 0.2805006688 -0.483093359 -0.067359812 0.1707448512
500297000.0 -0.0823761612 0.1543954971 0.2754294097 -0.4859972139 0.2755305098 -0.4860277635 -0.0657976088 0.1720578317
505296970.0 -0.0809175867 0.1552703103 0.2697478952 -0.4885190489 0.2700545262 -0.4886322541 -0.0642667455 0.1730094421
510296940.0 -0.0795965038 0.1563140194 0.2649300609 -0.4919586908 0.2650149997 -0.4916732755 -0.0619502873 0.173865181
515296910.0 -0.0782269151 0.1574070028 0.2593111539 -0.4941932262 0.2593637543 -0.4943582691 -0.0601559943 0.1743935641
520296880.0 -0.0764694706 0.1580979506 0.2540842184 -0.4973897238 0.2543764826 -0.4969021666 -0.0582375131 0.1754838218
525296850.0 -0.0750020538 0.158753063 0.2488784327 -0.4999962243 0.2488701958 -0.5002144521 -0.0560362372 0.1765003431
530296820.0 -0.073640958 0.1595871284 0.2437332732 -0.5019354699 0.2429796089 -0.5026147204 -0.0547930322 0.1767698109
535296790.0 -0.0720766566 0.1605328552 0.2373338015 -0.5047775249 0.2381328069 -0.5050188337 -0.0527735804 0.1773527728
540296760.0 -0.070495963 0.1612660775 0.2320253348 -0.5081861224 0.2322249558 -0.5078175674 -0.0509860392 0.1785221563
545296730.0 -0.068814344 0.1622472199 0.2267677049 -0.5097222983 0.2270871247 -0.5102537817 -0.04907403 0.1790912496
550296700.0 -0.0676152689 0.1628697873 0.2210609662 -0.5129794891 0.2214968826 -0.5127650155 -0.0469568191 0.1800825206
555296670.0 -0.0655303207 0.163489005 0.2152412361 -0.5150022432 0.2160487619 -0.5148809031 -0.045246905 0.1807610387
560296640.0 -0.064076636 0.1643588891 0.2098690357 -0.516809546 0.2100705303 -0.51670201 -0.0432514669 0.1811790411
565296610.0 -0.0627283133 0.1651273817 0.2038958945 -0.5192887428 0.2043145562 -0.5194239402 -0.0414374614 0.1818935164
570296580.0 -0.0606097527 0.1657099107 0.1984946048 -0.5211171582 0.1987500873 -0.5217651332 -0.039363364 0.1829722294
575296550.0 -0.0590636795 0.1667750143 0.1929709157 -0.5232617568 0.1932258871 -0.5232690245 -0.0369251477 0.1832234062
580296520.0 -0.0578357147 0.1672959265 0.1878827496 -0.5254410292 0.1876334166 -0.5257270688 -0.0353728782 0.1837225232
585296490.0 -0.0558267934 0.1676524674 0.1816463163 -0.5275971399 0.1818162917 -0.5275198988 -0.0334141783 0.1840649917
590296460.0 -0.0547312071 0.1683208382 0.1759334577 -0.5296498849 0.1760356317 -0.5297474283 -0.0312971742 0.1848480437
595296430.0 -0.0529008576 0.169079218 0.1701620508 -0.5312803634 0.1703441723 -0.5316338948 -0.0292123364 0.1850906669
600296400.0 -0.0513727856 0.1699466416 0.1648141641 -0.5331661056 0.1646935034 -0.5332165295 -0.0273188347 0.1859099098
605296370.0 -0.0497285268 0.1709153107 0.1586442622 -0.5352422229 0.1588456734 -0.5345586714 -0.0254496359 0.1861301769
610296340.0 -0.0480945283 0.1711592301 0.1531365302 -0.5362264698 0.1534385338 -0.5370333794 -0.0233244973 0.1868913567
615296310.0 -0.0463295918 0.1722124585 0.1470574899 -0.5378382929 0.1470199756 -0.5380208151 -0.0213684074 0.1870516777
620296280.0 -0.0444909352 0.1722851536 0.1414898174 -0.5394150653 0.1412390632 -0.5396175068 -0.0194180933 0.1871533207
625296250.0 -0.0428008567 0.1732229484 0.1350563692 -0.5413804736 0.1351770034 -0.5414746973 -0.0173185561 0.188236295
630296220.0 -0.0412818738 0.1738884057 0.1293352915 -0.5426391978 0.1299360816 -0.5425216832 -0.0156326314 0.1880803836
635296190.0 -0.0394674154 0.1741394121 0.1234004542 -0.5434221652 0.1234743459 -0.5430540094 -0.0134795426 0.1881479209
640296160.0 -0.0379276749 0.1745756858 0.1180410805 -0.5450832791 0.1178037487 -0.5448115801 -0.0110130653 0.1887311332
645296130.0 -0.0361295051 0.1753990794 0.1119915862 -0.5465577892 0.1118816523 -0.5464457721 -0.0096699862 0.1888338942
650296100.0 -0.0345664604 0.1760345783 0.1065184072 -0.5474335556 0.1064882508 -0.5472941356 -0.0072480456 0.1893035391
655296070.0 -0.0328576745 0.1762652636 0.1003432495 -0.5485156507 0.1002085135 -0.5483616223 -0.0047275201 0.1894974046
660296040.0 -0.0314753119 0.1771834608 0.094548721 -0.5494940047 0.0943766944 -0.5493692104 -0.0031696225 0.189843454
665296010.0 -0.0295022392 0.1770663676 0.0885381886 -0.5501851615 0.0885653921 -0.550392643 -0.0012102826 0.1900079151
670295980.0 -0.0273692221 0.1775852043 0.0822169002 -0.5511738261 0.082886045 -0.5511632894 0.0006241741 0.1898237613
675295950.0 -0.0257497751 0.178141252 0.0764107 -0.5521072284 0.0764888864 -0.5527230254 0.0030806967 0.1902645898
680295920.0 -0.0240075737 0.1787572474 0.0702849163 -0.5525962269 0.0703370448 -0.5531521835 0.0053101944 0.1902091917
685295890.0 -0.0224441458 0.1787431749 0.0645805065 -0.5535412425 0.0644025444 -0.5539008427 0.0074560176 0.1907974055
690295860.0 -0.0204245718 0.1793612124 0.0586571361 -0.5538449016 0.0581028808 -0.5540475163 0.0094886841 0.1906873084
695295830.0 -0.0182130082 0.1793596849 0.0513422424 -0.5546019499 0.0522937166 -0.5549465734 0.0109751978 0.1908476481
700295800.0 -0.01687047 0.1800372366 0.0463870233 -0.5552875156 0.0462937125 -0.5553725648 0.0133766532 0.1899870244
705295770.0 -0.0148326399 0.1803260401 0.0401211661 -0.5557363739 0.0405915513 -0.5556960253 0.0153399494 0.1906447807
710295740.0 -0.0132163901 0.1807747756 0.0341774174 -0.556004575 0.0344407609 -0.555690713 0.0169664478 0.1906633827
715295710.0 -0.0117702505 0.1809182007 0.0284138795 -0.5564585964 0.0285731041 -0.5563186457 0.0193229924 0.1902441656
720295680.0 -0.0099946736 0.1808931392 0.0224571026 -0.5562466054 0.0223509941 -0.5566105568 0.0216339621 0.1902817589
725295650.0 -0.0078981705 0.1814471469 0.0159163227 -0.5565471326 0.0165527975 -0.5567329731 0.023808914 0.1904562086
730295620.0 -0.0064055845 0.1815771592 0.0103138818 -0.557130906 0.0102516401 -0.5566970924 0.0259985935 0.1896646889
735295590.0 -0.0044931729 0.1817023162 0.0048375667 -0.5571693919 0.0045175458 -0.5571633173 0.0280627969 0.1900998789
740295560.0 -0.0028624779 0.1820514119 -0.0019503294 -0.5568355225 -0.0019092013 -0.5570002306 0.0299452253 0.1896729222
745295530.0 -0.0008073836 0.1821012373 -0.0076776572 -0.5567308447 -0.0077753484 -0.5569658866 0.0319727765 0.1893760933
750295500.0 0.0008207867 0.1820957895 -0.0136383203 -0.556349239 -0.013602544 -0.5565043967 0.0342026811 0.1889834382
755295470.0 0.0031363802 0.1826429068 -0.0197167237 -0.5563482237 -0.0194266434 -0.5565963017 0.0361346485 0.1891785338
760295440.0 0.0044368185 0.1826962078 -0.0256513173 -0.5560294377 -0.025993168 -0.5564479105 0.0377112913 0.1888755337
765295410.0 0.0060697276 0.1824876448 -0.0306923586 -0.5556223106 -0.0314714392 -0.556141073 0.0408093289 0.1887305727
770295380.0 0.0084448684 0.183155751 -0.037410966 -0.5552354294 -0.0373995217 -0.5557256634 0.0425012885 0.1885010956
775295350.0 0.0100292221 0.1827477924 -0.0436605229 -0.5543800317 -0.0432138879 -0.554930273 0.0441866569 0.1875499652
780295320.0 0.0120075325 0.1828780387 -0.0493705942 -0.5541932355 -0.0493893084 -0.5546505883 0.0462702801 0.1877185518
785295290.0 0.0135038568 0.1834588202 -0.0553799874 -0.5535078667 -0.0553662308 -0.5540612193 0.047685678 0.1871558529
790295260.0 0.0154652039 0.1830568359 -0.0613620152 -0.5532452615 -0.0614287027 -0.5535623346 0.0505917725 0.1869382297
795295230.0 0.0169439464 0.1835268665 -0.0667213466 -0.5522975131 -0.0667456918 -0.5526701721 0.052595109 0.1869268131
800295200.0 0.0190667958 0.183170795 -0.0737830849 -0.551879878 -0.0738486995 -0.5518069203 0.0544988489 0.1861083916
805295170.0 0.020630463 0.1828247336 -0.07902903 -0.5504484301 -0.0790139694 -0.5508832073 0.056058184 0.185553322
810295140.0 0.0222779281 0.1829371361 -0.0846739679 -0.5498805413 -0.0847318036 -0.5507198143 0.0585903615 0.1855170114
815295110.0 0.0243907863 0.1830360203 -0.0914090975 -0.5490226187 -0.091222414 -0.5489912459 0.0603849401 0.184615629
820295080.0 0.026016365 0.1826560285 -0.0964739128 -0.5478849521 -0.0972868036 -0.5480786829 0.0625088723 0.1840639422
825295050.0 0.0280909591 0.1825261127 -0.1025077293 -0.546396129 -0.1029034373 -0.5467808637 0.0646607844 0.1838111955
830295020.0 0.02979731 0.1828520063 -0.1087597063 -0.5454566784 -0.1094687557 -0.5457299488 0.0664380665 0.1828713698
