!Created with skrf (http://scikit-rf.org).
# Hz S RI R 50.0 
!freq ReS11 ImS11 ReS21 ImS21 ReS12 ImS12 ReS22 ImS22
300000.0 -0.0987372347 -0.0706684433 0.6299388761 0.0661900322 0.6241992716 0.0671859199 -0.1015846028 -0.0792115358
5299970.0 -0.1021186407 0.0129353937 0.6304462283 0.0099566595 0.6306766337 0.0103247416 -0.1009998514 0.0129606556
10299940.0 -0.0971952002 0.0292674047 0.6339707697 0.0151774635 0.6342465498 0.0155181147 -0.0957917828 0.0302992774
15299910.0 -0.0899825467 0.0422953416 0.6402996396 0.020422371 0.6405876551 0.020734306 -0.088698829 0.0435619471
20299880.0 -0.0813705498 0.0531359369 0.6484962427 0.0243627893 0.6485394852 0.0242286929 -0.0799183786 0.054426893
25299850.0 -0.0724324301 0.0623952223 0.6580581786 0.0255157326 0.6575976497 0.0254991712 -0.0697734652 0.0632761273
30299820.0 -0.062264036 0.0687537202 0.6678722171 0.0244958288 0.6669518429 0.0245711327 -0.0598974366 0.0701711669
35299790.0 -0.0526104608 0.0738149874 0.6774085489 0.0218744048 0.6772853387 0.0212851984 -0.0499081582 0.074967444
40299760.0 -0.0432779518 0.0772926001 0.6864676687 0.0173313259 0.6864866901 0.0177084119 -0.040315606 0.0775214962
45299730.0 -0.0339584197 0.0793439752 0.6949162669 0.0120062886 0.695374062 0.0121051733 -0.0313926835 0.079671758
50299700.0 -0.025689488 0.0801160807 0.7034797648 0.0053319316 0.703578852 0.0056457859 -0.0227143775 0.0805400103
55299670.0 -0.0176125319 0.0805808148 0.7105810968 -0.0036289019 0.7107904018 -0.0024059628 -0.014909955 0.0804260444
60299640.0 -0.0099566919 0.0802226038 0.717330759 -0.0114144404 0.7181129743 -0.0104180999 -0.0077376881 0.0796143093
65299610.0 -0.0037418591 0.078599872 0.7232841997 -0.0201580747 0.7236142389 -0.0199201875 -0.0011141986 0.0785708333
70299580.0 0.0026351981 0.0777354607 0.7286823195 -0.0293234926 0.7284146307 -0.0289340179 0.0046773988 0.0768581881
75299550.0 0.0081603533 0.0759934494 0.7327723413 -0.0390109133 0.7327287578 -0.0388262944 0.0102270664 0.0749887946
80299520.0 0.0130101741 0.073584285 0.7368554328 -0.0488548363 0.7372644299 -0.0489300582 0.0149974868 0.072738217
85299490.0 0.0174894863 0.0716000665 0.7401734884 -0.0586485199 0.7405415979 -0.058306712 0.0192881214 0.0698973814
90299460.0 0.021701136 0.069104706 0.7426819334 -0.0689551244 0.7435181195 -0.0689453123 0.0236069301 0.0680865452
95299430.0 0.0259385785 0.0665673928 0.7458203241 -0.0789664456 0.7458309813 -0.0788128819 0.0274080487 0.065545628
100299400.0 0.0290969667 0.0645992867 0.7469489724 -0.0892018925 0.7469379557 -0.088854361 0.031093726 0.0627956129
105299370.0 0.0323352656 0.0618993578 0.7485255974 -0.0998193468 0.7492300388 -0.0992669693 0.0341054464 0.0607709625
110299340.0 0.0350675765 0.0598308122 0.7498450732 -0.1089550049 0.7498345075 -0.1087481428 0.036288859 0.0577694247
115299310.0 0.0374864138 0.0575161701 0.7505080128 -0.1195701364 0.7504325994 -0.1189775281 0.0388778854 0.0554777375
120299280.0 0.0399641856 0.0546279688 0.7510205711 -0.1294652456 0.7515532983 -0.1290797571 0.0413283035 0.053011859
125299250.0 0.0417966654 0.052245407 0.7512169058 -0.138950236 0.751597215 -0.1391411078 0.0425588144 0.0502065663
130299220.0 0.0436492005 0.0504870935 0.7516113475 -0.1491447028 0.7513454072 -0.148720012 0.0448561105 0.0480356868
135299190.0 0.0454388706 0.0483062521 0.7512872505 -0.158719425 0.7510564649 -0.1583165059 0.0467551681 0.0461113183
140299160.0 0.0465698951 0.0464241491 0.7511299843 -0.168712695 0.7506738472 -0.1687693243 0.0479847917 0.044597455
145299130.0 0.0481978357 0.0437364262 0.7498971538 -0.1785097018 0.7495476403 -0.1778666078 0.0494199296 0.0420943432
150299100.0 0.0498894971 0.0421952069 0.7486418424 -0.1871845293 0.7491280704 -0.1873500232 0.0509928256 0.0403000573
155299070.0 0.0504443641 0.0397215167 0.7482060761 -0.1982946552 0.7477156273 -0.197733582 0.0518083123 0.0384085966
160299040.0 0.0518613091 0.038121052 0.7462286627 -0.206710911 0.7456650513 -0.2071499639 0.0521609879 0.0361973439
165299010.0 0.0526544582 0.0362359546 0.7444668277 -0.2168097316 0.7445171643 -0.216978984 0.0537751603 0.0350982451
170298980.0 0.0533499453 0.0341186328 0.7426644822 -0.226562154 0.7434404951 -0.2259423699 0.0542690213 0.0332411762
175298950.0 0.0537910677 0.0322178435 0.7413838542 -0.2351352489 0.7410298721 -0.2352734178 0.0549136612 0.0316137272
180298920.0 0.0542862599 0.0305063105 0.7388634202 -0.2444474051 0.7388801492 -0.244091075 0.0554480937 0.0299168373
185298890.0 0.0553771817 0.0286743011 0.7369186046 -0.2533691206 0.7360477498 -0.2535911552 0.0556579402 0.0283720557
190298860.0 0.0554985939 0.0273405777 0.7346038652 -0.2626716434 0.7345684879 -0.2629547694 0.0563648961 0.0265229725
195298830.0 0.0560352368 0.0254946852 0.7320610984 -0.2715885348 0.731828301 -0.2712072158 0.057140071 0.0251469043
200298800.0 0.0563179478 0.0240197253 0.7285353995 -0.2813029563 0.7290472988 -0.2809750096 0.0568824316 0.023943287
205298770.0 0.0570510913 0.0228119493 0.7256239627 -0.2902094994 0.7262926098 -0.2895880264 0.0573237798 0.0216811218
210298740.0 0.0572846336 0.0210390562 0.7230274932 -0.2982498486 0.7234467201 -0.2979786396 0.0580444866 0.0213988567
215298710.0 0.0569428348 0.0197387964 0.7206323463 -0.3073700719 0.7199611665 -0.3072119237 0.0577299632 0.019806172
220298680.0 0.0575504938 0.0178471216 0.7167795118 -0.3150858383 0.7165589231 -0.3157155906 0.0575138235 0.0178133571
225298650.0 0.057876304 0.0165639676 0.7136896725 -0.3250487631 0.7139697046 -0.3243139567 0.0575429255 0.0165768383
230298620.0 0.0579902868 0.0157814491 0.7105561322 -0.3326643221 0.7108685762 -0.3329900247 0.0574012019 0.0150407165
235298590.0 0.057788191 0.014776596 0.7065601943 -0.3413693763 0.7070860731 -0.3404587412 0.057665393 0.0141858177
240298560.0 0.0580829134 0.0135195661 0.703564725 -0.3498379209 0.7028815713 -0.3497529303 0.0577507308 0.0132010587
245298530.0 0.0579047348 0.0123511214 0.7002554593 -0.3585303104 0.6997698451 -0.3582509543 0.0583992719 0.0110350869
250298500.0 0.0584835333 0.011222839 0.6951199348 -0.3665289102 0.6949223983 -0.365436478 0.0578730869 0.0104586814
255298470.0 0.0584951061 0.0095479095 0.6911195284 -0.3742413901 0.6919137016 -0.3743123487 0.0581777737 0.0092658429
260298440.0 0.0578525187 0.0083603948 0.6878286188 -0.3829366112 0.6877701201 -0.3826071079 0.05842398 0.008062115
265298410.0 0.0591619929 0.0077531968 0.6840840808 -0.3913667807 0.6842904103 -0.3906216983 0.0582727655 0.0068149692
270298380.0 0.0585090126 0.0063658118 0.6799459995 -0.3980789858 0.6797560353 -0.3979686244 0.0581491032 0.0057896379
275298350.0 0.0588871439 0.0053691483 0.6750755924 -0.406742991 0.675646805 -0.4065276303 0.0586366469 0.0041049719
280298320.0 0.0588418236 0.0046361921 0.6711682783 -0.4144845337 0.6707823699 -0.4144364685 0.0585514953 0.0034735747
285298290.0 0.0586415433 0.0030589942 0.6668951043 -0.4222997354 0.6662296592 -0.4225424871 0.058479564 0.0022550242
290298260.0 0.0589398157 0.0021789689 0.6621651392 -0.4294586533 0.6618450537 -0.4296190306 0.0587709948 0.0017246656
295298230.0 0.0588336841 0.0008727261 0.6577617344 -0.4374595173 0.6577070924 -0.4375399315 0.0596629115 -1.09427e-05
300298200.0 0.0585082908 -0.000216737 0.6533546448 -0.444871523 0.6530439371 -0.44533111 0.0586238796 -0.0007772868
305298170.0 0.0589186913 -0.0013136401 0.6476818299 -0.4533939283 0.6475636521 -0.4530102854 0.0595022476 -0.0020988625
310298140.0 0.0583331541 -0.0021377517 0.6431855049 -0.460871137 0.6435812979 -0.4605775321 0.0594961512 -0.0026611649
315298110.0 0.0584515254 -0.0040465907 0.6380795953 -0.4685965907 0.638574454 -0.4683358773 0.059059421 -0.0041901808
320298080.0 0.0586694404 -0.004763592 0.6321547324 -0.4759352554 0.6328764986 -0.4755120486 0.0585565983 -0.0049439093
325298050.0 0.0580511542 -0.0062100066 0.6276560041 -0.4836510427 0.6274140973 -0.4833273004 0.0581579699 -0.0063466769
330298020.0 0.0574675934 -0.0073393745 0.6213252934 -0.4906686843 0.6215923806 -0.49110544 0.0573987833 -0.0076005168
335297990.0 0.0572479558 -0.0085157823 0.6160925385 -0.4975701827 0.6157731764 -0.4980700365 0.0567622552 -0.0076421999
340297960.0 0.0561358568 -0.0090290248 0.6098835862 -0.5045587557 0.609448196 -0.5049934725 0.0570853348 -0.0084040673
345297930.0 0.055854474 -0.0090713577 0.6043182991 -0.5117994839 0.6042735786 -0.5117130184 0.0566621195 -0.0098914922
350297900.0 0.0551697077 -0.0108125037 0.5978513756 -0.5188304348 0.5980634214 -0.5181137501 0.0555820718 -0.0096563727
355297870.0 0.0549572158 -0.010422722 0.5922929336 -0.5247409761 0.5927176952 -0.5250246607 0.0552232194 -0.0106311703
360297840.0 0.0548665666 -0.01125469 0.587644019 -0.5315397165 0.5875431728 -0.531324742 0.0550724356 -0.0111143705
365297810.0 0.054130955 -0.011809888 0.5811551387 -0.5384663169 0.5814871627 -0.5383136666 0.0547020052 -0.0115152071
370297780.0 0.0544843694 -0.0131766047 0.5742215567 -0.5445090771 0.5752826601 -0.5439441879 0.0541899231 -0.0124005537
375297750.0 0.0538550341 -0.0137328696 0.568597236 -0.551089187 0.5698279656 -0.5510524695 0.0545637026 -0.0129085001
380297720.0 0.0537102361 -0.0142765813 0.562733144 -0.5573171962 0.5631645565 -0.5568146989 0.0534291968 -0.0138001459
385297690.0 0.0529406755 -0.0150018559 0.5563924749 -0.5639447371 0.5563513778 -0.5634200235 0.0533419006 -0.0141429557
390297660.0 0.0527097794 -0.0152920913 0.5503624254 -0.5701370189 0.55056183 -0.5695327044 0.052863034 -0.0150959964
395297630.0 0.0521616374 -0.0158621842 0.5442613312 -0.5759706137 0.5441640996 -0.5764318534 0.0531985688 -0.0156557258
400297600.0 0.0520381709 -0.0165503838 0.537387083 -0.5822166337 0.5372918669 -0.5820112441 0.0522826386 -0.0162192304
405297570.0 0.0513805401 -0.0176422075 0.5314547725 -0.587960977 0.5314005573 -0.5876410543 0.0517485659 -0.0168395403
410297540.0 0.0514909677 -0.0180538716 0.525041346 -0.5936271586 0.5257173836 -0.5937737862 0.0513552576 -0.0171244198
415297510.0 0.0514942225 -0.0184957139 0.5182382676 -0.5997685932 0.5184743335 -0.5994943025 0.0512691322 -0.0178122123
420297480.0 0.0510382995 -0.0189925363 0.5109881779 -0.6053818993 0.5116896955 -0.6060910871 0.050447759 -0.0188872581
425297450.0 0.0504688627 -0.0203351231 0.5057548008 -0.6111329692 0.5052924487 -0.6112290993 0.0495780283 -0.0187846573
430297420.0 0.0501407662 -0.0206591075 0.4983560272 -0.6157409752 0.4982975766 -0.6160208838 0.0495809957 -0.0201335136
435297390.0 0.0495791004 -0.0211433442 0.4913048545 -0.6227204762 0.4911088013 -0.6224884967 0.0503413584 -0.0205480966
440297360.0 0.0495043592 -0.021530481 0.4840865465 -0.6276158517 0.4844583113 -0.6277745312 0.0489055005 -0.0215027595
445297330.0 0.0487090036 -0.0226555503 0.4779580501 -0.6329465726 0.4779811731 -0.6327123343 0.0491591041 -0.0223466775
450297300.0 0.0489346904 -0.0233014782 0.4708364666 -0.6385356009 0.4706030388 -0.6383439473 0.0484534033 -0.0228088743
455297270.0 0.0483981758 -0.0235855521 0.4633273041 -0.643589989 0.4638830588 -0.6440447997 0.0480498223 -0.0231296053
460297240.0 0.0478685734 -0.0242102052 0.4559797716 -0.6484768219 0.4569121029 -0.6486373787 0.0478411963 -0.0238767189
465297210.0 0.0479712266 -0.0247076263 0.4495431487 -0.653637154 0.4491725587 -0.65401456 0.0475168873 -0.0246203045
470297180.0 0.047273568 -0.0255604452 0.4415388254 -0.6588657336 0.4424288625 -0.6587559561 0.0472673334 -0.0248952619
475297150.0 0.0466948462 -0.0263160224 0.4342511525 -0.6626460031 0.43502685 -0.6628934716 0.0472409035 -0.0258046317
480297120.0 0.0460477799 -0.0260557178 0.4273333721 -0.6687686784 0.4275373328 -0.6686230454 0.0470211883 -0.0261927214
485297090.0 0.0455840299 -0.0267626898 0.420755921 -0.6722501517 0.4208598484 -0.6728340573 0.046710161 -0.0268584597
490297060.0 0.0447244085 -0.0278142883 0.4129219572 -0.6781206844 0.4132517413 -0.6769037473 0.0459989999 -0.0267750076
495297030.0 0.0446170441 -0.0280104684 0.4053279669 -0.6821007725 0.4058261794 -0.681888255 0.0453050885 -0.0273267497
500297000.0 0.0442979606 -0.0287129682 0.397747938 -0.686568141 0.3973687739 -0.6856543031 0.0452633393 -0.0274009977
505296970.0 0.0440335159 -0.0290509067 0.3902872113 -0.6905071985 0.3903375286 -0.6910419199 0.0446817862 -0.0280970065
510296940.0 0.0433766249 -0.0294270079 0.3825981417 -0.6949479349 0.3830286539 -0.6950570504 0.0445776868 -0.0281376251
515296910.0 0.0426423674 -0.0297915643 0.3747834033 -0.6993774703 0.3748564284 -0.6991840768 0.0441970791 -0.0286996154
520296880.0 0.0423474975 -0.0302058633 0.36698858 -0.7036501281 0.3676455212 -0.7028898545 0.0432242764 -0.0295130896
525296850.0 0.0421592322 -0.0313277991 0.3592762281 -0.7075462336 0.3599979122 -0.7074149065 0.0427390371 -0.0299035296
530296820.0 0.0416573521 -0.0312393863 0.3518361091 -0.7111944314 0.3519657453 -0.7115884575 0.0425017169 -0.0300188409
535296790.0 0.0404763778 -0.0317972924 0.343912271 -0.7151273187 0.3445762729 -0.7147487124 0.0421029978 -0.0312586097
540296760.0 0.0400266204 -0.031548425 0.3360675868 -0.7194899565 0.3359333896 -0.7192007726 0.0409055753 -0.0304611253
545296730.0 0.0398439199 -0.0322753441 0.3279729946 -0.7223336421 0.3282386812 -0.7225021149 0.0406294434 -0.0312666806
550296700.0 0.0398147472 -0.0325391277 0.3204260276 -0.7261000976 0.3207134394 -0.7263335582 0.0399277566 -0.0316845848
555296670.0 0.0388714073 -0.0330453665 0.3129026333 -0.7298609789 0.3130212702 -0.7295010432 0.0396337215 -0.0318916152
560296640.0 0.0384695891 -0.0329547733 0.3038522359 -0.7334692449 0.3045819864 -0.7323352712 0.039012236 -0.0325570524
565296610.0 0.0376345692 -0.0337620359 0.2957413446 -0.7365191757 0.2968586054 -0.7361138515 0.038215624 -0.0330507039
570296580.0 0.0372720649 -0.0340305037 0.2880843009 -0.7399224075 0.2878988367 -0.7395203613 0.0375368306 -0.0326407245
575296550.0 0.0364290834 -0.0341033252 0.2803590926 -0.742975847 0.2800401881 -0.7424914654 0.0376132253 -0.0334890115
580296520.0 0.0361883074 -0.0346531639 0.2717093141 -0.7459464212 0.2721116882 -0.7458744198 0.0369112392 -0.034168496
585296490.0 0.0356136056 -0.0357776132 0.2641117709 -0.7482712317 0.2645082838 -0.7485793293 0.0362275636 -0.0342267986
590296460.0 0.0354771914 -0.0353079611 0.2556838857 -0.7507704736 0.2559455103 -0.7511732357 0.0350050796 -0.0345850902
595296430.0 0.035254535 -0.0354742591 0.2473384542 -0.7542931229 0.2478001699 -0.7539158166 0.0353998383 -0.0352262858
600296400.0 0.0339183152 -0.0363132837 0.23930698 -0.757182285 0.2392756159 -0.7562613525 0.0343846687 -0.0356689149
605296370.0 0.0337150701 -0.0362842934 0.2309510888 -0.7594550377 0.2311315053 -0.7591825089 0.0337168158 -0.0358426451
610296340.0 0.0333006202 -0.0367402698 0.2219942904 -0.7614392962 0.2226554924 -0.7615869227 0.0337959428 -0.0363287154
615296310.0 0.0327698506 -0.0375235719 0.2138686356 -0.7640304763 0.2141403865 -0.7647857033 0.0331268059 -0.0362517927
620296280.0 0.0324678552 -0.0379019649 0.2061441555 -0.7664222574 0.2061172523 -0.7661901455 0.0325699046 -0.0371095747
625296250.0 0.0311048526 -0.0385538069 0.1986838231 -0.7691937783 0.1976239821 -0.7691483117 0.0326435439 -0.0370396191
630296220.0 0.0318365183 -0.0381572751 0.1883313629 -0.7709048896 0.1883633656 -0.7705093823 0.0314998652 -0.0371042247
635296190.0 0.0297471652 -0.0388903963 0.180726167 -0.7728068738 0.1807532327 -0.7726584688 0.0311834367 -0.0375545618
640296160.0 0.0294554357 -0.0387936059 0.1719786523 -0.7743810398 0.1725023382 -0.7745784655 0.0308048291 -0.0379647772
645296130.0 0.0292061572 -0.0390800063 0.16321333 -0.7760491509 0.1645603082 -0.7759699738 0.0301696406 -0.0377787005
650296100.0 0.0288264229 -0.0392724889 0.1551522805 -0.7783618544 0.1562374305 -0.7782392409 0.030226554 -0.0392225577
655296070.0 0.0275943892 -0.0397263233 0.1468786393 -0.780184511 0.1471919112 -0.7798539768 0.0295104887 -0.0385606107
660296040.0 0.0268866237 -0.0403492782 0.1380179531 -0.7818591135 0.1391302095 -0.781420505 0.0291708895 -0.0386218613
665296010.0 0.0271946166 -0.0403537491 0.1296036644 -0.7826008232 0.1298487212 -0.7827430213 0.0285653598 -0.0383895894
670295980.0 0.0250170473 -0.0403909073 0.1209929566 -0.7839641842 0.1214272892 -0.7841358019 0.027423571 -0.0391915037
675295950.0 0.0250683812 -0.0402087829 0.113072488 -0.7850298835 0.1129373189 -0.7845527936 0.0265081544 -0.0393041248
680295920.0 0.023997538 -0.0410727185 0.1038518587 -0.7864440034 0.1034221582 -0.7866008153 0.026412442 -0.0387928991
685295890.0 0.023991973 -0.040235789 0.0955012363 -0.7875506165 0.0949569544 -0.7873281421 0.0254174479 -0.0390918645
690295860.0 0.0238280153 -0.0409058649 0.0870304276 -0.7878714656 0.0867184143 -0.7888837489 0.024729397 -0.0383296614
695295830.0 0.0230027101 -0.041097436 0.078876048 -0.789395238 0.0781604226 -0.789449613 0.0245285062 -0.038877749
700295800.0 0.0223078721 -0.0415143991 0.0699924405 -0.7896236915 0.069405173 -0.7898452594 0.0236648051 -0.0385328946
705295770.0 0.0215293256 -0.0407693268 0.0603614664 -0.7907596514 0.0613225488 -0.7907825523 0.0228482697 -0.0392151227
710295740.0 0.0214686242 -0.0414767274 0.0523770877 -0.7925194924 0.053067777 -0.7919559814 0.0227611502 -0.0401318655
715295710.0 0.0200755132 -0.0416669454 0.0444321436 -0.7920242543 0.0438736624 -0.7922737597 0.0225014043 -0.0395930589
720295680.0 0.0197523341 -0.041532853 0.0350910303 -0.7925531912 0.0356587267 -0.7922911207 0.0216651716 -0.0389810671
725295650.0 0.0195492232 -0.0415251123 0.0262866494 -0.7928112932 0.0266369913 -0.7931075114 0.0202004757 -0.0395233409
730295620.0 0.0190438597 -0.0411154394 0.0178564763 -0.7929537707 0.0184425563 -0.7929194399 0.0194736345 -0.0401952488
735295590.0 0.0180948713 -0.0414973055 0.00940894 -0.7932142895 0.0092124823 -0.7931226904 0.0189742649 -0.0403157954
740295560.0 0.017223932 -0.0413939644 0.0011184123 -0.7932111434 0.0007161028 -0.7933686952 0.0188031572 -0.03986073
745295530.0 0.0168926337 -0.0414223832 -0.0077135986 -0.792613025 -0.0079261217 -0.793194579 0.0182463814 -0.0405057103
750295500.0 0.0165586146 -0.0417820252 -0.0166239008 -0.7929036267 -0.0163547216 -0.7931571449 0.0176218996 -0.0401738389
755295470.0 0.0156743044 -0.0419193399 -0.0244911072 -0.7929456434 -0.025010663 -0.7928757294 0.0173849755 -0.0408585399
760295440.0 0.0150557873 -0.0417377639 -0.0338584474 -0.7931177852 -0.0335656566 -0.7929007929 0.0166112209 -0.0406833775
765295410.0 0.0143485604 -0.0417609913 -0.0424018836 -0.7914560767 -0.0428630318 -0.7924433637 0.0161766263 -0.0404890042
770295380.0 0.0134670197 -0.0420123285 -0.0512610183 -0.7919985027 -0.0511380647 -0.7916208582 0.0152323946 -0.0410783555
775295350.0 0.0126714777 -0.0430293154 -0.0600473452 -0.7904990746 -0.0591307478 -0.7908854903 0.0136307903 -0.0406082937
780295320.0 0.0125543277 -0.0421765685 -0.0683947412 -0.7893762549 -0.0672175782 -0.7905148819 0.0136030066 -0.0416522516
785295290.0 0.0117416503 -0.0426814194 -0.0773916983 -0.7892196062 -0.0766985769 -0.7892594753 0.0138593514 -0.040673203
790295260.0 0.0116584625 -0.0419221681 -0.0848572666 -0.7879772784 -0.0842338712 -0.7879886767 0.012514972 -0.040869899
795295230.0 0.0108034815 -0.0425960472 -0.0938047148 -0.7867921817 -0.093210957 -0.7873954684 0.0129446665 -0.0402872048
800295200.0 0.0096118851 -0.041960869 -0.1033320486 -0.7861503502 -0.1023263081 -0.7865132584 0.011962217 -0.0410154402
805295170.0 0.0090715095 -0.0421085104 -0.111098274 -0.7848219627 -0.1111948898 -0.7856584099 0.0111595256 -0.0406458267
810295140.0 0.0082438724 -0.0424977705 -0.1191787634 -0.7833628946 -0.1192391464 -0.7836791471 0.0114702283 -0.040546277
815295110.0 0.0082468016 -0.042602983 -0.1280387113 -0.7820549544 -0.1277819875 -0.7824370125 0.0101038072 -0.0405033558
820295080.0 0.0067867721 -0.0418136508 -0.1366186431 -0.780552136 -0.1359721021 -0.7809120064 0.0095603026 -0.0406399622
825295050.0 0.0071152975 -0.0416803661 -0.1440910721 -0.7791130164 -0.1448877301 -0.7795095452 0.0093489337 -0.0402018628
830295020.0 0.0062874076 -0.04166963 -0.1536645597 -0.7775784766 -0.1528279045 -0.777473338 0.0094699495 -0.0399419435
