!Created with skrf (http://scikit-rf.org).
# Hz S RI R 50.0 
!freq ReS11 ImS11 ReS21 ImS21 ReS12 ImS12 ReS22 ImS22
300000.0 -0.241661124 -0.0869084909 0.4722842562 0.0588589288 0.4702648653 0.0540235867 -0.2407940095 -0.0935258864
5299970.0 -0.2449359655 0.0067788551 0.4749170713 0.0049607896 0.4753010394 0.0050248595 -0.2411060109 0.0077272875
10299940.0 -0.2418657644 0.0181419504 0.4767355794 0.0060755335 0.4765737551 0.0064153104 -0.237779652 0.020538136
15299910.0 -0.2374606363 0.0269633891 0.4804922677 0.0073575521 0.4807034656 0.0073556573 -0.2333750534 0.0298838057
20299880.0 -0.2330172769 0.033963711 0.4851336831 0.0082439068 0.4849594664 0.0079905953 -0.2279000044 0.0382697239
25299850.0 -0.2279100788 0.0404903547 0.490122752 0.0067839009 0.4904275564 0.007062025 -0.2221242162 0.0446993132
30299820.0 -0.2223417782 0.0453718093 0.4952510943 0.0049801781 0.4955232404 0.0047222756 -0.2162157494 0.0501169918
35299790.0 -0.2174860145 0.0489884202 0.5008958609 0.0016229819 0.5009580862 0.0017030091 -0.2107417978 0.0545992597
40299760.0 -0.2125065597 0.0523770707 0.5058808824 -0.0024024617 0.5061560802 -0.0022052639 -0.2054258593 0.0574215134
45299730.0 -0.20792751 0.0550207057 0.5107126875 -0.0070064104 0.510750119 -0.0068479216 -0.2004249515 0.0604468296
50299700.0 -0.2039593008 0.05696766 0.514916883 -0.0124588893 0.514771536 -0.012085078 -0.1957386105 0.0622024489
55299670.0 -0.1999841121 0.0583979483 0.5188278028 -0.0188548304 0.5183984902 -0.0183080449 -0.191047298 0.0639374031
60299640.0 -0.1959188574 0.0599145534 0.5217257565 -0.0252137246 0.5222318845 -0.0248494968 -0.1874292849 0.0655983482
65299610.0 -0.1927468185 0.0609850651 0.5248505949 -0.0312571354 0.5249604686 -0.0308798247 -0.1839023843 0.0664421195
70299580.0 -0.1900174643 0.0618768916 0.5271007009 -0.0377676523 0.5270152947 -0.0374280468 -0.1805937604 0.0675693655
75299550.0 -0.1870812779 0.0631599761 0.5285381177 -0.0447879514 0.528963672 -0.044334918 -0.177901018 0.0681277918
80299520.0 -0.1847243855 0.0636096577 0.5308653026 -0.051464414 0.5312466577 -0.0515373543 -0.1749356987 0.0691300855
85299490.0 -0.1823956022 0.0641980827 0.5320640609 -0.0583087992 0.5323041686 -0.0578096669 -0.1728394998 0.0696073065
90299460.0 -0.1803528763 0.0648619696 0.5328166936 -0.065388767 0.5333681125 -0.065216272 -0.1700139128 0.0706294393
95299430.0 -0.1783124709 0.0653632753 0.534437244 -0.0718395961 0.5341051341 -0.0719453581 -0.1679801875 0.0713674292
100299400.0 -0.1764821613 0.0659627611 0.5337854874 -0.0786638309 0.5341337325 -0.0790628687 -0.1657454658 0.0716845749
105299370.0 -0.1747411061 0.0667959919 0.5342703921 -0.0862153385 0.5348331412 -0.0859204326 -0.1640085002 0.0726332652
110299340.0 -0.1734476349 0.0673216495 0.5349124163 -0.0924943698 0.5343826263 -0.0926252021 -0.1628243039 0.0732662442
115299310.0 -0.1720314961 0.0681779744 0.5348435311 -0.0993752618 0.5347611263 -0.0995096822 -0.1611549491 0.0741153799
120299280.0 -0.1706938066 0.0685773554 0.5344554243 -0.106197472 0.5347204388 -0.1061986412 -0.1595244936 0.0746470679
125299250.0 -0.1695376126 0.0691518314 0.5343382108 -0.1128729314 0.5344976867 -0.1124039222 -0.1584824218 0.0752249614
130299220.0 -0.1686616134 0.070191658 0.5335026159 -0.1197607249 0.5334649938 -0.1197234375 -0.1570093224 0.0759147049
135299190.0 -0.1675105916 0.0711072272 0.5329781704 -0.1264742267 0.5330680812 -0.1260041425 -0.155740574 0.0768483077
140299160.0 -0.16662179 0.072119837 0.5322354025 -0.1332554317 0.5323135818 -0.1329262939 -0.1547641121 0.0782443023
145299130.0 -0.1657242229 0.0728466519 0.5316539659 -0.1397433692 0.5311539104 -0.1394084231 -0.1537068374 0.0790485892
150299100.0 -0.1646996677 0.0738715574 0.5300508912 -0.145315945 0.5299666234 -0.1459230569 -0.1526699277 0.0802838722
155299070.0 -0.1638339522 0.0746473148 0.5288127931 -0.1530211788 0.5284924918 -0.152952425 -0.1513123166 0.0813321116
160299040.0 -0.1626912988 0.0758424473 0.5273169936 -0.1591184868 0.5272572911 -0.1590020622 -0.1507900156 0.0823277117
165299010.0 -0.1622170695 0.0767933952 0.5262128341 -0.1656821003 0.5258065156 -0.1652596763 -0.149397775 0.0835880128
170298980.0 -0.1612559554 0.0776946767 0.5247055707 -0.1717293062 0.5244776255 -0.1716777145 -0.1484613742 0.0848809391
175298950.0 -0.1606086975 0.0792114786 0.5230075598 -0.1781086894 0.5225281004 -0.1779252586 -0.1476932797 0.0859635441
180298920.0 -0.1603701279 0.0799760344 0.5212593953 -0.1844460162 0.5210605354 -0.1840307144 -0.1469804278 0.0874614217
185298890.0 -0.1585668326 0.0810243132 0.5190675532 -0.1908978489 0.5190575359 -0.1903059384 -0.145759155 0.0884548633
190298860.0 -0.1584265378 0.082532549 0.5175290633 -0.1967201676 0.5176562668 -0.1968625912 -0.1450616965 0.0896462681
195298830.0 -0.157640618 0.0834244106 0.5154536995 -0.2026400617 0.515637049 -0.2023460367 -0.1439743608 0.0910188176
200298800.0 -0.1568970912 0.0846675123 0.5132648783 -0.2090694318 0.5135654252 -0.2088405378 -0.1434644186 0.0923552276
205298770.0 -0.1562222392 0.0858087406 0.5108998451 -0.2152112764 0.5112555634 -0.2148681741 -0.1422892445 0.0930266376
210298740.0 -0.1555165337 0.0869814906 0.5084607702 -0.2204110351 0.5085436153 -0.2206520326 -0.1411529925 0.095326025
215298710.0 -0.1549049914 0.0883406123 0.5062324052 -0.2267222515 0.5062751372 -0.227086544 -0.1405192257 0.0963955129
220298680.0 -0.153884885 0.0892240415 0.5038675432 -0.2327108201 0.5039409215 -0.2327491259 -0.1396464861 0.0971968516
225298650.0 -0.1534353784 0.0907419331 0.5014807344 -0.2386427948 0.5015605287 -0.2381850716 -0.1386919622 0.098602187
230298620.0 -0.1525694894 0.0924567056 0.4991326591 -0.2442286733 0.4994989756 -0.2445550938 -0.1379476477 0.0998770317
235298590.0 -0.1517943056 0.0935715309 0.4962915454 -0.2501650426 0.4966135041 -0.2497194515 -0.1369027495 0.1013623066
240298560.0 -0.1508713946 0.0949664418 0.4940285692 -0.2561312056 0.4937221946 -0.2558772335 -0.1358025912 0.1031356327
245298530.0 -0.1502529134 0.096124072 0.4913820658 -0.2615829517 0.490850942 -0.2616879579 -0.1346758389 0.1038293178
250298500.0 -0.1489861837 0.0976335151 0.4880199149 -0.2672785807 0.4877589452 -0.2665811648 -0.1337880546 0.1056214381
255298470.0 -0.1485798925 0.0985301756 0.4845698571 -0.2724593713 0.4848858421 -0.2724601537 -0.1324249506 0.1066026108
260298440.0 -0.1479234863 0.0998842107 0.4818815203 -0.2785610175 0.4823640472 -0.2781373802 -0.1312183483 0.1084481763
265298410.0 -0.1467978897 0.1016529181 0.4790984678 -0.283870573 0.4792134487 -0.2834524919 -0.130292573 0.1098452214
270298380.0 -0.1458923889 0.1027436175 0.4762010848 -0.2887814729 0.4766124017 -0.2891269111 -0.1296787888 0.1112407653
275298350.0 -0.1445717787 0.1041516709 0.472872372 -0.2943648598 0.4734341064 -0.2945603509 -0.1278949097 0.1122723833
280298320.0 -0.1439455119 0.1057138143 0.470152964 -0.299983488 0.4700138887 -0.2998153902 -0.1266089966 0.1138116552
285298290.0 -0.1431228681 0.107128672 0.466804369 -0.305474181 0.4663635993 -0.3053378857 -0.1255734963 0.1153408621
290298260.0 -0.1419021514 0.1082936459 0.4630340703 -0.3102568871 0.4632418828 -0.3104380112 -0.1244544572 0.1168713511
295298230.0 -0.1410293633 0.1097187501 0.4599621211 -0.3156835652 0.4601635075 -0.3157111239 -0.1228005784 0.1176849164
300298200.0 -0.1402210455 0.1108427132 0.4567926329 -0.3209078747 0.4569491875 -0.3212874853 -0.1218410318 0.1195322287
305298170.0 -0.1390406464 0.112117287 0.4531732697 -0.3265430057 0.4531843923 -0.3262287963 -0.1200362336 0.1204313716
310298140.0 -0.1379812663 0.1136343002 0.4491609681 -0.3313060261 0.4494307498 -0.3313284254 -0.1190976813 0.1219394729
315298110.0 -0.1369705332 0.1144147993 0.4455828049 -0.3366305973 0.4459596169 -0.3365083086 -0.1177888207 0.1228675686
320298080.0 -0.1359042768 0.1159610428 0.4417862595 -0.3417250974 0.4420220245 -0.3418591363 -0.1165731708 0.1242516367
325298050.0 -0.1349478236 0.1170590977 0.4379984246 -0.3466293419 0.4377915917 -0.347082977 -0.115407665 0.1254419789
330298020.0 -0.1343268425 0.1184671935 0.4340899507 -0.351846725 0.4341700479 -0.3517107192 -0.1144437769 0.1269100245
335297990.0 -0.1330706571 0.119443767 0.4302604607 -0.356471295 0.4300262366 -0.356436022 -0.1135683741 0.128448443
340297960.0 -0.1327544946 0.121129772 0.4258885142 -0.3614233059 0.4255583018 -0.3615122524 -0.1120547594 0.1297806549
345297930.0 -0.1313598832 0.1227150439 0.4216130426 -0.3661810755 0.421579098 -0.3661073198 -0.1104759415 0.1308660727
350297900.0 -0.130574692 0.1234725755 0.4167872678 -0.3706340118 0.4175266299 -0.3704433369 -0.1097219315 0.1326677559
355297870.0 -0.1293533683 0.1255338381 0.4135607689 -0.3751101184 0.4139484671 -0.3751942025 -0.1084055119 0.1339790515
360297840.0 -0.1280718739 0.1269156492 0.4099797753 -0.3794649806 0.4097075952 -0.3797721032 -0.1068298252 0.1352228822
365297810.0 -0.1273886867 0.1283017424 0.405621515 -0.3844352795 0.4056339979 -0.3844993839 -0.1051199563 0.1364321409
370297780.0 -0.1256462308 0.129486675 0.400711061 -0.3884923636 0.4010043866 -0.3883885884 -0.104069635 0.1378552023
375297750.0 -0.1243347855 0.1310696486 0.3968885559 -0.3931688583 0.3970694363 -0.3933722247 -0.1025163539 0.1391851791
380297720.0 -0.1233274961 0.1320764101 0.3922104159 -0.3976259414 0.3924876264 -0.397185339 -0.1014247529 0.1402174701
385297690.0 -0.122399166 0.13356122 0.3877357315 -0.4016240284 0.3881299002 -0.401471739 -0.0998394531 0.1416198546
390297660.0 -0.1209626033 0.1348224237 0.3834196983 -0.4059018341 0.3835062667 -0.4057665905 -0.098248731 0.1432146589
395297630.0 -0.1197665462 0.136235834 0.3793115053 -0.4105890823 0.3791214643 -0.4102950231 -0.0962042894 0.1442784263
400297600.0 -0.1186040337 0.1375891954 0.3743978079 -0.4146431009 0.3747679174 -0.4142118383 -0.0950702024 0.1454610703
405297570.0 -0.1176614326 0.1387234956 0.3699774017 -0.4181655546 0.3700207468 -0.4181207809 -0.0937715868 0.1468764595
410297540.0 -0.1160450256 0.140200403 0.3653317493 -0.4226452914 0.365659573 -0.4223818122 -0.0918956953 0.1480166664
415297510.0 -0.1144421747 0.1410294629 0.360903026 -0.426785814 0.3609688516 -0.4265122158 -0.0901718136 0.1490425256
420297480.0 -0.1133296918 0.142562301 0.3558270417 -0.4301591578 0.3557583754 -0.4304551086 -0.0888716057 0.1500887438
425297450.0 -0.1120316466 0.1433262021 0.3518147228 -0.4342935567 0.3521228773 -0.4340757506 -0.0875213887 0.1515318314
430297420.0 -0.1109584787 0.1447479795 0.3467393928 -0.4376148615 0.3468076373 -0.4375885939 -0.0859072285 0.1522642833
435297390.0 -0.1094689366 0.1460824125 0.341400961 -0.441615183 0.3415256692 -0.4416828042 -0.0835984792 0.1537397613
440297360.0 -0.10775642 0.1473861164 0.3366487718 -0.4453793318 0.3371000018 -0.4454287699 -0.0823241027 0.1541623166
445297330.0 -0.1067887587 0.14815011 0.3322560291 -0.4489736991 0.3321432006 -0.4488929073 -0.0804219515 0.1551915306
450297300.0 -0.1049475974 0.149353478 0.3271670647 -0.4525618687 0.3272525679 -0.4531542561 -0.0790672316 0.1562730061
455297270.0 -0.1036010056 0.1506829751 0.3218181019 -0.4560098884 0.3223708678 -0.456267362 -0.0772872551 0.1573718992
460297240.0 -0.1025918871 0.1516925918 0.317167644 -0.4593674649 0.3171831881 -0.4598336776 -0.075190122 0.1583852617
465297210.0 -0.100659062 0.1529982982 0.3120685783 -0.463399162 0.3121289914 -0.4632891179 -0.0736072684 0.159329364
470297180.0 -0.0993025286 0.1540443761 0.3067342639 -0.466205722 0.3071519454 -0.4663449098 -0.0717779035 0.1605230833
475297150.0 -0.0979354072 0.1547496439 0.3017925792 -0.4693032425 0.3024690453 -0.4690208183 -0.0696036337 0.161048213
480297120.0 -0.0963388245 0.1565746481 0.2963692358 -0.4733837088 0.2965424321 -0.4732879746 -0.067956319 0.1622725868
485297090.0 -0.0949498455 0.1572933909 0.2916835081 -0.4757480443 0.2916647387 -0.4755473847 -0.0661920342 0.1631716333
490297060.0 -0.0939515871 0.1584875784 0.2868346636 -0.4797102499 0.2870395551 -0.4791989556 -0.064448661 0.1643928089
495297030.0 -0.0919024117 0.1592702101 0.2809681496 -0.4821843427 0.2816781315 -0.4822840326 -0.0628910105 0.1650002566
500297000.0 -0.0902851383 0.1604250444 0.2756475559 -0.4850748348 0.2755482282 -0.4848417922 -0.0608028317 0.1663336504
505296970.0 -0.0887799089 0.161499152 0.2705254505 -0.4881217041 0.2705705376 -0.4880324668 -0.0592121722 0.1669477716
510296940.0 -0.0872243372 0.1625432386 0.2650731237 -0.4911529916 0.2654055746 -0.491399237 -0.0571917781 0.1680505141
515296910.0 -0.0855396505 0.1635043057 0.2593800452 -0.4940708949 0.2597564948 -0.4939998159 -0.0550994578 0.1684046714
520296880.0 -0.0843148789 0.1644404711 0.2542884109 -0.4972610953 0.2543712237 -0.4964745001 -0.0536347048 0.1690309658
525296850.0 -0.0823785079 0.1649259373 0.2487887011 -0.4995884649 0.2493260548 -0.4996379266 -0.0518026034 0.1700510211
530296820.0 -0.0808662917 0.1661859308 0.2437078219 -0.5025104447 0.2435413166 -0.5022881669 -0.049930659 0.1706839223
535296790.0 -0.0798735262 0.1671176356 0.2382730468 -0.5047218118 0.238562333 -0.5043907981 -0.0481501857 0.171162474
540296760.0 -0.0781944598 0.1682446174 0.2326206788 -0.5075570636 0.2325512635 -0.5075215001 -0.0465978599 0.1721912162
545296730.0 -0.0763782495 0.1689742341 0.2268841808 -0.509550435 0.2272661556 -0.5096280014 -0.0444070657 0.1726654699
550296700.0 -0.0742681587 0.1700853702 0.2213180285 -0.5121100069 0.2215115214 -0.5123919453 -0.0427063959 0.173726943
555296670.0 -0.0731920932 0.1704739866 0.215898884 -0.514727221 0.2163117202 -0.5145374023 -0.0404958733 0.1743336131
560296640.0 -0.0709012176 0.1720829464 0.2103017293 -0.5168844115 0.2103630966 -0.5168573882 -0.0387818177 0.1746911135
565296610.0 -0.07000111 0.1724248639 0.2045748221 -0.5190981328 0.204780048 -0.5186616854 -0.0369400993 0.1748669907
570296580.0 -0.0680454099 0.1730403232 0.1988675868 -0.5214163792 0.1986489808 -0.5212137705 -0.0350655752 0.1760240531
575296550.0 -0.0664697808 0.1743732019 0.1934269372 -0.5238200849 0.1930308954 -0.5229965135 -0.0326159578 0.176169077
580296520.0 -0.0647749399 0.174976523 0.1876763196 -0.5255882958 0.1878330015 -0.5254066684 -0.0307217041 0.1764512621
585296490.0 -0.0632059072 0.1755028252 0.1821725699 -0.5266666312 0.1821631095 -0.5272645445 -0.0288058697 0.1773870117
590296460.0 -0.0610068874 0.1762409189 0.1762316313 -0.5286151503 0.1767540346 -0.5289782842 -0.0273850323 0.17766231
595296430.0 -0.059312746 0.1770370636 0.1702294781 -0.5312131354 0.17062385 -0.5311326137 -0.0253625916 0.1780158898
600296400.0 -0.0581442583 0.1778323651 0.1646544782 -0.5332824164 0.1651794815 -0.532683825 -0.0232040171 0.1783498601
605296370.0 -0.0563157722 0.1783867666 0.1593158006 -0.5346745447 0.1591945211 -0.5345089701 -0.0211805374 0.1788338669
610296340.0 -0.0545005939 0.1791959589 0.1529571683 -0.5360985414 0.1533820969 -0.5362253675 -0.0189638031 0.1793099682
615296310.0 -0.0523261968 0.1796150116 0.1471932404 -0.5373401386 0.1472059413 -0.5380994265 -0.0168849108 0.1794742702
620296280.0 -0.0510270304 0.1798819717 0.1414542494 -0.5393176035 0.1416859268 -0.5390940204 -0.0153461468 0.1799142152
625296250.0 -0.0489830793 0.1805533591 0.1360657076 -0.5407263071 0.1356976649 -0.5410790381 -0.0125791839 0.1802092825
630296220.0 -0.0468941303 0.1813460903 0.1293372795 -0.5420226294 0.1293998741 -0.5418262231 -0.0109662866 0.1806345884
635296190.0 -0.0459461948 0.1819079966 0.1239461744 -0.5434372029 0.1241953873 -0.5436804107 -0.0090171001 0.1807635779
640296160.0 -0.0439079246 0.1829199884 0.1179239825 -0.5447457615 0.1185278862 -0.5447501349 -0.0069196671 0.180867421
645296130.0 -0.0422748102 0.1834491292 0.1118472609 -0.5456841986 0.1126456336 -0.5462006774 -0.0048820938 0.1815685668
650296100.0 -0.0400634734 0.183627138 0.1060622127 -0.5470619568 0.1064074396 -0.5471751208 -0.0025830319 0.1811221892
655296070.0 -0.0387065061 0.1839811433 0.1005402131 -0.5482821906 0.1005208933 -0.5479121126 -0.0007251177 0.1815622212
660296040.0 -0.0372957464 0.1843615795 0.0945276847 -0.5490749907 0.0944462617 -0.549287144 0.0013739013 0.1818190171
665296010.0 -0.0345626167 0.1848490346 0.0880472809 -0.5501100602 0.0885797857 -0.550369283 0.0035446254 0.1824017742
670295980.0 -0.0338664093 0.1857659007 0.082640514 -0.5510109141 0.0826735514 -0.550624001 0.0049208516 0.1823484326
675295950.0 -0.0318897338 0.186564787 0.0768295475 -0.5518202843 0.0770234328 -0.551134435 0.0069421972 0.1825939711
680295920.0 -0.0298950554 0.1866180053 0.070642363 -0.5523678867 0.0704149207 -0.5527491704 0.0093123205 0.1830789412
685295890.0 -0.0277076874 0.1874491295 0.0647180093 -0.5534152196 0.0644794932 -0.5531888614 0.0112786738 0.1825113587
690295860.0 -0.0259952286 0.1876393644 0.0588596169 -0.552956013 0.0589095704 -0.5544160276 0.0133300593 0.1835558569
695295830.0 -0.0243249527 0.1876156837 0.0529870614 -0.5539857292 0.05278266 -0.5543462488 0.0152563016 0.1832168621
700295800.0 -0.0222046918 0.1878700247 0.0466321212 -0.5549623253 0.0465297221 -0.5547501259 0.0169883588 0.1833338937
705295770.0 -0.0210567059 0.1891142722 0.0404490312 -0.5556833593 0.0409929015 -0.5558216872 0.0193079378 0.1833972503
710295740.0 -0.0185266316 0.188987693 0.0346556411 -0.556143499 0.0350409189 -0.5562532669 0.0212963395 0.1826414633
715295710.0 -0.0173789145 0.1891889724 0.0293432838 -0.5561661014 0.0286820331 -0.5560873219 0.023329053 0.1825624772
720295680.0 -0.015149714 0.1895186317 0.0225522947 -0.5565464451 0.0232466283 -0.5567448243 0.0254900679 0.1828473549
725295650.0 -0.0136216832 0.1898235611 0.0167839184 -0.556508757 0.0170544615 -0.5569019421 0.0271425259 0.182843483
730295620.0 -0.011379695 0.1907462261 0.0108090696 -0.5564031968 0.0111129045 -0.5569700473 0.0285522694 0.1823732034
735295590.0 -0.0097055643 0.1906352985 0.0049503313 -0.5568612945 0.0046230742 -0.5566029105 0.0308309677 0.1822749944
740295560.0 -0.0078091296 0.1912793172 -0.0014658428 -0.5567264111 -0.0009633347 -0.5567324951 0.0337637617 0.1822257676
745295530.0 -0.0060885091 0.1910418969 -0.0073900626 -0.5559320326 -0.0072063566 -0.5565124291 0.0351161249 0.1815618938
750295500.0 -0.0042085552 0.1914568426 -0.0131235645 -0.5564945927 -0.0131228467 -0.556765855 0.0373199686 0.1816653266
755295470.0 -0.0022580798 0.1914204608 -0.0189401074 -0.5560951242 -0.0188477747 -0.5564949337 0.0396069306 0.1807373214
760295440.0 -0.0005195062 0.1915499693 -0.0253694084 -0.5564834668 -0.0252137426 -0.556514557 0.0414445647 0.1807381653
765295410.0 0.0011351502 0.1916355721 -0.0312148641 -0.5559734726 -0.031560488 -0.5561628596 0.0436074888 0.1807617331
770295380.0 0.0031813516 0.1915254051 -0.0373357155 -0.555329934 -0.0371477112 -0.5550035812 0.0455439708 0.1801083407
775295350.0 0.0048960843 0.1914987402 -0.0434101931 -0.5544903302 -0.0425286492 -0.5547311503 0.0467534122 0.1800392215
780295320.0 0.0069188434 0.191958866 -0.0492882935 -0.5539567547 -0.0485892691 -0.5542580253 0.0489040522 0.1791763932
785295290.0 0.0085382351 0.1916205414 -0.0552998922 -0.5534097453 -0.0548512577 -0.5536712045 0.0517272613 0.1790372736
790295260.0 0.0108942226 0.1924480218 -0.0605477525 -0.5532909083 -0.0600769754 -0.5531135663 0.0532882758 0.178431517
795295230.0 0.012626357 0.1918792524 -0.0670004645 -0.5521810611 -0.0663561795 -0.5522479932 0.0556218803 0.1782909042
800295200.0 0.0141472022 0.1920997817 -0.0731095257 -0.5512901819 -0.0728501807 -0.5512376159 0.0576882101 0.1775978829
805295170.0 0.0162633681 0.1919176364 -0.0786766155 -0.5507418082 -0.0788206111 -0.5507135879 0.0591788262 0.1773276993
810295140.0 0.0180238669 0.1916421438 -0.0842364057 -0.5495050003 -0.0845189957 -0.5498294637 0.0616442094 0.1770665347
815295110.0 0.0198987849 0.1915731739 -0.0907086153 -0.5489344223 -0.0903535495 -0.548745516 0.0635398285 0.1765114746
820295080.0 0.0215800171 0.1920293264 -0.0963105827 -0.5476876804 -0.0960932737 -0.5477852741 0.0657391538 0.175709045
825295050.0 0.02412377 0.1916238783 -0.1020694381 -0.5460007959 -0.1020181668 -0.546548143 0.0675030484 0.1752694142
830295020.0 0.025388479 0.1916480024 -0.1082861816 -0.5448980466 -0.1080779221 -0.5450989118 0.0700369789 0.1746345661
