!Created with skrf (http://scikit-rf.org).
# Hz S RI R 50.0 
!freq ReS11 ImS11 ReS21 ImS21 ReS12 ImS12 ReS22 ImS22
300000.0 -0.2081809491 -0.0997526699 0.0006745163 0.0028942232 -0.0003173834 0.0016605459 -0.7631261334 -0.1923953479
5299970.0 -0.2154987395 0.0070546986 -0.0001301116 0.0001715401 -2.97141e-05 -1.40111e-05 -0.784896958 -0.009778449
10299940.0 -0.2116457512 0.0203696502 0.0001500976 -7.46404e-05 -4.91414e-05 0.0001453419 -0.7873489486 -0.0056344702
15299910.0 -0.2062109401 0.0301429997 0.0001083929 -0.0001392395 -0.0002680523 7.99014e-05 -0.7928647601 -0.0027311872
20299880.0 -0.2006162679 0.0383309672 0.0001020419 8.676e-07 -6.10485e-05 4.07667e-05 -0.7995280576 0.001745386
25299850.0 -0.194142155 0.0447373398 0.0001388718 -4.9983e-05 4.46944e-05 -0.0002446832 -0.8062881441 0.0079641105
30299820.0 -0.1879791618 0.0497127583 -7.41894e-05 2.07527e-05 0.0001648082 3.39698e-05 -0.8118242432 0.0155494318
35299790.0 -0.1813947778 0.0533363292 2.5987e-05 7.62008e-05 -6.31518e-05 -0.0001117444 -0.8169420086 0.024614335
40299760.0 -0.1753853878 0.0561922533 -7.70173e-05 -0.0001088819 -8.60561e-05 3.73835e-05 -0.8212121546 0.0340823266
45299730.0 -0.1698832429 0.0580573112 0.0001719565 -8.56412e-05 -2.38352e-05 3.55992e-05 -0.82426406 0.0433014698
50299700.0 -0.1642000814 0.0593665104 -0.0001727163 -0.0001041306 0.0001190138 -3.05827e-05 -0.8264870868 0.05398362
55299670.0 -0.1595724614 0.0605665593 3.74396e-05 -0.0001503598 1.23194e-05 6.06334e-05 -0.8287808232 0.0638977281
60299640.0 -0.1553381892 0.0608718011 2.1897e-06 -0.0001192241 -6.33821e-05 -8.01116e-05 -0.8298021125 0.0742983512
65299610.0 -0.1509707566 0.0613719414 0.0001737688 7.52733e-05 2.8302e-05 5.95538e-05 -0.830377946 0.0840164988
70299580.0 -0.1479055911 0.0613635431 0.0001145524 -5.48231e-05 -7.14818e-05 7.70047e-05 -0.8312611275 0.0937858195
75299550.0 -0.1445537721 0.0613149464 -4.19789e-05 0.0002926264 1.65822e-05 -0.0001524299 -0.8309008348 0.10426298
80299520.0 -0.1415405549 0.0611099933 7.56246e-05 -6.3212e-05 -0.0001952087 9.70261e-05 -0.8309083221 0.1138079327
85299490.0 -0.1388753372 0.0609475299 1.04254e-05 -5.823e-07 4.27752e-05 -3.22031e-05 -0.8299942791 0.1233875919
90299460.0 -0.1364129653 0.0609108522 -0.000143387 8.4292e-05 5.56481e-05 0.0001493314 -0.8293000759 0.1325576456
95299430.0 -0.134490001 0.0608222403 0.0002068103 5.0367e-05 0.0001637865 0.0001945822 -0.8283588526 0.1428461905
100299400.0 -0.1323094201 0.0605713552 -4.84648e-05 -8.59023e-05 0.0001919577 -0.0001539993 -0.8270400492 0.1518702159
105299370.0 -0.130478216 0.0602580859 -0.0001256944 7.966e-05 0.0001090489 3.44656e-05 -0.8258018562 0.1608297528
110299340.0 -0.1287319493 0.0601019846 0.0002369968 0.0001206554 7.89919e-05 0.0001259441 -0.8247028824 0.1698553127
115299310.0 -0.127490859 0.059781068 -1.1297e-06 2.36772e-05 0.0001294197 3.65427e-05 -0.8232720864 0.1791992142
120299280.0 -0.1261468206 0.060050579 5.36717e-05 1.29978e-05 -2.43433e-05 -0.0001190803 -0.8214692318 0.1881318094
125299250.0 -0.1248548561 0.0598233165 0.0001637324 0.0002546017 -2.34396e-05 0.0001637947 -0.8193703053 0.197176622
130299220.0 -0.1239122417 0.0598529772 5.20082e-05 -0.0001178567 -4.46399e-05 2.82459e-05 -0.817944696 0.2055428713
135299190.0 -0.1226945126 0.0600449294 0.0003114538 1.21921e-05 -7.77442e-05 4.5237e-05 -0.816222375 0.2149657532
140299160.0 -0.1217687105 0.060234137 2.46719e-05 -0.0001483917 -2.13591e-05 -0.0002255409 -0.8138328731 0.2235825651
145299130.0 -0.120919302 0.0603650996 8.05325e-05 2.42648e-05 5.17839e-05 -0.0001524218 -0.8120109574 0.2322292291
150299100.0 -0.1198140238 0.0604997372 5.12261e-05 -8.69357e-05 -0.0001270998 3.74599e-05 -0.8096439776 0.2413975601
155299070.0 -0.1194075146 0.061147776 -9.8395e-05 1.97559e-05 0.0001651373 3.31687e-05 -0.8072124061 0.250566936
160299040.0 -0.1186374421 0.0614249994 5.98483e-05 -0.0001701661 0.0002480203 6.31586e-05 -0.8046948766 0.2591499052
165299010.0 -0.1180516407 0.0619303215 -0.000184609 -3.44282e-05 6.62044e-05 0.0001421619 -0.8016294622 0.2668594207
170298980.0 -0.1173269843 0.0621743169 -2.12373e-05 6.6778e-05 6.06719e-05 0.000184398 -0.7994800533 0.2759168021
175298950.0 -0.1168091182 0.0628430593 5.7761e-06 -7.31063e-05 0.0001699297 0.0001012865 -0.7967138861 0.2841900679
180298920.0 -0.1163205072 0.0630577535 0.0002760847 0.0002122884 0.000157176 6.21211e-05 -0.7934974734 0.2933512067
185298890.0 -0.1156841264 0.0636892467 1.24797e-05 1.03466e-05 9.1206e-05 7.67619e-05 -0.7906608176 0.3015159314
190298860.0 -0.1151370161 0.0645327589 -0.000125766 -1.66097e-05 2.19771e-05 0.0001744452 -0.7868665365 0.3100815171
195298830.0 -0.1143269297 0.0652248998 -7.26415e-05 2.62741e-05 7.05387e-05 1.1398e-06 -0.7841371162 0.3181599795
200298800.0 -0.1138960767 0.0655373619 -5.66556e-05 8.90848e-05 0.0001139628 -5.93387e-05 -0.7811295193 0.3266729548
205298770.0 -0.1136904055 0.0663292809 -0.0002952711 6.75537e-05 1.85087e-05 8.80875e-05 -0.7779272179 0.3354587854
210298740.0 -0.112967237 0.0671032938 0.0002537169 0.0001714495 0.0001866376 -3.82861e-05 -0.7742240414 0.3432035511
215298710.0 -0.1128883419 0.0679089489 -9.71822e-05 0.0002054049 -0.0002456809 -0.0001017372 -0.770838072 0.3515313893
220298680.0 -0.112077499 0.0686064376 4.8821e-05 0.0001076217 0.0001740997 -1.12779e-05 -0.766727657 0.3594916606
225298650.0 -0.1115603763 0.0693976728 0.0001676485 0.0003598753 0.0002073135 -2.14463e-05 -0.7629151332 0.3678337065
230298620.0 -0.1110248101 0.0703945122 1.97332e-05 8.69965e-05 -0.0001302261 -2.18236e-05 -0.7588798747 0.3757015899
235298590.0 -0.1107559172 0.0712491797 3.05105e-05 4.33981e-05 0.000142686 0.0002338485 -0.7554480918 0.3836438582
240298560.0 -0.1103260678 0.0721128917 -9.86133e-05 2.81474e-05 -1.2728e-05 0.0001949372 -0.7511573774 0.3909645803
245298530.0 -0.1099957419 0.0726681317 -1.73804e-05 -5.66444e-05 -2.59796e-05 0.0001839878 -0.7476053697 0.3991287785
250298500.0 -0.1096017107 0.0737576585 9.08354e-05 6.22213e-05 4.50393e-05 3.48759e-05 -0.7425889342 0.4069396109
255298470.0 -0.1090595567 0.0748903904 3.2197e-05 5.22173e-05 0.0001495098 -3.71992e-05 -0.7392234826 0.4143793088
260298440.0 -0.108641225 0.0754931963 5.64791e-05 -9.6225e-05 4.77494e-05 9.48309e-05 -0.734513955 0.421755557
265298410.0 -0.1082261575 0.0764468124 -2.37907e-05 0.0001440611 0.0001688418 1.41534e-05 -0.7302339001 0.4300809414
270298380.0 -0.1075431535 0.0775360177 0.0001564349 -8.1197e-05 0.0001408356 6.84448e-05 -0.7249458593 0.4380583342
275298350.0 -0.1072660041 0.0784304034 -4.92574e-05 6.24359e-05 8.86427e-05 0.0001026058 -0.7200166806 0.4451787879
280298320.0 -0.1066401402 0.0794997974 9.68864e-05 7.2699e-05 0.000183275 0.0004316195 -0.7159738583 0.4527976994
285298290.0 -0.1060183039 0.0803097045 0.0003200521 2.80403e-05 4.65498e-05 7.67827e-05 -0.7117368544 0.4603970715
290298260.0 -0.1056684838 0.0811551992 0.0001537913 -9.821e-06 0.0001252612 -4.33953e-05 -0.7065412196 0.4671188585
295298230.0 -0.1051436215 0.0821902428 -9.8442e-06 0.000259771 -3.38889e-05 5.44327e-05 -0.7017872335 0.474734822
300298200.0 -0.1045178725 0.0833401467 0.0002480725 1.61912e-05 9.58933e-05 -7.75459e-05 -0.6970130406 0.4822471338
305298170.0 -0.1041600199 0.0839331324 0.0002032058 0.0002532173 -5.69777e-05 8.44343e-05 -0.6913734082 0.4893415497
310298140.0 -0.1034087694 0.0845321041 -7.20796e-05 -2.82222e-05 0.0001276 -9.1909e-06 -0.6866248098 0.4971685006
315298110.0 -0.1030760877 0.0855800944 8.36332e-05 7.25811e-05 0.000281744 0.0002521679 -0.681098701 0.5036680506
320298080.0 -0.1025950655 0.0866942186 0.0001526307 -2.9896e-05 5.96913e-05 1.23578e-05 -0.6761269357 0.510725735
325298050.0 -0.1024156355 0.0869846202 0.0001160153 0.0001785834 -0.0001577922 0.0001901033 -0.669937689 0.51776438
330298020.0 -0.1020005993 0.0883409927 5.71416e-05 0.0001093582 9.58326e-05 0.0001473428 -0.6647971662 0.524140938
335297990.0 -0.1013131631 0.0893672428 0.0001827017 0.0001406579 0.0002502507 3.19032e-05 -0.6595310424 0.5316471698
340297960.0 -0.1011226202 0.0904226061 0.0001161131 0.0001848974 0.0001971837 2.12222e-05 -0.6541228005 0.5383304957
345297930.0 -0.1005279412 0.0914951919 -3.13806e-05 0.0001021177 0.0001862817 0.0001023511 -0.6486292297 0.5448102491
350297900.0 -0.0998190737 0.0925254783 0.0001239613 9.86956e-05 4.93977e-05 0.0001367152 -0.6433440112 0.551260614
355297870.0 -0.0993742748 0.0933678294 7.4605e-06 -0.0001288787 0.0002752311 0.0001056437 -0.6369278243 0.558372152
360297840.0 -0.0986211352 0.0947216801 0.0001286306 0.0001943708 9.97473e-05 8.58017e-05 -0.6304211836 0.564965591
365297810.0 -0.097990686 0.0955923239 -4.469e-07 0.000155444 0.0001374408 2.84222e-05 -0.6262821358 0.5704579774
370297780.0 -0.0975090375 0.0960968072 1.13536e-05 0.0001832807 -5.84119e-05 0.0001320485 -0.6195194324 0.5779022418
375297750.0 -0.09677336 0.0973991826 -4.60343e-05 0.0001393259 4.18809e-05 4.50002e-05 -0.613796789 0.5839374048
380297720.0 -0.0959468439 0.0987044506 0.0004565465 9.012e-05 0.000213558 0.0001190304 -0.6067979008 0.5907327347
385297690.0 -0.0955214664 0.0996084544 9.71629e-05 0.0001295084 -0.0001134355 0.0001376277 -0.6014189575 0.596088884
390297660.0 -0.0945093319 0.1001110171 0.0001060851 0.0002286198 0.0002323855 9.3221e-05 -0.594802101 0.6019668366
395297630.0 -0.0939107119 0.1013184217 1.50996e-05 0.0001773709 2.57612e-05 0.0001326319 -0.5884071836 0.6071384429
400297600.0 -0.0934525874 0.1024277643 0.0001237931 8.26665e-05 3.72036e-05 0.0001125957 -0.58261313 0.6146176653
405297570.0 -0.0925044207 0.1031592251 6.69264e-05 -3.5207e-05 6.45747e-05 -3.01832e-05 -0.5757521337 0.6203448664
410297540.0 -0.0913733063 0.1042336133 0.0001071383 -2.42241e-05 -2.62532e-05 -0.0001169512 -0.5693065495 0.6263216497
415297510.0 -0.0908469703 0.1052931909 1.27672e-05 -6.77884e-05 0.0001405652 7.5839e-06 -0.5631619364 0.6316015166
420297480.0 -0.089989015 0.1057375989 8.19781e-05 0.0001777028 3.23695e-05 2.45096e-05 -0.5562665408 0.6384934429
425297450.0 -0.0892132346 0.106563408 7.27029e-05 4.98686e-05 0.0002487508 1.98501e-05 -0.549453878 0.6423932268
430297420.0 -0.0884728934 0.1075658021 -3.41347e-05 8.76005e-05 8.97902e-05 5.45409e-05 -0.5432740645 0.6483195364
435297390.0 -0.087536568 0.1088240621 0.0002824858 -4.12637e-05 5.84542e-05 7.36189e-05 -0.5369503915 0.6538435546
440297360.0 -0.0864679042 0.1096241328 0.0002136684 7.8668e-05 0.0001489377 7.97145e-05 -0.5302762243 0.6597057192
445297330.0 -0.0854769918 0.1104263732 0.0002473711 6.90237e-05 0.0001029014 9.07888e-05 -0.5230726754 0.664838191
450297300.0 -0.0846506781 0.1109738714 0.0002630544 9.40782e-05 0.0001012871 0.0001431772 -0.5153659402 0.6697172069
455297270.0 -0.0838545965 0.1121225972 0.0001216543 0.0002955083 0.0001408468 9.02681e-05 -0.5091658195 0.6752833349
460297240.0 -0.0826608993 0.1132245256 0.0003675527 6.90092e-05 0.0001050075 0.0001454746 -0.5026668946 0.680040849
465297210.0 -0.0817489448 0.114018367 6.09925e-05 0.0001020943 7.27823e-05 0.0002304635 -0.4952352023 0.6858363086
470297180.0 -0.0807987616 0.1148849895 6.03226e-05 0.0001859458 3.06198e-05 3.26476e-05 -0.4879916389 0.6904029506
475297150.0 -0.0798798575 0.1156096741 7.14386e-05 0.0004816342 -1.55733e-05 -0.0001275074 -0.4807723403 0.6951507398
480297120.0 -0.0785451712 0.116543997 1.94622e-05 9.9406e-06 0.0001031568 -6.3963e-06 -0.4745625061 0.6997543713
485297090.0 -0.0774704758 0.1172775819 0.0001923369 9.50056e-05 0.000262315 -6.2019e-06 -0.4670794008 0.704597866
490297060.0 -0.0759373321 0.1181244427 0.0001932354 0.0001334207 0.0001279303 1.64719e-05 -0.4597166017 0.709071064
495297030.0 -0.0752421213 0.1191852746 0.0001199207 0.0001712703 0.0001832312 0.0002657011 -0.4522458531 0.7136422548
500297000.0 -0.074327692 0.1200102865 9.17839e-05 5.60834e-05 0.0002215548 3.88918e-05 -0.4451678472 0.7185731054
505296970.0 -0.0728082835 0.1208049174 5.08527e-05 8.29944e-05 0.0002752823 0.0001580284 -0.4374469013 0.7227822312
510296940.0 -0.0718632682 0.1217836149 0.0002026323 -7.17584e-05 0.0002947372 0.0001947771 -0.4300762538 0.7274835928
515296910.0 -0.0708752992 0.1225811263 0.0003469779 -0.0001430924 0.000322067 -0.0001103324 -0.4231316913 0.7310816868
520296880.0 -0.0695896683 0.1232988982 8.33622e-05 0.0001167511 0.0002240553 -2.57533e-05 -0.4153641965 0.7365858651
525296850.0 -0.0684247331 0.1238603231 0.0001089354 7.5692e-05 0.0001446138 -0.0001018757 -0.4077272006 0.7397857559
530296820.0 -0.067553586 0.1248606089 0.0002486175 4.44273e-05 0.0001979356 5.0842e-05 -0.4006163181 0.7433607474
535296790.0 -0.0659724619 0.1257078933 0.0001344052 0.000140505 0.0001570558 -0.0001145499 -0.3931378458 0.7478954171
540296760.0 -0.0646750925 0.126484901 2.59387e-05 5.4432e-06 0.0003418025 -0.0001187023 -0.3852312318 0.7509152552
545296730.0 -0.0637834456 0.1278635305 0.0001293228 7.50891e-05 0.0001390998 5.28121e-05 -0.3776942388 0.7556747716
550296700.0 -0.0621296085 0.1282753482 0.0001496433 -2.24538e-05 0.0003113043 9.30423e-05 -0.369849004 0.7591058495
555296670.0 -0.0608365412 0.1290782278 0.0001368134 -6.01933e-05 0.0002588716 8.63323e-05 -0.3629590162 0.7622854466
560296640.0 -0.0596782655 0.1297538213 0.0002371711 -2.4597e-06 9.202e-05 8.47361e-05 -0.3543299188 0.7663847351
565296610.0 -0.0588046037 0.130627986 0.0001424332 0.0001823048 0.0001011828 0.0001883685 -0.3471786415 0.7695416521
570296580.0 -0.0572925581 0.1315296341 0.0003026411 -0.0001062755 0.000281623 2.93991e-05 -0.3392238043 0.7731405086
575296550.0 -0.0558324927 0.1322862874 0.0001964899 2.97185e-05 0.0002050733 -8.18058e-05 -0.3308084489 0.776185526
580296520.0 -0.0545908963 0.1332968355 6.42568e-05 0.0001102707 0.000205227 0.0001053381 -0.3235607649 0.7794821543
585296490.0 -0.0533208481 0.1339183999 0.0001436291 0.0001592238 0.0001655533 -1.60732e-05 -0.3151433764 0.7829725114
590296460.0 -0.0519041033 0.1346428538 9.54634e-05 4.2877e-06 0.0002215488 -0.0001025099 -0.3077323161 0.7858081055
595296430.0 -0.0506399504 0.1353145425 0.0001489065 -4.22377e-05 0.0001825131 -6.83691e-05 -0.3001598057 0.7893185607
600296400.0 -0.0491677013 0.1359612593 0.0003699849 5.3691e-05 0.0001530881 1.0608e-05 -0.2919287849 0.7919486482
605296370.0 -0.0479820911 0.136895126 0.00030392 -6.90113e-05 0.0002829581 2.6788e-05 -0.2836527196 0.7951338108
610296340.0 -0.0464253013 0.1377448016 0.0002248049 -8.75775e-05 5.34362e-05 5.20898e-05 -0.2758053025 0.7975235508
615296310.0 -0.0449267162 0.1383796973 1.16834e-05 -2.68161e-05 0.000172551 -4.59133e-05 -0.2672213656 0.8006378628
620296280.0 -0.0438262484 0.1395885044 2.02584e-05 -3.90363e-05 0.0001841572 5.55508e-05 -0.2598936437 0.8035770695
625296250.0 -0.0427146575 0.1400379611 0.0001660116 -0.0001173319 0.0003514023 0.0001104319 -0.2513771276 0.8051549138
630296220.0 -0.0413855019 0.1409209877 0.0003424306 4.13824e-05 -6.24406e-05 -8.5837e-06 -0.2433258613 0.8082200862
635296190.0 -0.039832312 0.1414846649 0.0002061984 3.84041e-05 0.0002844374 0.000249686 -0.2358342411 0.8097097905
640296160.0 -0.0385016213 0.14210592 -5.1329e-06 5.03482e-05 0.0004003355 5.87107e-05 -0.227239753 0.8123718103
645296130.0 -0.036794809 0.1428576321 0.0002316021 -8.01425e-05 0.0001348857 6.59261e-05 -0.2192213278 0.8143852808
650296100.0 -0.0361178789 0.1433945914 0.00027914 -8.73626e-05 0.0002911572 8.76123e-05 -0.2109622416 0.8164159278
655296070.0 -0.034636516 0.1440052817 7.43089e-05 -5.14991e-05 5.45833e-05 6.5119e-05 -0.2032486939 0.8189754051
660296040.0 -0.0332686451 0.1448227063 0.0002662807 0.0001670501 0.0002416154 -1.40799e-05 -0.1942774396 0.8211489193
665296010.0 -0.0318508906 0.1455110864 0.0002094992 7.63031e-05 0.0002846774 -4.14207e-05 -0.1859244268 0.8225756644
670295980.0 -0.0305311735 0.1460372517 0.0002228773 0.000102492 0.0002050391 2.51931e-05 -0.1784537257 0.8246081622
675295950.0 -0.0292694669 0.1466149516 8.88005e-05 -0.0002520946 0.0002818832 -2.37866e-05 -0.1695982099 0.8264446114
680295920.0 -0.0281511382 0.1474854952 0.0002111167 3.83694e-05 0.0001539425 -0.0001778389 -0.1611807046 0.8277745825
685295890.0 -0.0265945723 0.1482101544 0.0002249953 1.88999e-05 0.0001820613 0.0001115926 -0.1531739442 0.8296875638
690295860.0 -0.0252227536 0.1485264778 0.000342897 0.0001353901 0.000285438 9.78972e-05 -0.1454458743 0.8309841595
695295830.0 -0.0236166783 0.1491575306 0.0001890957 -3.88e-08 0.0002683399 -0.0001457053 -0.1368272023 0.8330874472
700295800.0 -0.0223195197 0.1497377471 0.0003290821 0.0001599893 0.0001660468 -1.79847e-05 -0.1283017406 0.8330575221
705295770.0 -0.0212505596 0.1502571703 0.0003013536 0.0001187785 0.0003707481 7.799e-05 -0.1201655799 0.8354540922
710295740.0 -0.0198992311 0.1505935477 0.0002771981 -5.5496e-05 0.0002120524 6.71311e-05 -0.1119445325 0.8361528184
715295710.0 -0.0182890708 0.1511462614 0.0002925099 -0.0001568917 3.09424e-05 -0.0001919006 -0.1034211326 0.8366649874
720295680.0 -0.0166589598 0.1517557041 0.0002951472 -9.3134e-06 0.0004180779 3.32898e-05 -0.0944209723 0.8377558315
725295650.0 -0.0156206877 0.15252988 0.0004159014 -6.02763e-05 0.0003817026 -0.0001113266 -0.0869521772 0.8396564827
730295620.0 -0.0145771528 0.1529575109 0.0002560793 -7.67377e-05 0.000442457 -5.69855e-05 -0.0789781819 0.8404849162
735295590.0 -0.0131557799 0.153292962 0.0001923592 -7.71354e-05 6.74293e-05 -7.7471e-06 -0.0700465481 0.840709719
740295560.0 -0.0119502819 0.1536665615 0.0003923654 -0.0003117833 0.0001873032 -0.0001055115 -0.0614164644 0.8408798464
745295530.0 -0.010307723 0.1541351201 0.0001387709 -1.96467e-05 0.0001295919 -5.64706e-05 -0.0536041085 0.8417466378
750295500.0 -0.0092826085 0.1548016345 0.000406716 -4.60226e-05 0.0002335646 -0.000221105 -0.0447645648 0.8426334315
755295470.0 -0.0079376236 0.1549932698 0.0002143637 -9.29644e-05 0.0002242327 1.62269e-05 -0.0370141414 0.8429138126
760295440.0 -0.0066988023 0.1556143278 0.0002166447 -3.7384e-05 -2.16227e-05 -0.0001085816 -0.0278943479 0.8426542616
765295410.0 -0.0050042153 0.1556451655 0.0004297775 -0.0002401321 0.0002613934 8.0234e-05 -0.01950464 0.8432932893
770295380.0 -0.0037960142 0.1560337523 0.0002504104 -8.97882e-05 0.0003538468 -7.09197e-05 -0.0114620485 0.8433142518
775295350.0 -0.0025867371 0.1561650404 0.0001640177 -0.0001212954 0.0002196324 -2.29048e-05 -0.0033888286 0.8435330367
780295320.0 -0.0010801339 0.1566826913 0.0005073054 -3.88862e-05 0.0002257914 -2.97457e-05 0.0057356598 0.8435675877
785295290.0 0.0002838149 0.1567926428 0.0004086995 6.6472e-06 0.0002936785 6.43906e-05 0.013529806 0.8433706121
790295260.0 0.0016060947 0.1571089894 0.0002558663 -0.0003788746 0.0004110127 -0.0001448771 0.0221508254 0.8433528163
795295230.0 0.0028121967 0.1571845113 0.000180931 -5.1642e-05 0.0002097818 -0.0001339997 0.0297874997 0.8421310224
800295200.0 0.0041270597 0.1574789943 0.000289217 -9.79483e-05 0.0003085458 0.0001411357 0.0386133669 0.8423696656
805295170.0 0.0056086351 0.1579458231 0.0005245934 -1.21185e-05 0.0002236924 4.2188e-06 0.0473945117 0.8420243403
810295140.0 0.0069421929 0.1581924998 0.000211876 -0.0003020375 0.0002353814 -0.0001505835 0.0559416264 0.8411629301
815295110.0 0.0081387825 0.1580586814 0.0001890531 -0.0001574413 9.32931e-05 -6.52905e-05 0.0634151528 0.8408073422
820295080.0 0.0095782047 0.1582385459 0.0002867159 -2.2231e-05 0.000120507 5.93155e-05 0.0715055394 0.8404690662
825295050.0 0.0108444565 0.1583663679 0.000340799 4.33969e-05 0.0003970337 4.13964e-05 0.0799031765 0.8394045523
830295020.0 0.0122151644 0.1584492802 0.000269669 4.81491e-05 0.0001160848 -0.0001809316 0.0883250717 0.8381301618
835294990.0 0.0133354656 0.1586851856 0.0001097215 -0.0001408913 1.46911e-05 5.11446e-05 0.0965330259 0.83771126
840294960.0 0.015066159 0.1584261196 0.0003249283 -0.0001868838 0.0003160208 -4.25046e-05 0.1058411857 0.8367553998
845294930.0 0.0164911519 0.1585304543 0.0002735997 -7.54728e-05 0.0002730084 5.02323e-05 0.1136123845 0.8352688235
850294900.0 0.0181501079 0.1586321873 0.0002152768 -1.59544e-05 0.0004014364 -0.0002186157 0.1211790732 0.8346111875
