!Created with skrf (http://scikit-rf.org).
# Hz S RI R 50.0 
!freq ReS11 ImS11 ReS21 ImS21 ReS12 ImS12 ReS22 ImS22
300000.0 -0.2418849182 -0.0939559412 0.4739783613 0.0629825614 0.4717273793 0.0595633789 -0.240378587 -0.1010661773
5299970.0 -0.2449477517 0.0062700947 0.4751337783 0.0050117994 0.4747235185 0.0049745997 -0.2407607232 0.0073540097
10299940.0 -0.241507649 0.017905923 0.4766081487 0.0060209668 0.476969115 0.0061740188 -0.237164438 0.0206914598
15299910.0 -0.2374486652 0.0267631857 0.4805892719 0.007353675 0.4805460139 0.0074362103 -0.2328367524 0.030182381
20299880.0 -0.2328261231 0.0339851718 0.4849928618 0.0082572289 0.4851209327 0.0080283335 -0.2276456573 0.0382649172
25299850.0 -0.227681452 0.0405293291 0.4902561389 0.0068662816 0.4898608548 0.0070559795 -0.2215025708 0.0446745557
30299820.0 -0.2223363273 0.0451343021 0.4956080974 0.0046779837 0.4952502594 0.004820381 -0.2158175284 0.050303435
35299790.0 -0.2174415733 0.0491921165 0.5010946382 0.0015525068 0.5008140083 0.0014851395 -0.2101848542 0.0546004536
40299760.0 -0.2125930034 0.0524369172 0.5057039187 -0.0022565691 0.505701019 -0.0024482638 -0.2052067261 0.0576402505
45299730.0 -0.2079819865 0.0548675278 0.5105325543 -0.0068856464 0.5107483859 -0.0073110567 -0.2001037725 0.0607098241
50299700.0 -0.2038507249 0.0567522171 0.5151889682 -0.0122742496 0.514797016 -0.0123908997 -0.1955453654 0.0624814643
55299670.0 -0.2000875649 0.0585231354 0.5188607443 -0.0191148285 0.518450714 -0.018609897 -0.1913434017 0.0644507985
60299640.0 -0.1958994309 0.060127586 0.5215017488 -0.0251059971 0.5220232266 -0.0247175521 -0.187325395 0.065740155
65299610.0 -0.1931003716 0.0612483578 0.5247482394 -0.0317958385 0.5245693423 -0.0311301308 -0.1842505919 0.0668203789
70299580.0 -0.1900971626 0.0621508694 0.527190181 -0.0380285277 0.5269566894 -0.0380030716 -0.1809838546 0.0678068762
75299550.0 -0.1872870593 0.0632204734 0.5287042274 -0.0446570051 0.5287226209 -0.0448171028 -0.1781574013 0.0682023725
80299520.0 -0.184951977 0.0638253586 0.530787529 -0.0516845223 0.5306923314 -0.0516446761 -0.1751987902 0.0691783854
85299490.0 -0.1825614005 0.0642844559 0.5320148528 -0.0584575768 0.5320042277 -0.0581740778 -0.1730521899 0.0696787584
90299460.0 -0.1805366268 0.0649666954 0.5329549411 -0.0654013086 0.53345039 -0.0651797255 -0.1707173052 0.0702758611
95299430.0 -0.1782575523 0.0656301359 0.534088647 -0.0723988709 0.5340830359 -0.0721901719 -0.1681936567 0.0712891069
100299400.0 -0.1765031361 0.0663807739 0.5335618768 -0.0789656547 0.5337960958 -0.0791868208 -0.1660428952 0.0713321254
105299370.0 -0.1749189914 0.0669046809 0.5343286192 -0.0861081243 0.5347034369 -0.0864263939 -0.1642124635 0.0723167179
110299340.0 -0.1736501164 0.0673058644 0.534997221 -0.0925430073 0.5344293333 -0.0924831655 -0.1628339885 0.0728298121
115299310.0 -0.1719790588 0.0682373699 0.5346521168 -0.0997523217 0.5345900829 -0.0996077805 -0.1613250568 0.0736871567
120299280.0 -0.1704712919 0.0685631327 0.5339243433 -0.1067304244 0.5342058728 -0.106580759 -0.159616441 0.0743385352
125299250.0 -0.1694471937 0.0691275606 0.5341399743 -0.1130357656 0.5340659219 -0.1130640458 -0.1584548358 0.0743690235
130299220.0 -0.1684869901 0.0700197881 0.5332986701 -0.1201348061 0.533005003 -0.119571331 -0.156738861 0.0754687907
135299190.0 -0.1674008588 0.0711475865 0.5328946803 -0.1268203223 0.5326480841 -0.1264062673 -0.1553328494 0.0764682213
140299160.0 -0.1666000129 0.0721161055 0.5320263203 -0.1332384018 0.5319446809 -0.1333584415 -0.154394896 0.0779624782
145299130.0 -0.1655191813 0.072915559 0.5313224097 -0.139770155 0.5304588681 -0.1397252877 -0.1533951209 0.0784675934
150299100.0 -0.1644144417 0.0739413137 0.5301655115 -0.1459127904 0.5298482532 -0.1456445467 -0.1522662291 0.0801699338
155299070.0 -0.1636786922 0.0746855372 0.5283884812 -0.1533217391 0.5286382722 -0.1527452884 -0.1510209246 0.0811871186
160299040.0 -0.162723236 0.0758418061 0.527347876 -0.1591816677 0.5270292557 -0.1592391641 -0.1502713708 0.0820723997
165299010.0 -0.1620959279 0.076826643 0.52554488 -0.16553615 0.5258384092 -0.1660590381 -0.1489358519 0.0834816144
170298980.0 -0.1613092137 0.0777057827 0.5241741214 -0.1719559784 0.5242933624 -0.1717105948 -0.1480175539 0.0845992835
175298950.0 -0.1607446687 0.078828017 0.5229047973 -0.1780275485 0.5223498363 -0.1782636015 -0.1473657447 0.0857574237
180298920.0 -0.1600648462 0.0802202094 0.5208768704 -0.1846613532 0.5208513329 -0.1842415119 -0.1462258113 0.0871427949
185298890.0 -0.1586369227 0.0809985784 0.5191244358 -0.1904636419 0.5189680717 -0.1907852452 -0.1451393485 0.0887977898
190298860.0 -0.1582868215 0.0824323834 0.5172352344 -0.1973119484 0.5173253719 -0.1966614179 -0.1446622278 0.0896597435
195298830.0 -0.1577547369 0.0832807467 0.5153432695 -0.2028504865 0.5155787988 -0.2030016867 -0.1433694904 0.0913652136
200298800.0 -0.1567590524 0.0847135575 0.5131275514 -0.2092089451 0.5131225727 -0.2093212725 -0.1430044515 0.092516746
205298770.0 -0.1564182334 0.0859025123 0.510819957 -0.21519937 0.5107278472 -0.2150775596 -0.1418441852 0.0934686492
210298740.0 -0.1551421674 0.0869999014 0.5085680914 -0.2207772514 0.5084668966 -0.2208022758 -0.1407939074 0.0953514689
215298710.0 -0.1552744566 0.0883911901 0.50657922 -0.2274471525 0.5065592584 -0.2273391581 -0.1404858178 0.0966868524
220298680.0 -0.1541110684 0.0891110078 0.5032972235 -0.2328826171 0.5036390045 -0.2326844684 -0.1395632993 0.0977828153
225298650.0 -0.1531727257 0.0906663338 0.5010310929 -0.2389540834 0.5016041295 -0.2386336998 -0.1391341642 0.0991862248
230298620.0 -0.152385745 0.0921291323 0.4988750572 -0.2443578722 0.4991999205 -0.2443326184 -0.1378256737 0.1001044354
235298590.0 -0.151840518 0.0935842438 0.4959316529 -0.2504634015 0.496441319 -0.2500432007 -0.1368974081 0.1018894786
240298560.0 -0.1510982436 0.0952847122 0.4940125895 -0.2562276159 0.4936188923 -0.2560072802 -0.1360758282 0.1032823784
245298530.0 -0.1505592249 0.0959780648 0.4910618766 -0.261654534 0.4907359688 -0.2618167342 -0.1347356759 0.1040639767
250298500.0 -0.1492385745 0.0977213644 0.4871543969 -0.2675400148 0.4874133843 -0.2672116057 -0.1342886079 0.105647959
255298470.0 -0.148559866 0.0987795911 0.4840746935 -0.2724123839 0.4848575217 -0.2727959732 -0.1330313189 0.1069558755
260298440.0 -0.1478097914 0.1001210964 0.481587105 -0.2785477684 0.4819034084 -0.2783479886 -0.1316410149 0.1085834683
265298410.0 -0.1468130334 0.1019105629 0.4786260539 -0.2840738438 0.4791660868 -0.2839174504 -0.1308616594 0.1095998995
270298380.0 -0.1460518758 0.1030068304 0.4761538344 -0.2892482065 0.4759516582 -0.2891784394 -0.1298408385 0.1109814949
275298350.0 -0.1450264057 0.10426976 0.4727696601 -0.2947024149 0.4726795058 -0.2949417313 -0.1282442361 0.1123947772
280298320.0 -0.1438251501 0.1057361302 0.4695144858 -0.3003768578 0.4695196405 -0.3002119415 -0.1272103727 0.1135598006
285298290.0 -0.1431041113 0.1071058018 0.4663724783 -0.3053508753 0.4660458533 -0.3054151935 -0.125775888 0.114597721
290298260.0 -0.1418814248 0.1084333712 0.4626046748 -0.3102445015 0.4631396248 -0.3106356986 -0.1244219412 0.1164602836
295298230.0 -0.1408960884 0.1094411034 0.4596823791 -0.3161670119 0.4595196588 -0.3161403741 -0.1230315368 0.1175507349
300298200.0 -0.1399940144 0.1107714491 0.4563486774 -0.3206596578 0.4564126314 -0.3216107676 -0.1218343393 0.1188400475
305298170.0 -0.1389744272 0.1119815832 0.4524549302 -0.3267851835 0.4527265919 -0.3263867975 -0.1200108439 0.1197895714
310298140.0 -0.1381006856 0.1134696828 0.4492397322 -0.3314957697 0.4494763122 -0.3313252527 -0.1188007384 0.1212163845
315298110.0 -0.1368513581 0.1145045084 0.4456224379 -0.3367151351 0.4455025998 -0.3368061384 -0.1173868928 0.1224634606
320298080.0 -0.1357905751 0.1157990387 0.4413269216 -0.342071118 0.4418029291 -0.3420337309 -0.1161412572 0.1239519934
325298050.0 -0.1349550246 0.1171522617 0.4380336551 -0.3473023435 0.4377975523 -0.3470474753 -0.1150689445 0.1250310352
330298020.0 -0.1341396473 0.1179975649 0.4337876695 -0.352116792 0.4335645939 -0.3519353441 -0.1140056622 0.1262948783
335297990.0 -0.1329205756 0.1191952555 0.4298820603 -0.3566079063 0.4294833865 -0.3567016624 -0.1129944406 0.1282721307
340297960.0 -0.1324841973 0.1209732236 0.4254163062 -0.3617852109 0.4255061074 -0.3619626025 -0.1111344173 0.129626269
345297930.0 -0.131339778 0.1224691113 0.4210640099 -0.3665077658 0.4215773961 -0.3666676456 -0.1102566463 0.1306013246
350297900.0 -0.1304205009 0.1235316901 0.4170277363 -0.3710898161 0.4170897684 -0.3708231906 -0.1088969299 0.1327147399
355297870.0 -0.1290589952 0.1255475022 0.4132466929 -0.3754522234 0.4134539669 -0.3752707465 -0.1078897207 0.1335762347
360297840.0 -0.1283410363 0.1266268259 0.4098813732 -0.3796523488 0.4095259638 -0.3793813672 -0.1065679865 0.1352553212
365297810.0 -0.1273803235 0.1284385181 0.4052093756 -0.3847123167 0.4053934103 -0.3844454864 -0.1049336192 0.1368687607
370297780.0 -0.1256271439 0.129358263 0.4005458884 -0.3887483976 0.4014250062 -0.3884779312 -0.1040635011 0.1382927956
375297750.0 -0.1244826787 0.130726724 0.3964133532 -0.3933260458 0.3969250859 -0.3933615592 -0.102339036 0.1395678052
380297720.0 -0.1234620073 0.1316749311 0.3922915412 -0.397589503 0.39236228 -0.3971193945 -0.101200043 0.1406421306
385297690.0 -0.1224334932 0.1333931071 0.3877408461 -0.4019990467 0.3876274299 -0.4019487957 -0.0991012658 0.1421440072
390297660.0 -0.1213035034 0.1349818433 0.3833447194 -0.4061030082 0.383189044 -0.4057628884 -0.0982713285 0.1433091115
395297630.0 -0.1196360256 0.1363799429 0.3788055325 -0.4105078705 0.3789263154 -0.4102534529 -0.0962384561 0.1445170222
400297600.0 -0.1185642977 0.1376656929 0.3736290553 -0.4147424491 0.3743381738 -0.4145759761 -0.0951646924 0.1458614702
405297570.0 -0.1176981655 0.138813548 0.3693561368 -0.4184562002 0.3696614229 -0.4185098571 -0.0938099272 0.1470905558
410297540.0 -0.1160522538 0.1400250351 0.3652721238 -0.4227938851 0.3653177288 -0.4223077054 -0.0922393542 0.148164492
415297510.0 -0.1146012529 0.1413666679 0.3603802755 -0.4267767811 0.3606781696 -0.4265739835 -0.0908242864 0.1492826086
420297480.0 -0.1132473032 0.1428293786 0.3555135633 -0.430566349 0.3558094836 -0.4305353779 -0.0894528106 0.150153543
425297450.0 -0.1120833404 0.1437293575 0.351376891 -0.4343763778 0.3511969887 -0.4343080008 -0.0876759097 0.1518433638
430297420.0 -0.1104732173 0.1447308622 0.3460110967 -0.4378411739 0.3459770028 -0.4379235417 -0.0862643456 0.1522780254
435297390.0 -0.1095100603 0.1460714557 0.3410662221 -0.4416405435 0.34094044 -0.4419098706 -0.0837333946 0.1534534553
440297360.0 -0.1077964291 0.1473994622 0.336464407 -0.4455420912 0.3366271389 -0.4456677883 -0.0827067452 0.1544039797
445297330.0 -0.1066871087 0.1480951737 0.3324163372 -0.4490868057 0.3316746607 -0.4486126664 -0.0805772384 0.1550157299
450297300.0 -0.1049444233 0.1494885513 0.3268257768 -0.4525145871 0.32666792 -0.4529530711 -0.0790546528 0.155811947
455297270.0 -0.1038165064 0.1506712971 0.3216711895 -0.45620523 0.3219611473 -0.4564272205 -0.0774741154 0.1570936458
460297240.0 -0.1021520015 0.1517991326 0.3163117523 -0.4595256946 0.3170078518 -0.4596833836 -0.0757091606 0.1580513774
465297210.0 -0.1007045252 0.1529476036 0.3119600368 -0.4634626477 0.311945683 -0.4633299085 -0.0738081131 0.1588450787
470297180.0 -0.0991963866 0.1536286736 0.3063144201 -0.4664097215 0.3066746438 -0.4667503664 -0.0718431587 0.1600145672
475297150.0 -0.0979224674 0.1547523029 0.3011190483 -0.4690122293 0.3016920924 -0.4689687004 -0.0698377553 0.1605557665
480297120.0 -0.0965897826 0.1561103878 0.2965996225 -0.4731580344 0.2963282373 -0.4733573145 -0.0679089834 0.1616962589
485297090.0 -0.0950696997 0.1570738106 0.2914530291 -0.4759616122 0.2912477094 -0.476086044 -0.0659323243 0.1623418484
490297060.0 -0.093806091 0.1582447858 0.2863145516 -0.4796533942 0.2863809754 -0.47915483 -0.0640301623 0.1634918131
495297030.0 -0.0919188973 0.1591600362 0.28044849 -0.4821645845 0.2811763863 -0.4822675029 -0.0627188534 0.1642626096
500297000.0 -0.0906124468 0.1601862842 0.2752791258 -0.4852509415 0.2756387765 -0.4851445495 -0.0607258441 0.1660662952
505296970.0 -0.0886169085 0.1611914798 0.2700078723 -0.4877351136 0.2698056761 -0.488465943 -0.0585802425 0.1665816235
510296940.0 -0.0872763442 0.1622453427 0.2646375909 -0.4915710964 0.2647963254 -0.4912074824 -0.0568448974 0.1674234391
515296910.0 -0.0857823591 0.1632101452 0.2592652767 -0.4939355543 0.2595268557 -0.4938481761 -0.0549451447 0.1683414926
520296880.0 -0.0842871326 0.1642649059 0.2541451982 -0.4966954916 0.2539751783 -0.496859668 -0.0531752398 0.1689912351
525296850.0 -0.0823937481 0.1647241051 0.2481019469 -0.499441 0.2488884742 -0.499517623 -0.0513391855 0.1701287176
530296820.0 -0.0810669441 0.1660935323 0.2431075851 -0.5023633418 0.2430309083 -0.5021967912 -0.0495118334 0.1706961383
535296790.0 -0.0796511201 0.167099721 0.2383188882 -0.5047841428 0.2378151343 -0.5041783026 -0.0476036767 0.1711043843
540296760.0 -0.0779383638 0.1683520214 0.2321871299 -0.5078005896 0.231939859 -0.5076561985 -0.0460814201 0.1724912828
545296730.0 -0.0762488584 0.1689172694 0.2262781827 -0.5095563567 0.2265027043 -0.5099495377 -0.044320775 0.1728524897
550296700.0 -0.0740978002 0.1699979803 0.2208328483 -0.5123951663 0.2211923663 -0.5124529954 -0.0423527596 0.1735376102
555296670.0 -0.0730014482 0.1707712356 0.2159162717 -0.515013177 0.2157318402 -0.514354222 -0.0399076935 0.1745897742
560296640.0 -0.0711155952 0.171829505 0.2098507801 -0.5169627798 0.2099974857 -0.5167192068 -0.0385656165 0.1748042278
565296610.0 -0.0697575091 0.1723899121 0.2039018724 -0.5193483641 0.2045556105 -0.5189260135 -0.0369090893 0.1753708411
570296580.0 -0.0680320004 0.1733008815 0.1987870109 -0.5217506469 0.1979614011 -0.5213765374 -0.0348400413 0.176336285
575296550.0 -0.0664492758 0.1740924914 0.192893762 -0.5238488019 0.1928179159 -0.5232135921 -0.032691053 0.1762544034
580296520.0 -0.0643691068 0.1749688731 0.1873738408 -0.5257019895 0.1873616532 -0.5255515933 -0.0309728453 0.1771447734
585296490.0 -0.0631496126 0.1753653539 0.1816554369 -0.5269758835 0.1817140062 -0.5274330155 -0.0292383294 0.177586662
590296460.0 -0.0608751488 0.1762568948 0.1759495527 -0.5290378927 0.1760462587 -0.5289930966 -0.0277935915 0.1778612167
595296430.0 -0.0595645363 0.1771402904 0.170072144 -0.5311412517 0.1696352415 -0.5309351134 -0.0251701746 0.1782514991
600296400.0 -0.0579574994 0.1776185038 0.1643817036 -0.5330743415 0.1643269305 -0.5328149785 -0.0234292789 0.1785531855
605296370.0 -0.056238252 0.1783624738 0.1583643163 -0.5346904622 0.1584103006 -0.5343274238 -0.0212936407 0.1788338976
610296340.0 -0.0542839527 0.1790344741 0.1522816422 -0.5359586614 0.1529447258 -0.5363082406 -0.0191926032 0.1790375459
615296310.0 -0.052456373 0.1792751187 0.1469370018 -0.5376853698 0.1468139721 -0.5380062102 -0.0171733591 0.1793592332
620296280.0 -0.0507301452 0.1799584183 0.1409060688 -0.5393084492 0.1412476685 -0.5391052731 -0.0152711303 0.1798362909
625296250.0 -0.0493816392 0.1804112299 0.135775874 -0.5406541401 0.135049122 -0.540881068 -0.0131271858 0.1796483674
630296220.0 -0.0468829348 0.1812565733 0.1287108338 -0.5419163254 0.1289746102 -0.5419171102 -0.011187462 0.1802441667
635296190.0 -0.045910578 0.1817715411 0.1238073719 -0.5436099735 0.1234378419 -0.543489813 -0.0088118713 0.1803644381
640296160.0 -0.0440585434 0.1823972176 0.1175275913 -0.5444746328 0.1180313082 -0.5449035673 -0.006755266 0.1805449218
645296130.0 -0.0421581702 0.1833456294 0.1111504482 -0.5458727628 0.1120502465 -0.5459986293 -0.0047215187 0.1809059348
650296100.0 -0.0402173411 0.1835115686 0.1055628838 -0.5468844053 0.1058625603 -0.5470045866 -0.0025432787 0.1807242981
655296070.0 -0.0387763196 0.1840375814 0.1002165158 -0.5479278787 0.0999828025 -0.5484081787 -0.0002564386 0.1811101477
660296040.0 -0.0371710961 0.1842775493 0.0939504745 -0.5491483711 0.0938968442 -0.5492246795 0.0017332366 0.1813531318
665296010.0 -0.0349142615 0.1848211173 0.0874855981 -0.5500346966 0.088200562 -0.5498833315 0.0037493841 0.1819112075
670295980.0 -0.034031679 0.1855865497 0.0821644929 -0.5509886887 0.0823342483 -0.5509402654 0.0053550513 0.1820253041
675295950.0 -0.0318044052 0.1863217176 0.0761084607 -0.5518459877 0.0764182468 -0.551318846 0.0074537204 0.1819584506
680295920.0 -0.0299294362 0.1860474817 0.0699506795 -0.552125997 0.0696685249 -0.5527930394 0.0097748016 0.1828267144
685295890.0 -0.0278363946 0.1871601118 0.0641018862 -0.5536567575 0.0638992966 -0.5533592658 0.011807389 0.1823544009
690295860.0 -0.0259232849 0.1874390609 0.0585230436 -0.5534328966 0.0580313954 -0.5544857149 0.0135814613 0.1835353308
695295830.0 -0.0242294027 0.1875220717 0.0523595061 -0.5541973389 0.0521048339 -0.5543726713 0.0155228127 0.1829837438
700295800.0 -0.0225498154 0.1878012779 0.0460848219 -0.5544018182 0.046069507 -0.554680983 0.0174758877 0.1835783986
705295770.0 -0.0207727128 0.1888010949 0.0401174484 -0.5553665413 0.0405601537 -0.5555125196 0.0194909174 0.1834651776
710295740.0 -0.0187803718 0.1890140175 0.0346950176 -0.5560889508 0.0345008307 -0.5563335313 0.0215788833 0.1829228325
715295710.0 -0.0172161596 0.1890441664 0.0288503383 -0.5562394906 0.028036799 -0.5562464804 0.0238155384 0.18286243
720295680.0 -0.0152104139 0.1895539331 0.0222919611 -0.5563886332 0.0225017281 -0.5560895822 0.02559165 0.1831921605
725295650.0 -0.0132520478 0.190126451 0.0163668984 -0.5566940698 0.0160936535 -0.5568085568 0.027379863 0.1830658703
730295620.0 -0.0112061706 0.1905428019 0.0104624268 -0.5563278538 0.0102864893 -0.5564951331 0.0291721133 0.1823727745
735295590.0 -0.0095342387 0.1907162438 0.0046853467 -0.5569447938 0.0044790528 -0.5567424918 0.0307550796 0.1823128137
740295560.0 -0.0080446717 0.1910847389 -0.0014617097 -0.5563851367 -0.001883032 -0.5569996661 0.0336850388 0.1824965794
745295530.0 -0.0061094699 0.1911298018 -0.0078984486 -0.5562631706 -0.0079485062 -0.5563215808 0.0354078452 0.1817364112
750295500.0 -0.0037314196 0.1914345021 -0.0134730164 -0.5561202357 -0.0136086474 -0.5561489786 0.0371731312 0.1815117254
755295470.0 -0.0020491019 0.1910262949 -0.0195188176 -0.5560561023 -0.0197005032 -0.5562908714 0.0396122674 0.1810095946
760295440.0 -0.0003136242 0.1916273019 -0.0261319655 -0.5561730677 -0.0259660597 -0.5563198008 0.041066108 0.1806296532
765295410.0 0.0013069133 0.1917144751 -0.0319591226 -0.5557679863 -0.0323256042 -0.5555987036 0.0433943476 0.1805270772
770295380.0 0.0031318687 0.1915470344 -0.037950535 -0.5550391914 -0.0377280225 -0.5553841049 0.0450363141 0.1799610887
775295350.0 0.005076539 0.1914815381 -0.0439034816 -0.5541273353 -0.0436096005 -0.5545619345 0.0465211445 0.1797193564
780295320.0 0.0067770271 0.1916037657 -0.0497221362 -0.5538594388 -0.0490845736 -0.5539195815 0.0488911433 0.1785723757
785295290.0 0.0087343607 0.1913207715 -0.0559337809 -0.5530195867 -0.0555625427 -0.5534584743 0.0515297205 0.1786296856
790295260.0 0.0111171445 0.1921177626 -0.0607793391 -0.5527872253 -0.0610016403 -0.552601946 0.0531225684 0.1782845424
795295230.0 0.0123960374 0.1917672192 -0.0673834474 -0.5518927127 -0.067069318 -0.5524130954 0.0556187172 0.1776893793
800295200.0 0.0145235594 0.192006569 -0.0741220812 -0.5509276315 -0.0733484249 -0.5509035527 0.0575789188 0.1771912615
805295170.0 0.0163720234 0.1917816758 -0.0795798752 -0.5503003216 -0.0795269284 -0.5507872818 0.0592495872 0.1769381641
810295140.0 0.018007029 0.1912585998 -0.0850141701 -0.549045149 -0.0850516613 -0.5495803336 0.0620587779 0.1764747152
815295110.0 0.0200101831 0.1915101904 -0.0912438185 -0.5482495732 -0.0904912182 -0.548631611 0.0634913302 0.1757801476
820295080.0 0.0213389291 0.191834455 -0.0965355793 -0.5471976295 -0.0967346246 -0.5472488218 0.0655838349 0.1751892842
825295050.0 0.02415959 0.1916135777 -0.1025563075 -0.5460809432 -0.1029854433 -0.5461470272 0.067745862 0.1746829188
830295020.0 0.025459504 0.1914517631 -0.1088045433 -0.5451736396 -0.1087122113 -0.5446968337 0.0701411033 0.1739351851
