!Created with skrf (http://scikit-rf.org).
# Hz S RI R 50.0 
!freq ReS11 ImS11 ReS21 ImS21 ReS12 ImS12 ReS22 ImS22
300000.0 -0.0489543341 -0.0409843666 -0.0004386784 6.62778e-05 0.0003896676 0.0008328648 -0.7758114701 -0.1363059443
5299970.0 -0.0487600064 0.0155834893 0.0001237293 9.93065e-05 -4.61555e-05 -2.7554e-05 -0.7848890642 -0.0072517551
10299940.0 -0.0430704728 0.0320500326 0.0003179198 0.0002033939 0.0001463382 -0.0001235607 -0.7880167752 -0.0033892526
15299910.0 -0.0352073841 0.0460620225 -7.4588e-06 -0.0001023923 4.90361e-05 0.0001720963 -0.7932573482 -0.0014132022
20299880.0 -0.0253114755 0.0574060109 -1.2329e-06 5.1085e-05 -0.0001010697 -4.861e-06 -0.7998343141 0.0021766421
25299850.0 -0.0145726581 0.0666195333 -0.0001298262 8.31986e-05 0.000150696 9.44597e-05 -0.8060186739 0.00800025
30299820.0 -0.0035378258 0.0729500586 -3.13477e-05 -0.0001023866 8.25435e-05 -5.59604e-05 -0.8123809177 0.0164020734
35299790.0 0.0076986651 0.0773766524 -9.46668e-05 0.0002686031 1.83998e-05 -4.86623e-05 -0.8171672293 0.0246505069
40299760.0 0.019226224 0.0804748967 0.0001390053 0.0001192219 -1.79651e-05 8.937e-07 -0.8213033383 0.0343061472
45299730.0 0.0295784567 0.0816111376 -5.4476e-05 3.85079e-05 6.3175e-06 0.0001280009 -0.8250417621 0.0439215083
50299700.0 0.0391435004 0.0815434101 0.0001203916 -0.0001168961 7.56651e-05 5.9235e-05 -0.8278941294 0.0536758423
55299670.0 0.0482830494 0.0803756618 0.0001358743 0.0002625606 0.0001123372 4.0678e-06 -0.8297710264 0.0641042633
60299640.0 0.0567394069 0.0788602813 -5.72465e-05 -6.415e-07 3.7626e-06 -0.0001104223 -0.8304916116 0.074226605
65299610.0 0.0641931841 0.0759974589 6.21164e-05 -0.0001168663 -2.54447e-05 -0.0001200635 -0.8321456807 0.0840734826
70299580.0 0.0712062349 0.0735430354 0.0002076678 3.46714e-05 3.76531e-05 -0.0001446868 -0.8318800064 0.0950335369
75299550.0 0.0772878767 0.0702235905 -2.8541e-06 1.19521e-05 -4.4676e-06 -5.7282e-05 -0.8328021539 0.1043876187
80299520.0 0.0829949004 0.0666687017 -8.04103e-05 0.0001003182 0.0001050976 -3.54384e-05 -0.8322164391 0.1133890281
85299490.0 0.0876014486 0.0627652687 -0.0002475101 -4.01129e-05 0.0002223591 -0.000163714 -0.8311391704 0.1235735212
90299460.0 0.0921329856 0.0588632524 -5.72342e-05 1.56116e-05 -7.61332e-05 7.35947e-05 -0.8305611866 0.1333495758
95299430.0 0.0965940625 0.0547131481 -4.28111e-05 0.0001352557 0.0001535171 -5.374e-06 -0.8290066322 0.1429584785
100299400.0 0.099809774 0.0511659422 -0.0001169497 -4.14118e-05 0.0001052833 -0.0001646374 -0.8288180562 0.1520262081
105299370.0 0.1029908303 0.0473807892 -5.88334e-05 0.000173607 0.0001399727 4.3105e-06 -0.8267807326 0.1612351753
110299340.0 0.1058401928 0.0430773227 -3.58514e-05 3.72904e-05 -0.0001006942 7.84443e-05 -0.8256382957 0.171199397
115299310.0 0.1084167805 0.0391527946 -0.0001799816 4.53214e-05 0.0001109951 -0.0001617869 -0.8240063751 0.1797118023
120299280.0 0.1103664409 0.0351447512 3.23069e-05 -5.0784e-06 6.33529e-05 -8.19711e-05 -0.8222063217 0.1892782555
125299250.0 0.1121012782 0.0313692187 -0.0001836609 9.36304e-05 -0.0002529216 -1.1539e-05 -0.8206592811 0.1985006301
130299220.0 0.1136129684 0.0279846997 0.0002436085 -9.5878e-05 4.62168e-05 -8.50442e-05 -0.8189209795 0.2069555999
135299190.0 0.1151095662 0.024554536 8.67004e-05 1.25346e-05 -3.00567e-05 -7.6611e-06 -0.8168538631 0.2163084238
140299160.0 0.1162758995 0.0205481085 0.0001272006 -1.8635e-06 0.0001017831 0.0002248017 -0.8143460825 0.2252668412
145299130.0 0.1175509468 0.0170117051 0.0002352649 -9.93446e-05 7.8629e-06 5.60427e-05 -0.8119229312 0.2339361936
150299100.0 0.1182749706 0.013374944 0.0001408109 -0.0001720986 4.37489e-05 -4.82528e-05 -0.8105320195 0.2431075431
155299070.0 0.1189028428 0.010334037 -8.439e-07 4.58579e-05 -7.08337e-05 2.94856e-05 -0.8074109704 0.25175636
160299040.0 0.119299723 0.0072980355 0.0001175949 0.0001039823 0.0001082708 -0.0001456607 -0.8050200505 0.260834526
165299010.0 0.1200665479 0.0035915955 -0.0002442105 -7.3189e-06 0.0001439328 2.69001e-05 -0.8028867966 0.2689053132
170298980.0 0.1200022065 0.0006150676 4.1101e-06 -0.0001660735 4.64724e-05 -7.56275e-05 -0.7993576745 0.2780001377
175298950.0 0.1202170389 -0.0025796893 4.0048e-05 0.000116615 0.0001243957 0.0001405931 -0.7968842253 0.2867578627
180298920.0 0.1203268669 -0.0051179389 0.0002014999 -3.4426e-05 4.74213e-05 0.000211442 -0.7937887098 0.2952025
185298890.0 0.12045376 -0.0083417273 -0.0001144568 -6.75611e-05 5.69381e-05 -0.0001011797 -0.7899753583 0.3035131639
190298860.0 0.1205015086 -0.0109379677 0.0001242872 -4.91243e-05 -3.0759e-06 0.0001303353 -0.7878589923 0.3123007861
195298830.0 0.1201607272 -0.013874814 0.0001441328 2.38384e-05 3.72295e-05 -6.09221e-05 -0.7846336154 0.320842101
200298800.0 0.1198858041 -0.0166357644 -4.21506e-05 -8.68757e-05 0.0001428432 -3.1938e-05 -0.7814283787 0.329560872
205298770.0 0.1195950885 -0.0192615595 0.0002643541 0.0002267592 0.0001636178 -0.0002048308 -0.777912069 0.3376587149
210298740.0 0.1191785193 -0.0216594779 3.47184e-05 0.0001379531 0.0001496898 4.26836e-05 -0.7745300811 0.346176535
215298710.0 0.1186987556 -0.0243162889 0.000129111 -3.92268e-05 2.73762e-05 1.93726e-05 -0.7706802143 0.3539346547
220298680.0 0.1180977098 -0.0270240237 1.8844e-05 -0.0002419458 0.0001184304 6.05763e-05 -0.7672124684 0.3615803422
225298650.0 0.1174168361 -0.0294422535 0.0001370839 -7.20157e-05 -2.13299e-05 0.0001840026 -0.763841917 0.3703602278
230298620.0 0.1168498861 -0.0317889817 8.95818e-05 0.0002327714 -5.8554e-06 0.0001388063 -0.7602278214 0.3782650927
235298590.0 0.1164013073 -0.0338833218 4.7944e-05 -6.90078e-05 7.6078e-06 9.62793e-05 -0.755656535 0.3869706206
240298560.0 0.1159093313 -0.0366679659 -3.7445e-05 -0.0001162367 0.0002401312 3.42288e-05 -0.7515801732 0.3949318102
245298530.0 0.114773287 -0.0385697019 0.0001060733 0.0001244305 0.0001441857 6.44053e-05 -0.7478311307 0.4025480196
250298500.0 0.114302987 -0.0406970807 5.26499e-05 8.75648e-05 0.0001532759 9.76065e-05 -0.7437997549 0.4103839531
255298470.0 0.113035293 -0.0433532498 -6.382e-06 1.12557e-05 -3.10611e-05 -7.88791e-05 -0.7387956454 0.4181190386
260298440.0 0.1123051989 -0.0453861969 3.20118e-05 -3.95361e-05 -8.90158e-05 -7.9978e-06 -0.7346679954 0.4265931998
265298410.0 0.111548166 -0.0470420219 8.96654e-05 0.0001614524 1.32577e-05 0.0001047922 -0.7302228906 0.4334034108
270298380.0 0.1107406082 -0.0489322165 9.68606e-05 0.0001708072 -7.1962e-06 -0.0001696506 -0.7258063938 0.4410929639
275298350.0 0.1099497679 -0.0511896183 4.92023e-05 0.0001475011 -9.24021e-05 -0.0001143294 -0.7208029362 0.4484235354
280298320.0 0.1087269251 -0.0530635305 7.08638e-05 0.0001325197 -9.92157e-05 0.0001660437 -0.7159243549 0.4559494935
285298290.0 0.1083014811 -0.0548175217 0.0002221647 6.36743e-05 0.0001607131 -9.595e-06 -0.710840916 0.4636497493
290298260.0 0.1070635 -0.0569246002 0.0001280924 -0.000204182 0.0001339326 -0.0001209528 -0.7061641704 0.4711399225
295298230.0 0.1060293822 -0.0589358509 -1.69954e-05 0.0001043258 8.02111e-05 -8.69853e-05 -0.7013376728 0.4780257124
300298200.0 0.1049249095 -0.0607590525 0.0001749705 -1.0348e-06 5.12166e-05 -8.60992e-05 -0.6959534208 0.485325198
305298170.0 0.1039166313 -0.0622797839 -7.81861e-05 7.7415e-05 0.000129286 -0.0001125378 -0.6902341542 0.493168346
310298140.0 0.1028602335 -0.0640238212 -2.80615e-05 -1.95782e-05 0.00016088 -0.0001290294 -0.6857219667 0.5002256383
315298110.0 0.1021327784 -0.0660779501 0.000256056 -3.55407e-05 1.02684e-05 0.0001167223 -0.6803131508 0.5073374616
320298080.0 0.100766539 -0.067800947 0.000218174 0.0002158076 0.0001285643 4.27028e-05 -0.6747945671 0.514732855
325298050.0 0.0994330266 -0.0697677756 0.0003010622 -4.65064e-05 -4.04928e-05 0.0001030999 -0.6689349142 0.5214046413
330298020.0 0.0979517995 -0.0717154181 -0.0001470674 0.0002174664 7.16151e-05 -0.0001373208 -0.6636036646 0.5280658603
335297990.0 0.0966788089 -0.0731969625 0.0001633455 -7.97087e-05 -0.0001779508 0.0001029338 -0.6584866847 0.5357161329
340297960.0 0.0950302165 -0.0746308507 -0.0001999081 8.74693e-05 0.0001044439 1.54758e-05 -0.6524722569 0.5425308804
345297930.0 0.0932354518 -0.0761174444 0.0001732623 -0.0001943815 -5.56572e-05 0.0002540321 -0.6468815463 0.5482528648
350297900.0 0.0921739772 -0.0772394434 9.5407e-06 0.0002045784 0.000216298 -3.18001e-05 -0.6413471747 0.5556191575
355297870.0 0.0907563111 -0.0787434325 -5.3639e-06 8.22364e-05 -0.0001875151 9.16466e-05 -0.6362725017 0.5620482993
360297840.0 0.0893736571 -0.0801311189 0.0002841839 7.12868e-05 0.0001277645 0.00011909 -0.6295532496 0.5688847156
365297810.0 0.0877604714 -0.0812150612 -1.86905e-05 -7.30237e-05 -2.86682e-05 3.08003e-05 -0.6235175763 0.5755390925
370297780.0 0.0867036565 -0.0826953281 0.0001154068 -5.87406e-05 -6.9242e-06 0.0001177515 -0.6174498674 0.5818917117
375297750.0 0.0853569395 -0.0837304359 0.0003262421 0.0001635919 0.0001189249 0.0003059303 -0.6118193812 0.5876955374
380297720.0 0.083699732 -0.0853213295 6.91389e-05 3.46521e-05 -1.02758e-05 0.0002401258 -0.6059656599 0.5945832193
385297690.0 0.0820673076 -0.0860064676 -0.0001569586 0.0001067962 0.0001310456 1.8623e-05 -0.599189282 0.6009211665
390297660.0 0.0809513491 -0.0871502374 4.75635e-05 4.33774e-05 0.000185195 -0.0001777222 -0.593197049 0.6071863731
395297630.0 0.0795540597 -0.088446652 -7.53035e-05 6.71684e-05 9.22094e-05 4.76638e-05 -0.5866367601 0.6129642873
400297600.0 0.0779714218 -0.0893645667 6.40555e-05 0.000191158 0.0001434738 6.79086e-05 -0.5805233059 0.6188904557
405297570.0 0.0762265901 -0.0906714393 0.0001272125 2.03657e-05 7.99206e-05 2.87337e-05 -0.5738460006 0.6242768396
410297540.0 0.0748612212 -0.0917685043 1.45905e-05 -3.20251e-05 6.41398e-05 -0.0002192107 -0.5674863777 0.6308307884
415297510.0 0.0736075549 -0.093129804 0.0001719848 -0.0001155896 0.000244764 2.8048e-06 -0.561322291 0.6363021215
420297480.0 0.0722581861 -0.0938026855 0.0001224901 -4.87902e-05 6.07157e-05 -0.0001428384 -0.5542581671 0.6428106025
425297450.0 0.0705120421 -0.0947746783 6.64034e-05 0.0001121574 -2.98043e-05 5.32177e-05 -0.5479644068 0.6482192031
430297420.0 0.0692532073 -0.0959149967 7.14689e-05 -3.28596e-05 0.0001472908 -5.09028e-05 -0.54122309 0.6529059648
435297390.0 0.0675677944 -0.0964318274 3.73043e-05 -3.0645e-06 -1.26184e-05 -0.0001294424 -0.5341371388 0.6591434901
440297360.0 0.0658238462 -0.0975194855 8.93539e-05 4.17162e-05 0.0002335178 0.0001734295 -0.527638332 0.663924897
445297330.0 0.0643607628 -0.0986594197 0.0002030569 0.0001459058 6.45334e-05 7.58293e-05 -0.5203354414 0.6687294622
450297300.0 0.0628535236 -0.0995332993 -7.31601e-05 0.0001318367 0.0002388485 0.0001113588 -0.5133527169 0.6740155903
455297270.0 0.0611231604 -0.1001560933 0.0001464379 3.19572e-05 9.7203e-05 5.58907e-05 -0.5065243119 0.6784961353
460297240.0 0.0597349558 -0.1011330413 0.0001634668 2.8804e-06 6.45377e-05 -7.24472e-05 -0.4998463382 0.6845606591
465297210.0 0.0583243709 -0.1020587564 1.5339e-06 -0.0002289509 5.34878e-05 -6.7543e-06 -0.4917753628 0.6890130361
470297180.0 0.0564399929 -0.1023864605 0.0001140886 0.0001557642 8.71625e-05 4.58986e-05 -0.4851119317 0.6942516663
475297150.0 0.0549047683 -0.1034578872 -4.78444e-05 0.0002687643 -0.0001504042 -3.10255e-05 -0.4776635387 0.698648456
480297120.0 0.0535827772 -0.1040736177 0.0001828166 0.0001438703 0.0001314593 2.97154e-05 -0.4703630957 0.7038014937
485297090.0 0.0521361724 -0.1046998744 0.000123565 0.0001076352 0.0002229429 -9.7051e-06 -0.4632861637 0.7083777506
490297060.0 0.0501931331 -0.1051358884 0.0001136601 0.0001047555 -4.1527e-05 -4.22194e-05 -0.4556774346 0.712839363
495297030.0 0.0485108945 -0.105995589 -4.52317e-05 -0.0001883828 0.000141904 0.0001794235 -0.448515454 0.717923602
500297000.0 0.0470147658 -0.1067612411 -0.0001302999 -6.026e-06 -7.41645e-05 6.41436e-05 -0.4407151343 0.7227611947
505296970.0 0.0457854298 -0.1071362705 0.0001431414 8.39154e-05 0.0002962144 0.0001787178 -0.4332803773 0.726819341
510296940.0 0.0437539436 -0.1079450376 3.31245e-05 0.0002222732 5.42583e-05 -8.20443e-05 -0.4259445339 0.7311887174
515296910.0 0.0425118495 -0.1083913985 0.0001349207 -7.68509e-05 0.0001115907 0.000159916 -0.4186450553 0.7353196618
520296880.0 0.0406016891 -0.1085377008 7.88963e-05 2.97922e-05 0.0001159657 0.0001331171 -0.4112740192 0.7390481533
525296850.0 0.0389446029 -0.1096199918 -7.99182e-05 0.0001922094 2.37989e-05 9.85119e-05 -0.4036100764 0.7441917309
530296820.0 0.03723181 -0.1097119966 -7.46871e-05 -4.87564e-05 3.81254e-05 1.52354e-05 -0.3964342229 0.7474532698
535296790.0 0.0357433303 -0.1102043033 0.0001911819 1.92129e-05 0.0002967843 -7.17407e-05 -0.3892611472 0.7513576643
540296760.0 0.0338837708 -0.1107877095 9.11748e-05 -0.0001783992 0.0001416405 -8.8994e-05 -0.3811777273 0.7553757657
545296730.0 0.0323081521 -0.110793848 0.0003070216 -3.2346e-06 0.0003892762 0.0001335688 -0.3734527194 0.7591515081
550296700.0 0.0308922311 -0.1114320724 0.0001940317 9.01461e-05 0.0001111296 -0.0001873163 -0.3656404702 0.7632896401
555296670.0 0.028889282 -0.1117317764 0.0001887344 0.0001863386 0.0001335717 0.0001627181 -0.3581256412 0.7674750559
560296640.0 0.0275567798 -0.1119383221 1.85112e-05 -8.69623e-05 0.0001491413 0.0001710604 -0.3502278406 0.770922745
565296610.0 0.0256671825 -0.1120780156 0.0001317804 2.07166e-05 4.50068e-05 8.51529e-05 -0.3423344357 0.7740576878
570296580.0 0.0240762487 -0.1125477885 0.0003849865 4.28056e-05 0.0001156486 0.0001658238 -0.3349811772 0.7777609795
575296550.0 0.0222646014 -0.1126401869 0.0002449746 8.18067e-05 9.23977e-05 -0.000193451 -0.3270841656 0.7808281248
580296520.0 0.0208769016 -0.1130903415 0.0001472553 -7.90884e-05 0.0001618436 0.0001422504 -0.317799834 0.7838021935
585296490.0 0.0186291324 -0.113412331 0.0002153961 -0.0001154622 0.0002440742 -3.55457e-05 -0.3105590511 0.7873035252
590296460.0 0.0174611021 -0.1133057443 0.0003114736 -1.95566e-05 0.000322009 7.94173e-05 -0.3026525984 0.7902305093
595296430.0 0.0155794826 -0.1136199869 0.0002791472 0.00010345 1.75003e-05 -3.54921e-05 -0.2947942472 0.7925919854
600296400.0 0.0134670691 -0.1137478564 0.0001557896 0.0001746376 5.28772e-05 -3.88552e-05 -0.2866864817 0.795636811
605296370.0 0.0121288293 -0.1139271592 5.86025e-05 0.0001366515 4.12698e-05 -8.36465e-05 -0.2780565284 0.7981475256
610296340.0 0.0101520254 -0.1140142403 -3.87972e-05 -0.000201301 8.47117e-05 8.8432e-06 -0.2704739721 0.8011258405
615296310.0 0.0088701999 -0.1139159518 0.0001203553 2.1048e-06 0.0001970731 4.88106e-05 -0.2619194777 0.8033306247
620296280.0 0.0069540559 -0.1141208997 -0.0001203414 8.21681e-05 2.61574e-05 3.8672e-06 -0.2545135194 0.8065623877
625296250.0 0.0053219301 -0.1143496619 5.91998e-05 0.0002924895 5.0859e-06 8.42357e-05 -0.2456226403 0.8080638684
630296220.0 0.0041519897 -0.1142495017 0.0001719556 -6.08102e-05 -2.77075e-05 3.85041e-05 -0.2377113582 0.8110596431
635296190.0 0.0020584919 -0.1142137128 0.0004691121 5.58187e-05 0.0002109506 0.0001227181 -0.2294557646 0.8131359898
640296160.0 0.0003034802 -0.1139230292 7.72664e-05 0.0001315566 4.52041e-05 6.694e-06 -0.2214025437 0.8155741679
645296130.0 -0.0011707964 -0.1139232528 1.80981e-05 1.39182e-05 -4.88226e-05 -8.86853e-05 -0.213242547 0.8178494647
650296100.0 -0.0029474597 -0.1136504843 0.000228873 -0.0001234474 2.00926e-05 -0.0001341798 -0.2049198027 0.8190829412
655296070.0 -0.0048369351 -0.1136799312 0.0001473518 -1.57772e-05 8.17735e-05 6.11221e-05 -0.1960091662 0.821306463
660296040.0 -0.0064321801 -0.1134647078 -6.27872e-05 -0.0002969219 0.0004404291 0.000268952 -0.1872649675 0.8232999194
665296010.0 -0.0077119009 -0.1138424372 0.0002513921 -9.2853e-06 -1.1306e-05 -0.000270885 -0.1793107522 0.8251228614
670295980.0 -0.0099226161 -0.1128876777 6.02499e-05 -0.0001481298 7.46407e-05 -7.24576e-05 -0.1713502314 0.8270038837
675295950.0 -0.011302527 -0.1127228269 0.0001399067 -3.2011e-05 0.00010988 -0.0001759739 -0.1637854014 0.8286735394
680295920.0 -0.0129409867 -0.1123695047 0.0002390281 3.38669e-05 6.27046e-05 -0.0002613166 -0.1544761423 0.830949061
685295890.0 -0.0145046225 -0.111990639 0.0003342845 0.0001087542 0.0002018847 6.51818e-05 -0.1458836471 0.8315360952
690295860.0 -0.0161214871 -0.1118631366 0.0003161547 -2.37935e-05 7.70014e-05 -0.000141307 -0.1381657764 0.8336670358
695295830.0 -0.017772119 -0.1113798459 5.41294e-05 -1.24326e-05 6.90469e-05 7.40983e-05 -0.128952846 0.8345290669
700295800.0 -0.0193579628 -0.1115174038 2.718e-05 1.38263e-05 0.0002823249 -7.12258e-05 -0.12227152 0.8363830968
705295770.0 -0.0213200562 -0.1108315949 1.91333e-05 3.34584e-05 0.000218344 7.96145e-05 -0.1135542568 0.8379869109
710295740.0 -0.0228701436 -0.1104273463 0.0001468385 0.0001136388 0.0001616803 -0.0001658624 -0.1047116929 0.8386694941
715295710.0 -0.0246485752 -0.1103483868 -4.26286e-05 -0.0001285249 0.0001418292 -0.0001662978 -0.0967214928 0.8396308436
720295680.0 -0.0260923463 -0.1098131341 5.27116e-05 -3.80361e-05 0.0002782147 0.0002269002 -0.087498845 0.840088239
725295650.0 -0.0275493768 -0.1092003396 0.0001342748 -8.12856e-05 0.0001638017 -0.000198684 -0.0795698636 0.8419503143
730295620.0 -0.0290605503 -0.1086485733 0.0001293372 0.0002045726 0.0001345818 0.0001314885 -0.0718965974 0.8420809648
735295590.0 -0.0309336709 -0.1078525801 9.52327e-05 -9.29291e-05 0.000190353 4.30303e-05 -0.0632341909 0.842339672
740295560.0 -0.032625922 -0.107491725 -0.0001638052 -1.68169e-05 0.0001711393 8.28536e-05 -0.0544279396 0.8436658778
745295530.0 -0.0343156923 -0.1070545976 8.7434e-05 0.0001833768 7.69413e-05 -0.0001918133 -0.0458029486 0.8436722082
750295500.0 -0.0355506633 -0.1065383647 5.76567e-05 -5.75933e-05 0.0002664724 -0.0001068306 -0.0375714309 0.8444408736
755295470.0 -0.0374135839 -0.1059912259 0.0001144963 -0.0001532966 -8.1178e-05 -0.0002116407 -0.0289043605 0.8437649352
760295440.0 -0.0388026311 -0.1054123677 0.0001047822 -0.0002382523 0.0002473067 -8.5248e-06 -0.0206352575 0.8444287553
765295410.0 -0.0400747131 -0.104834214 0.0001935033 8.45977e-05 0.0003216086 -3.0138e-05 -0.0125070515 0.8447246046
770295380.0 -0.0420674614 -0.1042998914 0.0001279088 0.0001631255 0.0002031981 5.90523e-05 -0.0039918697 0.8449310861
775295350.0 -0.0439031659 -0.1036573398 -5.08176e-05 -0.0002493674 7.6516e-05 -0.0002061591 0.0042366521 0.8443402567
780295320.0 -0.0450878647 -0.1027667108 0.0002125716 -0.000388347 0.0002864004 6.26999e-05 0.012391954 0.8443671906
785295290.0 -0.0470304451 -0.1023169235 0.0001410663 -6.8688e-05 0.0001044207 5.16905e-05 0.021336585 0.8441388386
790295260.0 -0.0482121848 -0.1012691846 -9.08148e-05 -0.0001979716 0.0002117139 1.29614e-05 0.0300830681 0.8440710325
795295230.0 -0.049980353 -0.1004955664 0.0002534402 -1.96592e-05 1.66252e-05 0.0001068113 0.0389381198 0.8431230087
800295200.0 -0.0510545979 -0.0997742261 0.0001848481 -6.6847e-06 0.000276684 -1.63058e-05 0.0470737073 0.8428487377
805295170.0 -0.0527532537 -0.0991116667 9.935e-07 -0.0001451162 3.41843e-05 -4.72825e-05 0.0555622104 0.8426311136
810295140.0 -0.0538926718 -0.0983274457 4.25713e-05 -0.0001704404 0.0002905174 -5.88702e-05 0.0638185524 0.8415219132
815295110.0 -0.0553654254 -0.0976775147 9.12763e-05 -0.0001062976 0.0002085834 8.48398e-05 0.0725308337 0.8412576629
820295080.0 -0.057147008 -0.0963297607 5.81018e-05 6.29302e-05 2.43616e-05 -3.07964e-05 0.0808169962 0.8405627214
825295050.0 -0.0583442822 -0.0955459685 0.0003538563 1.01946e-05 3.22006e-05 -8.43552e-05 0.0887355539 0.8397694655
830295020.0 -0.0600431736 -0.0948048023 0.0002922357 -0.0001439945 0.0002377466 0.0001416651 0.0975933255 0.8384288756
835294990.0 -0.0613504493 -0.0938616271 -5.33876e-05 -4.81731e-05 0.0003551954 0.0001818921 0.1054524057 0.8379779901
840294960.0 -0.0626976262 -0.0928264986 0.0001601154 -2.05234e-05 4.98006e-05 -0.0002994008 0.1137900972 0.8366936208
845294930.0 -0.0642642221 -0.0919069276 0.0002995468 -5.25076e-05 0.0001728513 6.42109e-05 0.1220350765 0.8353996422
850294900.0 -0.0650710197 -0.0907080512 0.0002824823 -0.0001565339 9.15454e-05 -0.0001380633 0.1304443892 0.8338946138
