!Created with skrf (http://scikit-rf.org).
# Hz S RI R 50.0 
!freq ReS11 ImS11 ReS21 ImS21 ReS12 ImS12 ReS22 ImS22
300000.0 -0.3155898059 -0.1255725814 0.3704057642 0.0628521624 0.371134476 0.0638962293 -0.3142025672 -0.1278706016
5299970.0 -0.3249170012 0.0031809447 0.3783675511 0.0033604983 0.3787206894 0.0030400755 -0.3256529531 0.0024702708
10299940.0 -0.3226118777 0.0142742372 0.380173416 0.0025302461 0.3798608301 0.0028431598 -0.323448912 0.012590616
15299910.0 -0.318929815 0.0225177642 0.3820499299 0.0027056165 0.38240459 0.0025833755 -0.3210101884 0.0199718697
20299880.0 -0.3156487811 0.0292898675 0.384813231 0.0016002407 0.3851727045 0.0020505788 -0.3177615574 0.0258162485
25299850.0 -0.3114110574 0.0348710326 0.3883277453 0.0006798277 0.3886979529 0.000406123 -0.3152474155 0.0313157963
30299820.0 -0.308141259 0.0393362901 0.391752566 -0.0020811791 0.3920035604 -0.0023704507 -0.3118140316 0.0358229804
35299790.0 -0.3044874091 0.0436340583 0.3945241246 -0.0050907563 0.3954752287 -0.0051836082 -0.3092399181 0.0402032865
40299760.0 -0.3011424263 0.0466170433 0.3983372525 -0.0084398378 0.3985164121 -0.0085878678 -0.3064996661 0.043435371
45299730.0 -0.2981172919 0.0499701503 0.4012854177 -0.0124108892 0.4016123995 -0.0126970388 -0.3038711103 0.0465397186
50299700.0 -0.2946591485 0.0528569287 0.4035599316 -0.0172217298 0.4039152795 -0.0173450347 -0.3013503131 0.0498181096
55299670.0 -0.2922108561 0.0552614366 0.4058743985 -0.0215140525 0.4057988209 -0.0218784748 -0.2993686065 0.0522464376
60299640.0 -0.2898782224 0.0579283931 0.4080327217 -0.0267351964 0.4078369538 -0.0269707823 -0.2972594691 0.0549179852
65299610.0 -0.2872747955 0.0602281891 0.4099547926 -0.0315332114 0.4098504985 -0.0314872345 -0.2951823409 0.057382618
70299580.0 -0.2854969698 0.0622098831 0.4107124441 -0.0365656395 0.4111576293 -0.0367633008 -0.2936671251 0.0599808015
75299550.0 -0.2833560996 0.0642598563 0.4116920555 -0.0419624959 0.4121372846 -0.0418685049 -0.2919430567 0.062026535
80299520.0 -0.281731456 0.0666912713 0.4130915694 -0.0474929651 0.4131612616 -0.0474709637 -0.2907694753 0.0646067974
85299490.0 -0.2800477244 0.0682020832 0.413357182 -0.0524389449 0.4132618426 -0.0525476438 -0.2893338386 0.0670727734
90299460.0 -0.2781768364 0.0705109864 0.4136039886 -0.0580082114 0.4137112994 -0.0575195329 -0.2877654722 0.0694585588
95299430.0 -0.2767667549 0.0728411597 0.4140821928 -0.0630215282 0.4141471983 -0.0633422082 -0.2865785736 0.0716713182
100299400.0 -0.275410028 0.0747305744 0.4136136655 -0.0680545125 0.4141892522 -0.0683541963 -0.2853405364 0.0742494684
105299370.0 -0.2738394058 0.0766208497 0.4138792937 -0.0733078238 0.4144205473 -0.0732882899 -0.28401544 0.0763767831
110299340.0 -0.2725728466 0.0786722977 0.4136523886 -0.0783753615 0.4137875266 -0.0783634962 -0.2830658318 0.0786620831
115299310.0 -0.2714639555 0.0809328879 0.4133018844 -0.0832698398 0.4135506481 -0.0836394605 -0.282203742 0.081183293
120299280.0 -0.2705701998 0.0832076685 0.4131994663 -0.0891087404 0.4127852901 -0.0889621367 -0.2811306352 0.0831836811
125299250.0 -0.2692256716 0.08490041 0.4123049589 -0.0935278988 0.4126004568 -0.0938733981 -0.2802848237 0.0856888989
130299220.0 -0.2681221554 0.0875496358 0.4117618275 -0.0990905872 0.4118551115 -0.0995048757 -0.2791967277 0.0882106616
135299190.0 -0.2671736874 0.0898918158 0.4113010551 -0.1037688023 0.4114615835 -0.1041150712 -0.2783083772 0.0906882919
140299160.0 -0.2660102599 0.0922994798 0.4106036474 -0.1094428911 0.4103197949 -0.1088149931 -0.2777393979 0.0929616749
145299130.0 -0.2654595496 0.0947757884 0.4096792901 -0.1137705969 0.4096253337 -0.1137650379 -0.2767200837 0.0956970595
150299100.0 -0.2641434604 0.0970302843 0.4085520286 -0.1190121427 0.4082981289 -0.1188486277 -0.2759039278 0.0983329152
155299070.0 -0.2632064801 0.0994796288 0.4070141815 -0.1238524651 0.4075137283 -0.1237833761 -0.2750227197 0.1010439262
160299040.0 -0.2620744315 0.1022217887 0.4060670891 -0.1288854933 0.406099296 -0.1290902625 -0.2739856843 0.1035946079
165299010.0 -0.2610035923 0.1041596929 0.4048502359 -0.1333190331 0.4048297197 -0.1337037828 -0.2724206475 0.1058796284
170298980.0 -0.2603448838 0.1068741289 0.403458947 -0.138560141 0.4033412242 -0.138488245 -0.2721874241 0.1086140495
175298950.0 -0.2590498118 0.1092578339 0.4021159434 -0.1428198559 0.402422134 -0.1435427216 -0.271138912 0.1114893982
180298920.0 -0.2583335908 0.1118724889 0.4006873891 -0.1481567399 0.4009203122 -0.1481192415 -0.2698922598 0.1141701736
185298890.0 -0.2568056191 0.1143561985 0.3990400778 -0.1525584776 0.3991392546 -0.1524716655 -0.2687915223 0.1163985759
190298860.0 -0.2558598416 0.117293297 0.3969415714 -0.1573720847 0.3976219701 -0.1574816079 -0.2676666866 0.1193011497
195298830.0 -0.2547655221 0.1196390623 0.396097091 -0.1618096802 0.3962516147 -0.1619921098 -0.267155875 0.1217093663
200298800.0 -0.2536409857 0.1218747513 0.3947649315 -0.1668034092 0.3942768225 -0.1668415853 -0.2656448895 0.1246639808
205298770.0 -0.2527174786 0.1246721182 0.3924048674 -0.1706856683 0.3924220596 -0.17117435 -0.264524835 0.1271370659
210298740.0 -0.2514506527 0.1273839871 0.3907426802 -0.1759803158 0.3904270798 -0.1757840616 -0.2635967764 0.1299484873
215298710.0 -0.2506711807 0.130033886 0.388550606 -0.1800920555 0.3885110352 -0.1806598536 -0.2622253786 0.1326167818
220298680.0 -0.2488034666 0.1325951555 0.3862783452 -0.184421877 0.3867735392 -0.1846934446 -0.2613329368 0.1354765511
225298650.0 -0.2479001188 0.1353069476 0.3843949547 -0.1892261967 0.3847886126 -0.1886571472 -0.2600847044 0.1382178566
230298620.0 -0.2465119802 0.1379101426 0.382765511 -0.1936126057 0.3828453956 -0.1934261943 -0.2586711927 0.1403949239
235298590.0 -0.2455621903 0.1406361435 0.3805875296 -0.1981992435 0.3809142258 -0.1978076161 -0.2574844843 0.1432918267
240298560.0 -0.2439461305 0.1434210034 0.378250895 -0.2022461807 0.3783839125 -0.2023409023 -0.2562240816 0.1457048634
245298530.0 -0.2427741471 0.1457713581 0.3761541471 -0.206578632 0.376333414 -0.2066261019 -0.2549459057 0.1485645726
250298500.0 -0.2415428742 0.1483092873 0.3738424985 -0.2104538209 0.3741976822 -0.2106396758 -0.2536920933 0.1517819161
255298470.0 -0.2401141178 0.1513253584 0.3717430412 -0.2149491521 0.3721805395 -0.2154284012 -0.2519819927 0.1541122773
260298440.0 -0.2389853089 0.1536846956 0.3694116195 -0.2187214341 0.3694631073 -0.2192109343 -0.2506617721 0.1564998014
265298410.0 -0.2373327133 0.155986118 0.3666781767 -0.2235832554 0.3666191404 -0.2237106399 -0.248765356 0.1591916614
270298380.0 -0.2359636917 0.1589330747 0.3642795335 -0.2278060985 0.3646021079 -0.2278407198 -0.2474434659 0.162312311
275298350.0 -0.2346101098 0.1616902335 0.3615112087 -0.2312047628 0.3617063076 -0.231743551 -0.2457887564 0.1647995593
280298320.0 -0.2330846745 0.1638373911 0.3592856058 -0.2350661315 0.3594837024 -0.235658671 -0.2442893845 0.1671899326
285298290.0 -0.2314895236 0.1669141778 0.3567009073 -0.2395954359 0.3570407092 -0.2398669543 -0.2429143485 0.1706120291
290298260.0 -0.2298378658 0.1693443738 0.3544439994 -0.2438213306 0.3543912818 -0.2440589491 -0.2411799213 0.1727086193
295298230.0 -0.2285286599 0.171658162 0.3516041466 -0.2478447005 0.3517151575 -0.24813727 -0.2390558656 0.1753557826
300298200.0 -0.2267353261 0.1744282989 0.3487342199 -0.2517396536 0.3490241285 -0.2514609949 -0.2376556661 0.17766682
305298170.0 -0.2251732339 0.1764385675 0.3461865766 -0.2554319307 0.3461990008 -0.255875569 -0.2358874384 0.1802724994
310298140.0 -0.2231943902 0.1788936267 0.3432098033 -0.2594393937 0.3436008289 -0.2593466122 -0.2337835329 0.1829880371
315298110.0 -0.2216959481 0.1810930976 0.3402987558 -0.2636318469 0.3406865414 -0.2638261679 -0.2323170499 0.1854503149
320298080.0 -0.2201408069 0.1834884615 0.3368604971 -0.2673942493 0.3379125899 -0.2676427452 -0.2304043196 0.1881200565
325298050.0 -0.218772275 0.1854498321 0.33433894 -0.2711291851 0.3348339883 -0.2711624473 -0.2285448185 0.190146561
330298020.0 -0.2171315487 0.1886581631 0.3315080108 -0.2751519467 0.331588691 -0.2751211513 -0.2269171102 0.1926015795
335297990.0 -0.2153562948 0.1906770491 0.3286780279 -0.2783632361 0.3285970656 -0.278879708 -0.2248647734 0.1953165789
340297960.0 -0.2135255321 0.1930805783 0.3248390062 -0.2823720806 0.325052932 -0.2823641762 -0.2231485269 0.1979433322
345297930.0 -0.2119107076 0.1957466371 0.3215761762 -0.2860236415 0.3217899714 -0.2860566928 -0.2212718528 0.2001370004
350297900.0 -0.2101571195 0.1979752323 0.3191177003 -0.2891559522 0.3188582695 -0.289345731 -0.2195885904 0.2025911552
355297870.0 -0.208416489 0.2002397243 0.3155751681 -0.2924767107 0.3158010311 -0.2927444715 -0.2173230613 0.2053657504
360297840.0 -0.2060930986 0.2026627615 0.3119811284 -0.2961063851 0.3123017961 -0.2965374314 -0.2148742736 0.2078293067
365297810.0 -0.2044296837 0.2052268471 0.3089680247 -0.2994485939 0.3089725107 -0.2996040469 -0.2135642394 0.2101267804
370297780.0 -0.2024261308 0.2072084307 0.3052057175 -0.3030183418 0.3058596949 -0.3031586256 -0.2112055163 0.2125989429
375297750.0 -0.2004189202 0.2096490602 0.3023449273 -0.3063238935 0.302324843 -0.3066022942 -0.2088644441 0.2147246377
380297720.0 -0.1986939074 0.2120121069 0.2990825864 -0.3101704524 0.2989996682 -0.3099047501 -0.2066698854 0.2173691267
385297690.0 -0.1964518954 0.2140903325 0.2954284879 -0.3128547695 0.2957679666 -0.3133507197 -0.2046187742 0.2200669749
390297660.0 -0.1938619179 0.2163810828 0.2918688263 -0.315940292 0.2918359501 -0.3162697623 -0.2018644502 0.2219474937
395297630.0 -0.1916402817 0.2185481659 0.2883603736 -0.3191049461 0.2884641871 -0.3191486896 -0.1999287308 0.2237121823
400297600.0 -0.1900140324 0.2207852856 0.2847622183 -0.3230539595 0.2848548815 -0.3226546869 -0.1975402918 0.2264428051
405297570.0 -0.1877400195 0.2223192454 0.2813449182 -0.3252893774 0.281383862 -0.3256626864 -0.1950707039 0.2291008014
410297540.0 -0.1854099104 0.224759839 0.2779913016 -0.3286613033 0.2778931034 -0.3288185795 -0.1929061588 0.2314787243
415297510.0 -0.183456336 0.2267808473 0.2740338438 -0.3317398815 0.2744475613 -0.3316990127 -0.1904348545 0.2333139275
420297480.0 -0.1811275853 0.2288615558 0.2705415266 -0.3348851372 0.2705797147 -0.3345620139 -0.1877623359 0.2356336283
425297450.0 -0.1782738591 0.2304624715 0.267005647 -0.3375305824 0.2665787273 -0.3376079474 -0.1855609031 0.2373600858
430297420.0 -0.1764934754 0.2328556796 0.263336103 -0.3408413078 0.263282767 -0.3401786752 -0.1825668946 0.2397633353
435297390.0 -0.1741801333 0.2348355351 0.2592358113 -0.3436830104 0.2593272413 -0.3434677171 -0.1809568328 0.2418831635
440297360.0 -0.1712952381 0.2366568473 0.2553322223 -0.3461736265 0.2551534616 -0.3461956279 -0.1780303423 0.2440331293
445297330.0 -0.1689311207 0.2379015506 0.2516079304 -0.3483310187 0.251929098 -0.3492866236 -0.1755567719 0.246310174
450297300.0 -0.1664964555 0.2400983636 0.2476646146 -0.3516504098 0.2480183635 -0.3515438423 -0.172779964 0.2481211004
455297270.0 -0.164223434 0.2421190242 0.2442134545 -0.3544023329 0.2439986166 -0.3544504267 -0.1703421528 0.2498724931
460297240.0 -0.1613961607 0.2440435354 0.2400565684 -0.3575109686 0.2399136841 -0.3572430638 -0.1674239037 0.2518358674
465297210.0 -0.1591408636 0.2458032267 0.2360432552 -0.3596559248 0.2356556526 -0.359802225 -0.1647867275 0.2542351206
470297180.0 -0.1564105752 0.2473740028 0.2317617821 -0.3617160299 0.2321521342 -0.3622338017 -0.1619371015 0.2556908303
475297150.0 -0.154027184 0.2496097864 0.228104167 -0.3648143504 0.2281379211 -0.3646714195 -0.1594325665 0.2575677502
480297120.0 -0.1509280635 0.2515793539 0.2240112354 -0.3671334406 0.2243504021 -0.3672716277 -0.1571528371 0.2598503963
485297090.0 -0.1483280649 0.2526235211 0.2199173147 -0.3693516522 0.2200979763 -0.3693768604 -0.1541961798 0.2614075367
490297060.0 -0.1452274814 0.2547145788 0.2155801749 -0.3721306235 0.2158751272 -0.3721574318 -0.1511236051 0.2630783009
495297030.0 -0.1429120816 0.2561893009 0.212179556 -0.3743531331 0.2116631003 -0.3743216494 -0.1484881328 0.2646382899
500297000.0 -0.1401299242 0.2576365074 0.2075068278 -0.3760628479 0.2073752923 -0.3765727289 -0.1456335039 0.2665819473
505296970.0 -0.1370358621 0.2593736985 0.2037867551 -0.3791306127 0.2036829176 -0.3787943097 -0.143038893 0.2680915658
510296940.0 -0.1342870088 0.2609895992 0.1996535859 -0.3813919095 0.1995828583 -0.3812246558 -0.1395226989 0.2699137144
515296910.0 -0.1318295169 0.2626169833 0.1949061415 -0.3830912398 0.1951355946 -0.3827405098 -0.1375166971 0.2710827755
520296880.0 -0.1287783398 0.2643159088 0.1906944447 -0.3851255398 0.1907546542 -0.3850115222 -0.1339605797 0.2733496863
525296850.0 -0.1260302192 0.26540624 0.1864757244 -0.3871738229 0.1863008424 -0.3870948774 -0.1310362009 0.2747154702
530296820.0 -0.1233518844 0.2670311076 0.1822008808 -0.3891523218 0.1825536912 -0.3891204561 -0.1285809725 0.2759873027
535296790.0 -0.1198636472 0.2687322846 0.1780348457 -0.3912079454 0.1780309139 -0.3911853794 -0.125482691 0.277798404
540296760.0 -0.1171932652 0.2701715586 0.1735519386 -0.3931693155 0.1737180452 -0.3925647112 -0.1226085014 0.2787745742
545296730.0 -0.1145570229 0.2717279451 0.1698630997 -0.3947562052 0.1691667378 -0.3946094935 -0.1193772758 0.2806932391
550296700.0 -0.111377643 0.2730600823 0.1651350149 -0.3964685354 0.1651070218 -0.3965848338 -0.1166372968 0.2820239866
555296670.0 -0.1082214084 0.274238845 0.1605752247 -0.3983581167 0.1606435433 -0.3982955521 -0.1135560692 0.2830622834
560296640.0 -0.1051707971 0.2751964463 0.1563583439 -0.399764317 0.1564112601 -0.3998713092 -0.1103225661 0.2845415966
565296610.0 -0.1024560845 0.2769129546 0.1522082726 -0.4015235204 0.1519780992 -0.4013594664 -0.1076032094 0.2862220749
570296580.0 -0.0994261555 0.2782241718 0.1473508548 -0.4030652914 0.1475459377 -0.4031969333 -0.1044964385 0.2871909882
575296550.0 -0.096269862 0.2792870428 0.1433814635 -0.4047331186 0.1430333568 -0.4048960705 -0.1013853013 0.2883696158
580296520.0 -0.0934652138 0.2807269334 0.1385370294 -0.406120909 0.1385852225 -0.4063102955 -0.0984502983 0.2892884358
585296490.0 -0.0903051166 0.2819709793 0.1343444425 -0.4077855492 0.1337353639 -0.4075826118 -0.0948433944 0.2907228122
590296460.0 -0.0863709238 0.2828292287 0.129890373 -0.4092641449 0.1299091879 -0.4092601602 -0.0923882052 0.2918729282
595296430.0 -0.0836804825 0.2841605238 0.124820995 -0.4106471616 0.125003759 -0.4103962792 -0.0892627853 0.2929154677
600296400.0 -0.0808065755 0.2852366705 0.1205508059 -0.4118319335 0.1206374043 -0.4117781345 -0.0860217229 0.2939190676
605296370.0 -0.0780486886 0.2864007689 0.1164670765 -0.4128231116 0.1159423061 -0.4131769477 -0.0830690332 0.2951176262
610296340.0 -0.0745617974 0.2874469158 0.1120692274 -0.4136522025 0.1119857684 -0.4139990562 -0.0800682371 0.2960576513
615296310.0 -0.0715335117 0.2885154278 0.107337699 -0.4156247695 0.107127255 -0.4153283814 -0.0764879293 0.2970817086
620296280.0 -0.0684718196 0.2898075521 0.1025763446 -0.4162802293 0.1026016587 -0.4163484597 -0.0737890166 0.2983154416
625296250.0 -0.0654173002 0.2906009153 0.0983161831 -0.4175134945 0.0977860162 -0.4174029999 -0.0703677342 0.2988121795
630296220.0 -0.0621437258 0.2918189106 0.093406615 -0.4183300491 0.0934414714 -0.418324826 -0.0670625278 0.2998590903
635296190.0 -0.05922346 0.2925090161 0.089266886 -0.4192190982 0.0889202621 -0.4192959855 -0.0641263632 0.3007562772
640296160.0 -0.0558707341 0.293409395 0.0844520966 -0.4207221432 0.0842767367 -0.4203056084 -0.0612212913 0.3015915252
645296130.0 -0.0527156447 0.2941929775 0.0799390343 -0.4211263104 0.0801094776 -0.4209180152 -0.0581705445 0.3017074474
650296100.0 -0.0498914163 0.2947865041 0.0752804084 -0.4220387494 0.0750539482 -0.4220278818 -0.0546442583 0.3026299524
655296070.0 -0.0467861354 0.2957344206 0.0706073247 -0.4229075282 0.0704600705 -0.4227598519 -0.0519419742 0.3037941473
660296040.0 -0.0436451301 0.2966468087 0.0659988452 -0.423459354 0.0659062267 -0.4234459902 -0.0481689912 0.3039910092
665296010.0 -0.0402019615 0.2975479265 0.0614463933 -0.4235520485 0.0612755628 -0.4242052325 -0.0452138714 0.30498115
670295980.0 -0.0370960465 0.2982012202 0.0564753576 -0.4247502958 0.0569861017 -0.4239850603 -0.0419678325 0.305037622
675295950.0 -0.0342748722 0.2985148783 0.0524142784 -0.4249080891 0.0520064988 -0.4252260373 -0.0387976388 0.3061298241
680295920.0 -0.0311250085 0.2992987779 0.0478021963 -0.4253771626 0.0477722666 -0.4255358061 -0.035407664 0.3064948824
685295890.0 -0.0277370065 0.300128957 0.0430319409 -0.426570136 0.0428800983 -0.4263687146 -0.0321141995 0.3071699578
690295860.0 -0.0248577323 0.300504439 0.0387134348 -0.4265083749 0.0382625126 -0.4267875754 -0.0291919833 0.3076478277
695295830.0 -0.0217547473 0.3008781774 0.0342380675 -0.4269060945 0.0337144298 -0.4269974291 -0.0258973301 0.3083689949
700295800.0 -0.0183404904 0.3017410153 0.0293969141 -0.4271484797 0.0294098601 -0.4273257315 -0.0227219984 0.3086105415
705295770.0 -0.0157112639 0.3020350534 0.0246911928 -0.4275237383 0.0244379898 -0.4275360693 -0.019418279 0.3092651065
710295740.0 -0.0126567626 0.3023034143 0.0202054505 -0.4276069055 0.0198112618 -0.4279902603 -0.0159424468 0.3094470451
715295710.0 -0.0091049959 0.3029115419 0.0156287907 -0.4281720173 0.0150723224 -0.4276110997 -0.0125103809 0.3093062213
720295680.0 -0.0057467387 0.3032856011 0.010626052 -0.4277350479 0.0105155645 -0.4282248306 -0.0094485624 0.3096949157
725295650.0 -0.0031102133 0.3036708832 0.006578776 -0.4281549794 0.0059159506 -0.42836775 -0.0065179362 0.3105066658
730295620.0 -0.0003072022 0.3039712116 0.0018496072 -0.4278629224 0.0015686369 -0.4276876453 -0.0034613982 0.3105772689
735295590.0 0.003183005 0.3042903515 -0.0032544437 -0.4279745912 -0.00346203 -0.428115728 0.0001907018 0.3102364361
740295560.0 0.0057894186 0.3041698575 -0.0073553663 -0.4280952915 -0.0078433826 -0.4280570489 0.0035132472 0.3109130898
745295530.0 0.0089127506 0.304852022 -0.0119184524 -0.427622434 -0.0118758415 -0.4276932559 0.0062585701 0.3107278699
750295500.0 0.0121746669 0.3046362036 -0.0163936274 -0.4272461656 -0.0169538429 -0.4276487151 0.0095729886 0.3107404707
755295470.0 0.0153609186 0.3048401924 -0.0210688079 -0.4275816075 -0.0214102808 -0.4275930532 0.0132623449 0.3110705324
760295440.0 0.0185205339 0.3052548148 -0.0263616498 -0.4270696364 -0.0260602529 -0.4267260763 0.0163369222 0.3103184214
765295410.0 0.0216578259 0.3050470417 -0.0308386277 -0.426791297 -0.0303966814 -0.4267257804 0.0195516602 0.310786622
770295380.0 0.0245351901 0.3049763067 -0.0349121816 -0.4261842495 -0.0351559642 -0.4262493186 0.0225121626 0.3106505852
775295350.0 0.0274416993 0.3049134242 -0.039946382 -0.425911758 -0.0401541098 -0.4257375973 0.0263215583 0.3107590241
780295320.0 0.0310013557 0.3052487136 -0.044166743 -0.4250761094 -0.044308096 -0.4253564731 0.0296985835 0.3105511921
785295290.0 0.0337007556 0.3045989018 -0.0489132781 -0.4245508296 -0.0488189694 -0.4251347413 0.0324473972 0.3107792095
790295260.0 0.0365707033 0.3043419281 -0.0531154839 -0.4241880999 -0.0535192919 -0.424476613 0.0358392365 0.3104908112
795295230.0 0.0396679472 0.3043245823 -0.0579033975 -0.4236849209 -0.0583123697 -0.423554945 0.0391876923 0.3095185913
800295200.0 0.0430028337 0.3042355442 -0.0620346385 -0.4225976658 -0.0622823155 -0.4231143203 0.0423187683 0.3095022049
805295170.0 0.0455626268 0.304035187 -0.0667002645 -0.4222942055 -0.0672410276 -0.4224321861 0.0458014843 0.3092155359
810295140.0 0.0489062115 0.3038159864 -0.0714089897 -0.4213144555 -0.0716269616 -0.4216801813 0.0487970766 0.3089777183
815295110.0 0.0516809502 0.3034361989 -0.0760452027 -0.4208540226 -0.0758766901 -0.4206692632 0.0520341239 0.30867246
820295080.0 0.0549092782 0.303168194 -0.0800888033 -0.4197783583 -0.0804748475 -0.4200536929 0.054651591 0.3087628662
825295050.0 0.0580008348 0.3027156621 -0.0851818746 -0.4189845078 -0.0851975167 -0.4190160162 0.0584421602 0.308010689
830295020.0 0.0610037553 0.3022397749 -0.0896312553 -0.4180541964 -0.08978595 -0.4179651271 0.0615930938 0.3072184362
