!Created with skrf (http://scikit-rf.org).
# Hz S RI R 50.0 
!freq ReS11 ImS11 ReS21 ImS21 ReS12 ImS12 ReS22 ImS22
300000.0 -0.0969981987 -0.0832898508 0.6221535085 0.0786024287 0.6237415136 0.0824594796 -0.0955720445 -0.0925565343
5299970.0 -0.1002940494 0.0125902944 0.6307720313 0.0105987407 0.6303879899 0.011038481 -0.102154927 0.0117835925
10299940.0 -0.0954081899 0.0295904263 0.6343066325 0.015596084 0.634529575 0.0161551831 -0.097434201 0.028934866
15299910.0 -0.0886627195 0.0432647946 0.6403398889 0.0206875617 0.64058434 0.0210202649 -0.0903317547 0.0421171096
20299880.0 -0.0794863857 0.0541796593 0.64875461 0.0243195616 0.6489728264 0.0245503944 -0.0819250868 0.0533690899
25299850.0 -0.0697617633 0.062914901 0.657831653 0.0247561692 0.6580510742 0.02527372 -0.0726544164 0.0617829284
30299820.0 -0.0594852874 0.0691345419 0.6676916491 0.0245407189 0.6672572392 0.0245144522 -0.0626321205 0.0686975231
35299790.0 -0.0495444791 0.0742813764 0.6771007541 0.0215112554 0.6775259892 0.0217926197 -0.0527705007 0.0734466392
40299760.0 -0.0396191143 0.0770259814 0.6866488541 0.0182709543 0.6868295993 0.0177461372 -0.0438250848 0.0773201127
45299730.0 -0.0302587508 0.0795556965 0.6958912593 0.0115758428 0.6957530162 0.0120882881 -0.0344097367 0.0789754639
50299700.0 -0.0219039019 0.0798950802 0.7030593958 0.0047293764 0.7035273727 0.0047158622 -0.0253907606 0.0796396473
55299670.0 -0.0144062137 0.0798980652 0.7104337877 -0.0028192475 0.711191812 -0.0026742129 -0.0176972325 0.0801340091
60299640.0 -0.0066999809 0.0788362559 0.7170542671 -0.0114541448 0.7175866005 -0.01099357 -0.0103540566 0.0796922788
65299610.0 -0.0005377865 0.077997953 0.7232540687 -0.0191990686 0.7238637637 -0.0201131716 -0.0037223877 0.0786108399
70299580.0 0.0061288741 0.0757240731 0.7288647976 -0.0289778178 0.7284641713 -0.0293306609 0.0024564321 0.0770166771
75299550.0 0.0115945402 0.0742806281 0.7330861797 -0.0385714993 0.7329870345 -0.0388558059 0.0079045044 0.0754812226
80299520.0 0.0161330453 0.0722689103 0.7376491542 -0.0491241969 0.73795593 -0.0485917057 0.0132264088 0.0728958526
85299490.0 0.0207493323 0.0694227223 0.7405498671 -0.0588540182 0.740430004 -0.0585165018 0.0175215735 0.0707581635
90299460.0 0.0246090744 0.0673840592 0.7437676954 -0.0690175249 0.7439628295 -0.0690147583 0.0221888502 0.0686217778
95299430.0 0.0283107133 0.0651874115 0.7462249352 -0.0794724808 0.7463134654 -0.0789662756 0.0253990629 0.0665190681
100299400.0 0.0316091844 0.0627189109 0.7474341762 -0.0891481912 0.7477301623 -0.0893058177 0.0284987989 0.0638912765
105299370.0 0.034857914 0.0602191646 0.7489134307 -0.098979147 0.7490441998 -0.0991184087 0.0320216644 0.0620030761
110299340.0 0.0369064082 0.0578938776 0.7501156992 -0.1082285246 0.750119108 -0.1098075068 0.0349040708 0.0592657026
115299310.0 0.0396868592 0.0548821903 0.750869743 -0.1190071878 0.7512689552 -0.1191373714 0.037256044 0.0564325193
120299280.0 0.0414258901 0.0525698418 0.7517926569 -0.1295767049 0.7517300023 -0.1297992701 0.0388001434 0.0543254925
125299250.0 0.0431667722 0.0503441568 0.7515898776 -0.1391740486 0.7515738265 -0.1393246456 0.0415170604 0.0511776977
130299220.0 0.0451467932 0.0479942719 0.751706409 -0.1487050503 0.7519828936 -0.149451256 0.0434828468 0.0493287194
135299190.0 0.0466637259 0.0453509698 0.7515934352 -0.1588058614 0.7506164038 -0.1587273578 0.0445634152 0.0472252715
140299160.0 0.0477808461 0.0442288655 0.7505142904 -0.168727681 0.7509414591 -0.168622548 0.0465039673 0.045186143
145299130.0 0.049228563 0.041914168 0.7505761968 -0.1783733172 0.7501457216 -0.1784867637 0.0474033516 0.0426563211
150299100.0 0.0505834041 0.0397357381 0.7490670158 -0.1879632174 0.7492608035 -0.1882554003 0.0485952041 0.0407048836
155299070.0 0.0513433659 0.038274528 0.7476987569 -0.1978204458 0.7481390567 -0.1980990861 0.0496387994 0.0388280431
160299040.0 0.0523773765 0.0358818105 0.7458707045 -0.2068858859 0.7464352601 -0.2073081493 0.0509020521 0.0372694446
165299010.0 0.0530625905 0.0341605271 0.745531979 -0.2170174552 0.7451404249 -0.2167011666 0.0514292907 0.0348643332
170298980.0 0.0534919313 0.0327812372 0.7423802963 -0.2258224295 0.7429257262 -0.226341402 0.0529235603 0.032689556
175298950.0 0.0543469076 0.0306255483 0.7412364761 -0.2353013019 0.7414031415 -0.2353718968 0.0536786507 0.0313856582
180298920.0 0.0553870328 0.0290652166 0.7391103863 -0.2446826888 0.738849437 -0.244243624 0.0538631428 0.0299951948
185298890.0 0.0561042404 0.0274978041 0.7367066277 -0.2540028621 0.737158851 -0.2537069446 0.0541819433 0.0278734618
190298860.0 0.0562277595 0.0259054596 0.7340712458 -0.2631181541 0.734583831 -0.2626537857 0.0555221966 0.0260892967
195298830.0 0.056397344 0.0237879003 0.7319349847 -0.2716361119 0.7325325843 -0.2722098858 0.0559433867 0.024153879
200298800.0 0.0569403879 0.0228557984 0.7298739518 -0.2798015367 0.7293797208 -0.2806119683 0.0562268782 0.0231914285
205298770.0 0.0570828357 0.0214219498 0.7266751379 -0.2891551778 0.7265555987 -0.2895130844 0.0563645832 0.0210184254
210298740.0 0.0569483126 0.019637992 0.7233331445 -0.2983773895 0.7234954547 -0.2986607841 0.0567082428 0.019878575
215298710.0 0.0577031697 0.0187318458 0.7208980148 -0.3070811448 0.7207336085 -0.307059224 0.0571850287 0.0185512104
220298680.0 0.0581333337 0.0172874601 0.7177399395 -0.3160571809 0.7175113091 -0.3158148092 0.0575550096 0.0173936147
225298650.0 0.0583936265 0.0162750947 0.7138489914 -0.3237962327 0.7138447574 -0.3238744896 0.0575755773 0.0158157236
230298620.0 0.0580727937 0.0149309363 0.7113388709 -0.3324374041 0.7114131029 -0.3327577627 0.0578332754 0.014441353
235298590.0 0.0584092017 0.0134349446 0.7073583851 -0.3408356871 0.7075123058 -0.3415726307 0.0580906386 0.0127979729
240298560.0 0.0583770322 0.0119074319 0.7037845169 -0.3494349554 0.704073321 -0.3488252994 0.0581361601 0.0119177229
245298530.0 0.0589009991 0.0110351441 0.6995231355 -0.3576673545 0.6998563378 -0.3578917054 0.0584256402 0.0106603854
250298500.0 0.0583564789 0.0097228638 0.6962249886 -0.3654014582 0.6961700998 -0.3655830371 0.058919692 0.0089955744
255298470.0 0.0581492593 0.0087080444 0.6920565946 -0.3748656229 0.6923854317 -0.3742896031 0.0587621092 0.0075964738
260298440.0 0.0582195983 0.0076811848 0.6879396071 -0.3822797388 0.6885101934 -0.3824589441 0.059412173 0.006941646
265298410.0 0.0590054663 0.0070196416 0.6841119387 -0.3906397361 0.6839755654 -0.3906488901 0.058892866 0.0055696115
270298380.0 0.0591189622 0.0057115558 0.6793723546 -0.3979759057 0.6800474592 -0.3981921685 0.0589888827 0.0052064967
275298350.0 0.0585039296 0.0048732781 0.676096576 -0.4065198967 0.6761829449 -0.4065083216 0.0590461568 0.0037752292
280298320.0 0.0587595521 0.0040802408 0.6714943275 -0.4132392449 0.6710980228 -0.4142450516 0.0591081276 0.0028363657
285298290.0 0.0586905657 0.0032037556 0.6665723456 -0.4215241187 0.6667588782 -0.4219927393 0.0589621528 0.001606307
290298260.0 0.0588678561 0.0020479879 0.6623521421 -0.4296970733 0.6621711119 -0.4304269937 0.0596338106 0.0004451781
295298230.0 0.0586874356 0.0008478065 0.6579013604 -0.4379056937 0.6575582771 -0.4371620306 0.0597044756 -0.0001394301
300298200.0 0.0593293668 -6.42847e-05 0.6531865156 -0.4449333332 0.6530053688 -0.445641509 0.0594867962 -0.0015786346
305298170.0 0.0588442649 -0.0012251919 0.6484405765 -0.4529585701 0.6487595372 -0.4532445163 0.059652402 -0.0022899206
310298140.0 0.0595986496 -0.0023930815 0.6437041926 -0.4603829821 0.6431493311 -0.460933009 0.0596788836 -0.0027550414
315298110.0 0.0588206514 -0.0033226223 0.638108345 -0.4681697694 0.6387031302 -0.4681339224 0.0598314103 -0.0047140484
320298080.0 0.0586243661 -0.0043252111 0.6331519864 -0.4758625898 0.6333827146 -0.4756371885 0.0594380749 -0.0056320871
325298050.0 0.0582983645 -0.0058035577 0.6282810739 -0.4831756329 0.6282365119 -0.4834586153 0.0591513452 -0.0067659312
330298020.0 0.0579965282 -0.0063011145 0.6218913476 -0.4906276196 0.6217961943 -0.4905821044 0.0580168879 -0.0082558419
335297990.0 0.057592223 -0.0076495656 0.616548747 -0.4975234365 0.6167653132 -0.4974382947 0.0579434228 -0.0089286211
340297960.0 0.0566391077 -0.0079211044 0.6104329908 -0.5046394095 0.610841804 -0.5043863235 0.0576321004 -0.0093464329
345297930.0 0.0561692837 -0.0084070005 0.6051245018 -0.5105361446 0.6045647771 -0.510954165 0.0574593262 -0.0110012976
350297900.0 0.0566330115 -0.0091082596 0.5988112408 -0.5174324221 0.5994428452 -0.5183088826 0.0569052246 -0.0106569146
355297870.0 0.055996365 -0.0102962624 0.5932828464 -0.524828056 0.5933715416 -0.5253625825 0.0564141236 -0.011266141
360297840.0 0.0561823009 -0.0108613548 0.587889243 -0.532058681 0.5873043273 -0.5314854867 0.0563423063 -0.011730721
365297810.0 0.0556216387 -0.0114479938 0.581269161 -0.5377626142 0.5818683686 -0.5378754288 0.055764436 -0.0125914213
370297780.0 0.05593813 -0.0121908129 0.5755857438 -0.5442442159 0.5758641954 -0.5446465085 0.0559958694 -0.0130173879
375297750.0 0.0551949184 -0.0123081055 0.5703689607 -0.5514191188 0.5699396124 -0.5512581698 0.0555868291 -0.0137955459
380297720.0 0.0550323364 -0.0140082726 0.5635025287 -0.5571427238 0.563359415 -0.5572877825 0.055203464 -0.0144350024
385297690.0 0.0550178008 -0.0139687099 0.557636177 -0.5624784103 0.5573397833 -0.5634680986 0.0548658703 -0.0147807401
390297660.0 0.0543810139 -0.0146646603 0.5508633291 -0.5702169043 0.5513447071 -0.570306532 0.0549582609 -0.0156918371
395297630.0 0.0545867656 -0.0157182666 0.5453370617 -0.5753307586 0.5449574133 -0.5757584698 0.0544278291 -0.0158853307
400297600.0 0.0538229544 -0.0160503889 0.5385208146 -0.5820826323 0.5391457252 -0.5823949651 0.0533139773 -0.0168878893
405297570.0 0.054054769 -0.016657667 0.5325367251 -0.5878114832 0.532264438 -0.5881495432 0.0537685638 -0.0170614158
410297540.0 0.0538026347 -0.0174086837 0.5253651395 -0.5935124655 0.5255491069 -0.5939500301 0.0532306403 -0.0179465009
415297510.0 0.0534384415 -0.0171127284 0.5191264991 -0.5988498939 0.5194673762 -0.5997733047 0.0527781343 -0.0180318966
420297480.0 0.0529693 -0.0187680748 0.5126436694 -0.6057012854 0.512419428 -0.6054859337 0.0530575289 -0.0189329952
425297450.0 0.0532851615 -0.0193627972 0.5061457675 -0.6106408782 0.5059764524 -0.6110269046 0.0522644327 -0.0189884383
430297420.0 0.0525398066 -0.0197616435 0.4993383666 -0.6166354939 0.4988983032 -0.6170892839 0.0519023526 -0.0204626969
435297390.0 0.0523627317 -0.0206938433 0.4922800553 -0.6216980592 0.4918646153 -0.6221112532 0.0514629086 -0.0199810465
440297360.0 0.0521548744 -0.0217140986 0.4849431761 -0.6275893381 0.4849659218 -0.6278280862 0.0511804369 -0.0216865063
445297330.0 0.0523795733 -0.0221839696 0.4778686017 -0.6333828668 0.4783644563 -0.6330612721 0.0507333738 -0.0217278014
450297300.0 0.0519257492 -0.0225790825 0.4716276286 -0.6383061877 0.4719331447 -0.6385092209 0.0503205883 -0.0220990306
455297270.0 0.0510641898 -0.0233572995 0.4647536995 -0.6437690389 0.4649351076 -0.643316439 0.0503859451 -0.0226458805
460297240.0 0.0504288411 -0.023996711 0.4575298703 -0.6481288941 0.4571767055 -0.6488738929 0.0498586634 -0.0223817933
465297210.0 0.0506501305 -0.0248192062 0.4503319918 -0.6538786502 0.4504305123 -0.6538264564 0.048893486 -0.0237942802
470297180.0 0.0497883093 -0.025203278 0.4427681207 -0.6584470941 0.4437059869 -0.6589406912 0.0479806631 -0.0241232209
475297150.0 0.049394068 -0.0264670564 0.4356620878 -0.6637045 0.4356980801 -0.6633923933 0.0484315853 -0.0246104188
480297120.0 0.0498355516 -0.0268637961 0.4286756541 -0.6678341763 0.4288182686 -0.6680153411 0.0477406957 -0.0242282758
485297090.0 0.049482025 -0.0272483853 0.421830398 -0.6727907831 0.4215864902 -0.6735043999 0.0471015376 -0.025643043
490297060.0 0.0489011832 -0.0279271427 0.4138246761 -0.6776441897 0.4142514452 -0.6774852124 0.0468842141 -0.0254892798
495297030.0 0.047946038 -0.0281415931 0.4058574816 -0.6821737435 0.4061973176 -0.6824692088 0.0465713074 -0.0264694237
500297000.0 0.048116491 -0.0291110984 0.398987641 -0.6860688398 0.3989785641 -0.6868201954 0.0453670168 -0.0267023478
505296970.0 0.0472916152 -0.0296550695 0.3903066932 -0.6906045254 0.3910943298 -0.6913648808 0.0448589413 -0.0273110081
510296940.0 0.0469636997 -0.0299266459 0.3839503946 -0.6953323437 0.3837561619 -0.6954258675 0.0452930776 -0.0272101557
515296910.0 0.0461124187 -0.0304267931 0.3756713606 -0.6991282897 0.3762763124 -0.6996398656 0.0441746211 -0.0280405269
520296880.0 0.0458556409 -0.0312132228 0.36850591 -0.7034843692 0.3687376441 -0.7032039444 0.0444466002 -0.0282336565
525296850.0 0.045408846 -0.032207543 0.360867024 -0.7074337642 0.3607499023 -0.7082258905 0.0438617698 -0.0285346417
530296820.0 0.0450331423 -0.0325323433 0.3531491772 -0.7103251467 0.3528904088 -0.7116076448 0.0427285857 -0.0297497123
535296790.0 0.0443333478 -0.0329983572 0.3451717717 -0.714286691 0.3456765136 -0.7150476029 0.0427752409 -0.0300546594
540296760.0 0.0439454036 -0.033905373 0.3371849965 -0.7196125085 0.3367223934 -0.7195960547 0.0415475993 -0.0301593598
545296730.0 0.0435017232 -0.0335849285 0.3292431958 -0.7224004397 0.3292619664 -0.7232172718 0.0411443742 -0.0307132678
550296700.0 0.0425237413 -0.0343969941 0.3218697956 -0.7263639535 0.3221156185 -0.726889799 0.0407654324 -0.0303849938
555296670.0 0.042413594 -0.0350041655 0.3136853964 -0.7300291547 0.313944392 -0.7300485738 0.0402733161 -0.0309761262
560296640.0 0.041829718 -0.0357216846 0.3053607322 -0.7327431718 0.3057302029 -0.7329913823 0.0397642897 -0.0313956637
565296610.0 0.0405442483 -0.0360793651 0.2969071995 -0.7366397091 0.2971000827 -0.7368062941 0.0390522375 -0.0323539604
570296580.0 0.0411727437 -0.0363959543 0.2896634321 -0.739056856 0.2898958992 -0.7395862249 0.0388128634 -0.0315410288
575296550.0 0.0401219874 -0.0361131394 0.2813916719 -0.7426209813 0.2815654022 -0.7425361607 0.0382776433 -0.0327750821
580296520.0 0.0396160639 -0.0370302651 0.2733086193 -0.7461902038 0.2728705304 -0.7462395798 0.0374030148 -0.0333675009
585296490.0 0.0392138033 -0.0380348494 0.2654977593 -0.7491870197 0.264970534 -0.7488691458 0.0370507968 -0.0338291531
590296460.0 0.0380174484 -0.038432201 0.2565522897 -0.751822786 0.256760613 -0.7520148279 0.0366581166 -0.0334733651
595296430.0 0.0380574189 -0.0383927394 0.2490297514 -0.7546675307 0.2486558356 -0.7550987843 0.0362595284 -0.0341917752
600296400.0 0.0372952376 -0.0384151538 0.2403390992 -0.7573837325 0.2407692661 -0.7569527551 0.0355518834 -0.0341471766
605296370.0 0.0369019583 -0.038406336 0.2319514467 -0.7595192113 0.2324021278 -0.7597157625 0.0348570559 -0.0349301531
610296340.0 0.0361450021 -0.0393720007 0.2242619268 -0.7625171713 0.2242024427 -0.7628082821 0.034334363 -0.0342996005
615296310.0 0.0353949935 -0.0394011016 0.2150473194 -0.7647150768 0.2157119593 -0.7648330323 0.0343780644 -0.035020634
620296280.0 0.0346987087 -0.0400382993 0.2077024204 -0.7667605477 0.2072095581 -0.7669086239 0.0334263149 -0.035919898
625296250.0 0.0347679321 -0.0400918988 0.1981427745 -0.7696844583 0.1987866091 -0.7691588033 0.0330820121 -0.0354711693
630296220.0 0.0338188485 -0.0406064634 0.1902281848 -0.771362057 0.1904975409 -0.7713325104 0.031900105 -0.0359972705
635296190.0 0.0332239174 -0.0408942988 0.1819381311 -0.7727139911 0.1819725378 -0.7731015842 0.0315389614 -0.0363204943
640296160.0 0.0325169484 -0.0412547552 0.1740324136 -0.7750311158 0.1735355491 -0.7753586286 0.0313821937 -0.0364959236
645296130.0 0.0321083041 -0.0412785957 0.1650607968 -0.7769774985 0.1648169544 -0.7772405218 0.0297671744 -0.0373865095
650296100.0 0.031070486 -0.0409189847 0.1574024353 -0.7787911899 0.1571030874 -0.7784754318 0.029808583 -0.0374197557
655296070.0 0.0305724084 -0.0421478195 0.1484352039 -0.7799310084 0.1476571046 -0.7803889673 0.0299834109 -0.0371733912
660296040.0 0.0293146548 -0.0417859889 0.1399539346 -0.7814333272 0.140077579 -0.7815355361 0.028580688 -0.0379858002
665296010.0 0.0293403836 -0.042445891 0.1315230111 -0.7833120112 0.1317651059 -0.7831853673 0.0279213548 -0.0376020457
670295980.0 0.0294146898 -0.042442549 0.1230381191 -0.7846056498 0.1229073715 -0.7850854665 0.0270165214 -0.038112633
675295950.0 0.0284576329 -0.0424931289 0.1140841996 -0.7858984549 0.1145082346 -0.7866400749 0.0270375961 -0.0378698217
680295920.0 0.0276743132 -0.0424446031 0.1048567515 -0.7870665198 0.10544558 -0.7870879759 0.0268228443 -0.0386292004
685295890.0 0.0268320592 -0.0428819578 0.0972455844 -0.788950558 0.0965933824 -0.7887673144 0.0261006805 -0.038014927
690295860.0 0.0269255758 -0.0431067494 0.0883352683 -0.7887149496 0.0881499668 -0.7888700237 0.0255548491 -0.0384473571
695295830.0 0.0264230204 -0.0435993889 0.078396872 -0.7906630837 0.0794504037 -0.790458723 0.0244559456 -0.0388401129
700295800.0 0.0257124549 -0.0436548301 0.0712209028 -0.7913198843 0.0707589098 -0.7915592372 0.0241300791 -0.039483508
705295770.0 0.0246676758 -0.0435238881 0.0621248298 -0.7914576073 0.0623094959 -0.7916777399 0.0231903113 -0.0390512993
710295740.0 0.0239497119 -0.0433061878 0.0531740011 -0.7914548679 0.0535378912 -0.7927439837 0.021576586 -0.0389169636
715295710.0 0.0236691205 -0.0439225252 0.0452118642 -0.7927315635 0.0453494678 -0.7931589394 0.0217116835 -0.0400988201
720295680.0 0.0226997132 -0.0440798354 0.0365642202 -0.7928056293 0.036299711 -0.7935112327 0.0218140177 -0.039350579
725295650.0 0.0224185955 -0.0443363137 0.0275800257 -0.7930800288 0.027747047 -0.7933349442 0.0211348131 -0.0392350265
730295620.0 0.02133805 -0.0443604029 0.0192269459 -0.793488305 0.0193118783 -0.7941043609 0.0207218915 -0.0404608028
735295590.0 0.0212006383 -0.0441675641 0.0108518689 -0.7942726389 0.0108950495 -0.7943464209 0.0197252136 -0.0396020471
740295560.0 0.0202600037 -0.0444205369 0.0018078708 -0.7937706288 0.0023897166 -0.7942713929 0.0196482763 -0.0398941207
745295530.0 0.0199000373 -0.0447201009 -0.0063624898 -0.7937089315 -0.006612554 -0.7941800811 0.0184483358 -0.0397452154
750295500.0 0.0191939777 -0.0446382435 -0.0149676817 -0.7937227953 -0.0152742512 -0.7939514892 0.0184919099 -0.0404754794
755295470.0 0.0191499059 -0.0446697127 -0.0239026746 -0.7937406267 -0.0237395819 -0.7938073266 0.0168348843 -0.0401028059
760295440.0 0.01790133 -0.0447079562 -0.032472599 -0.7932156777 -0.0327307781 -0.7933351962 0.0159529161 -0.0404204541
765295410.0 0.0169796179 -0.0452944106 -0.0404399994 -0.7925051235 -0.0405636291 -0.7928624077 0.0167999423 -0.0396496089
770295380.0 0.0169398066 -0.0448790072 -0.0496038406 -0.7920126024 -0.0497710897 -0.7926795186 0.0160272753 -0.0397285206
775295350.0 0.0160518723 -0.044728288 -0.0582924259 -0.7915513979 -0.0585217574 -0.7923523316 0.0147471734 -0.0407438064
780295320.0 0.0156924038 -0.0449031669 -0.0663209818 -0.790633037 -0.0664354697 -0.790919351 0.0143895676 -0.0400246326
785295290.0 0.0146963296 -0.0442838038 -0.0756176201 -0.7891693287 -0.0754657953 -0.7905531315 0.0133898241 -0.040371347
790295260.0 0.0141973245 -0.0445095667 -0.0834956081 -0.7896823506 -0.084503903 -0.7899024056 0.0133893729 -0.0403500468
795295230.0 0.0133534148 -0.0448061055 -0.0922025437 -0.7877711018 -0.0925950645 -0.7882280003 0.0122992972 -0.0394201735
800295200.0 0.0130598495 -0.0444261869 -0.1014151029 -0.7871830405 -0.1017611372 -0.7873137956 0.0118885119 -0.0397562276
805295170.0 0.0118151011 -0.0446821416 -0.1094568264 -0.7857153095 -0.1093725202 -0.7861146152 0.0108716565 -0.0401820464
810295140.0 0.0115598757 -0.044570283 -0.1182463024 -0.7849261167 -0.1177722837 -0.7852319145 0.0110512748 -0.0395185998
815295110.0 0.0110409738 -0.0444836911 -0.1264059798 -0.7829865405 -0.1267418866 -0.7835901181 0.0101827334 -0.0403714227
820295080.0 0.0102175894 -0.0448186325 -0.1347936376 -0.7822314675 -0.135271512 -0.7828504168 0.0092651695 -0.0398074462
825295050.0 0.0095687636 -0.0448750275 -0.1435775806 -0.7799973529 -0.1435943985 -0.7806699396 0.0093798532 -0.0395485378
830295020.0 0.0087101322 -0.0441136833 -0.152253978 -0.7786310431 -0.1528334623 -0.7792307406 0.0082041152 -0.0400600265
