!Created with skrf (http://scikit-rf.org).
# Hz S RI R 50.0 
!freq ReS11 ImS11 ReS21 ImS21 ReS12 ImS12 ReS22 ImS22
300000.0 -0.3227677679 -0.0804543882 0.3751091732 0.0437612738 0.3732936559 0.0399100808 -0.319087522 -0.0971682693
5299970.0 -0.3267783793 0.0044458968 0.3783499642 0.0023330152 0.3783837389 0.0024062642 -0.3240777493 0.0048078835
10299940.0 -0.3240837377 0.0132353858 0.3797028362 0.0020647943 0.3794885547 0.0022635329 -0.3215758978 0.0159515823
15299910.0 -0.321231024 0.02043044 0.3815068515 0.0021613935 0.3820198337 0.0020654028 -0.3182633116 0.0237882206
20299880.0 -0.3186940779 0.0263071131 0.3847337284 0.0018047916 0.3848631578 0.0016817154 -0.3147032553 0.0303812803
25299850.0 -0.3156335826 0.0315511713 0.3879988089 3.46763e-05 0.3880438987 7.82244e-05 -0.3106599487 0.0359866807
30299820.0 -0.3129600112 0.0357083403 0.3915719514 -0.0020675792 0.3914527722 -0.0022845819 -0.307043645 0.0406711552
35299790.0 -0.3098497904 0.0399179797 0.3948640697 -0.0058165659 0.3949445079 -0.0054338394 -0.3036028427 0.0449895728
40299760.0 -0.3072164729 0.0433745174 0.3979065028 -0.0087507639 0.3979482769 -0.0090138785 -0.2998375504 0.0484754962
45299730.0 -0.3044582444 0.0468852387 0.4006343446 -0.0128131265 0.4011407377 -0.0127724706 -0.2971574277 0.0518829287
50299700.0 -0.3020328208 0.0494056521 0.4034170206 -0.0174168407 0.4029989763 -0.0171669642 -0.2940509256 0.0542106681
55299670.0 -0.3002564841 0.0520236002 0.4058001926 -0.0221041701 0.4055093583 -0.0220704107 -0.2918106643 0.0571186877
60299640.0 -0.2980920321 0.0550958189 0.4073583368 -0.0270425736 0.4077460724 -0.026813162 -0.2890500736 0.0593360703
65299610.0 -0.2962890978 0.057459516 0.4088000373 -0.03198361 0.4089890822 -0.0319301469 -0.2872299655 0.0614635035
70299580.0 -0.2945835972 0.0601177471 0.4102747324 -0.0369904593 0.4105175609 -0.0369862408 -0.2848811555 0.0636875617
75299550.0 -0.2930652293 0.062365677 0.4113286807 -0.0418451741 0.4113013385 -0.0423664991 -0.2833167769 0.0655649752
80299520.0 -0.2916680175 0.0649577492 0.4123491248 -0.0476703886 0.4122707485 -0.0474660618 -0.2815030299 0.0678464172
85299490.0 -0.2901010842 0.0671282878 0.4127688926 -0.0524750274 0.4128756464 -0.0525739293 -0.2798387425 0.0700783969
90299460.0 -0.2889583556 0.0693439769 0.4132569855 -0.0578776493 0.413664128 -0.0578593265 -0.2781803819 0.0721591691
95299430.0 -0.2872990219 0.0714154354 0.413873655 -0.0632182074 0.4134747182 -0.0631647224 -0.2764751576 0.074305279
100299400.0 -0.2863908062 0.0745506653 0.4131943669 -0.0685232405 0.4133784871 -0.0683699337 -0.2753411354 0.0759734892
105299370.0 -0.285058833 0.0766611183 0.4133157908 -0.0738237329 0.413615922 -0.0733255479 -0.2736477809 0.078114658
110299340.0 -0.2840976387 0.0788382874 0.4131705115 -0.0786631236 0.4132809236 -0.0783696319 -0.2730874644 0.079940431
115299310.0 -0.2827946104 0.0811800325 0.4128429778 -0.0839340744 0.413008571 -0.0837864262 -0.2715566112 0.0823203362
120299280.0 -0.2818275975 0.0831431297 0.4122606056 -0.0889126757 0.4126198997 -0.0889884593 -0.270406286 0.0844847986
125299250.0 -0.2811495655 0.0852618104 0.4120049376 -0.0939931644 0.41218192 -0.0938819091 -0.2695710842 0.0860798073
130299220.0 -0.2802924211 0.088181153 0.4112413593 -0.0992401487 0.4111240852 -0.0994995916 -0.2686466113 0.0885143832
135299190.0 -0.2792210078 0.090895563 0.4102230857 -0.1044127189 0.4103523312 -0.103845079 -0.2670941304 0.0907165018
140299160.0 -0.2784552622 0.0931367322 0.4097601288 -0.1095218154 0.4099747457 -0.1092945969 -0.2663486041 0.0934416156
145299130.0 -0.277327316 0.0956344655 0.4090405815 -0.1141994485 0.4085052689 -0.1140017096 -0.2653628488 0.0958633499
150299100.0 -0.2762932706 0.098332268 0.4076650813 -0.1187505758 0.4077965911 -0.1185870653 -0.2642356723 0.0984896078
155299070.0 -0.2756639219 0.1007630873 0.4066493107 -0.1239202062 0.4064877857 -0.1240450984 -0.2633316423 0.1009045143
160299040.0 -0.274465613 0.1037523117 0.4051754606 -0.1290179025 0.4049926921 -0.1289600525 -0.2625118651 0.1031891342
165299010.0 -0.2739136766 0.1058411091 0.4041339071 -0.1338529826 0.4042638276 -0.1337601233 -0.2609366058 0.105697259
170298980.0 -0.273103857 0.1085497813 0.4027078065 -0.1385916542 0.4031541891 -0.1384367791 -0.2601731793 0.1080238843
175298950.0 -0.2720594455 0.1112152043 0.4018664392 -0.1432719973 0.4012727156 -0.1431379371 -0.2593272663 0.1107626332
180298920.0 -0.2708576555 0.1141912695 0.3996563216 -0.1480248755 0.400072209 -0.1476481117 -0.2585654443 0.113307508
185298890.0 -0.2697404183 0.1161186538 0.3984538968 -0.1525944237 0.3982147269 -0.1524602551 -0.2572199006 0.1158205911
190298860.0 -0.2686639 0.1192890521 0.3970494887 -0.1574934523 0.3973206553 -0.1572840503 -0.2563213363 0.1183170728
195298830.0 -0.2678765497 0.1216637303 0.3952474953 -0.1619553312 0.3953783252 -0.1616915501 -0.2553502027 0.1211247997
200298800.0 -0.2662867022 0.1245352692 0.3934538117 -0.1666374275 0.3935675128 -0.1668302513 -0.2545449768 0.1234438112
205298770.0 -0.2654252748 0.1272148873 0.3915649335 -0.1715166822 0.3916392251 -0.1709657751 -0.2532374445 0.1256835356
210298740.0 -0.264250054 0.1300583101 0.3894647996 -0.1757295954 0.3898167102 -0.1756304657 -0.2516691004 0.1287841801
215298710.0 -0.2633366519 0.132629586 0.387965859 -0.1804323815 0.3878717566 -0.1805684047 -0.2511564502 0.1310617931
220298680.0 -0.2616397436 0.1351558901 0.3856640717 -0.1847572897 0.3857352222 -0.1845369136 -0.2500082949 0.1334509861
225298650.0 -0.260960464 0.1378489902 0.3839863093 -0.1892812139 0.3841365657 -0.1889718283 -0.2490656711 0.1358871956
230298620.0 -0.2596820431 0.1408066673 0.3821186996 -0.1933585083 0.3825447034 -0.1936340537 -0.2480043166 0.1385053585
235298590.0 -0.2583504598 0.1436764676 0.3798288524 -0.1977628643 0.3798360112 -0.1973743231 -0.2462777333 0.1408083338
240298560.0 -0.2572951747 0.1463498593 0.3777272395 -0.2024274232 0.3773952903 -0.2025043339 -0.2452292224 0.1438634947
245298530.0 -0.2559067482 0.1489172868 0.3759462052 -0.2067166396 0.3755642616 -0.206805302 -0.2437761436 0.1457747876
250298500.0 -0.2542953228 0.151832871 0.3726386112 -0.2110500538 0.3728484053 -0.2107596482 -0.2427261651 0.1487870473
255298470.0 -0.2528521554 0.1541662614 0.3705440595 -0.2149306341 0.3707471943 -0.2148385635 -0.2413180984 0.1511026143
260298440.0 -0.2517005153 0.1569805967 0.3683750635 -0.2196006524 0.3686369019 -0.2191048753 -0.2398847025 0.1537278583
265298410.0 -0.2499006576 0.1601667 0.365739058 -0.2236751243 0.3662947134 -0.2234182475 -0.2382746892 0.1559806255
270298380.0 -0.2484495004 0.1626258559 0.3638340779 -0.2276188512 0.3637235022 -0.227573073 -0.2370145129 0.1587947814
275298350.0 -0.2468051184 0.1650470091 0.3608054132 -0.2318702461 0.3613876066 -0.2317751024 -0.2352990386 0.1609677013
280298320.0 -0.2452194798 0.1678840273 0.3590167947 -0.2358583357 0.358629836 -0.2360026369 -0.2332639699 0.1635530586
285298290.0 -0.2436547658 0.1708200389 0.3561575883 -0.2398731681 0.3557994735 -0.2398607755 -0.231943528 0.1660604614
290298260.0 -0.2418785883 0.1732832906 0.3531121389 -0.2439849751 0.353441796 -0.243844049 -0.2302013774 0.1687093943
295298230.0 -0.2401454521 0.175489959 0.3506345478 -0.2478542539 0.3505992454 -0.2480478017 -0.2281885209 0.1712217023
300298200.0 -0.2385583703 0.1782918481 0.3479443848 -0.2514565623 0.3479153976 -0.2522505069 -0.2268422439 0.1734507709
305298170.0 -0.236460741 0.1805939761 0.3446583061 -0.2560723218 0.3451381189 -0.2558138469 -0.2244838177 0.1758060216
310298140.0 -0.2348916143 0.1833024065 0.3421563242 -0.2596567838 0.3425106953 -0.2597126138 -0.2230798719 0.1780526228
315298110.0 -0.2332056179 0.1858350358 0.3395051497 -0.2637043351 0.3395144468 -0.2635016686 -0.2212493301 0.1804879778
320298080.0 -0.2312341596 0.1883215913 0.3361535478 -0.267759352 0.336483191 -0.2675443771 -0.2194695752 0.1831845318
325298050.0 -0.2293968527 0.1907594193 0.3333097479 -0.2719563736 0.333153832 -0.2714271533 -0.2177280483 0.1852359614
330298020.0 -0.2275283044 0.1930529464 0.3301710183 -0.2751627133 0.3305812685 -0.2751086922 -0.2163064551 0.1877794502
335297990.0 -0.2254445406 0.1954551392 0.3269803554 -0.2783416431 0.3271882204 -0.2786537249 -0.2145419635 0.1906572211
340297960.0 -0.2241857006 0.1981865233 0.3237747768 -0.2820313473 0.3237604177 -0.2825761449 -0.2124089667 0.1930899404
345297930.0 -0.2218928084 0.2006524824 0.3204756354 -0.2860241789 0.3204955466 -0.2859430581 -0.2106543575 0.1952257122
350297900.0 -0.2203568621 0.2028299509 0.3171034763 -0.2893372824 0.3170626954 -0.2894647681 -0.2090999826 0.1975684013
355297870.0 -0.2179691157 0.2059101577 0.3140220852 -0.2931050082 0.3142234779 -0.2928158147 -0.2068974183 0.2003088646
360297840.0 -0.216229865 0.2084060441 0.3111811127 -0.2961806264 0.3113370107 -0.2962734004 -0.2048808618 0.2025582685
365297810.0 -0.2143073979 0.2107704827 0.3075779815 -0.2997943964 0.3077748091 -0.3000776289 -0.2026267855 0.2050881224
370297780.0 -0.2115192128 0.2129927642 0.3040697844 -0.3030514245 0.3042319684 -0.3029224217 -0.2008411466 0.2072339285
375297750.0 -0.2092899215 0.215549919 0.3006913993 -0.3063847379 0.3011365181 -0.3065467515 -0.1988475374 0.2094144666
380297720.0 -0.2073897013 0.2179955089 0.2972607694 -0.3097447638 0.2977277015 -0.3093651697 -0.1970574937 0.2118225221
385297690.0 -0.2054952796 0.2204536581 0.2940095483 -0.3131159803 0.2938296179 -0.3127849377 -0.194706446 0.2139480369
390297660.0 -0.2028438824 0.2226808483 0.2900885324 -0.3160532846 0.2906281155 -0.315910097 -0.1926521585 0.216470658
395297630.0 -0.2007038259 0.2252837135 0.2872899422 -0.3196561878 0.2868955148 -0.3193718051 -0.1899657419 0.2184508941
400297600.0 -0.1984662211 0.2273362184 0.2829596135 -0.3227183941 0.2834551386 -0.3225225872 -0.187993225 0.2206828965
405297570.0 -0.196520991 0.2295117983 0.279905867 -0.3258360424 0.2801865568 -0.3254927758 -0.1859391763 0.2228025146
410297540.0 -0.193779635 0.2314558918 0.2762922224 -0.3286338556 0.2766552499 -0.3286551939 -0.1836899035 0.2251933823
415297510.0 -0.1912628887 0.2338544035 0.2724062125 -0.3317858961 0.2727444978 -0.3318183195 -0.1815821958 0.2271309063
420297480.0 -0.1892263066 0.2364018014 0.2685067074 -0.3348425539 0.2689590188 -0.3348252483 -0.1794656955 0.2290800893
425297450.0 -0.1866723956 0.2382684119 0.2653415615 -0.3372148118 0.2655919703 -0.3374952134 -0.1770297839 0.2313707169
430297420.0 -0.1842420833 0.2403377329 0.2615171493 -0.3398921406 0.2616671511 -0.340180989 -0.1749538872 0.2334284576
435297390.0 -0.1817523221 0.2426123703 0.2577151523 -0.343090965 0.2576299817 -0.3433584437 -0.17196403 0.2349305523
440297360.0 -0.1791172139 0.2445296128 0.2536561767 -0.3458620184 0.2537857997 -0.3460321486 -0.1696144234 0.2369607054
445297330.0 -0.1766125889 0.2465136585 0.250104937 -0.3484228966 0.2503683944 -0.3483021332 -0.1668887222 0.2384759027
450297300.0 -0.173818957 0.2482435853 0.24612084 -0.3511325348 0.2462840374 -0.3514572905 -0.1647515345 0.240536469
455297270.0 -0.1714667037 0.2505123374 0.2422462154 -0.3541696524 0.24271546 -0.3543128322 -0.1622990535 0.2425116628
460297240.0 -0.1692223106 0.2524885182 0.2386885936 -0.3566276606 0.2386028164 -0.3565537682 -0.1596786633 0.2444111894
465297210.0 -0.1662455435 0.2542461364 0.2343885288 -0.3595686794 0.2345637462 -0.3593531366 -0.1569276643 0.2460294724
470297180.0 -0.16364078 0.2561566249 0.2302836495 -0.3616943439 0.2302661949 -0.3615888197 -0.1541463046 0.248197582
475297150.0 -0.1610441005 0.2578143358 0.2264307385 -0.3641084484 0.2266024955 -0.3640125031 -0.1515049111 0.2495653365
480297120.0 -0.1583331579 0.2600248515 0.2225780081 -0.3670390179 0.2222920643 -0.366922972 -0.1486480294 0.2513965168
485297090.0 -0.1559014133 0.2617947142 0.2186888247 -0.3691242361 0.2187860362 -0.3687968726 -0.1461302682 0.2530259485
490297060.0 -0.1530016714 0.2635447239 0.2146454253 -0.3716607091 0.2145693099 -0.3711264261 -0.1437332052 0.2548724093
495297030.0 -0.1501961368 0.2653093075 0.2101368812 -0.3735978543 0.2106023385 -0.3731781437 -0.1409435157 0.2566156686
500297000.0 -0.1472856418 0.2670641771 0.2062164069 -0.375564504 0.206116921 -0.3756705857 -0.137902969 0.2589692062
505296970.0 -0.144230575 0.2687722584 0.2020596513 -0.3781393188 0.2018678824 -0.3780603194 -0.1354833317 0.2599976432
510296940.0 -0.1415006368 0.2703554812 0.1979124553 -0.3799463832 0.1977432177 -0.3803363233 -0.1326726023 0.2616061083
515296910.0 -0.1387766153 0.2722146299 0.1937287399 -0.3824766602 0.1938019849 -0.3824902364 -0.1298663848 0.2633218534
520296880.0 -0.1362250249 0.2739145561 0.1894831711 -0.3848563516 0.1896712428 -0.3843231246 -0.1272536572 0.2647965632
525296850.0 -0.1329198347 0.2747513575 0.1851148164 -0.3860067231 0.185390032 -0.3863466723 -0.1245502116 0.2663854093
530296820.0 -0.1300131361 0.276901566 0.1809215018 -0.3884289283 0.1811491393 -0.3882251608 -0.1219815685 0.2679288135
535296790.0 -0.1276618127 0.2782611663 0.1769387165 -0.3901162708 0.176907773 -0.3898625101 -0.1191818957 0.2690161664
540296760.0 -0.1245646703 0.2798359473 0.1725859703 -0.3924127495 0.1724183928 -0.3921728356 -0.1160557833 0.2707825869
545296730.0 -0.1218021425 0.2812069972 0.1680663044 -0.3938274698 0.1683133759 -0.3939693523 -0.1135219435 0.2720292673
550296700.0 -0.118667449 0.282478583 0.163763689 -0.3954566373 0.1638909512 -0.3957371638 -0.1107549467 0.273579502
555296670.0 -0.1159155867 0.2837278162 0.1598371939 -0.3973909549 0.1598057269 -0.3975692504 -0.1077503033 0.275463051
560296640.0 -0.1125409386 0.2858419482 0.1554053037 -0.3996327246 0.1552713978 -0.3991523584 -0.1047205666 0.2762964549
565296610.0 -0.1098870624 0.2866920128 0.1509016857 -0.4010501949 0.1511226937 -0.4009029171 -0.1022015613 0.2775319072
570296580.0 -0.1069955522 0.288123293 0.1463844589 -0.4027188639 0.1461352523 -0.4027826486 -0.0994272998 0.2791479921
575296550.0 -0.1040922725 0.2895515226 0.1424770428 -0.4041583889 0.1419256073 -0.4039242765 -0.0965323212 0.2802368711
580296520.0 -0.1009398863 0.290583648 0.1379314382 -0.405647735 0.1376526258 -0.4055888407 -0.0934143576 0.2811719668
585296490.0 -0.0979173362 0.2916170071 0.1331950007 -0.4066571658 0.1334754781 -0.4070093117 -0.0906123668 0.2822750792
590296460.0 -0.0946318645 0.2928859584 0.1288734593 -0.4078201285 0.1290938403 -0.4080967106 -0.0880108242 0.2835384184
595296430.0 -0.0914994171 0.2937863211 0.1242920945 -0.409727137 0.1242073555 -0.4098537819 -0.0847601836 0.2840203083
600296400.0 -0.0886310992 0.2950463244 0.1202446446 -0.4110871582 0.1201081925 -0.4107560025 -0.0817740093 0.2851925694
605296370.0 -0.0856323274 0.2958726624 0.1154351528 -0.4118795534 0.1156736416 -0.4123596189 -0.0787825926 0.2862171531
610296340.0 -0.082462337 0.2970245748 0.1108391804 -0.4131309684 0.1109579491 -0.4132938571 -0.0756611065 0.2873813525
615296310.0 -0.0789380404 0.2981623279 0.1059663315 -0.4140680603 0.1061294909 -0.4147089082 -0.0724180674 0.2881171949
620296280.0 -0.0760036856 0.2982706741 0.1018035246 -0.4149480679 0.1022268848 -0.415053174 -0.069794578 0.288888089
625296250.0 -0.0730292133 0.2996663534 0.098008138 -0.416479255 0.0974370815 -0.4168574148 -0.0663095745 0.2898559499
630296220.0 -0.0693678923 0.300748915 0.0926344785 -0.4179142832 0.0924846383 -0.4175097206 -0.0634364712 0.2906097395
635296190.0 -0.0669254162 0.3016894967 0.0881845466 -0.4184113237 0.088310236 -0.4187229511 -0.0602362835 0.2912564221
640296160.0 -0.0636676984 0.3023217215 0.0837367465 -0.4192743784 0.0840076181 -0.4193953034 -0.0569550424 0.2919376029
645296130.0 -0.0604159263 0.3033538266 0.0787841614 -0.4199767217 0.0794276191 -0.4203566333 -0.0539940126 0.2928950975
650296100.0 -0.0570012926 0.3039019235 0.074067744 -0.420845054 0.0748659399 -0.4209743985 -0.0508693836 0.2934172567
655296070.0 -0.0543987078 0.3048680865 0.0703108039 -0.4216994126 0.0700943431 -0.4215291958 -0.047631957 0.2941793253
660296040.0 -0.0510874416 0.305333711 0.0654622807 -0.422121133 0.065549542 -0.4225394181 -0.0443068753 0.2949723546
665296010.0 -0.0474716502 0.3057790234 0.0604123054 -0.4231034809 0.060795596 -0.423159897 -0.0413564999 0.2957206517
670295980.0 -0.0449848382 0.3067368038 0.0562445089 -0.4235820184 0.056040844 -0.4236539614 -0.0384386996 0.2961291226
675295950.0 -0.0413504217 0.3075384304 0.0516244194 -0.424186335 0.0517907037 -0.423744045 -0.0354048959 0.2968747106
680295920.0 -0.0382953426 0.3077325895 0.0469864909 -0.4245070688 0.0464551805 -0.4250208563 -0.0319517332 0.2976750991
685295890.0 -0.0346849266 0.3088932796 0.0424944583 -0.4254421127 0.0423242004 -0.4252607026 -0.0289520352 0.2981042486
690295860.0 -0.0314039242 0.3089671811 0.0378219224 -0.4249063502 0.0377378836 -0.4258046801 -0.0258527836 0.2991940517
695295830.0 -0.0283533156 0.3092954412 0.0333998333 -0.425438311 0.033064597 -0.4255604515 -0.0226127424 0.2994884735
700295800.0 -0.0249407719 0.3095584744 0.0286754335 -0.4260773301 0.028249234 -0.4258847637 -0.0198137649 0.2999115298
705295770.0 -0.0220989731 0.3105399781 0.0238497033 -0.4264835491 0.0240160199 -0.4265590999 -0.0162817624 0.3005278581
710295740.0 -0.0185748042 0.3106297527 0.0194588165 -0.4270553003 0.0194258818 -0.427014763 -0.013150942 0.3001129578
715295710.0 -0.0157385185 0.3108111236 0.0151008499 -0.4267064523 0.0145486773 -0.426926702 -0.010087899 0.3008345588
720295680.0 -0.0124274014 0.3113269264 0.0103341823 -0.4268491464 0.0101870249 -0.4268546317 -0.0069481401 0.3012664199
725295650.0 -0.0085083147 0.3117669656 0.0050679425 -0.4269051808 0.0054248489 -0.4272821877 -0.0041657942 0.3015974077
730295620.0 -0.0055221771 0.311938138 0.000858247 -0.4266391082 0.0009776833 -0.4272249526 -0.0011902271 0.3013788033
735295590.0 -0.0024031166 0.3123294356 -0.0039820512 -0.4273279892 -0.003716204 -0.4267840872 0.0018134686 0.3012851513
740295560.0 0.0010326736 0.3121535301 -0.0084783549 -0.426559272 -0.0086059988 -0.4268369441 0.0056060654 0.3019515922
745295530.0 0.0038763781 0.3125399673 -0.0131540867 -0.4263269916 -0.0128690269 -0.4266544641 0.008427482 0.30161588
750295500.0 0.0075152999 0.3123627434 -0.0174376115 -0.4262974764 -0.0176380477 -0.4263586847 0.0118138171 0.3017688212
755295470.0 0.0108656816 0.3123386043 -0.0221286854 -0.4262167402 -0.0224159825 -0.4262083302 0.0150030998 0.3014781133
760295440.0 0.013950885 0.3125185469 -0.0270089638 -0.4261370122 -0.0267802205 -0.4261622288 0.0177895159 0.3016669443
765295410.0 0.0171064266 0.31241821 -0.0314926265 -0.4254740323 -0.0319356016 -0.4256229883 0.0211579757 0.3017849822
770295380.0 0.0200530113 0.3123759616 -0.0359619237 -0.4252396073 -0.0362278174 -0.4249531921 0.0239162024 0.3013498804
775295350.0 0.0235344094 0.312052875 -0.040907961 -0.4244600097 -0.0402125886 -0.4247880343 0.0269000823 0.3014812319
780295320.0 0.0271887863 0.312136452 -0.0456260214 -0.4239411907 -0.0449225789 -0.4237628743 0.0300974635 0.3008318478
785295290.0 0.0299143547 0.3112832035 -0.050229929 -0.4229536487 -0.0500175943 -0.4233557312 0.0337973343 0.3008518966
790295260.0 0.0333506049 0.3118297316 -0.0540971252 -0.4226983556 -0.0538667396 -0.4227502689 0.0372252863 0.3006790368
795295230.0 0.0365647817 0.311469537 -0.0588338645 -0.4223239896 -0.05873497 -0.4222028981 0.040432637 0.2999795213
800295200.0 0.0396257737 0.3111819548 -0.0638276885 -0.4213349931 -0.0634004224 -0.4215904857 0.043313791 0.3001916046
805295170.0 0.0434857387 0.3107370192 -0.0681940828 -0.4206378157 -0.0679197217 -0.4209525092 0.0461986081 0.2997560052
810295140.0 0.0462944898 0.3100671227 -0.0725439896 -0.4194690677 -0.072805207 -0.4199700902 0.0501758967 0.2994153512
815295110.0 0.0493968284 0.30953821 -0.0771401977 -0.418872334 -0.0771291413 -0.4190439104 0.0530496434 0.2990969878
820295080.0 0.0526373541 0.3097733777 -0.0814548309 -0.4182035346 -0.0813152381 -0.4182241738 0.0561104575 0.2987125015
825295050.0 0.0564555315 0.3089351928 -0.0858615253 -0.4172841296 -0.0858766264 -0.4171891523 0.0594883188 0.298228594
830295020.0 0.0591186683 0.3091011995 -0.0907796204 -0.4162112699 -0.0906602001 -0.4159887381 0.0632900584 0.2974870286
