!Created with skrf (http://scikit-rf.org).
# Hz S RI R 50.0 
!freq ReS11 ImS11 ReS21 ImS21 ReS12 ImS12 ReS22 ImS22
300000.0 -0.234907487 -0.1214808116 0.4667244464 0.0801401227 0.4657795384 0.0807159668 -0.2360347836 -0.1261556373
5299970.0 -0.2448177359 0.0052820112 0.4734709648 0.0055657177 0.4739612538 0.0059265086 -0.2439242322 0.004925281
10299940.0 -0.2419851283 0.0185714105 0.476092304 0.0068855258 0.4762247082 0.0073289454 -0.2402162278 0.017932975
15299910.0 -0.2368417269 0.0281950144 0.4794801764 0.008455316 0.4797349774 0.0085135979 -0.2360607698 0.0272961619
20299880.0 -0.2317517269 0.0363836445 0.4843093558 0.0085266203 0.4846133863 0.0086502857 -0.2312544767 0.0352315931
25299850.0 -0.2256417353 0.0427631771 0.4895039274 0.0081548499 0.4896047414 0.0077690855 -0.2260589557 0.0418484805
30299820.0 -0.2202881795 0.0477392665 0.495359938 0.0055196091 0.4950324483 0.0054469833 -0.2208869574 0.0472019198
35299790.0 -0.2143777868 0.0517835509 0.5002121446 0.0024978717 0.5005081599 0.0023279392 -0.2156928103 0.051446568
40299760.0 -0.2090742511 0.0545135083 0.505494292 -0.0014401825 0.5058238583 -0.0015494429 -0.2108201747 0.0548635885
45299730.0 -0.2039854074 0.0571283962 0.5103932 -0.0060152092 0.5105622503 -0.006059683 -0.2056368156 0.0576467241
50299700.0 -0.1990851815 0.0588547959 0.5146070756 -0.0114776323 0.5143923868 -0.0119418722 -0.2011963648 0.0602839767
55299670.0 -0.195126112 0.0604025311 0.5184493881 -0.0175424323 0.5181834456 -0.0177204095 -0.1976388234 0.0620193123
60299640.0 -0.1908377656 0.0620129359 0.5218799021 -0.0241153833 0.5217846852 -0.0241432184 -0.1937472211 0.0631276874
65299610.0 -0.1872822325 0.0627997388 0.5250494861 -0.0303051645 0.5248244917 -0.0303539734 -0.1901472435 0.0647015024
70299580.0 -0.1837910683 0.0629967912 0.5268947712 -0.0367145151 0.5273889631 -0.036876929 -0.1872495057 0.065870364
75299550.0 -0.1810174355 0.0636890455 0.5290015525 -0.04418927 0.5293021811 -0.0436486089 -0.1843669656 0.0671499267
80299520.0 -0.1784428747 0.0644391717 0.5312555065 -0.0502981609 0.5312679456 -0.0511836716 -0.1813740957 0.0682024232
85299490.0 -0.175597079 0.0646301265 0.5322330572 -0.0576929016 0.5326511026 -0.0571039095 -0.1794380922 0.0688700871
90299460.0 -0.1734404676 0.0653169058 0.5331064811 -0.0644538806 0.5334292186 -0.0645136767 -0.1768191801 0.0700853721
95299430.0 -0.1713896475 0.0656441394 0.5344035246 -0.0714905331 0.5345621256 -0.0716813998 -0.1750050249 0.0704218532
100299400.0 -0.1695467958 0.0660208811 0.5348050882 -0.0783813189 0.534419219 -0.078319008 -0.1732305074 0.0716696973
105299370.0 -0.1676908573 0.0664857586 0.5349998239 -0.0849840634 0.535372101 -0.0851501023 -0.1710300016 0.0720199947
110299340.0 -0.1657804997 0.0668110083 0.5353425529 -0.0917470924 0.5354719126 -0.0917888522 -0.1698214198 0.0732448084
115299310.0 -0.164469966 0.0677676014 0.5351158404 -0.0989278743 0.5353223146 -0.0987292205 -0.1683644057 0.0745016955
120299280.0 -0.163153729 0.0682735766 0.5348565837 -0.1063095429 0.5351139746 -0.1061717935 -0.1666751014 0.0748699101
125299250.0 -0.161760959 0.0688190913 0.5347060395 -0.1123707857 0.5348983985 -0.1123223455 -0.1652998628 0.0760967408
130299220.0 -0.1608071302 0.0690111919 0.534092669 -0.1190571571 0.5341234228 -0.1194333009 -0.1641416372 0.0771628998
135299190.0 -0.1597306833 0.0703590611 0.5334243162 -0.1261846714 0.5337884607 -0.1261168654 -0.1630575017 0.0777546399
140299160.0 -0.158486742 0.0710059541 0.5329404022 -0.1329041346 0.532888686 -0.13253521 -0.1622727427 0.0785535201
145299130.0 -0.1577000697 0.0718181165 0.5317565057 -0.1394303814 0.5316631131 -0.1390765859 -0.1609698176 0.0801197233
150299100.0 -0.1566071808 0.0724236791 0.530640486 -0.1455923934 0.5305235574 -0.1455798869 -0.1599121901 0.0813143676
155299070.0 -0.1553598274 0.0731604631 0.5287539718 -0.1520752745 0.5294096003 -0.1521714248 -0.1585555094 0.0824497905
160299040.0 -0.1545002958 0.0744123882 0.5281360406 -0.1588482351 0.5278620512 -0.159048721 -0.1582078594 0.0835955195
165299010.0 -0.1536698155 0.0750912347 0.5265706806 -0.1647811246 0.5263771589 -0.1652050645 -0.1569614955 0.0844290565
170298980.0 -0.1529176224 0.0762401909 0.5247630276 -0.1713702725 0.5250938179 -0.1716050792 -0.1560270408 0.0857394174
175298950.0 -0.15220628 0.0771968184 0.523618248 -0.1774558583 0.523946893 -0.1780375054 -0.1550854239 0.0873723555
180298920.0 -0.1516454495 0.0782833026 0.5218111004 -0.1843474682 0.5219710183 -0.184502821 -0.1541741766 0.088377663
185298890.0 -0.150781155 0.0796868276 0.5203399818 -0.1900311251 0.5196969694 -0.1902794656 -0.1528778953 0.0895073249
190298860.0 -0.1497121136 0.0808294474 0.517749739 -0.1964423221 0.5182340535 -0.1964319607 -0.1520042806 0.0909799294
195298830.0 -0.1491273705 0.0817712601 0.5161312776 -0.2023378131 0.5164294587 -0.2025934881 -0.1513636577 0.0924172721
200298800.0 -0.148019533 0.082723154 0.5141070162 -0.2091859929 0.5140017154 -0.209062317 -0.15019465 0.0937956682
205298770.0 -0.147865283 0.084038948 0.5118367382 -0.2144381769 0.5119422714 -0.2145845986 -0.1492051515 0.0950867726
210298740.0 -0.1470737807 0.085481745 0.5097560805 -0.2207131266 0.5094177751 -0.220786051 -0.1484799649 0.0963352485
215298710.0 -0.1461005019 0.0868186228 0.5067439923 -0.226554734 0.5071979656 -0.2269935012 -0.1472345607 0.0974570933
220298680.0 -0.1453633644 0.0879052934 0.504875068 -0.2325989106 0.5044791903 -0.2328569329 -0.1461950861 0.0988684244
225298650.0 -0.1445176209 0.0892191336 0.5018326378 -0.2384593055 0.5022470777 -0.2381945227 -0.1455463403 0.1003471649
230298620.0 -0.1436883876 0.0904415509 0.4996429205 -0.2440280389 0.4997872754 -0.2443942261 -0.1446258073 0.1015160459
235298590.0 -0.143106489 0.091721866 0.4974313468 -0.250337139 0.4972968234 -0.2500488081 -0.1433354471 0.103189649
240298560.0 -0.1425159545 0.0931630656 0.4945567891 -0.2554834109 0.4945208799 -0.2556910068 -0.1426730414 0.1046268646
245298530.0 -0.1414342822 0.0942312572 0.4914600111 -0.2616126113 0.4916697167 -0.2614529966 -0.1417570758 0.1060177951
250298500.0 -0.1407997094 0.0954995751 0.4888863471 -0.2667524708 0.4891736706 -0.266724874 -0.1408003444 0.1076943636
255298470.0 -0.1397996084 0.0971883392 0.4862231442 -0.2723794771 0.4866311923 -0.2726411809 -0.1395218849 0.1092548966
260298440.0 -0.1389968836 0.0982654011 0.4831423847 -0.2777745407 0.4832531843 -0.278096195 -0.1383669074 0.1103365922
265298410.0 -0.1386545278 0.0996684987 0.4796780664 -0.2837987768 0.4800388786 -0.2838313335 -0.1370345552 0.1119122639
270298380.0 -0.1376375827 0.1008200884 0.4771588526 -0.2892994306 0.4768134479 -0.2892060784 -0.1357682367 0.1134150776
275298350.0 -0.1366619037 0.1025855164 0.4733672228 -0.2941155236 0.4735716125 -0.2943045639 -0.1349418157 0.1152147675
280298320.0 -0.1360400531 0.103796329 0.4707689827 -0.2993133119 0.471105201 -0.300073511 -0.1337632956 0.1165037523
285298290.0 -0.1351305114 0.1052042656 0.4670097529 -0.3048573234 0.4677404577 -0.3051011751 -0.1326651367 0.1180538873
290298260.0 -0.1344078511 0.1065501048 0.4644562588 -0.3106326302 0.4644564943 -0.3104305392 -0.131496112 0.119276925
295298230.0 -0.1332422111 0.1075886234 0.4607178861 -0.3158766422 0.4610125455 -0.3159800765 -0.1300916085 0.1205013598
300298200.0 -0.1322941947 0.1093828786 0.4576161972 -0.3211523817 0.4572006464 -0.3209795556 -0.1286580465 0.1218593036
305298170.0 -0.1315965522 0.1100496608 0.4541301999 -0.3262918932 0.4541717139 -0.3263765597 -0.1272632109 0.1232489191
310298140.0 -0.1303544467 0.1113693902 0.4503359282 -0.33146825 0.4504701778 -0.3309943722 -0.1260737319 0.1244239723
315298110.0 -0.1294826943 0.1125039871 0.4469186114 -0.336811553 0.4467347083 -0.3371451291 -0.1247792997 0.1259099888
320298080.0 -0.1285384187 0.1138782576 0.4426579001 -0.3423247713 0.4432876074 -0.3420139597 -0.1234597712 0.1268829398
325298050.0 -0.1283368683 0.1144584066 0.4388961935 -0.3469109976 0.4399000461 -0.3468700568 -0.1221540326 0.1282349233
330298020.0 -0.1275734078 0.1161102443 0.4349126524 -0.3520922712 0.435659242 -0.3519600887 -0.1211608778 0.1297631846
335297990.0 -0.1264040228 0.1171577812 0.4311760545 -0.3565636576 0.4315808191 -0.3565476699 -0.1202141866 0.1311758104
340297960.0 -0.1259748944 0.1185491981 0.4267492504 -0.3617895182 0.4272139361 -0.3618630113 -0.1189560154 0.1329481662
345297930.0 -0.1249818218 0.1198673181 0.4228549624 -0.3664122399 0.4230385631 -0.3663656617 -0.1172278325 0.1339671404
350297900.0 -0.1240936167 0.1212701336 0.4190869737 -0.3705867387 0.4190928034 -0.370869349 -0.1158192667 0.1349048089
355297870.0 -0.1231656333 0.1224822097 0.4148376519 -0.3749000741 0.4150052256 -0.3751645635 -0.1145726682 0.136595618
360297840.0 -0.1220925527 0.1237726549 0.4106810862 -0.3799036861 0.4110012033 -0.3802525532 -0.1136086486 0.1381389456
365297810.0 -0.1212426994 0.1252345752 0.406393281 -0.3843168108 0.4064390027 -0.3846326583 -0.1121012551 0.1392630821
370297780.0 -0.119988605 0.1264531383 0.4018168412 -0.3890826573 0.4023619327 -0.3888116119 -0.1105926705 0.1408300211
375297750.0 -0.1187445888 0.1275672546 0.3979244385 -0.3931791811 0.3981237445 -0.3934369574 -0.1088700338 0.1422023411
380297720.0 -0.1181871964 0.1293309486 0.3942129723 -0.3976555713 0.3936220237 -0.3980233708 -0.1076134665 0.1437320642
385297690.0 -0.116904741 0.1303225911 0.3890814531 -0.4020705625 0.3894420215 -0.4023352843 -0.1058302359 0.1451747826
390297660.0 -0.1158215564 0.1312581674 0.3846624064 -0.4058826335 0.3847748935 -0.4061228222 -0.1041739693 0.1460461388
395297630.0 -0.1144014541 0.1326307596 0.3807514678 -0.4099336359 0.38052455 -0.4101903258 -0.1028255583 0.1472795329
400297600.0 -0.1136011553 0.1336966691 0.3756536096 -0.4147021761 0.3762809945 -0.4145311191 -0.1012196612 0.1489559058
405297570.0 -0.11253055 0.1345742302 0.3714547769 -0.418390117 0.3711662524 -0.4186612455 -0.0993204239 0.1502830207
410297540.0 -0.1111395273 0.136509879 0.3667204375 -0.4229535851 0.367035746 -0.4226408458 -0.0979422903 0.1514837977
415297510.0 -0.1102149674 0.1374785967 0.3619815214 -0.426844824 0.3626193988 -0.4268503366 -0.0961493022 0.1527117457
420297480.0 -0.1088354574 0.1383460033 0.3570886576 -0.4306205363 0.35785457 -0.4305490177 -0.0945562213 0.1538871822
425297450.0 -0.1070458352 0.1391880314 0.3530466622 -0.4341379457 0.3524552701 -0.4344160864 -0.0928852817 0.1548433847
430297420.0 -0.1061794993 0.1405951262 0.3484491855 -0.4384677996 0.348332877 -0.4381886287 -0.0910078911 0.1562392863
435297390.0 -0.1046085845 0.1416379338 0.3429304335 -0.44256755 0.3433071022 -0.4422049932 -0.0898152614 0.1578898976
440297360.0 -0.1033985346 0.1424876911 0.337724531 -0.445679846 0.3381849769 -0.4459178335 -0.0879592842 0.1584885781
445297330.0 -0.1018927812 0.1436315279 0.3333847064 -0.4494296971 0.3334682213 -0.4496289927 -0.0857544637 0.1598474835
450297300.0 -0.1005505599 0.1447757625 0.3283715525 -0.4531220886 0.3288632046 -0.4531284991 -0.0840640179 0.1609293752
455297270.0 -0.0996423115 0.1457075092 0.3237688186 -0.4566737805 0.3237428717 -0.4568481015 -0.0824699408 0.1623009919
460297240.0 -0.0979834326 0.1469909567 0.3187403119 -0.4608493978 0.3186317716 -0.4606592733 -0.0807280833 0.1630738455
465297210.0 -0.0961681249 0.147742974 0.3128767757 -0.4635434552 0.313172038 -0.4640739078 -0.0783024987 0.1644452778
470297180.0 -0.0950656429 0.1487789954 0.3079553471 -0.4668738031 0.3086622072 -0.4672790502 -0.0767807882 0.1651793129
475297150.0 -0.0937976477 0.1500243875 0.3029923258 -0.470508087 0.3033661194 -0.470583858 -0.0749467074 0.1660665271
480297120.0 -0.0919460154 0.1513596146 0.2979494501 -0.473809853 0.2980608886 -0.4737628251 -0.0735139568 0.1670309343
485297090.0 -0.0907726698 0.1516627444 0.2927157562 -0.4765568956 0.2927930714 -0.4769391637 -0.071530504 0.1683434358
490297060.0 -0.0885849786 0.152751517 0.2872814384 -0.4798809923 0.2877655244 -0.4804901025 -0.069456275 0.1688423067
495297030.0 -0.0877024165 0.153632463 0.282434663 -0.4831396836 0.2823222187 -0.4831401345 -0.0673342522 0.1696707058
500297000.0 -0.0861985302 0.1549935451 0.2772435734 -0.4861176351 0.276942613 -0.4864012537 -0.0656233349 0.1708123601
505296970.0 -0.0843549485 0.1559537609 0.2715595064 -0.4896224768 0.2720416845 -0.4888199942 -0.0636604236 0.171168343
510296940.0 -0.0822873142 0.1567292221 0.2663963577 -0.4929064232 0.2666305346 -0.4923696154 -0.0613016653 0.1724861396
515296910.0 -0.0813341705 0.1577909985 0.2609555054 -0.4950567531 0.2606200134 -0.4950531822 -0.0597687502 0.1726259239
520296880.0 -0.0796562099 0.1585781954 0.2554794504 -0.4977025588 0.2555826916 -0.4977805569 -0.0573449747 0.1743408221
525296850.0 -0.0778124892 0.1593548649 0.2500341443 -0.5003356632 0.2496801925 -0.5004083551 -0.055402645 0.1749374637
530296820.0 -0.0766390608 0.1603869188 0.2444013109 -0.5034333106 0.2446104688 -0.502929474 -0.0535033105 0.1751106216
535296790.0 -0.0739583306 0.1611718802 0.2386893746 -0.5052620013 0.2390633835 -0.5059483716 -0.0516800078 0.1763007118
540296760.0 -0.0729478271 0.1622669143 0.2335128705 -0.5081900331 0.2333711713 -0.5081085381 -0.0497650571 0.1765639917
545296730.0 -0.0717385932 0.1633251908 0.2279882144 -0.5103573068 0.2279154728 -0.510637984 -0.0474825093 0.1775610275
550296700.0 -0.0691402521 0.1641307385 0.2223722598 -0.513516356 0.2218854502 -0.5134608313 -0.0453564468 0.1781333339
555296670.0 -0.0680153971 0.1647606302 0.216726495 -0.5160720836 0.2168199064 -0.5155178703 -0.0437033964 0.1782497897
560296640.0 -0.0657012534 0.165415727 0.2110702298 -0.5175879587 0.2116087767 -0.5177915516 -0.0417349918 0.1796916824
565296610.0 -0.0645366474 0.1664587057 0.2057472611 -0.5202259895 0.2055454305 -0.5198130661 -0.0393100638 0.1800270867
570296580.0 -0.0630583755 0.1674842171 0.1996081543 -0.5220665234 0.1994849695 -0.5224628231 -0.0376415333 0.1805361525
575296550.0 -0.0610076978 0.1678810882 0.1942992973 -0.5243961301 0.1941477028 -0.5245429984 -0.0352347561 0.1810515464
580296520.0 -0.059448005 0.1689067965 0.1885944992 -0.5265831337 0.1882694705 -0.5265793938 -0.0338230694 0.1815099191
585296490.0 -0.0576048531 0.1696962131 0.1830404656 -0.5283121478 0.1824927752 -0.528410637 -0.0310711814 0.1822437931
590296460.0 -0.0553300712 0.1705276875 0.1769843717 -0.5304182209 0.177031695 -0.5308093859 -0.0296422506 0.1827470489
595296430.0 -0.0538377353 0.1711642266 0.1709962352 -0.5324116259 0.1704590459 -0.5324918708 -0.0272383079 0.182918359
600296400.0 -0.0518454146 0.1719360909 0.165022461 -0.5335920818 0.1651847237 -0.533775496 -0.0250838645 0.183260651
605296370.0 -0.0507832279 0.1728288503 0.1599465654 -0.5352781025 0.1591562913 -0.5359491252 -0.0234106046 0.183827165
610296340.0 -0.0483611008 0.1737083346 0.1539229005 -0.5368562305 0.1539024462 -0.5370837248 -0.0213377069 0.1843022476
615296310.0 -0.0466587256 0.1740992055 0.1481782513 -0.5392775963 0.1473043355 -0.5390073878 -0.0189798324 0.1847831362
620296280.0 -0.045323395 0.1753279722 0.14178968 -0.5402881932 0.1416809507 -0.5403919434 -0.0172014146 0.1852844848
625296250.0 -0.0434996074 0.1757060537 0.1358879192 -0.5422718897 0.1362215263 -0.5419834043 -0.0153068104 0.1854246043
630296220.0 -0.0416955054 0.1764751606 0.1300600449 -0.5433623035 0.1298819337 -0.5431938423 -0.0127388849 0.1855869477
635296190.0 -0.0401233058 0.1772604922 0.1246862645 -0.5446520454 0.1243680031 -0.5446145482 -0.0109674962 0.1859490902
640296160.0 -0.0381928922 0.1777046861 0.1183819662 -0.5462116209 0.1185091827 -0.5458719369 -0.0091781779 0.1859185946
645296130.0 -0.0362285903 0.1787325676 0.1124151977 -0.5472368605 0.1124382521 -0.5470168369 -0.0070747094 0.185897277
650296100.0 -0.0344536626 0.1790818619 0.1065087067 -0.5486860705 0.1064039623 -0.548806113 -0.0041112862 0.1864716693
655296070.0 -0.0329138243 0.179615886 0.1004880566 -0.5495599562 0.1002057676 -0.5491255451 -0.0026742246 0.1868142962
660296040.0 -0.0312876364 0.1802988957 0.0947349546 -0.5503841457 0.0948501222 -0.5507980798 -0.0007386461 0.1867999258
665296010.0 -0.0291215556 0.1807267433 0.0882139681 -0.5511669654 0.0883374648 -0.5512200785 0.0015125715 0.1869110924
670295980.0 -0.0276796839 0.1814974857 0.0822448746 -0.5522378579 0.082506328 -0.5521535418 0.0030782163 0.186905461
675295950.0 -0.0256608749 0.1817552169 0.0765379211 -0.552875636 0.076891773 -0.5531093114 0.0052190367 0.1873214544
680295920.0 -0.0244240266 0.1826879402 0.0711293229 -0.5535350544 0.0707813938 -0.5538856567 0.00779837 0.1871311884
685295890.0 -0.0224031309 0.1833129166 0.0645067852 -0.5548319196 0.064700842 -0.5546278276 0.0095004497 0.1876398996
690295860.0 -0.020856943 0.1836539402 0.0587120444 -0.5552042827 0.0583117809 -0.5551508648 0.0116466685 0.1875930542
695295830.0 -0.0187641047 0.18405021 0.052848142 -0.5559129413 0.0527146708 -0.5556592019 0.0136863079 0.187538119
700295800.0 -0.0166131637 0.1845631862 0.0469237612 -0.5562358486 0.0470186691 -0.5562603535 0.0159758212 0.1874010102
705295770.0 -0.0155226705 0.1850412102 0.0407467078 -0.5573008953 0.0406897946 -0.556829291 0.0179001676 0.1875135924
710295740.0 -0.0138181481 0.1851494449 0.0354248589 -0.5571196805 0.0345371566 -0.5575784388 0.0198734352 0.1876629391
715295710.0 -0.0119345014 0.1860086095 0.0289696721 -0.5576120246 0.0289151545 -0.5576883299 0.0220573436 0.1872178722
720295680.0 -0.0094743541 0.1863729203 0.0225501912 -0.5577767853 0.0229518181 -0.557939878 0.0242711867 0.1872016201
725295650.0 -0.008628686 0.1865052238 0.0169822935 -0.5577551395 0.0171261323 -0.5577983441 0.0258362244 0.1876077636
730295620.0 -0.0071849453 0.1868152256 0.0108936581 -0.5580429274 0.0107156677 -0.5573988915 0.0276703201 0.1874585668
735295590.0 -0.0050296998 0.1873922715 0.0052111899 -0.5581486201 0.0045359072 -0.5580516269 0.0303996124 0.1865698615
740295560.0 -0.0032182817 0.1873670778 -0.0012055948 -0.5578182308 -0.0012017116 -0.5580523869 0.0320197564 0.1870071634
745295530.0 -0.001750384 0.1878149714 -0.0063645013 -0.5572645555 -0.0068375344 -0.5577010532 0.0339302095 0.1865789799
750295500.0 -0.0002626662 0.1881784487 -0.0124025449 -0.5576131597 -0.013306115 -0.5578705123 0.0362255279 0.1865475151
755295470.0 0.0016913328 0.1885584254 -0.0187702442 -0.5581181851 -0.0187296079 -0.557962931 0.0383001919 0.1865368455
760295440.0 0.0034052675 0.1890524096 -0.0254435065 -0.557837679 -0.0250120462 -0.5569075148 0.040303267 0.1854446809
765295410.0 0.0054982032 0.1888465753 -0.0310935951 -0.5570782673 -0.0309500801 -0.5571808603 0.0423977501 0.1854959763
770295380.0 0.0070386654 0.1890004081 -0.0363480864 -0.5560563805 -0.0368304257 -0.5569977399 0.0440539241 0.1854716714
775295350.0 0.0087944662 0.1890726678 -0.0428299134 -0.5561221125 -0.042909126 -0.5558908803 0.0465283649 0.1850733926
780295320.0 0.0105045869 0.1896343735 -0.0487324349 -0.5552282427 -0.0487770233 -0.5558531646 0.0486290539 0.1846347574
785295290.0 0.0121962272 0.1893082637 -0.0548461451 -0.5551428708 -0.0547141385 -0.5551996402 0.0500215044 0.1846983668
790295260.0 0.0138763283 0.1893888575 -0.060555322 -0.5542899581 -0.0604817947 -0.5551023612 0.0521491518 0.1843017484
795295230.0 0.0156926985 0.1893651665 -0.06673282 -0.5538755773 -0.0668978911 -0.5542097698 0.0541868464 0.1831621891
800295200.0 0.0171787933 0.189759283 -0.0723921685 -0.552960051 -0.0725222782 -0.5530245719 0.0560409534 0.1830670698
805295170.0 0.0188872339 0.1896195449 -0.0785905612 -0.5520918604 -0.0783311038 -0.5522478175 0.0587245582 0.1827129533
810295140.0 0.0206727566 0.189941246 -0.0840570841 -0.5509058396 -0.0845005558 -0.5511847087 0.0607691915 0.1820091501
815295110.0 0.0223556081 0.1897231257 -0.0901868295 -0.5500974813 -0.0902027859 -0.5503774209 0.0623753119 0.1816800827
820295080.0 0.0241237174 0.1896193115 -0.0956823722 -0.5489073122 -0.0960435204 -0.5496175899 0.0637653826 0.1817030677
825295050.0 0.0258813981 0.1895002705 -0.1018339538 -0.5482599613 -0.1021348623 -0.5481614668 0.0666608473 0.1809787037
830295020.0 0.0274842164 0.1893416457 -0.1078700569 -0.547052429 -0.1076903278 -0.5471019623 0.0682362834 0.1800162058
