!Created with skrf (http://scikit-rf.org).
# Hz S RI R 50.0 
!freq ReS11 ImS11 ReS21 ImS21 ReS12 ImS12 ReS22 ImS22
300000.0 -0.7733649002 -0.0880465593 -0.0010100766 0.0020855412 -0.0011405196 0.0014642269 -0.050523903 -0.0562164136
5299970.0 -0.7851324149 -0.0056955575 1.8634e-06 -4.86032e-05 2.34997e-05 0.0001361306 -0.0503084689 0.0157013733
10299940.0 -0.7877364861 -0.0033344025 7.92153e-05 3.56063e-05 0.0003123161 3.13385e-05 -0.0445180293 0.0339606565
15299910.0 -0.7934812735 -0.0018783422 -0.0001276446 4.0888e-05 0.0001164264 0.0002107868 -0.0360879679 0.0480232124
20299880.0 -0.8001301817 0.0023493318 -7.21038e-05 9.84119e-05 -8.9385e-06 -1.76343e-05 -0.025664416 0.0598172915
25299850.0 -0.8063599599 0.0073495547 -3.31142e-05 3.24934e-05 -0.0001126952 -0.0001825711 -0.0141410997 0.0692234463
30299820.0 -0.8123071525 0.0151185208 4.30983e-05 0.0001945994 -0.0001771895 9.88934e-05 -0.0025856112 0.075737728
35299790.0 -0.8175797959 0.0248036372 -0.0001652222 -0.0001716357 -9.55963e-05 -7.64704e-05 0.0091504684 0.0805790202
40299760.0 -0.8214344633 0.0335137685 -8.48221e-05 9.98145e-05 3.17673e-05 7.8231e-05 0.020525848 0.0833635026
45299730.0 -0.8250278962 0.0425798825 -8.9047e-06 5.56006e-05 3.872e-05 -5.73209e-05 0.0312696004 0.0847878367
50299700.0 -0.82725768 0.0529521201 0.0001905119 5.80689e-05 -6.30653e-05 0.0001314545 0.0417173474 0.0844830354
55299670.0 -0.8295185399 0.0626955755 -3.16154e-05 -0.0001024362 -5.24188e-05 7.38449e-05 0.0507607556 0.0832325085
60299640.0 -0.8303271111 0.0730858388 0.0001333496 1.17959e-05 4.75697e-05 -1.71094e-05 0.0594371552 0.0814246697
65299610.0 -0.831161943 0.0831658036 3.54841e-05 -0.0001901261 6.40288e-05 -0.0001511341 0.0673714231 0.0788305415
70299580.0 -0.8317702083 0.0930281141 3.967e-07 -1.70985e-05 4.21637e-05 0.0002385653 0.0742233733 0.0757607006
75299550.0 -0.8317200802 0.1034961708 6.7276e-05 0.0001096665 0.0001703019 0.0001000899 0.0805744597 0.0720214491
80299520.0 -0.8319402896 0.1134906568 4.1766e-05 1.51268e-05 -4.04098e-05 5.23735e-05 0.0864682258 0.0688181556
85299490.0 -0.8312662068 0.1223683112 -0.0002335893 -2.1309e-05 -5.43532e-05 3.15587e-05 0.0911645703 0.0650442728
90299460.0 -0.8300379312 0.1322478056 3.87046e-05 0.0002081012 -3.91581e-05 3.86472e-05 0.0958603333 0.0610391492
95299430.0 -0.8293441609 0.1420720588 -0.0001917019 0.0002197459 -2.76506e-05 0.000175741 0.1000552969 0.0571901123
100299400.0 -0.8281408972 0.1506301922 0.0001393974 7.76584e-05 -0.0001530814 3.69209e-05 0.1040414969 0.0527677684
105299370.0 -0.8270028915 0.1598411951 7.2428e-06 8.3012e-06 -5.543e-05 -9.85149e-05 0.1070416693 0.0489829824
110299340.0 -0.825319237 0.1690098789 3.73625e-05 0.0001433689 -5.37647e-05 0.0001076913 0.1096684784 0.0449209747
115299310.0 -0.82384889 0.1785257683 1.054e-06 6.85811e-05 0.0001064528 5.74661e-05 0.1123130899 0.0407819829
120299280.0 -0.8217451968 0.1867311761 0.0002331301 -0.00014897 0.0001232174 2.00681e-05 0.1147987605 0.0369635618
125299250.0 -0.8206337454 0.1958891091 -0.0003262628 -0.0001491654 -3.28826e-05 0.0002827153 0.1164483304 0.0329547196
130299220.0 -0.8186383299 0.2052170284 -0.0001891078 0.0001528376 0.0001715647 0.0001482918 0.1183533548 0.0289056566
135299190.0 -0.8169277993 0.2137762643 -9.14102e-05 -7.03145e-05 0.0001405864 0.0001459156 0.1197940363 0.0256399104
140299160.0 -0.8147585932 0.2226259395 -2.63595e-05 7.60342e-05 -0.0002221641 0.000271047 0.121201747 0.0220183327
145299130.0 -0.8127333651 0.2321999567 -0.0002642779 -0.000135734 0.0001924706 0.0001802586 0.1219041294 0.018358396
150299100.0 -0.8102980866 0.2398923661 0.0001230715 1.31471e-05 -3.47759e-05 -0.0001364093 0.1224583154 0.0152395875
155299070.0 -0.8077782024 0.2490051788 6.01275e-05 -0.000172934 -0.0002137699 3.10047e-05 0.123825879 0.0118283801
160299040.0 -0.8054318407 0.2576676773 8.26203e-05 7.53714e-05 4.84825e-05 -0.0001397478 0.1237401944 0.0085441975
165299010.0 -0.8032364133 0.2666074176 -8.49216e-05 0.0002531582 -1.7777e-05 -5.97841e-05 0.1243585695 0.0051115729
170298980.0 -0.8000796158 0.2751321806 -0.0001969936 0.0001860905 -1.8152e-05 4.28743e-05 0.1248531458 0.0017647964
175298950.0 -0.7979187772 0.2837747637 4.25099e-05 8.65274e-05 2.26378e-05 0.0001024705 0.1246710126 -0.0013614103
180298920.0 -0.7949992637 0.2930491416 -9.91304e-05 9.94977e-05 -5.28574e-05 0.0001840503 0.1249468651 -0.0042811664
185298890.0 -0.7914327609 0.3009319722 0.0002361398 7.48063e-05 2.7451e-05 8.42793e-05 0.1253571003 -0.0073467517
190298860.0 -0.7886035171 0.3097952564 0.0001687376 0.0001732857 9.88606e-05 -9.97475e-05 0.1252837369 -0.0102218037
195298830.0 -0.7852649849 0.3174226089 -0.0001232378 0.000103694 0.0002225353 0.0001867968 0.1251193189 -0.012950134
200298800.0 -0.7815303532 0.3257999949 9.72507e-05 2.5771e-06 0.000204363 7.49529e-05 0.124690493 -0.0159363085
205298770.0 -0.7783082062 0.3338247285 -3.82906e-05 0.0001454893 0.0002242609 0.00015589 0.124410829 -0.0189000478
210298740.0 -0.7749792436 0.3421185032 0.0001281818 -0.0001671986 -5.98376e-05 6.12894e-05 0.1240697052 -0.0212753896
215298710.0 -0.7724819719 0.3506532777 9.39811e-05 -2.35881e-05 -6.05389e-05 3.82299e-05 0.123616844 -0.0239537989
220298680.0 -0.7674115496 0.3586354394 0.0001701524 8.02422e-05 -6.35952e-05 -0.0001336479 0.1229148076 -0.0266132531
225298650.0 -0.764581112 0.3666607698 0.0001428669 0.0001899597 9.24623e-05 0.0001469001 0.122336584 -0.029183049
230298620.0 -0.7599779334 0.3743429823 0.0001668321 0.0001127774 8.9356e-05 7.3142e-06 0.1217979148 -0.0314661762
235298590.0 -0.7560025623 0.3830527157 2.8581e-06 0.0001702759 0.000256506 -0.0001530703 0.1213352678 -0.0337540218
240298560.0 -0.7525190214 0.3909732625 6.21872e-05 2.71922e-05 -7.80504e-05 -5.8726e-06 0.1205270234 -0.0362829695
245298530.0 -0.7491106932 0.3987901294 0.000204358 -6.81294e-05 3.49505e-05 0.0001106562 0.120116863 -0.0388883278
250298500.0 -0.7444062759 0.406057399 0.0002123782 -2.26174e-05 0.0001900712 0.0001745364 0.1191342824 -0.040866593
255298470.0 -0.7398496672 0.4135090671 -0.0001811299 3.613e-07 -1.68389e-05 0.0001924481 0.1183475511 -0.0434032195
260298440.0 -0.7355798273 0.4213642476 0.0002210838 -0.0002607332 -6.57005e-05 0.0001605805 0.1176575713 -0.0451929762
265298410.0 -0.7310405822 0.4292746746 -0.0001782649 5.8134e-05 0.0002322543 0.0002015747 0.1167446868 -0.0468703652
270298380.0 -0.7269827549 0.4376523288 -0.0002552043 0.0001684231 1.7591e-05 9.66185e-05 0.1160324313 -0.0493107454
275298350.0 -0.722402456 0.444487075 -3.28509e-05 -0.0001398624 0.0001999978 -8.54594e-05 0.1152961221 -0.0512381443
280298320.0 -0.7168723468 0.4521963043 -5.039e-06 2.74465e-05 8.14896e-05 0.0002932404 0.1143889125 -0.0534006044
285298290.0 -0.7126641316 0.4599275733 6.85e-06 0.0001103307 -2.93323e-05 -5.2767e-05 0.1134065259 -0.0552648611
290298260.0 -0.7076157489 0.4676972903 0.0002561667 -3.25975e-05 0.0001399722 -9.1164e-06 0.1125165017 -0.0571149969
295298230.0 -0.7028466483 0.4742030073 0.0001025244 -8.38771e-05 0.0001804537 0.0001224471 0.111571142 -0.0593155951
300298200.0 -0.6980110268 0.4814495559 1.6192e-05 0.0001635475 -4.38048e-05 6.23942e-05 0.1104286169 -0.0610866282
305298170.0 -0.6928839235 0.4877980194 0.0001453169 0.000196737 0.0001030641 0.000231304 0.1099422035 -0.063187801
310298140.0 -0.6877018206 0.4961066613 -6.90188e-05 1.61691e-05 0.0001486567 0.0002260745 0.1080845121 -0.0651529733
315298110.0 -0.6830580663 0.5032678678 -7.8125e-06 -1.8767e-05 5.35007e-05 0.0001424804 0.1067636778 -0.0669066567
320298080.0 -0.6777189502 0.5101108055 2.23852e-05 0.0001787899 -6.26105e-05 6.87e-07 0.1055505464 -0.0689453859
325298050.0 -0.6720662445 0.5173144902 8.72099e-05 1.53782e-05 2.62053e-05 7.58991e-05 0.1040056517 -0.0707009294
330298020.0 -0.6668592378 0.5236378672 0.0002243691 4.18829e-05 -2.0044e-05 -6.15709e-05 0.1025202835 -0.0721407272
335297990.0 -0.6606913935 0.5306251512 5.00907e-05 8.76249e-05 9.44429e-05 -0.0001336841 0.100958191 -0.0734009054
340297960.0 -0.6558009623 0.5373070432 5.89284e-05 7.21824e-05 4.06198e-05 -0.0002949168 0.1000701017 -0.075026212
345297930.0 -0.650564119 0.5437852739 0.0002180221 0.0001527675 0.0001889198 7.02152e-05 0.0983428239 -0.0767865906
350297900.0 -0.6447266073 0.5509294893 3.88169e-05 0.0001940394 -1.51445e-05 -1.10145e-05 0.0970944323 -0.0775402448
355297870.0 -0.6379117035 0.5578818101 0.0001767486 -2.22504e-05 -2.85378e-05 4.938e-05 0.0955361573 -0.0792002627
360297840.0 -0.6324406927 0.5636564015 0.0003073384 0.0001214808 0.0001402572 -1.8274e-05 0.0940590253 -0.0806259941
365297810.0 -0.6275045582 0.5700667518 -8.13245e-05 3.34337e-05 -9.47593e-05 9.84436e-05 0.0930269399 -0.0821113224
370297780.0 -0.6211349335 0.5764034346 0.0001917466 0.0001912811 -2.0194e-06 -9.12223e-05 0.0913257283 -0.0831389812
375297750.0 -0.6150968865 0.582736113 -6.12832e-05 -4.84987e-05 -5.2515e-06 0.0001731091 0.090124029 -0.0847572378
380297720.0 -0.6090242893 0.5887647861 0.0003872396 6.58502e-05 -8.156e-05 5.50022e-05 0.0882759571 -0.0859671093
385297690.0 -0.6034938095 0.594772356 0.0001946352 0.0001270071 0.0001011647 -3.28268e-05 0.087388422 -0.0873322128
390297660.0 -0.5973697999 0.6006422061 -0.0001804493 -2.62277e-05 6.07216e-05 -6.11026e-05 0.0858171928 -0.0881957641
395297630.0 -0.5906007858 0.6080467879 9.1648e-06 0.0002958144 0.0001107127 -8.30401e-05 0.0846747679 -0.0897292816
400297600.0 -0.584244117 0.6137004048 0.0002171965 0.0001478329 1.68822e-05 -5.58369e-05 0.0831484827 -0.0906918746
405297570.0 -0.5781778727 0.6195454385 -0.0001341366 0.0002220081 9.04249e-05 0.0002953702 0.0815241926 -0.0919428699
410297540.0 -0.5720352864 0.6250432232 0.0002916214 0.0002449575 0.0002124319 8.79958e-05 0.080216602 -0.0927016996
415297510.0 -0.5644147909 0.6308700084 -5.86747e-05 -9.51511e-05 -3.5674e-06 0.0001433746 0.0787120706 -0.0938323231
420297480.0 -0.5593307634 0.6367949014 0.0001294307 -0.0001411514 0.0001849604 2.38526e-05 0.0769305765 -0.0951866019
425297450.0 -0.5520402802 0.6424073799 -6.37186e-05 -0.0001005061 0.00026773 -6.46432e-05 0.0754550117 -0.096252368
430297420.0 -0.5452965569 0.6482870766 0.0001011451 -4.6742e-05 9.23547e-05 3.03305e-05 0.074011592 -0.0972043289
435297390.0 -0.5388303132 0.652783828 -8.68605e-05 5.94732e-05 9.82407e-05 3.41225e-05 0.0728525947 -0.0980429574
440297360.0 -0.5318059341 0.6588200939 0.0001448079 -2.54796e-05 0.0002206236 2.68382e-05 0.0711496964 -0.0990244501
445297330.0 -0.5256004044 0.6646329346 1.57482e-05 0.0001505783 0.0001252332 0.0001248312 0.0695460447 -0.1002498762
450297300.0 -0.5182630787 0.6688252081 0.0002884918 -1.93657e-05 -0.0001808584 -9.9204e-05 0.0680656578 -0.1010699449
455297270.0 -0.511473092 0.6743586874 0.0002160721 -1.01539e-05 -8.07698e-05 0.0001230937 0.0662520199 -0.1019210015
460297240.0 -0.5052557051 0.6797524905 0.0003949843 0.0001626286 -1.25944e-05 0.0001221711 0.0648331809 -0.1025390677
465297210.0 -0.498083143 0.6848243117 5.69516e-05 3.58193e-05 -0.0001131976 -1.09e-08 0.0631132768 -0.1035104608
470297180.0 -0.4908079237 0.6897589372 0.0001397218 0.0001185316 0.0001610337 0.0001439057 0.061728999 -0.1044576404
475297150.0 -0.4836000862 0.6941853166 8.99608e-05 -0.0001365521 0.0001063924 -0.0001077576 0.060277754 -0.1052976822
480297120.0 -0.4771061188 0.6993412333 -7.55962e-05 -0.0001438083 -1.31258e-05 6.10373e-05 0.0586576642 -0.1054870491
485297090.0 -0.469423704 0.7036912878 -2.37807e-05 0.000154119 -0.0001150397 0.0001429157 0.0572998826 -0.1064752391
490297060.0 -0.4626475937 0.7083475587 8.72412e-05 0.0001389234 -4.31131e-05 -0.0002402682 0.0553296759 -0.1074168469
495297030.0 -0.4554491717 0.7129816999 -0.0001416003 -6.42416e-05 0.0001993024 -2.14028e-05 0.0537202084 -0.1076559544
500297000.0 -0.4476124653 0.7177426947 -0.0002621853 -8.9946e-06 0.0001341862 0.0002452891 0.052118378 -0.1082678449
505296970.0 -0.4406627565 0.7224718009 7.04042e-05 0.0001415956 0.0002464154 -0.0001489217 0.0501764805 -0.1091499748
510296940.0 -0.4333538024 0.7269885919 3.41263e-05 0.0001870509 0.0001930459 -1.0545e-06 0.0485385041 -0.1096478127
515296910.0 -0.4251791366 0.7307376211 0.00017228 0.0002190499 2.46013e-05 -6.88906e-05 0.0471764044 -0.1100658681
520296880.0 -0.4186963829 0.735480206 0.0002667023 0.0001013346 0.000127772 0.0001373448 0.0451816344 -0.1107497101
525296850.0 -0.4104864434 0.7384058877 0.0001742908 0.0001343496 8.6289e-05 0.0001327444 0.0437632547 -0.1110705866
530296820.0 -0.4032114388 0.7431081642 0.0001530142 -4.76203e-05 0.0001155541 2.32773e-05 0.0424009071 -0.1119315303
535296790.0 -0.3960123579 0.7470837427 -4.107e-05 4.98989e-05 0.0001049822 -0.0001051847 0.0400146568 -0.1125543038
540296760.0 -0.3884505838 0.7508191299 0.0003113332 1.95571e-05 9.82551e-05 -0.0002480702 0.0385884052 -0.1125970996
545296730.0 -0.3808823805 0.7552610702 0.0002000815 -0.0001249155 8.427e-05 -4.82089e-05 0.0372005518 -0.1135866969
550296700.0 -0.3735454389 0.7583812218 -0.0001713698 -8.23671e-05 0.0002037041 0.00020612 0.0352925313 -0.1139263702
555296670.0 -0.3654065892 0.7614541534 0.0001406862 -9.5833e-06 0.0002527477 7.62292e-05 0.0336216936 -0.1135138835
560296640.0 -0.3578285442 0.7659677579 0.0004911462 5.5398e-05 0.0002386358 7.95022e-05 0.032216128 -0.1143112924
565296610.0 -0.350411413 0.7696669988 0.0001997528 -0.0002597093 0.0002006837 -0.0001660806 0.0300241643 -0.1145654914
570296580.0 -0.3423521044 0.7724025902 0.000113204 0.0001052337 1.3694e-06 0.000246431 0.0283795146 -0.1150117722
575296550.0 -0.3347315716 0.7764259082 -0.0001324614 0.0001220609 0.0001273605 -0.000158631 0.0270442387 -0.115135607
580296520.0 -0.3267643037 0.7795349912 2.1425e-05 9.39005e-05 0.0001035159 6.5645e-05 0.0253233941 -0.115649294
585296490.0 -0.3187016499 0.7822315878 -4.89803e-05 0.0001534008 0.0003037544 0.0001304039 0.0237367365 -0.1157699843
590296460.0 -0.3109003343 0.7849959743 -6.57387e-05 -8.46975e-05 9.97644e-05 -4.57287e-05 0.0217901447 -0.1158007492
595296430.0 -0.3035448943 0.788396807 0.000183351 5.84684e-05 0.0001050698 4.3081e-06 0.0201581565 -0.1160852728
600296400.0 -0.2950960425 0.7916558253 0.0001379264 1.05261e-05 1.66321e-05 -3.56924e-05 0.0188271064 -0.1164846852
605296370.0 -0.2879503046 0.7944986359 0.0001455696 -1.88863e-05 7.3858e-05 6.35351e-05 0.0169641502 -0.1165454508
610296340.0 -0.2795406458 0.7974454033 -1.06806e-05 9.47316e-05 0.0001362622 0.0001945272 0.0154286564 -0.1163660988
615296310.0 -0.2709371212 0.7999437108 0.0001110896 0.0001944171 0.0002682255 -6.09198e-05 0.0138676988 -0.1168900197
620296280.0 -0.2631087752 0.8020957468 0.0003095208 7.02214e-05 0.0002312642 -0.0001140084 0.0118457763 -0.1165199819
625296250.0 -0.2552492352 0.8050486168 0.0004026522 -0.0001456714 8.11194e-05 4.67465e-05 0.0101562225 -0.1169040243
630296220.0 -0.2462249986 0.8075913531 0.000125137 -0.0002245776 0.0001809512 -1.28322e-05 0.0086337288 -0.1166207663
635296190.0 -0.2393810573 0.8103233208 0.0001164815 0.0002715922 -3.22996e-05 4.10757e-05 0.0071123583 -0.1165605749
640296160.0 -0.2313790749 0.8124705553 6.37394e-05 -1.78301e-05 0.0001322692 2.80773e-05 0.0054321243 -0.1168458033
645296130.0 -0.2230099316 0.8149946843 4.53828e-05 -0.0001297605 0.0002107662 0.0001407747 0.0036338709 -0.1163682187
650296100.0 -0.2143754813 0.8166581778 8.23676e-05 -9.69644e-05 0.0001161072 -0.000286753 0.0021087402 -0.1169294982
655296070.0 -0.206473834 0.8190241397 0.0001570411 -0.0002917105 0.0001975618 -0.0001685372 0.0004654555 -0.1163647331
660296040.0 -0.1982793424 0.8202493701 0.0001431108 -5.0828e-06 9.69559e-05 0.0001389461 -0.0010414351 -0.1163772658
665296010.0 -0.1897996702 0.8221681568 -0.0001020788 -0.000147417 0.0003224077 5.94846e-05 -0.0031793614 -0.1157914594
670295980.0 -0.1822611003 0.8241922842 0.0002405876 -5.64273e-05 0.0003956047 0.0001558644 -0.0048651701 -0.1158636679
675295950.0 -0.1731758888 0.8260575587 0.0003560711 6.70887e-05 0.0002295818 -1.45376e-05 -0.0064849713 -0.1152837279
680295920.0 -0.1653348909 0.8281505118 0.0003039546 -0.0001654087 -4.06231e-05 -0.0001868898 -0.0081587719 -0.114896388
685295890.0 -0.1569147947 0.8300809712 0.0002212153 0.0001312787 8.29261e-05 -6.5751e-05 -0.00971756 -0.1149871394
690295860.0 -0.1488688228 0.8308938439 4.00961e-05 0.0001304802 6.28527e-05 -0.0001752968 -0.0111698672 -0.1145296892
695295830.0 -0.140750967 0.8320228363 0.0001004962 -0.0001396199 -6.79254e-05 -0.0001089021 -0.0132766483 -0.1143460099
700295800.0 -0.1320726542 0.8339142171 8.77715e-05 -0.0001434117 0.0002006042 -0.0001130563 -0.0150334171 -0.1144324237
705295770.0 -0.1244429805 0.8354789256 0.0002425404 -0.0001225047 0.0002016041 6.54647e-05 -0.0164287003 -0.1133600829
710295740.0 -0.1162411093 0.8364858286 4.19426e-05 -0.0002120143 0.0001975649 8.95817e-05 -0.0181687141 -0.1132744313
715295710.0 -0.1076302979 0.8373104765 8.96596e-05 -0.0002224139 8.59718e-05 2.7732e-05 -0.0197231438 -0.1130196613
720295680.0 -0.0999981324 0.8386126352 0.000161044 -2.21693e-05 0.0001469079 0.000160906 -0.0213723877 -0.1126103728
725295650.0 -0.0910982999 0.8396912931 0.0002393799 0.0001538548 0.0003036033 6.54847e-05 -0.0230993651 -0.1121926992
730295620.0 -0.0823795435 0.8405585935 -0.0001545378 0.000100845 0.0003617342 -6.2326e-06 -0.0249135259 -0.1116810353
735295590.0 -0.0745662674 0.8408275785 6.7933e-06 2.60821e-05 0.0001718847 3.35697e-05 -0.0266737684 -0.1115823357
740295560.0 -0.0664324341 0.8424818397 0.0001212632 0.0001294557 5.8868e-06 -0.0001338799 -0.0275793141 -0.1107207435
745295530.0 -0.0578815729 0.8424534444 0.0001141555 -0.0001773291 0.0002719723 4.67477e-05 -0.0295727538 -0.1104274078
750295500.0 -0.0492073368 0.8425770416 0.0002932775 3.0739e-05 0.0001398139 0.0002488276 -0.0311180494 -0.1097923064
755295470.0 -0.0407656121 0.8430896743 0.0002099492 5.1553e-05 0.0001096083 0.0001450344 -0.0322820642 -0.1097664185
760295440.0 -0.0327503294 0.8430824502 0.0003357444 -8.38239e-05 0.0002303626 -0.0001341645 -0.034202063 -0.1090029506
765295410.0 -0.0243013652 0.8440303221 0.0001794718 -0.0002584857 0.0003190898 7.33731e-05 -0.0353862332 -0.1080575799
770295380.0 -0.0161710451 0.843749073 5.03645e-05 -0.0001639321 0.0001916798 1.064e-06 -0.0373305258 -0.1075765845
775295350.0 -0.0081661496 0.8441714711 8.33452e-05 2.21606e-05 8.47401e-05 -9.55062e-05 -0.0390078933 -0.1070225979
780295320.0 0.0005053557 0.844514969 3.50874e-05 -2.50488e-05 0.0002672828 -3.13795e-05 -0.0401589217 -0.1061673173
785295290.0 0.0089517613 0.8432807336 0.0001529091 0.0001059881 8.92437e-05 -9.26989e-05 -0.0414256766 -0.1060159498
790295260.0 0.0177258958 0.8440516507 0.0001313958 2.40891e-05 0.0003183199 5.96619e-05 -0.0429606749 -0.1048562481
795295230.0 0.0251728187 0.8437841925 0.0001315459 3.00158e-05 0.0003902307 -0.0002219401 -0.0447209398 -0.1041236049
800295200.0 0.0336750745 0.8432939921 1.46725e-05 -0.0001794261 4.32948e-05 -0.0001564657 -0.0460309556 -0.1033034825
805295170.0 0.0427301745 0.8431332657 0.0001670333 2.23431e-05 0.0002077682 -8.2974e-05 -0.0476044183 -0.1025889306
810295140.0 0.0510516976 0.8421785649 1.18665e-05 -0.0001002321 0.0001769928 -1.61498e-05 -0.0488326998 -0.1018499431
815295110.0 0.0587671974 0.8421411521 0.0001730115 -0.0004907898 0.000182477 -0.0001574707 -0.0505935459 -0.1009533597
820295080.0 0.0669552931 0.8415666492 0.0002479674 -0.0001580354 0.0003058564 -0.0001064731 -0.051899713 -0.1000326389
825295050.0 0.076194082 0.8404453183 0.0001034366 2.37436e-05 3.49579e-05 4.23412e-05 -0.0533541882 -0.0990837307
830295020.0 0.0839126796 0.8404632669 0.0001015592 -0.0001981098 0.0001236875 -0.0001580868 -0.0544391073 -0.0985648892
835294990.0 0.092138469 0.8390515431 0.0002462699 -7.79192e-05 0.0001976478 -0.0001332822 -0.0564081893 -0.0975541927
840294960.0 0.1003086136 0.8383194112 0.0003192269 9.84166e-05 0.0002865114 -0.000129548 -0.0577222297 -0.0964286095
845294930.0 0.107936914 0.8368108824 0.0001803094 -9.9435e-05 9.63138e-05 8.93218e-05 -0.0594592391 -0.0955469294
850294900.0 0.1167704901 0.8363671684 0.0002629301 -5.94369e-05 9.24378e-05 2.73604e-05 -0.0607581226 -0.0944278365
