!Created with skrf (http://scikit-rf.org).
# Hz S RI R 50.0 
!freq ReS11 ImS11 ReS21 ImS21 ReS12 ImS12 ReS22 ImS22
300000.0 -0.1026243249 -0.0716575569 0.6321776858 0.066149683 0.6256367892 0.0670650569 -0.1025025798 -0.078773533
5299970.0 -0.1018753501 0.012985332 0.6303106246 0.0098289634 0.6303717888 0.010656974 -0.100882246 0.0131684247
10299940.0 -0.0971589285 0.0293955789 0.6339596841 0.0152709283 0.6341155011 0.0155392287 -0.0958212989 0.0303136661
15299910.0 -0.090196083 0.0423547378 0.6400413875 0.0205669191 0.6404415235 0.0207605149 -0.0886525363 0.0437396835
20299880.0 -0.0814065838 0.0531397375 0.6481916432 0.0240797627 0.6484136038 0.0241353209 -0.0798847258 0.0544294023
25299850.0 -0.0722204165 0.0621986644 0.6575283494 0.0253601435 0.6577746923 0.0253352716 -0.0699477096 0.063555474
30299820.0 -0.0621631295 0.0687164221 0.6675949897 0.0245782077 0.6673041546 0.0245967492 -0.0598048644 0.0699977744
35299790.0 -0.0524078051 0.073922842 0.6771149406 0.0215478089 0.6768994451 0.0215639228 -0.0498671689 0.074770321
40299760.0 -0.0431480999 0.0771529497 0.6862553555 0.017253416 0.6866812844 0.0174931367 -0.04020553 0.0775987627
45299730.0 -0.0339229834 0.0792932824 0.6950365213 0.0120210307 0.6954735166 0.012298877 -0.0315300185 0.0798498535
50299700.0 -0.0257767461 0.0802917472 0.7037086058 0.0050312771 0.7038067318 0.0052818088 -0.0227228496 0.0806544395
55299670.0 -0.0176425036 0.0804968672 0.7112575651 -0.0027201349 0.7106652409 -0.0024930555 -0.0147391028 0.0806270749
60299640.0 -0.0099799965 0.0800488892 0.7170001591 -0.011468447 0.7176064357 -0.0107159916 -0.007783312 0.0795618341
65299610.0 -0.0036482035 0.0789555945 0.7231268152 -0.0198423539 0.7236126752 -0.0198366501 -0.0011558991 0.078690218
70299580.0 0.0026522231 0.0777565648 0.7287271871 -0.0291434438 0.7286623834 -0.0287472105 0.0046973395 0.0765840543
75299550.0 0.008123429 0.0761081816 0.7328528856 -0.038493662 0.7326997526 -0.0388458136 0.0102779369 0.0749699284
80299520.0 0.0132134916 0.0737748921 0.7368283629 -0.0494006213 0.7378779645 -0.0487648475 0.0150465043 0.0727105995
85299490.0 0.0176264288 0.0715239349 0.740546508 -0.0583031421 0.7400807589 -0.0584115899 0.0195600541 0.0698538916
90299460.0 0.0219151114 0.069164397 0.7424725982 -0.0691946573 0.7433047185 -0.0682477416 0.0235325514 0.0680063266
95299430.0 0.0259278304 0.0664317236 0.745529149 -0.0788018561 0.7457995646 -0.0790578667 0.0274476919 0.0655459356
100299400.0 0.0290105337 0.0648156105 0.7467102127 -0.0889076254 0.7473183527 -0.0888682622 0.0311230839 0.0624619677
105299370.0 0.0322065709 0.0618230887 0.7488185096 -0.0994960314 0.7488993989 -0.0994021962 0.0342836325 0.0605849389
110299340.0 0.0348048059 0.0597349462 0.7500063096 -0.1089335689 0.7497207625 -0.109040305 0.0361355883 0.0579551011
115299310.0 0.0373876699 0.0572953086 0.7507573627 -0.1192633956 0.7507448318 -0.1190959389 0.0392447257 0.0557866618
120299280.0 0.039898371 0.0546049966 0.750979707 -0.1291702744 0.7518466232 -0.1296105969 0.0415654488 0.0531690516
125299250.0 0.0417542714 0.0522119064 0.7513784309 -0.1386621432 0.751686962 -0.1387567946 0.0430095614 0.0504187779
130299220.0 0.0436688731 0.0502933468 0.7513100185 -0.1489635248 0.7514863945 -0.1491997722 0.0449646145 0.0482331301
135299190.0 0.0453752926 0.0485404248 0.7511086328 -0.1586608663 0.7509452876 -0.1589601652 0.0465712171 0.0463346535
140299160.0 0.0468199142 0.0463959497 0.7506132744 -0.16883336 0.7507237492 -0.1687652852 0.0478816525 0.0445546627
145299130.0 0.0481974169 0.0439205207 0.7501586817 -0.1787153085 0.7500418065 -0.1781856381 0.0493876053 0.0421880621
150299100.0 0.0496348358 0.0422214314 0.7487193873 -0.1868676758 0.7493052336 -0.1876234264 0.0509266375 0.040381923
155299070.0 0.0502619296 0.0399016154 0.7480360934 -0.1985007098 0.7474684284 -0.1977553199 0.0518220409 0.0387407873
160299040.0 0.0517866637 0.0382626954 0.7463647034 -0.2073924337 0.7459496662 -0.2075324563 0.0522950208 0.0363722881
165299010.0 0.0523761031 0.0364770787 0.7441369989 -0.2164721659 0.7448469724 -0.216964264 0.0539532566 0.0345963927
170298980.0 0.0534469998 0.0340784149 0.7428780109 -0.2260157236 0.7430126943 -0.225787476 0.0539992858 0.0332650174
175298950.0 0.0537283087 0.0323966807 0.741583745 -0.2351801884 0.7408485208 -0.235593431 0.0548408126 0.0313973969
180298920.0 0.0544093761 0.0305129183 0.7388461266 -0.24456658 0.7389469076 -0.2442949543 0.0556102855 0.029912646
185298890.0 0.05551759 0.0289192558 0.7366571342 -0.2539839026 0.7362928757 -0.2535765242 0.055915577 0.0281079315
190298860.0 0.0553274831 0.0274998201 0.7341894809 -0.2629106203 0.7346777686 -0.2631574792 0.0563429684 0.0262968295
195298830.0 0.0560801891 0.0253818975 0.7319937343 -0.2719909458 0.7320880815 -0.2717138674 0.057312948 0.0250464373
200298800.0 0.056579584 0.0241932969 0.7285658829 -0.2810048573 0.7292954875 -0.2812714465 0.0568803441 0.0236971992
205298770.0 0.0567109852 0.0229923675 0.7258630459 -0.2901008894 0.7259931164 -0.2891971733 0.0575358873 0.0214934372
210298740.0 0.0574817745 0.0210921213 0.7234899522 -0.2983901311 0.7229705346 -0.2975879463 0.0579565667 0.0210762402
215298710.0 0.0568447595 0.0197472888 0.7207065444 -0.3070831929 0.7204343153 -0.3070215371 0.0575962959 0.0198368115
220298680.0 0.0577092915 0.017802391 0.7166319108 -0.3158323225 0.7169240646 -0.3154757788 0.0577758275 0.0179539067
225298650.0 0.057825912 0.0165021477 0.7141575067 -0.3244882215 0.7139305735 -0.3243793074 0.0575978696 0.0165187088
230298620.0 0.0580420699 0.0159740486 0.7107656715 -0.3324153129 0.7107825681 -0.333047212 0.0576394926 0.0151228234
235298590.0 0.0581038783 0.0146272858 0.7072915819 -0.3414602068 0.7072828327 -0.3406392767 0.0577670931 0.0138657191
240298560.0 0.058195845 0.0134629964 0.7035220955 -0.3497976702 0.7035413669 -0.3497658782 0.0578601509 0.0130784524
245298530.0 0.0580414884 0.0121647876 0.6997717036 -0.3582067704 0.7000233889 -0.3580820768 0.0581514386 0.011042371
250298500.0 0.0586469234 0.0112001543 0.69573597 -0.3665167605 0.6954110076 -0.365712472 0.0579898606 0.0105273876
255298470.0 0.0582873662 0.0093388657 0.6911168583 -0.3740189496 0.6919074027 -0.373857913 0.0582388329 0.0093902621
260298440.0 0.058117025 0.0084563462 0.6877475551 -0.3826487773 0.6879665503 -0.3820041522 0.0589392754 0.0080828708
265298410.0 0.0591205862 0.0077533687 0.6838812496 -0.3909403621 0.6841836516 -0.3900485104 0.0582545879 0.0070343965
270298380.0 0.0587706762 0.006211146 0.6800783447 -0.3983941797 0.6798077819 -0.3984837818 0.0577344057 0.0059226186
275298350.0 0.059205227 0.0051228876 0.6754019463 -0.4066885013 0.6756677907 -0.4065272342 0.0586682379 0.0045056675
280298320.0 0.0588592558 0.0043676069 0.6714490566 -0.414410282 0.6711251539 -0.4140855434 0.0587128609 0.0034395986
285298290.0 0.0585894731 0.003181864 0.6666134017 -0.4222727675 0.666591263 -0.4224032889 0.0586532568 0.0023301112
290298260.0 0.0592404208 0.0022703579 0.6618394428 -0.4296704505 0.6621805196 -0.429539113 0.0584702026 0.0018958263
295298230.0 0.0591619062 0.0009158592 0.6575023544 -0.4376477425 0.6576314753 -0.4373934262 0.0595024895 0.0003700134
300298200.0 0.0584075788 1.28025e-05 0.6532966956 -0.4450157723 0.6531188644 -0.4454221674 0.0588262329 -0.0010126415
305298170.0 0.0588391436 -0.0013038055 0.647812455 -0.453350522 0.6480393442 -0.4527754949 0.0597342695 -0.001979234
310298140.0 0.0585300387 -0.0023292676 0.6431525802 -0.4607281197 0.6438975725 -0.4606143592 0.0593047914 -0.0030003746
315298110.0 0.058336551 -0.0041905285 0.6383382471 -0.4684206701 0.6381940876 -0.4682904698 0.058966739 -0.0043990245
320298080.0 0.0585724974 -0.0046582912 0.6319041877 -0.4758903283 0.6329971549 -0.4755118153 0.0586957633 -0.005290904
325298050.0 0.0579377574 -0.0058789483 0.6271496721 -0.4837848386 0.6273708586 -0.483081414 0.0579796513 -0.0062798434
330298020.0 0.0576938726 -0.0070986699 0.6214398405 -0.4909325614 0.6217237849 -0.4911683242 0.0574029508 -0.0076902687
335297990.0 0.0570922688 -0.0083581011 0.6161002805 -0.4976745447 0.6159485329 -0.4981806858 0.0568014199 -0.007585338
340297960.0 0.0562512083 -0.009056529 0.6101340393 -0.5050545725 0.6098418832 -0.5046690273 0.057379714 -0.0083442349
345297930.0 0.0560364625 -0.0092553254 0.6043882459 -0.5121444314 0.6043149319 -0.5120568382 0.0565787786 -0.0098632303
350297900.0 0.0552375203 -0.0105725934 0.5980566344 -0.5186842497 0.5984673799 -0.518333102 0.055632776 -0.0096526312
355297870.0 0.0550202399 -0.0103928755 0.5920197636 -0.5252356895 0.5931434426 -0.5247777445 0.055320411 -0.0104297645
360297840.0 0.0548717497 -0.0114244746 0.5876436526 -0.5316120993 0.5878662337 -0.5312463301 0.0550494745 -0.0110089802
365297810.0 0.054097548 -0.0120110945 0.580774513 -0.5386448571 0.581583065 -0.5378738018 0.054835664 -0.0116729886
370297780.0 0.0544730168 -0.0131202047 0.5748902685 -0.5446948844 0.5755596169 -0.5441606372 0.054467531 -0.0119737588
375297750.0 0.0540639894 -0.0135812642 0.5690125929 -0.5510273472 0.5696452027 -0.5505739909 0.054248983 -0.0129426354
380297720.0 0.0534547305 -0.0141002362 0.562997538 -0.557496808 0.5631733999 -0.5564211025 0.0535885267 -0.0140717206
385297690.0 0.0529331309 -0.0149458118 0.5565036869 -0.563503797 0.5567302083 -0.5632392563 0.0535971564 -0.0142218959
390297660.0 0.0529103166 -0.015280416 0.550977163 -0.5699977467 0.5505477197 -0.5696064087 0.052820894 -0.0152112144
395297630.0 0.0523604822 -0.0158848209 0.5445214007 -0.5760779317 0.544538618 -0.5758956128 0.0531550193 -0.0154743589
400297600.0 0.0520042614 -0.0165355941 0.5371023739 -0.5827937039 0.5381900955 -0.5821488146 0.0522962114 -0.0163050683
405297570.0 0.0514701415 -0.0175299414 0.5310714436 -0.5875013998 0.5316271739 -0.5876308847 0.0518107097 -0.0169202647
410297540.0 0.0515515969 -0.0179758223 0.5249678016 -0.5938423566 0.5257089814 -0.5936226284 0.0510666077 -0.0170585
415297510.0 0.0514308921 -0.0188694808 0.5185752404 -0.5999237732 0.5186750602 -0.6002771082 0.0513444393 -0.017868308
420297480.0 0.0509862431 -0.0189729136 0.5114367724 -0.6054754842 0.5115488103 -0.6058364258 0.0504135568 -0.0189042182
425297450.0 0.0505091687 -0.0201505796 0.5055447121 -0.6112459494 0.5052969965 -0.610971103 0.0497661984 -0.0188049037
430297420.0 0.0498454445 -0.0207813584 0.4980993527 -0.6161894308 0.4982918942 -0.6163451142 0.0495660433 -0.0199766801
435297390.0 0.049658791 -0.0210959951 0.4910017161 -0.6223546838 0.4914895053 -0.6221964183 0.0501846886 -0.0204257085
440297360.0 0.0494694391 -0.0216026699 0.4849107597 -0.6275540272 0.4844103933 -0.6276226817 0.0491692136 -0.0212732586
445297330.0 0.0486761569 -0.0226031594 0.4781639415 -0.6333396218 0.4781832622 -0.6322743354 0.0492481473 -0.0220809021
450297300.0 0.0487304421 -0.0231086228 0.4701580493 -0.6379341724 0.4706547893 -0.6387531557 0.048524942 -0.0228222237
455297270.0 0.0484992167 -0.0236652272 0.4634404455 -0.6434717526 0.4641227696 -0.6435645245 0.0483736828 -0.0233517681
460297240.0 0.0479572445 -0.024215937 0.4563662732 -0.6482117873 0.4570588251 -0.6485673903 0.0482004421 -0.0234685817
465297210.0 0.04794654 -0.0248889405 0.4497724431 -0.653812059 0.4496231323 -0.6538401371 0.0477876038 -0.0247785328
470297180.0 0.0472050191 -0.0255467995 0.441781758 -0.6589189572 0.4420643514 -0.6592037627 0.0471453336 -0.0251418468
475297150.0 0.0467775799 -0.0260966776 0.4347949492 -0.6627852097 0.435443309 -0.6630285044 0.0474254068 -0.0257092661
480297120.0 0.0462212387 -0.0260354487 0.4273985641 -0.6683793748 0.4277928706 -0.668662953 0.0472579126 -0.0259888121
485297090.0 0.0454988027 -0.0267437828 0.4206704141 -0.6728557822 0.420456697 -0.6725506233 0.0464226783 -0.0268385964
490297060.0 0.0449246874 -0.0277496465 0.4131584283 -0.6778504639 0.4133715214 -0.6769200844 0.0462065255 -0.0264024141
495297030.0 0.0447193198 -0.0278140953 0.4051824927 -0.6818213679 0.4063627626 -0.6818051942 0.0452558786 -0.027640098
500297000.0 0.0443142209 -0.0287782772 0.3975420225 -0.6860618466 0.3978082321 -0.6860537109 0.0449588138 -0.0272001186
505296970.0 0.0440769332 -0.0292393912 0.3901881323 -0.6906940924 0.3901134307 -0.6904667519 0.0444743801 -0.0277884826
510296940.0 0.0435426358 -0.0294713019 0.3827175759 -0.6954145055 0.382565426 -0.6951565297 0.0442631922 -0.0284740991
515296910.0 0.0427172358 -0.0297199805 0.3749905564 -0.6997320606 0.3749075634 -0.6990909551 0.044086991 -0.0288164154
520296880.0 0.042326603 -0.0303409387 0.3673132847 -0.7039584436 0.367499475 -0.7029035852 0.0432349679 -0.0295941555
525296850.0 0.0422074036 -0.0313144172 0.3591580421 -0.7070588954 0.3601403226 -0.7068745722 0.0425114355 -0.029649551
530296820.0 0.0416271916 -0.0311134981 0.3517039016 -0.7115364349 0.3521144367 -0.7116008124 0.042706817 -0.0302120795
535296790.0 0.0404866708 -0.0314212894 0.3445545265 -0.7150225119 0.3448572811 -0.7145706803 0.0422306293 -0.0309252648
540296760.0 0.0402194317 -0.0315597368 0.3361544579 -0.7190182911 0.3356789145 -0.7188474086 0.0408593343 -0.0305352198
545296730.0 0.0399665856 -0.0325436493 0.3278955249 -0.7223906719 0.3287186516 -0.7228297801 0.0406913167 -0.0315525714
550296700.0 0.0400598873 -0.0327140928 0.3204425835 -0.7260496903 0.3205359727 -0.7263190158 0.039843368 -0.0315482363
555296670.0 0.0387883082 -0.0330697935 0.3126291099 -0.7291089601 0.3127912613 -0.7295925754 0.0395793311 -0.0319425044
560296640.0 0.0387491567 -0.0329757106 0.304229705 -0.7327863477 0.3049877596 -0.7329647905 0.0388737784 -0.0326167459
565296610.0 0.0378544373 -0.033715116 0.2960845832 -0.7364667434 0.2968402984 -0.7361288229 0.0381700966 -0.0334301595
570296580.0 0.0372631837 -0.0339596639 0.2884965477 -0.7399279686 0.2879177355 -0.7392297725 0.0378379466 -0.0327707359
575296550.0 0.0363580304 -0.0342599345 0.2797975978 -0.7432257489 0.2804246427 -0.7426537778 0.0375930203 -0.0337068324
580296520.0 0.0362143372 -0.0345411425 0.2718319834 -0.7459741309 0.2723760992 -0.7455986201 0.0366754504 -0.03416409
585296490.0 0.0357350524 -0.0357324738 0.263888747 -0.7487651502 0.2645254231 -0.7484770738 0.0361995754 -0.0341816911
590296460.0 0.035567639 -0.0352740724 0.2555934184 -0.7504902544 0.2559646671 -0.7508907973 0.0350998093 -0.0347931025
595296430.0 0.0350633034 -0.0354199799 0.2467251979 -0.7544754499 0.2475571423 -0.7539532752 0.0353064326 -0.0351757509
600296400.0 0.0340760874 -0.0362700434 0.2388744973 -0.7570297884 0.2394714041 -0.7564954716 0.0344035386 -0.0356533889
605296370.0 0.0336797375 -0.0365342719 0.2309409413 -0.7589494268 0.2315964967 -0.7594229565 0.0338940654 -0.0356601476
610296340.0 0.0334073859 -0.036878399 0.222031848 -0.7615604077 0.2228101412 -0.7618188937 0.0336984389 -0.0363679642
615296310.0 0.0331870767 -0.037595392 0.2142427479 -0.7641480342 0.2141858151 -0.7648678639 0.0335455582 -0.0363186645
620296280.0 0.0323178382 -0.0379160397 0.2060839275 -0.7658839482 0.2062849735 -0.7662779716 0.0323052597 -0.0369692357
625296250.0 0.0312232018 -0.0386276954 0.1983611674 -0.7685690499 0.1981571329 -0.768766648 0.0328686765 -0.0371784976
630296220.0 0.0317246009 -0.0383139446 0.1884959191 -0.7708133707 0.1885153127 -0.7704340323 0.0317829358 -0.0374430031
635296190.0 0.0300216225 -0.0387893244 0.1804032727 -0.7724406687 0.1807138085 -0.7729521809 0.0313545986 -0.037578051
640296160.0 0.0294410071 -0.0387060964 0.171923144 -0.7738919587 0.1724614021 -0.7747907159 0.0306956007 -0.0378912862
645296130.0 0.0292165024 -0.0389904563 0.163238546 -0.7760722457 0.1640308732 -0.7761214766 0.0301389447 -0.0378593651
650296100.0 0.0287033872 -0.0395827696 0.1548243308 -0.7780038234 0.1559695347 -0.7785872543 0.0303164296 -0.0390690767
655296070.0 0.0277836162 -0.0399708819 0.1465474943 -0.7799683696 0.1468616461 -0.7801431481 0.0293393864 -0.038570396
660296040.0 0.0264381845 -0.0406078458 0.1381594022 -0.7814791299 0.1391729464 -0.7813388715 0.0291677185 -0.0389809197
665296010.0 0.0269919682 -0.0402182218 0.1294377094 -0.7827179331 0.1298410938 -0.7827635108 0.0280660631 -0.0384312245
670295980.0 0.0249356542 -0.0403844002 0.1211011776 -0.7841809133 0.1212185761 -0.7839482138 0.0273615265 -0.0392889833
675295950.0 0.0251855627 -0.0403199236 0.113093066 -0.7857054743 0.1129840422 -0.784318214 0.026609525 -0.0390936851
680295920.0 0.0241317911 -0.0411158004 0.1039475708 -0.7861905921 0.1037283771 -0.7871642156 0.0265569769 -0.0388441533
685295890.0 0.0240862009 -0.0401684278 0.0955752211 -0.7875655936 0.0952120037 -0.7879880627 0.025693839 -0.0388823455
690295860.0 0.0236560627 -0.0405782243 0.087213071 -0.7880621015 0.0868363454 -0.7890562112 0.0249502316 -0.0387468374
695295830.0 0.0229575631 -0.0412754211 0.0790797746 -0.7893803922 0.0778243815 -0.7894565592 0.0242629024 -0.0388317164
700295800.0 0.0226656913 -0.0415323852 0.0690804278 -0.7898229674 0.0695105949 -0.7896199758 0.0237248223 -0.0385706433
705295770.0 0.0215312393 -0.040617 0.0611617223 -0.7905265801 0.0615621371 -0.7912639627 0.0232229285 -0.0390922972
710295740.0 0.0215885528 -0.0413060467 0.0526318258 -0.7922880267 0.05304896 -0.792229149 0.0231366997 -0.0398468779
715295710.0 0.0199741315 -0.0418622112 0.0445013334 -0.7921589335 0.0441354824 -0.7923872378 0.0221703996 -0.0396534956
720295680.0 0.019860648 -0.0413652466 0.0351753166 -0.792655207 0.0355952718 -0.792411869 0.0215739097 -0.0392192976
725295650.0 0.0194328189 -0.0415735322 0.0268716716 -0.7930261287 0.0269142462 -0.79296399 0.020254489 -0.0390202934
730295620.0 0.0190365759 -0.0412838227 0.0177652252 -0.7926543981 0.0184590773 -0.793353007 0.0194947873 -0.0400351514
735295590.0 0.018174929 -0.0413209777 0.0094061003 -0.793460083 0.0093812838 -0.7937555627 0.019242151 -0.0402237477
740295560.0 0.0172691653 -0.0415084834 0.0004896355 -0.7931843997 0.0008437257 -0.7933196537 0.0189617142 -0.0397690553
745295530.0 0.0168769055 -0.0414315107 -0.0084044922 -0.792553452 -0.007962827 -0.793237999 0.0181994011 -0.0404271465
750295500.0 0.0164285427 -0.0417712614 -0.0163268178 -0.7930738369 -0.0161343327 -0.7931534564 0.0176314764 -0.0403812864
755295470.0 0.0158873383 -0.0419047806 -0.0247330328 -0.7928835528 -0.0247895715 -0.7932332656 0.0177003617 -0.0405897037
760295440.0 0.0149611391 -0.0413927198 -0.0336395515 -0.7930104516 -0.0334454977 -0.7928899044 0.0167109132 -0.0406125803
765295410.0 0.0144093713 -0.0418467433 -0.0421885759 -0.7917297796 -0.0427513551 -0.792263234 0.016196768 -0.0406720174
770295380.0 0.0133597352 -0.0419776517 -0.0516221609 -0.7915674218 -0.0511947248 -0.7913408757 0.0151418563 -0.0407513011
775295350.0 0.0127938091 -0.0429577387 -0.0599366751 -0.7899929293 -0.0591664627 -0.7904561259 0.0136479915 -0.0401477859
780295320.0 0.0127573131 -0.0422121835 -0.0685877451 -0.7899919509 -0.0675978554 -0.7900215494 0.0135580463 -0.0412136564
785295290.0 0.011364304 -0.0427351569 -0.0767139133 -0.7890725742 -0.0765838718 -0.7892928774 0.0137737038 -0.0406422176
790295260.0 0.0120509137 -0.0415871447 -0.0846371637 -0.7884013826 -0.0843199979 -0.7879094753 0.0126173721 -0.0410742541
795295230.0 0.010826832 -0.0424458264 -0.0937183512 -0.7870285728 -0.0931653859 -0.7874595007 0.0127584374 -0.0403673936
800295200.0 0.0096407495 -0.0419600215 -0.1029483355 -0.7861418857 -0.1020061406 -0.7863317102 0.0118069235 -0.0411593237
805295170.0 0.0091874518 -0.0422324311 -0.1112027893 -0.7849205084 -0.1111780791 -0.785472804 0.0112003253 -0.0405700541
810295140.0 0.0081534754 -0.0427715811 -0.1194920033 -0.7838336462 -0.1193342623 -0.7841688579 0.0111960449 -0.0403664106
815295110.0 0.0082780481 -0.0427498633 -0.1280428496 -0.7820195512 -0.1277165782 -0.782342517 0.0100669754 -0.0402848124
820295080.0 0.0068187865 -0.0417847452 -0.1362027868 -0.7808710626 -0.1360160516 -0.7807788874 0.0093713808 -0.0405175062
825295050.0 0.007119875 -0.0417303784 -0.1441837225 -0.779016727 -0.1446883515 -0.7796496443 0.0093521849 -0.0403146722
830295020.0 0.0064070515 -0.0416513607 -0.1538151868 -0.7773829525 -0.153133014 -0.7775742009 0.0095566752 -0.0399466175
