!Created with skrf (http://scikit-rf.org).
# Hz S RI R 50.0 
!freq ReS11 ImS11 ReS21 ImS21 ReS12 ImS12 ReS22 ImS22
300000.0 -0.2390746141 -0.0833547812 0.4724395838 0.056365534 0.4704904985 0.0527410058 -0.2409228594 -0.0915186639
5299970.0 -0.2451997258 0.0064596868 0.4750105277 0.0051375374 0.4748709667 0.0051914792 -0.2413989794 0.0075968252
10299940.0 -0.2420274991 0.0181234399 0.4769544368 0.0055749807 0.4770340202 0.0061971088 -0.2380447771 0.0207129837
15299910.0 -0.2374502408 0.0270328419 0.4806815085 0.0074198313 0.4803935843 0.0075513949 -0.2334533869 0.029989427
20299880.0 -0.2327162609 0.034189829 0.4852680453 0.0080088907 0.4852628367 0.0082434085 -0.2283625403 0.0379669394
25299850.0 -0.227869983 0.0404290631 0.4903329749 0.0069145696 0.4901647021 0.0072050434 -0.2221515036 0.0445033562
30299820.0 -0.2226828282 0.0450069351 0.4957092429 0.0053121656 0.4956265529 0.0050329594 -0.2163977984 0.0496954205
35299790.0 -0.2175701563 0.0491413215 0.500900867 0.001521691 0.50082797 0.0015749389 -0.2107641306 0.0544003181
40299760.0 -0.2128507152 0.0524466818 0.5059021153 -0.0023085322 0.5064874635 -0.0020485767 -0.2054540153 0.0575243317
45299730.0 -0.2078616063 0.0547394655 0.5102981582 -0.0069751035 0.511094801 -0.0067985286 -0.200627618 0.0602159229
50299700.0 -0.2036496991 0.0565346158 0.5148160123 -0.0125894624 0.5150317382 -0.0121817005 -0.1955756387 0.062121206
55299670.0 -0.2000050831 0.0584323273 0.5187771614 -0.0187713943 0.5187553642 -0.0184836793 -0.1914455914 0.0642252722
60299640.0 -0.1958675395 0.0598838325 0.5217584706 -0.0248498537 0.5220122521 -0.0242108844 -0.1875049832 0.0650797458
65299610.0 -0.1927678879 0.0609970078 0.5249580347 -0.0313192309 0.5249088721 -0.0308933148 -0.1839685027 0.0664753815
70299580.0 -0.1899496251 0.0622422823 0.527627947 -0.037771944 0.5269609589 -0.0375851778 -0.1806635833 0.0674714037
75299550.0 -0.1871077264 0.062914803 0.5289396837 -0.0444843967 0.5289346712 -0.0445964126 -0.1779102746 0.0679329026
80299520.0 -0.1846852075 0.0633895372 0.5307364597 -0.0511796925 0.5308808551 -0.0513961248 -0.1750248345 0.069150918
85299490.0 -0.1824272419 0.0640268337 0.5323152749 -0.0576642456 0.5319371515 -0.0578540737 -0.1725973332 0.0695897455
90299460.0 -0.180419773 0.0646446775 0.5328170868 -0.0651694056 0.533440614 -0.0651308153 -0.1701201775 0.0702169838
95299430.0 -0.1782732006 0.0653079069 0.5339893373 -0.0719323552 0.5340897771 -0.0721256385 -0.1678731983 0.0712060018
100299400.0 -0.1765248609 0.0662555502 0.5340113745 -0.0788849418 0.534143654 -0.07866829 -0.165866452 0.0715398807
105299370.0 -0.1747843761 0.0667796671 0.534494373 -0.0862279913 0.5349944566 -0.0855527516 -0.1638887802 0.0725590982
110299340.0 -0.1734821831 0.0674192255 0.5349272522 -0.0924870249 0.5350131286 -0.0925639131 -0.1628703375 0.0732078492
115299310.0 -0.1717956982 0.067734494 0.5346585697 -0.0994859789 0.5346068805 -0.0989208497 -0.1613207744 0.073813134
120299280.0 -0.1707511038 0.0683041292 0.5344169804 -0.1062483574 0.5347606321 -0.1065026122 -0.1598491366 0.0745718141
125299250.0 -0.1694229631 0.0690172296 0.5343441492 -0.1124014888 0.5346821679 -0.1125772103 -0.158479457 0.0749661772
130299220.0 -0.1685922629 0.0703803427 0.5335516601 -0.1201281981 0.533299421 -0.1196628387 -0.1570037103 0.0760418892
135299190.0 -0.1676937216 0.0710930844 0.5332825586 -0.1261953439 0.5325126868 -0.1259534943 -0.1556989777 0.077198949
140299160.0 -0.1668416317 0.072280389 0.5320886712 -0.1331343161 0.5323144758 -0.1330338289 -0.1547519129 0.0782377841
145299130.0 -0.1656935887 0.0727533582 0.5313424334 -0.1396991799 0.530933495 -0.1393363394 -0.154014291 0.0790679643
150299100.0 -0.164388789 0.073703643 0.5298436866 -0.1458851258 0.5300594681 -0.1453674776 -0.15263019 0.0802834425
155299070.0 -0.1639320156 0.0745839659 0.5293815807 -0.1529067977 0.5286506737 -0.1524682442 -0.1515146654 0.0813897907
160299040.0 -0.1628456505 0.0758955075 0.5274617173 -0.1591003787 0.5274149265 -0.1589713855 -0.1510210235 0.0825340552
165299010.0 -0.1620664121 0.0770868827 0.5259247118 -0.1654210246 0.526036714 -0.1655079582 -0.149620063 0.0835412823
170298980.0 -0.1615792152 0.0777106809 0.5244663251 -0.1721124336 0.5247382761 -0.1716687184 -0.1487494287 0.0848659627
175298950.0 -0.1608860332 0.0789425909 0.5234856988 -0.1781363138 0.5227781558 -0.1780827716 -0.1479783503 0.0861185554
180298920.0 -0.1601897929 0.0801777425 0.5211939952 -0.1843926082 0.5210223643 -0.1843420948 -0.1467883958 0.0873757048
185298890.0 -0.1588530791 0.0808594504 0.5193153412 -0.1903788763 0.5191171397 -0.1904986042 -0.1458857702 0.0888102203
190298860.0 -0.15863619 0.0822738359 0.5176489255 -0.1969002379 0.5180530576 -0.1966840711 -0.1450861107 0.0899034008
195298830.0 -0.1578566154 0.0832849547 0.5154472182 -0.2028350507 0.5154234903 -0.2027217781 -0.1439020497 0.0909824248
200298800.0 -0.1568661434 0.0845879571 0.5128955049 -0.2089557966 0.513729841 -0.2089115287 -0.143556617 0.09225496
205298770.0 -0.1560244151 0.0858637807 0.5106285325 -0.215174961 0.5108141221 -0.2149739641 -0.1420252562 0.0929936034
210298740.0 -0.1554965874 0.0870816119 0.508778731 -0.2206623515 0.5089882115 -0.2208065171 -0.1411706749 0.0950648319
215298710.0 -0.1550190028 0.0884432983 0.5067375769 -0.2270482191 0.5064064347 -0.2269875911 -0.1404109839 0.0960176233
220298680.0 -0.1539376162 0.0891660462 0.5035217849 -0.2327801173 0.5039341445 -0.2326475928 -0.1398481599 0.0975406703
225298650.0 -0.1533278827 0.0907941997 0.5013124129 -0.2386474042 0.5015944222 -0.2383143855 -0.138752802 0.0986543662
230298620.0 -0.1524159595 0.0923880691 0.4989845281 -0.2440712051 0.4997052716 -0.2442931711 -0.1378343084 0.0997589606
235298590.0 -0.1517150269 0.0935679785 0.4964659217 -0.2502953184 0.4964642254 -0.2497057417 -0.1366651787 0.1013827882
240298560.0 -0.1511547053 0.0949543922 0.4937959513 -0.2560078494 0.4934667318 -0.2560711996 -0.1357348762 0.103122786
245298530.0 -0.1503719875 0.096133722 0.4912779214 -0.2617189791 0.4911395091 -0.2617592401 -0.1346164667 0.10366057
250298500.0 -0.1493489261 0.0975124173 0.4875622824 -0.267101937 0.4874588359 -0.2669210435 -0.1337242369 0.1055307537
255298470.0 -0.1483373352 0.0983809164 0.4847415755 -0.2722071469 0.4852845368 -0.2726527314 -0.1327195658 0.1066076404
260298440.0 -0.147984302 0.0999116869 0.4823278746 -0.2781992655 0.4824564587 -0.2779416749 -0.131364783 0.1082949017
265298410.0 -0.1464042466 0.1019570944 0.4786843473 -0.2838129743 0.479254936 -0.2837063078 -0.1304361805 0.1100960563
270298380.0 -0.1463014522 0.1028288416 0.4766060341 -0.2894457513 0.4766164009 -0.2892070335 -0.1294911613 0.111319461
275298350.0 -0.1447348668 0.1042699328 0.4729205163 -0.2944267472 0.4730892634 -0.2946150545 -0.1281528852 0.1124725733
280298320.0 -0.1439444515 0.1057265961 0.4701205135 -0.3000416718 0.4702161342 -0.2998611133 -0.1267914985 0.1138742592
285298290.0 -0.1433329142 0.1071866135 0.4670223589 -0.3053623802 0.4666155829 -0.3053426082 -0.1255658357 0.1152887837
290298260.0 -0.141887924 0.1084277997 0.4633126223 -0.310437585 0.4636036852 -0.31046136 -0.1244269906 0.1170936501
295298230.0 -0.1410085094 0.109646564 0.4601629632 -0.3156990614 0.459817555 -0.3154484091 -0.1226385477 0.1179434845
300298200.0 -0.140349927 0.1108819347 0.4568987014 -0.320901495 0.4569367264 -0.3212488671 -0.1219940002 0.1193769132
305298170.0 -0.1391922258 0.1121801699 0.4526653641 -0.3264321552 0.4532314708 -0.3261056326 -0.1201605337 0.1205033161
310298140.0 -0.1382564417 0.1136507364 0.4495604573 -0.3315579645 0.4499152223 -0.3311140175 -0.1190374104 0.1216711554
315298110.0 -0.1371014001 0.1146146101 0.4460728956 -0.3363943082 0.4462860899 -0.3365217509 -0.117949962 0.1229196699
320298080.0 -0.1360126077 0.1159759933 0.4417171593 -0.342137138 0.4422050825 -0.341976365 -0.1165583016 0.1245081548
325298050.0 -0.1351411399 0.1172690015 0.4379779008 -0.3471851933 0.4382029344 -0.346680497 -0.1159093342 0.1257244522
330298020.0 -0.1342899949 0.1181448967 0.4339692413 -0.3519005778 0.4346621709 -0.3518143741 -0.1146115051 0.1269629028
335297990.0 -0.1331925149 0.1194113509 0.4300860496 -0.3561553665 0.4301783552 -0.3566518972 -0.1138604512 0.1285003014
340297960.0 -0.1326194764 0.1213113924 0.4258588173 -0.3614208862 0.4255619129 -0.361464134 -0.1118109532 0.1298729556
345297930.0 -0.1314871107 0.122826661 0.4215860649 -0.3662537325 0.4218787145 -0.3663731067 -0.110835594 0.1309580331
350297900.0 -0.1304650398 0.1236706351 0.4174534766 -0.3708542556 0.4170251117 -0.3708053781 -0.1098396341 0.1329191109
355297870.0 -0.1291388936 0.1257495831 0.4135579696 -0.3754556764 0.4138051986 -0.3752455954 -0.1084488975 0.1339058699
360297840.0 -0.1281608123 0.1268485081 0.4096900218 -0.3797309407 0.4100464279 -0.3796828043 -0.1072800411 0.135429356
365297810.0 -0.1268268627 0.1282602847 0.4053219661 -0.3844265064 0.4056857066 -0.3843346444 -0.1056856716 0.1364840765
370297780.0 -0.125746679 0.1295036107 0.4008040455 -0.3886984576 0.4012159314 -0.3882792076 -0.1041711825 0.1381798179
375297750.0 -0.124535922 0.1310198745 0.3966776605 -0.3933074576 0.3973498484 -0.3929949255 -0.1026709532 0.1388252941
380297720.0 -0.1232637708 0.1321368348 0.3923246947 -0.397588689 0.3925083449 -0.3969453906 -0.1012778075 0.1402776135
385297690.0 -0.1225252832 0.133265021 0.3881220254 -0.4015537933 0.388147722 -0.401453994 -0.0997948829 0.1417117831
390297660.0 -0.1211144417 0.1347258667 0.3837803973 -0.4060928058 0.383637123 -0.4056748864 -0.0983779655 0.142636146
395297630.0 -0.1197356517 0.1361711737 0.3791639996 -0.409975743 0.3795384305 -0.4101203351 -0.0962450464 0.144156196
400297600.0 -0.1185211015 0.1375640105 0.3742273812 -0.4145897324 0.3745785101 -0.4143364618 -0.0953296665 0.1451761217
405297570.0 -0.1174188493 0.1386175148 0.3698464393 -0.4179251885 0.3701742395 -0.4180428829 -0.0935623084 0.1466591542
410297540.0 -0.1160409722 0.139679374 0.3658657735 -0.4223471078 0.3659305049 -0.4224398723 -0.0918548749 0.1479630568
415297510.0 -0.1146096925 0.1410454256 0.3606674524 -0.4265390782 0.3611726805 -0.4265717155 -0.0903053111 0.1490731374
420297480.0 -0.1132851849 0.142536684 0.3560339431 -0.4302467817 0.3559163649 -0.4306279854 -0.0887648344 0.1502275354
425297450.0 -0.1119122684 0.1432902567 0.3516480284 -0.4339407103 0.3519917355 -0.4343526847 -0.0875953134 0.1515828481
430297420.0 -0.1105097616 0.1448818335 0.3465976379 -0.4377267133 0.3466991656 -0.4376452808 -0.0857654822 0.1524693181
435297390.0 -0.1097020172 0.1461811369 0.3414220454 -0.441695163 0.341707587 -0.4416436887 -0.0835551753 0.1535149732
440297360.0 -0.1080369995 0.1472879731 0.3371100668 -0.445521079 0.3373267548 -0.4451155824 -0.0821582407 0.1547538669
445297330.0 -0.1065951842 0.1482123063 0.3321604853 -0.4492898551 0.3325054247 -0.4488952751 -0.0805293243 0.1552809509
450297300.0 -0.1049324809 0.1494345235 0.3271345121 -0.4524980174 0.3274062312 -0.4529881664 -0.0789043083 0.1565902284
455297270.0 -0.1040473582 0.1508612132 0.32174186 -0.4560670423 0.3225268168 -0.4562249699 -0.0771376509 0.1574231292
460297240.0 -0.1024932854 0.1519040799 0.3170521484 -0.4597644709 0.3171537737 -0.4594555418 -0.0755454198 0.1588516808
465297210.0 -0.10065626 0.1531452439 0.3123842231 -0.4632163137 0.3120003907 -0.4636896057 -0.07351044 0.1594071325
470297180.0 -0.0992156325 0.1541036657 0.3069124573 -0.4664749985 0.3071263039 -0.4666865956 -0.071773092 0.1607833112
475297150.0 -0.0979470142 0.1547802951 0.3018589214 -0.4690653868 0.3020157021 -0.4696141328 -0.0697582314 0.161298214
480297120.0 -0.0963729153 0.1563476705 0.2967795997 -0.4733062487 0.2968921908 -0.4732838509 -0.0679576736 0.1624456167
485297090.0 -0.0951197208 0.1574077316 0.2919019734 -0.4760628137 0.291898299 -0.4757429774 -0.0662513909 0.1630376316
490297060.0 -0.0936233859 0.1583196773 0.2867711002 -0.4791356522 0.2868558973 -0.4790313269 -0.0646007807 0.1645268348
495297030.0 -0.0920926055 0.1595806698 0.2807372648 -0.4821106044 0.2816405908 -0.4823490616 -0.0630258069 0.1650225141
500297000.0 -0.0905475985 0.1602623665 0.275458319 -0.4848963826 0.2758054125 -0.4850329981 -0.0611172551 0.1667011411
505296970.0 -0.0886979925 0.1614911068 0.2708409694 -0.487876589 0.2704779969 -0.4883117857 -0.0591708543 0.167123286
510296940.0 -0.0872182645 0.1625203034 0.2652381674 -0.4911859183 0.2650655855 -0.4909585286 -0.0574200141 0.1678881536
515296910.0 -0.0858197494 0.1635697296 0.2598723862 -0.4939636013 0.2601214856 -0.493803486 -0.0556658109 0.1684402156
520296880.0 -0.0846662425 0.1645062803 0.2545267264 -0.4971066896 0.2544370524 -0.4965201523 -0.0536985567 0.1691406959
525296850.0 -0.0824051817 0.1648570541 0.2489188854 -0.4994545345 0.2495151102 -0.4992382208 -0.0522882307 0.1700007166
530296820.0 -0.0809724584 0.1662857671 0.2439794557 -0.5022115238 0.2437777266 -0.5021416854 -0.0500524556 0.1708125564
535296790.0 -0.0796467731 0.1672860552 0.2384546683 -0.5046047948 0.23828374 -0.5041544258 -0.048436646 0.1707058925
540296760.0 -0.0782055335 0.1684241261 0.2329403256 -0.5074946545 0.2328374265 -0.5077427528 -0.0467996489 0.1721264653
545296730.0 -0.0761866405 0.1687941677 0.22652038 -0.5097337195 0.2270813414 -0.5094431197 -0.0446079321 0.172323869
550296700.0 -0.0742696893 0.1698941761 0.2214522685 -0.5121912362 0.2218040633 -0.511953287 -0.0428943445 0.1734739426
555296670.0 -0.0729587489 0.1702057751 0.2161141837 -0.514303837 0.2166147681 -0.5145082907 -0.0405264097 0.174259306
560296640.0 -0.0709149959 0.1717472492 0.2102193193 -0.5168931474 0.2104435993 -0.517054914 -0.0388794501 0.1744313868
565296610.0 -0.0696686989 0.1725034864 0.204474818 -0.5192647087 0.2050939622 -0.5187703854 -0.0369791216 0.1747892714
570296580.0 -0.0680804063 0.1732557129 0.1991107135 -0.521763117 0.1988723127 -0.5212906707 -0.0350602602 0.1759215049
575296550.0 -0.0662935496 0.1742391198 0.1933693318 -0.5237738846 0.1933402794 -0.5234020126 -0.032631274 0.1762454607
580296520.0 -0.0645255886 0.1750827747 0.1876809649 -0.5258110148 0.1879167102 -0.5253195968 -0.0309314502 0.1766481457
585296490.0 -0.0632142097 0.1751970987 0.1822443292 -0.5268996711 0.1825010734 -0.5273253518 -0.029007754 0.1773527868
590296460.0 -0.0611704416 0.1761622 0.1765283418 -0.5285152075 0.1767691447 -0.5290750723 -0.027452681 0.1775529311
595296430.0 -0.0594166569 0.1768434226 0.1703698229 -0.5307999543 0.1708587207 -0.5306888549 -0.0250346494 0.1777641412
600296400.0 -0.0582302877 0.1776483638 0.1649997023 -0.5331358222 0.1650312587 -0.532819653 -0.0235083487 0.1785160531
605296370.0 -0.0560972469 0.1780702764 0.1587348791 -0.5339698732 0.1593958599 -0.534884481 -0.0210282459 0.1791428488
610296340.0 -0.0544619388 0.1791434054 0.1529666044 -0.5360578502 0.1532508463 -0.5362748165 -0.0189593583 0.1794018949
615296310.0 -0.0523860786 0.179600602 0.1473365938 -0.5376691414 0.1477547078 -0.5384411396 -0.0167980071 0.1798056212
620296280.0 -0.051065674 0.1802541981 0.1417311988 -0.5390951567 0.1417741879 -0.5391145107 -0.0153722918 0.1801092754
625296250.0 -0.0494703226 0.1806457117 0.1365005086 -0.5410657329 0.1360192544 -0.5411593987 -0.0125378783 0.1803844234
630296220.0 -0.0469406901 0.1815608963 0.1293052119 -0.5422595049 0.1294885068 -0.5420453345 -0.0109606606 0.1811364686
635296190.0 -0.046041262 0.181914102 0.1239645729 -0.5433434362 0.1240316196 -0.5434517231 -0.0091398861 0.1810438157
640296160.0 -0.0440499157 0.1825971753 0.11815218 -0.5445708584 0.1182709818 -0.5449307605 -0.0065328403 0.1814704235
645296130.0 -0.0422810945 0.1833984674 0.1120178557 -0.5458778778 0.1124746651 -0.5462900406 -0.0048225825 0.1814768231
650296100.0 -0.0404588957 0.1840377679 0.1064281577 -0.547156568 0.1065547017 -0.5470953832 -0.0025726714 0.1813398283
655296070.0 -0.0387435897 0.1841760003 0.1005238928 -0.5482374201 0.1008164228 -0.5483632261 -0.0005852407 0.181835331
660296040.0 -0.0372562055 0.1844932106 0.094620872 -0.5490475294 0.0949167867 -0.549511982 0.0012657795 0.182139344
665296010.0 -0.0346813326 0.1850368086 0.0881144739 -0.5499795453 0.0888424174 -0.5501490323 0.0033706447 0.1826559741
670295980.0 -0.0337966694 0.1859848317 0.0827964644 -0.5510176089 0.0828801532 -0.5513157307 0.0052242433 0.1825717835
675295950.0 -0.0317052719 0.1865391809 0.0768901419 -0.5519718988 0.0771799181 -0.551301576 0.0068686514 0.1826124816
680295920.0 -0.0299362835 0.1868956875 0.070449715 -0.5524437338 0.0705984005 -0.553038177 0.0089089154 0.1830033497
685295890.0 -0.028035954 0.1874296499 0.0650158518 -0.5531299137 0.0650655792 -0.5537092312 0.0112100425 0.1830619315
690295860.0 -0.0260063555 0.1879339048 0.0584968509 -0.5534903989 0.0588159506 -0.5543289811 0.0130930613 0.183390741
695295830.0 -0.0241283083 0.1878493928 0.0529546704 -0.5542680567 0.0524194464 -0.5546158834 0.0151763974 0.1830787017
700295800.0 -0.0223926536 0.1880705083 0.0463004456 -0.5547544743 0.0466776791 -0.555089287 0.0168803417 0.1837307462
705295770.0 -0.0210008479 0.1889234734 0.0406917381 -0.5552928059 0.0412315576 -0.5556774745 0.0188504216 0.1834551938
710295740.0 -0.0188140632 0.1890970356 0.0350785678 -0.5565059366 0.0351527883 -0.5563051381 0.0212934544 0.1826004973
715295710.0 -0.0175516526 0.1893736227 0.0291549686 -0.5558336343 0.0286745627 -0.555933153 0.0234181835 0.1825591968
720295680.0 -0.0153353066 0.189448406 0.0228925999 -0.5566221894 0.0232382806 -0.5564534171 0.0253904321 0.1830937318
725295650.0 -0.0135717273 0.1901508082 0.0167145598 -0.5571447795 0.0170482775 -0.5572038058 0.0271557505 0.1828538356
730295620.0 -0.0113452927 0.1907730264 0.0109121762 -0.5567430265 0.0108850152 -0.5567685743 0.0290823932 0.1821908377
735295590.0 -0.0096346766 0.1905480137 0.0050676534 -0.5569831874 0.0047692584 -0.5567556461 0.0305774513 0.1819951356
740295560.0 -0.00791112 0.1908682035 -0.0011732162 -0.5565080866 -0.0010494745 -0.5570232565 0.0333828851 0.1822713949
745295530.0 -0.0062980936 0.1914165679 -0.0069549712 -0.5564609607 -0.0071647508 -0.5565914618 0.0356451098 0.1814136365
750295500.0 -0.0040647512 0.1913098741 -0.0128108513 -0.5563083707 -0.0131071857 -0.5568487079 0.0372776209 0.1815807321
755295470.0 -0.00213385 0.1910990651 -0.0188849385 -0.5559703326 -0.0187123874 -0.5564137384 0.0397435683 0.1808928062
760295440.0 -0.0004606379 0.1915336699 -0.0249897188 -0.5561390996 -0.0248422171 -0.5563296906 0.0414437644 0.1803227732
765295410.0 0.0013122607 0.19184641 -0.031143381 -0.555763798 -0.0316704742 -0.5559160767 0.0438255393 0.1808696645
770295380.0 0.0031898804 0.1918233421 -0.0371302923 -0.5555718538 -0.0368828725 -0.5550953408 0.045513709 0.180036168
775295350.0 0.004750163 0.1911615703 -0.0433060241 -0.5546071542 -0.0424958769 -0.5548756348 0.0470590102 0.1798580256
780295320.0 0.0068805478 0.191880812 -0.0488534002 -0.5539816897 -0.0482705435 -0.5541767154 0.0491253122 0.1792350597
785295290.0 0.0088053729 0.1918294818 -0.0551787154 -0.5533104218 -0.054461123 -0.553872926 0.0518395514 0.1791566587
790295260.0 0.0108818407 0.1923139267 -0.0605477079 -0.5531124958 -0.0600346139 -0.552879161 0.0536738416 0.1787749057
795295230.0 0.0125659275 0.1919970833 -0.066520448 -0.5522141126 -0.0664022386 -0.5524209404 0.0557799473 0.1781951253
800295200.0 0.0141232577 0.1921109798 -0.0734871851 -0.5516192785 -0.0726813823 -0.551505312 0.0576974346 0.1780161068
805295170.0 0.0162027807 0.1920627482 -0.0788572605 -0.5507888921 -0.0787557272 -0.5509215404 0.0597975097 0.1776145422
810295140.0 0.0181819395 0.1916049133 -0.0846223104 -0.5494542244 -0.0846011925 -0.5499703473 0.0620815103 0.1771414034
815295110.0 0.0199876075 0.1913933024 -0.0905630976 -0.5481110165 -0.0901099837 -0.5490180489 0.0634558457 0.176557286
820295080.0 0.0216709509 0.1919772255 -0.0961517795 -0.547535223 -0.0962059119 -0.547613326 0.0654675285 0.175992422
825295050.0 0.0242007946 0.1919372521 -0.1020037058 -0.5461622445 -0.1020300689 -0.5467337363 0.0675864669 0.1754449334
830295020.0 0.0257556608 0.1917160307 -0.1084569804 -0.5448028837 -0.1080615047 -0.5452837065 0.0700404979 0.174876452
