!Created with skrf (http://scikit-rf.org).
# Hz S RI R 50.0 
!freq ReS11 ImS11 ReS21 ImS21 ReS12 ImS12 ReS22 ImS22
300000.0 0.8603094135 -0.0010925132 -0.0005901585 0.0005351652 -0.0011092244 -0.0001905639 -0.7625328323 -0.2020636395
5299970.0 0.860709252 -0.0107453922 2.2902e-06 0.0001208523 -0.0001825415 -0.0001585873 -0.7843016676 -0.0098697967
10299940.0 0.8583769715 -0.0190203545 -2.06298e-05 -0.0001106822 0.0001073241 4.05123e-05 -0.7873786604 -0.0059838375
15299910.0 0.8576077758 -0.0274917936 -9.73798e-05 -6.24969e-05 -5.58e-08 -2.784e-05 -0.7928921388 -0.0028493955
20299880.0 0.8578381167 -0.0354009966 0.0001752842 -0.0001746775 -1.82323e-05 6.9576e-06 -0.7994127674 0.0015691263
25299850.0 0.8560469598 -0.0438473498 -2.37804e-05 -2.06604e-05 6.47903e-05 8.25685e-05 -0.8057492507 0.0077607182
30299820.0 0.8557886745 -0.0521647972 -9.15698e-05 0.0002534978 -9.47413e-05 7.31191e-05 -0.8119648774 0.0159963383
35299790.0 0.8548206003 -0.0602385291 0.0003644393 -6.33142e-05 0.0001286479 -1.52802e-05 -0.816837154 0.0248205133
40299760.0 0.8548937965 -0.0684723597 8.08032e-05 -0.0001581983 -6.22729e-05 4.46555e-05 -0.8209954619 0.0343750515
45299730.0 0.8533865624 -0.0764764446 3.43544e-05 -4.47395e-05 4.90626e-05 4.23461e-05 -0.8239893386 0.0441044412
50299700.0 0.852944453 -0.0846022645 0.0002556252 -0.0001087086 0.0001555949 -0.000104437 -0.8260633012 0.0536348314
55299670.0 0.8523502021 -0.0928259927 -2.74374e-05 0.0001755385 1.77107e-05 5.60808e-05 -0.8284667484 0.063724395
60299640.0 0.8507981984 -0.1011275561 6.21326e-05 1.18339e-05 -4.80485e-05 5.3431e-05 -0.8297230819 0.0738097169
65299610.0 0.8503465422 -0.1093667902 6.16701e-05 -0.0001458973 -2.89644e-05 -0.0001677213 -0.8301599495 0.0837563627
70299580.0 0.8487019387 -0.117926348 -1.8219e-06 -7.9438e-06 4.10994e-05 -0.000172796 -0.8307640891 0.0932337422
75299550.0 0.8476386611 -0.1256858647 -8.80532e-05 1.18713e-05 -4.82647e-05 -0.0002522225 -0.8305977993 0.1042934496
80299520.0 0.846340513 -0.1335611938 -9.96774e-05 -0.0001029267 7.31241e-05 -4.0209e-06 -0.8306438092 0.11407294
85299490.0 0.8453336467 -0.141670425 5.6267e-06 -5.4211e-06 0.0001582115 0.0001729503 -0.8299348814 0.1230795935
90299460.0 0.844361504 -0.1498348764 -1.93269e-05 0.0001671234 -0.0001288073 8.77071e-05 -0.8286682553 0.1328504663
95299430.0 0.8425907264 -0.1582393973 1.12113e-05 -6.98837e-05 -6.30689e-05 5.47141e-05 -0.8281344794 0.1425212373
100299400.0 0.8406472891 -0.1664715125 -0.0001031831 -3.0107e-06 -8.241e-05 -0.0001131922 -0.8267853036 0.1517523846
105299370.0 0.8397112281 -0.1741701813 -3.48554e-05 -0.0001259747 0.0002144732 -0.000152878 -0.8253941515 0.1610797978
110299340.0 0.8377818018 -0.1829968716 5.53112e-05 -1.23466e-05 -1.56416e-05 0.0001119078 -0.82431467 0.1705624262
115299310.0 0.8353685424 -0.1905512476 -0.0001190678 -0.00018782 -0.0001478419 -0.0001217688 -0.8230293372 0.1790181079
120299280.0 0.8338395076 -0.1985247828 -0.0001049999 -0.0001903787 -0.0001042592 1.54161e-05 -0.8206173989 0.1879904346
125299250.0 0.832429081 -0.206625084 3.77095e-05 0.0001859564 2.55258e-05 -6.1148e-06 -0.819410665 0.1970468229
130299220.0 0.8297769286 -0.2145158427 -0.0001754888 -6.20924e-05 -0.0001128919 -5.44679e-05 -0.8177478576 0.2059046046
135299190.0 0.8278912284 -0.2227739187 -7.3827e-06 -0.0001932843 4.94664e-05 0.0002796374 -0.8157258892 0.2152247833
140299160.0 0.8257570978 -0.2302594241 -0.0001022231 3.7146e-05 7.44503e-05 2.11132e-05 -0.8138581795 0.2236126305
145299130.0 0.823589281 -0.2381662724 -4.11716e-05 -0.0001440952 2.32629e-05 -7.00296e-05 -0.8117012211 0.2326788701
150299100.0 0.8211005009 -0.2459129285 7.29506e-05 -0.0001279825 0.0001214656 7.15474e-05 -0.809670656 0.2411896393
155299070.0 0.8190300866 -0.2542489631 3.2121e-06 -7.26764e-05 -3.67367e-05 3.26419e-05 -0.8068826897 0.2506112615
160299040.0 0.8160862714 -0.2620156858 3.158e-07 5.93252e-05 5.93314e-05 -1.8858e-05 -0.8044592733 0.2594145578
165299010.0 0.8137779017 -0.2692941443 7.1924e-06 -1.93675e-05 0.0001544509 -3.5475e-06 -0.8017534239 0.2672824063
170298980.0 0.8114656198 -0.2777022491 1.69498e-05 9.21713e-05 -2.88454e-05 -9.03415e-05 -0.7994825964 0.2758735895
175298950.0 0.8086137892 -0.2852420367 0.0001847583 1.26598e-05 1.99069e-05 -0.0003004494 -0.7962881085 0.2847097264
180298920.0 0.8062027859 -0.2932009878 -0.0001718139 5.60311e-05 -6.44482e-05 0.0002098879 -0.7931070691 0.2933093473
185298890.0 0.8030040663 -0.3010976167 5.21841e-05 6.7192e-06 4.97012e-05 2.38823e-05 -0.7900471521 0.3020433155
190298860.0 0.7998407823 -0.3088572387 0.0003341454 0.0001912151 0.0001226405 2.82636e-05 -0.7872832394 0.3100384922
195298830.0 0.796612248 -0.3161172282 -9.83385e-05 9.35538e-05 0.0001910526 5.8055e-06 -0.7841615448 0.3181062315
200298800.0 0.7940672539 -0.3230285819 7.25038e-05 -0.0001387067 1.12818e-05 -1.48499e-05 -0.7810157718 0.3266119279
205298770.0 0.7905287798 -0.3315386191 0.0001341393 3.66902e-05 -9.46427e-05 -7.74212e-05 -0.7775971387 0.3350699916
210298740.0 0.7879744626 -0.3390746807 9.3113e-06 1.17592e-05 0.0001665744 -4.62267e-05 -0.7741518379 0.3432759437
215298710.0 0.7845966604 -0.3463171938 -6.6256e-06 -0.0001279521 -0.0001401983 0.0001611552 -0.770319712 0.3511793744
220298680.0 0.7812690053 -0.3539220567 -8.39562e-05 -0.0001010513 -1.77531e-05 -0.0001386781 -0.7661910269 0.3595015327
225298650.0 0.7774021303 -0.3620799694 -0.000117536 -0.0001075814 0.0001590336 0.0001275604 -0.7626232386 0.3676104734
230298620.0 0.7734243942 -0.3685157303 4.34181e-05 -0.0001715302 -0.0002292201 6.12545e-05 -0.7586387492 0.3752612209
235298590.0 0.7706268468 -0.3761212606 -0.0001175647 0.0002040392 0.0001373418 -2.39344e-05 -0.7551658424 0.3836261931
240298560.0 0.7670672733 -0.3837753943 0.0001501079 -1.9819e-05 -1.58644e-05 8.83313e-05 -0.7509626508 0.3909683294
245298530.0 0.7624597456 -0.3908758813 -0.0001079274 -0.0001093837 0.0002521555 1.31083e-05 -0.7468972296 0.39927902
250298500.0 0.759289245 -0.3979681716 -0.0001480292 -4.53312e-05 -0.0001166423 -8.0232e-05 -0.7426120706 0.4073288263
255298470.0 0.7553157632 -0.4050200795 8.11983e-05 9.60825e-05 0.0001698061 0.0001984841 -0.7390237844 0.414709742
260298440.0 0.7515289527 -0.4127270304 -0.0001117278 -4.60185e-05 0.0001021196 0.0001163926 -0.733854008 0.4218503553
265298410.0 0.7464999767 -0.42004427 0.0001068456 2.49551e-05 8.0553e-06 4.89302e-05 -0.7296751367 0.4301704292
270298380.0 0.7437425503 -0.4267052623 -5.16232e-05 -9.92864e-05 -2.89533e-05 -3.32882e-05 -0.7247779122 0.4379610637
275298350.0 0.7393608272 -0.4338372352 -4.89567e-05 0.0001316731 0.0002121226 0.0001428502 -0.7201684959 0.4456646601
280298320.0 0.7352196212 -0.4411306923 0.000118129 -0.0001240227 5.35711e-05 -0.0001255319 -0.716051829 0.4531970195
285298290.0 0.731038932 -0.4485148444 3.80684e-05 2.67361e-05 4.65799e-05 -0.0001262459 -0.7116846275 0.4606208262
290298260.0 0.7262517486 -0.455674875 -6.93201e-05 0.0002456372 -9.07592e-05 3.02847e-05 -0.7064224481 0.4679285652
295298230.0 0.7225539298 -0.4619920644 -0.000187622 -0.0001108475 6.29626e-05 0.0002639343 -0.7012155389 0.4751768981
300298200.0 0.7185555054 -0.4698503955 0.0002420351 0.0001180324 -3.98279e-05 3.91978e-05 -0.6966121739 0.4820547182
305298170.0 0.7143062682 -0.4766671103 -3.74887e-05 -2.42857e-05 -7.16054e-05 -3.73014e-05 -0.6911256822 0.4895143442
310298140.0 0.7089897239 -0.4853512028 3.44928e-05 -4.61106e-05 -8.84236e-05 5.74647e-05 -0.6861069236 0.4968985251
315298110.0 0.7036624152 -0.4921453717 3.9846e-05 0.0001664534 6.92133e-05 -7.03367e-05 -0.6813245576 0.5035448084
320298080.0 0.6978731455 -0.4994922763 -0.0001145083 2.33602e-05 -0.0001276302 0.0002426172 -0.6758706779 0.5107414804
325298050.0 0.6922726177 -0.5069259937 5.92582e-05 -3.60978e-05 7.89885e-05 -7.43336e-05 -0.6698247263 0.5178309652
330298020.0 0.6868745271 -0.513774362 7.36765e-05 0.0002055671 0.0002021609 -0.0001344852 -0.664866144 0.5248875813
335297990.0 0.6810061397 -0.5194787612 -7.3897e-05 -1.80005e-05 5.27844e-05 -1.07665e-05 -0.6593281354 0.5314372218
340297960.0 0.6759645987 -0.5256348664 8.35325e-05 9.6589e-06 -0.0001257549 0.0001216787 -0.6538470236 0.5382176682
345297930.0 0.6698163577 -0.5323114613 6.95925e-05 -9.0838e-06 7.2365e-05 -9.50301e-05 -0.6490791793 0.5444713251
350297900.0 0.6651976733 -0.5376560646 -2.74322e-05 2.37124e-05 1.84104e-05 8.45449e-05 -0.6432831411 0.551243179
355297870.0 0.6601618136 -0.5445526733 -6.36564e-05 -5.69934e-05 6.50118e-05 -0.0002527805 -0.6371881107 0.5588529872
360297840.0 0.6543249134 -0.5505112283 -0.0001624032 0.0001273497 2.23904e-05 3.56485e-05 -0.6305914111 0.5649893571
365297810.0 0.6485686613 -0.5573150206 -0.0001632385 -1.8291e-05 -1.2564e-05 -6.5502e-05 -0.6256220985 0.5712503383
370297780.0 0.6433313945 -0.5628491007 0.0002411974 -5.48468e-05 -7.2048e-06 4.83074e-05 -0.6194406983 0.5775481046
375297750.0 0.6379708208 -0.5691987059 -4.93472e-05 -2.89003e-05 -0.0001684424 -7.08755e-05 -0.6135805432 0.583890741
380297720.0 0.6318083528 -0.5743353147 -0.0001101783 -9.13395e-05 -1.58682e-05 2.3492e-06 -0.6067104674 0.5903680937
385297690.0 0.6262715702 -0.5807934034 0.0002148035 0.0002085005 0.0002162083 -1.77775e-05 -0.6014858815 0.5964450526
390297660.0 0.6209953818 -0.5866791681 -0.000112653 -5.76833e-05 -1.32396e-05 -0.0001015062 -0.5942224299 0.6021311618
395297630.0 0.6151142293 -0.5921968162 -0.000146471 -2.69709e-05 -0.0001290849 0.0001557275 -0.5880963156 0.6080765901
400297600.0 0.6083254593 -0.5988608043 0.0001419702 -1.1037e-05 9.25592e-05 -1.0054e-05 -0.5828134072 0.6146325818
405297570.0 0.6035575382 -0.6048011798 0.0001313017 -4.64436e-05 -6.29466e-05 0.0002962497 -0.575572104 0.6203785007
410297540.0 0.5981717984 -0.6096393104 -5.75646e-05 -0.0002076265 0.0001974956 -2.10439e-05 -0.5696203783 0.6264803567
415297510.0 0.5916349317 -0.6157518904 -0.0002981687 7.2556e-05 -0.0001800255 6.88248e-05 -0.5629617467 0.6320552028
420297480.0 0.5859896775 -0.6219287683 0.0001154662 7.2616e-05 -2.86759e-05 4.4385e-06 -0.5556492436 0.638275681
425297450.0 0.5797848402 -0.6269812509 0.0001508848 0.0001000976 8.3295e-05 -1.59943e-05 -0.5499118067 0.6424304
430297420.0 0.5730277527 -0.6325365844 3.95807e-05 0.0001999897 -1.7431e-06 3.9879e-05 -0.5424997948 0.6489189489
435297390.0 0.5671614705 -0.6385695534 3.6453e-05 2.37432e-05 2.35147e-05 9.25438e-05 -0.5366692402 0.6545144941
440297360.0 0.5609025278 -0.6438080555 -1.10076e-05 -0.0001018776 0.000188575 0.0001097789 -0.5301922419 0.660060758
445297330.0 0.5553835268 -0.6489406345 -7.83715e-05 -1.37868e-05 0.0002084679 -5.59843e-05 -0.5229786107 0.6652084219
450297300.0 0.5491992058 -0.6549191391 1.87702e-05 2.52097e-05 3.37048e-05 0.0001779898 -0.5156117129 0.6692866062
455297270.0 0.542486877 -0.6596663879 -2.72387e-05 0.0003259109 -3.71146e-05 -0.0001336714 -0.5093650814 0.6751494951
460297240.0 0.5360911458 -0.66469988 -7.47942e-05 -3.52885e-05 0.0002137319 1.759e-05 -0.5023461661 0.6799620068
465297210.0 0.5296767669 -0.6700645762 -1.56766e-05 8.91358e-05 8.06932e-05 9.55379e-05 -0.4950320848 0.6858300705
470297180.0 0.523168829 -0.6752272527 -6.00858e-05 0.0001358235 -9.45796e-05 -6.92605e-05 -0.4880925971 0.690268564
475297150.0 0.5161233856 -0.6805209554 5.9122e-06 5.13154e-05 5.11893e-05 -7.13874e-05 -0.4805833926 0.6951527617
480297120.0 0.5094716119 -0.6852051986 3.54586e-05 -0.0003092649 0.0001437634 7.07402e-05 -0.4740715316 0.700365678
485297090.0 0.5028194573 -0.6901103515 -1.52613e-05 9.25383e-05 -9.86836e-05 7.1795e-06 -0.4666328959 0.7052911969
490297060.0 0.4967189505 -0.69487775 -0.00010617 -9.1132e-06 -5.28749e-05 -3.12336e-05 -0.4594902998 0.708988189
495297030.0 0.4898926096 -0.6994366689 2.98351e-05 0.0001445663 -0.0001535794 -0.0002358698 -0.4520933083 0.7132213309
500297000.0 0.4828566853 -0.7044118158 2.0642e-06 7.1138e-06 -0.0001574495 0.0001346922 -0.4452682886 0.7182533465
505296970.0 0.4759387904 -0.7088548216 -9.80847e-05 1.57361e-05 -0.000157544 0.0001267408 -0.437356971 0.7230529567
510296940.0 0.4691377077 -0.7136312337 -0.000187874 0.0001087636 -9.61011e-05 -3.56557e-05 -0.4298614361 0.7276885345
515296910.0 0.4625090668 -0.7182493262 9.76868e-05 -3.09898e-05 -0.0001783744 1.59753e-05 -0.423029968 0.7309802494
520296880.0 0.4564074337 -0.7224138988 -0.0001111369 0.0001260454 -1.4956e-06 0.0002462807 -0.4146895796 0.7360362984
525296850.0 0.4491170348 -0.7266988385 2.29309e-05 -2.83844e-05 8.5184e-05 0.0001091911 -0.4075384163 0.7397882883
530296820.0 0.4419278345 -0.7316167871 -0.0001322885 -9.49355e-05 -4.5215e-06 -5.94736e-05 -0.4004481151 0.7434120536
535296790.0 0.4347380459 -0.7354329652 0.0001722069 -0.0001474942 -9.61369e-05 5.25802e-05 -0.3932792229 0.7485093419
540296760.0 0.4284079849 -0.7397648518 -0.0001615234 0.000137497 6.372e-05 7.05282e-05 -0.3850861678 0.7519574961
545296730.0 0.4198475394 -0.7441414392 3.28644e-05 -8.98891e-05 -0.0002087771 9.55215e-05 -0.3770244717 0.7557272186
550296700.0 0.4133522991 -0.7478286749 -0.0002433023 1.42571e-05 7.42868e-05 9.561e-06 -0.3699094789 0.7594172462
555296670.0 0.4064334882 -0.7515430478 4.18017e-05 -1.46203e-05 0.0001200141 0.000111779 -0.3623696012 0.7627370783
560296640.0 0.3986146447 -0.7551432903 -1.17153e-05 9.34943e-05 3.53273e-05 -5.51534e-05 -0.3540873286 0.7665393822
565296610.0 0.3910554914 -0.7596068724 -2.61008e-05 -2.69423e-05 -9.06203e-05 2.84972e-05 -0.3468483856 0.7701422249
570296580.0 0.3840915559 -0.7628500233 7.366e-07 -7.23295e-05 -3.69973e-05 -1.3351e-05 -0.3388795981 0.7733374231
575296550.0 0.3770757735 -0.7669881665 -1.76719e-05 -2.34529e-05 -3.99125e-05 -0.0001934665 -0.3308913344 0.7767484821
580296520.0 0.3696070878 -0.7701109733 -0.0002850209 -2.83732e-05 6.30421e-05 -6.36965e-05 -0.3234066118 0.7800034107
585296490.0 0.3611827612 -0.7728605396 -9.26938e-05 8.03898e-05 -2.00942e-05 9.27932e-05 -0.3152326004 0.7833207455
590296460.0 0.3541626197 -0.7758956127 0.0001497232 -3.42371e-05 -4.21653e-05 6.624e-05 -0.3076867595 0.7857496268
595296430.0 0.3464549114 -0.780426064 -0.0002050138 -7.19669e-05 0.0001508508 -4.48848e-05 -0.2999664325 0.7894200641
600296400.0 0.3391139834 -0.7835886512 3.30233e-05 -5.58989e-05 0.0001802887 3.26905e-05 -0.2918488005 0.7914957669
605296370.0 0.331142376 -0.7868549962 -1.54522e-05 8.50733e-05 -4.20979e-05 -0.0001051199 -0.2838124639 0.7954958648
610296340.0 0.3235709841 -0.7892664396 -2.79302e-05 -0.000306082 -0.0002756254 -9.676e-05 -0.2760014748 0.7978525535
615296310.0 0.3162930977 -0.7922835925 -4.7623e-06 -0.0001026382 7.21477e-05 3.90255e-05 -0.2670943644 0.8006846783
620296280.0 0.3081880034 -0.7951838982 0.0001052481 0.0001306172 3.88955e-05 -0.0001388109 -0.2596402758 0.8031091536
625296250.0 0.2999495547 -0.7979678021 -3.3569e-06 -0.0001455538 -5.27135e-05 -8.72239e-05 -0.2515117689 0.8050371151
630296220.0 0.2919050141 -0.8007021659 -5.91065e-05 2.59568e-05 8.13546e-05 -1.89662e-05 -0.2433523866 0.80815479
635296190.0 0.2843394193 -0.8037095156 -2.48546e-05 0.0002537 -0.0001517449 9.10703e-05 -0.2358851281 0.8103533725
640296160.0 0.2757058627 -0.8058299161 -0.0001643503 3.55103e-05 -0.0001294271 -8.9425e-05 -0.2268917835 0.8126921356
645296130.0 0.2690962445 -0.8080136342 6.92041e-05 5.62338e-05 5.31627e-05 -0.0001332493 -0.2190204165 0.8143947798
650296100.0 0.2606504034 -0.8104552395 -0.0001674085 -7.64244e-05 -0.0001437428 -9.29789e-05 -0.2103598005 0.8165458614
655296070.0 0.2525082288 -0.8131980631 0.0001443913 -1.45363e-05 3.26654e-05 -0.0001094445 -0.2032573297 0.8193827808
660296040.0 0.2436882164 -0.8154899755 -5.73839e-05 4.56727e-05 -4.9816e-06 0.0001723112 -0.1941342641 0.8210998463
665296010.0 0.2362197006 -0.8169642379 -0.0001055761 0.0001751646 5.06626e-05 0.0001034181 -0.1864275771 0.8225947911
670295980.0 0.2282701468 -0.8189924338 -3.56282e-05 1.18617e-05 9.06467e-05 0.00010391 -0.1782654425 0.824333889
675295950.0 0.219739885 -0.821729571 0.0001781481 -9.46336e-05 2.37149e-05 -0.0002388898 -0.1697325118 0.8266644986
680295920.0 0.2113100901 -0.8237537357 -2.589e-06 -7.8778e-06 0.0001265775 0.0001934714 -0.1611843104 0.8279123037
685295890.0 0.2030206187 -0.8251743827 0.0001087504 -4.37481e-05 0.0001813604 6.50164e-05 -0.153150493 0.8296402657
690295860.0 0.1946826772 -0.8264852165 -1.22846e-05 5.5864e-06 0.0001496422 -4.51709e-05 -0.1450962738 0.831251915
695295830.0 0.1867207279 -0.8286739769 -6.27796e-05 2.60439e-05 9.6379e-06 2.05043e-05 -0.1371809775 0.8325105957
700295800.0 0.1785219729 -0.8300050685 -0.0001471984 0.0001567035 -4.87695e-05 -3.30223e-05 -0.1283506452 0.8332370392
705295770.0 0.1702030737 -0.8314120739 -2.09152e-05 -0.0001466511 5.42068e-05 -5.49924e-05 -0.1202871553 0.8355487373
710295740.0 0.161704964 -0.8326786411 -0.0001231691 9.62129e-05 9.89137e-05 -7.8758e-06 -0.1114396629 0.8362651582
715295710.0 0.153965686 -0.8337038253 -2.33063e-05 -9.1393e-05 -6.04158e-05 0.000245653 -0.1031838882 0.8368709126
720295680.0 0.1457522094 -0.8354272466 9.17578e-05 0.0001083686 -2.43401e-05 0.0001589261 -0.0945523427 0.8373775922
725295650.0 0.1367580571 -0.8362077148 -0.0002478695 -5.81129e-05 -7.94128e-05 0.0001557168 -0.0871374587 0.8395933122
730295620.0 0.1282774698 -0.8375080588 1.1723e-06 0.000180374 1.79264e-05 5.99814e-05 -0.0787425729 0.8400648574
735295590.0 0.119819884 -0.8382806785 -0.0001027445 -8.02592e-05 0.0001366361 5.09028e-05 -0.0693071952 0.8403954556
740295560.0 0.1115690735 -0.8398031815 0.000111295 1.13866e-05 8.22648e-05 7.4761e-06 -0.0613025521 0.8416921156
745295530.0 0.1035153339 -0.8402852974 -0.000163547 -0.0002068353 -1.03661e-05 6.23055e-05 -0.0533939393 0.8417335532
750295500.0 0.0946119449 -0.8412590472 -0.0001705161 5.34277e-05 8.16368e-05 -2.7325e-05 -0.04495807 0.8420692228
755295470.0 0.0866269823 -0.8412303265 0.000194364 -1.2796e-05 -8.29158e-05 5.89995e-05 -0.0366859839 0.8429144485
760295440.0 0.0785476723 -0.8417354957 0.0003753383 -7.95659e-05 2.4189e-05 0.0001914102 -0.028011614 0.8429896011
765295410.0 0.0702060876 -0.8423903828 9.78054e-05 0.0002175994 -2.91619e-05 -7.1351e-06 -0.0196713069 0.8430433201
770295380.0 0.0613016675 -0.8419888893 5.48708e-05 6.64351e-05 -2.90419e-05 -0.0001228033 -0.0115651931 0.8433831433
775295350.0 0.053056666 -0.8425001561 -9.18364e-05 -3.98732e-05 9.2892e-06 6.08155e-05 -0.0031072627 0.8432679698
780295320.0 0.0443934553 -0.843673084 2.32136e-05 0.0001997676 -5.35403e-05 2.98275e-05 0.0055692952 0.8433040339
785295290.0 0.036125058 -0.843249745 -0.0001058521 0.0001737606 2.39048e-05 0.0001739679 0.0132116095 0.8437282942
790295260.0 0.0282714727 -0.8435195008 8.28728e-05 0.0001269834 -1.26775e-05 -3.2878e-05 0.021683962 0.8433873834
795295230.0 0.0196047862 -0.8439548836 -5.30219e-05 -0.0001161094 0.0001109 -3.85853e-05 0.0299518879 0.8422485285
800295200.0 0.0109749868 -0.8434465879 -0.0002189524 4.6243e-05 -6.82087e-05 0.0001950492 0.0380244818 0.8425630828
805295170.0 0.0024042772 -0.8436277784 -9.25936e-05 5.3969e-05 -2.18403e-05 0.0002107901 0.0469920216 0.8417399594
810295140.0 -0.0054188304 -0.8427554715 0.0002410566 -9.32767e-05 5.97147e-05 -0.0001970963 0.0559230064 0.8412011295
815295110.0 -0.0145637064 -0.8425233521 1.42959e-05 -1.39981e-05 0.000109567 -8.33974e-05 0.0630989234 0.8409113401
820295080.0 -0.0228083999 -0.8421947358 -0.000159166 0.000190324 7.7803e-05 0.0001680088 0.0717389502 0.840134783
825295050.0 -0.0317375673 -0.8420697024 -0.0001082682 -9.7833e-06 -0.0002170118 7.45736e-05 0.0799426065 0.8396439523
830295020.0 -0.0395309759 -0.8415510133 -0.0001007575 -0.0002397105 2.24321e-05 -1.44432e-05 0.087919918 0.8381698837
835294990.0 -0.0472443606 -0.8409600194 2.23269e-05 0.0001129822 -3.35291e-05 -0.0001521803 0.0967293381 0.8375762901
840294960.0 -0.0554553179 -0.8409459916 7.45398e-05 -0.0002047152 1.9555e-05 3.7964e-06 0.1053564096 0.8364175089
845294930.0 -0.0646326458 -0.8395301718 1.96598e-05 -0.0001451834 1.07555e-05 -4.05462e-05 0.1138557141 0.8356000844
850294900.0 -0.0714730632 -0.8391563756 8.37593e-05 4.29415e-05 -7.4479e-06 7.4842e-05 0.1215369228 0.8343500112
