!Created with skrf (http://scikit-rf.org).
# Hz S RI R 50.0 
!freq ReS11 ImS11 ReS21 ImS21 ReS12 ImS12 ReS22 ImS22
300000.0 -0.0473940983 -0.0608133367 -0.0014467764 0.0025745925 0.000238244 0.0013138407 -0.7722282273 -0.1709767699
5299970.0 -0.0490963953 0.015615264 -0.0001793901 -7.80329e-05 -8.90691e-05 0.000293892 -0.7847255123 -0.0085496889
10299940.0 -0.043183463 0.033282647 -2.31709e-05 -1.1665e-06 1.55611e-05 -2.83739e-05 -0.7889042048 -0.0048459064
15299910.0 -0.0351569723 0.0479401849 -8.95185e-05 0.0002092695 3.73243e-05 5.3537e-06 -0.793938423 -0.0032841114
20299880.0 -0.024689384 0.0600143202 0.0001655869 -3.64521e-05 3.6496e-05 0.0001506396 -0.8009276565 0.0015358147
25299850.0 -0.0133818254 0.0690967995 -1.22517e-05 -4.31619e-05 -0.0001041478 6.82824e-05 -0.8072159803 0.0071596998
30299820.0 -0.0014583947 0.0756661594 0.000224271 -1.76465e-05 0.00011218 -0.0001356292 -0.8128249985 0.0147034537
35299790.0 0.0105306622 0.0807364827 7.75899e-05 -0.0001143965 -8.691e-07 0.0001347492 -0.8180741096 0.0235553262
40299760.0 0.0217762964 0.0830106342 -0.0001975459 -0.0001398606 0.0001306098 0.0001185556 -0.821860768 0.0333584019
45299730.0 0.0325081619 0.0847299067 4.74559e-05 -4.61433e-05 0.0001102803 0.0002090329 -0.8257767164 0.0424091919
50299700.0 0.0428982821 0.0844732921 3.13476e-05 -0.00020992 0.0001443214 -0.0002215231 -0.8278515867 0.0524057703
55299670.0 0.0518698037 0.0833406616 -8.44168e-05 6.81083e-05 3.61696e-05 -1.90654e-05 -0.8301745004 0.0630793807
60299640.0 0.0609072555 0.0811718658 -0.000112737 0.0001112796 1.14246e-05 8.20348e-05 -0.8312076536 0.0731587665
65299610.0 0.0687562464 0.0787687616 0.0001602223 1.82231e-05 -0.0002058334 -6.7272e-06 -0.831731614 0.0828877821
70299580.0 0.0754827114 0.0758331716 0.0001475032 5.51625e-05 -0.0001134706 -4.66139e-05 -0.8323838075 0.0925267058
75299550.0 0.0821113212 0.0723204438 -3.45374e-05 -3.7666e-06 -8.57468e-05 -7.5188e-06 -0.832598393 0.1023415103
80299520.0 0.0873923766 0.0688757816 0.000137142 1.22935e-05 -8.24959e-05 1.59438e-05 -0.8320494851 0.1126203173
85299490.0 0.092797514 0.0646694861 3.90881e-05 -0.0001738909 0.0001804887 1.45158e-05 -0.8319716866 0.1218075001
90299460.0 0.0971125978 0.0608290552 5.56379e-05 -1.9911e-06 5.40853e-05 0.00024306 -0.830645025 0.1313213485
95299430.0 0.1013736134 0.0568247318 0.0001408518 -1.1096e-06 -0.0001092395 -1.02431e-05 -0.8301824469 0.1415760593
100299400.0 0.1047635765 0.0531087046 8.41815e-05 -5.91581e-05 -2.3838e-06 0.0001154841 -0.8293689597 0.1497194332
105299370.0 0.1082751348 0.0486563819 -0.0001353754 -3.11659e-05 -2.41042e-05 -0.0001580606 -0.8277306152 0.1591831564
110299340.0 0.1109047218 0.0448653219 0.0002096123 6.00105e-05 9.15297e-05 -1.0849e-05 -0.8269214471 0.1685379329
115299310.0 0.113476109 0.0403522763 -1.6575e-06 0.0002810635 -8.41646e-05 1.2331e-06 -0.8244044026 0.1773047458
120299280.0 0.115395025 0.0368890034 -0.0001050948 7.24014e-05 -3.49021e-05 0.0001090666 -0.8232780948 0.1859862104
125299250.0 0.1174194109 0.0325154119 0.0001709372 -2.02021e-05 4.06822e-05 0.0001467342 -0.8221920012 0.1953867189
130299220.0 0.1193982863 0.0293437218 7.69476e-05 0.0001309767 -0.0002347542 -7.26275e-05 -0.820283136 0.2041240912
135299190.0 0.1207807429 0.0252939671 7.34135e-05 -3.27869e-05 -1.58926e-05 -9.49455e-05 -0.8181703703 0.2125855754
140299160.0 0.121904641 0.0213956683 -1.78625e-05 -5.13996e-05 0.0002667831 2.30538e-05 -0.8159092675 0.2213544666
145299130.0 0.1228732351 0.0177635857 -0.0001758597 6.82071e-05 0.0001142748 7.67416e-05 -0.8139388881 0.2295750806
150299100.0 0.1238785475 0.01434507 1.23903e-05 0.000145379 -5.00634e-05 1.14698e-05 -0.8118970707 0.2378149372
155299070.0 0.1245102657 0.0111730709 -2.31443e-05 -0.0001808585 1.59112e-05 0.0001219451 -0.8098889122 0.2474925082
160299040.0 0.125348236 0.0074098341 -3.97481e-05 -9.1767e-05 9.13996e-05 -2.6357e-06 -0.8081207053 0.2563858407
165299010.0 0.125249835 0.0044865747 -0.0001454436 -8.05578e-05 -2.42289e-05 8.85225e-05 -0.8038160501 0.2645162808
170298980.0 0.1258906644 0.0009301271 0.0001954555 0.0001843578 -7.50711e-05 5.67245e-05 -0.802677786 0.2733883513
175298950.0 0.1262912286 -0.0016235776 -9.21711e-05 -0.0001040306 4.5072e-06 -5.5067e-05 -0.7991439921 0.2819785278
180298920.0 0.1262702246 -0.0049825834 7.0518e-06 0.000140714 5.87961e-05 0.0001120867 -0.7958576929 0.2903506419
185298890.0 0.1259694981 -0.0082543588 0.0001034206 6.83149e-05 4.71211e-05 -8.4826e-05 -0.7933602574 0.2985258857
190298860.0 0.1261274464 -0.0111810566 7.15278e-05 -0.0001437181 -5.54709e-05 -9.86797e-05 -0.78948212 0.3072766935
195298830.0 0.126403708 -0.0142255023 2.05158e-05 -3.09165e-05 4.79536e-05 0.0001483281 -0.7876197953 0.3156235153
200298800.0 0.1256783041 -0.0166286741 0.0001043542 0.0001029915 3.0113e-06 -8.04023e-05 -0.7833624984 0.3240055363
205298770.0 0.1253239256 -0.0197471186 4.26868e-05 0.000149795 2.51779e-05 1.35911e-05 -0.7804677254 0.3318656077
210298740.0 0.1252271119 -0.0221443392 -7.8073e-06 0.0001986013 -7.93971e-05 -2.10404e-05 -0.7768621279 0.3402724572
215298710.0 0.1246068081 -0.0246589334 -0.0001097473 -5.83147e-05 -2.3846e-05 0.0001870144 -0.7738667512 0.3488924306
220298680.0 0.124249407 -0.027518306 -3.82129e-05 9.53379e-05 0.0001512732 0.0001317026 -0.7696595771 0.3571820712
225298650.0 0.1236994502 -0.029887956 0.0002266385 -0.0001111553 0.0001262492 -0.0001098539 -0.7657480516 0.3646635156
230298620.0 0.1231494137 -0.0323086974 2.26229e-05 -4.82076e-05 -2.07104e-05 0.0001236252 -0.7616955909 0.3725829894
235298590.0 0.1223578346 -0.0349394557 1.51037e-05 -6.73576e-05 6.69076e-05 -3.27688e-05 -0.7582488291 0.3806588238
240298560.0 0.1216258931 -0.0372818153 0.0001123423 -0.0002328657 -7.4817e-06 8.64675e-05 -0.75448488 0.38881918
245298530.0 0.1211557308 -0.0395900495 0.0002025605 -6.96666e-05 2.83002e-05 4.13703e-05 -0.7502193896 0.3966834543
250298500.0 0.1202115406 -0.0416942722 1.12129e-05 0.0001549375 -8.0661e-06 0.0002139211 -0.7458328801 0.4046647304
255298470.0 0.1192557885 -0.0437581309 0.0001854107 -6.5666e-06 0.0002173148 8.37209e-05 -0.7414640966 0.4125601048
260298440.0 0.1187020538 -0.0458867938 0.0001270683 2.73727e-05 -0.0001325436 1.059e-05 -0.7371226152 0.4199759382
265298410.0 0.1177147895 -0.0479986508 6.01902e-05 1.45064e-05 -0.0001111369 0.0002306278 -0.7330370212 0.4271566277
270298380.0 0.1170510161 -0.0501759892 9.06699e-05 -6.99367e-05 6.3972e-05 2.75933e-05 -0.7282013036 0.4357424901
275298350.0 0.1160119149 -0.0524033921 0.0001254042 0.000233071 -7.09315e-05 1.08214e-05 -0.7234082444 0.4433379216
280298320.0 0.115178022 -0.0540409322 -0.0001224488 6.63458e-05 0.0002068258 0.0002053712 -0.7187612792 0.4505107665
285298290.0 0.1141327108 -0.0562035252 7.1965e-05 -4.53459e-05 2.35162e-05 0.0002445905 -0.7137338001 0.4579931175
290298260.0 0.1133974659 -0.0582803496 8.36344e-05 2.8264e-05 2.08197e-05 1.19841e-05 -0.7088680837 0.4662481778
295298230.0 0.1121734039 -0.060007678 2.3643e-06 4.91425e-05 0.0001216347 0.0002223228 -0.7043831074 0.4729869429
300298200.0 0.1114267881 -0.0625920709 1.80554e-05 0.0002105034 0.0001347146 7.3608e-05 -0.6993439283 0.4801244739
305298170.0 0.110586504 -0.0639481513 -1.64451e-05 1.37591e-05 0.0001359594 1.43163e-05 -0.693520242 0.4874618042
310298140.0 0.1093035784 -0.0662271638 0.0001196016 0.0002505295 3.75653e-05 7.5114e-06 -0.6890251254 0.4951533576
315298110.0 0.1076883665 -0.0680590397 -8.90424e-05 0.0002243022 0.0001050069 0.0001802749 -0.6833210905 0.5020669012
320298080.0 0.1065090353 -0.0700504879 7.86629e-05 -2.67722e-05 0.000103115 0.0001546655 -0.6781340549 0.5089104317
325298050.0 0.105076131 -0.0720404138 -6.7799e-05 -1.625e-07 0.0001828149 0.0001975837 -0.6727053391 0.5165030574
330298020.0 0.1037024082 -0.0732443427 4.98682e-05 -9.34962e-05 6.94433e-05 0.0001030253 -0.6672341222 0.5226104897
335297990.0 0.1021026659 -0.0748224229 0.0001301869 -2.15252e-05 8.3871e-06 2.70755e-05 -0.6615746632 0.5298730433
340297960.0 0.1006507933 -0.0763503932 -8.94497e-05 9.54112e-05 0.0002448101 -4.37001e-05 -0.6557981486 0.5372682133
345297930.0 0.0992620309 -0.077933783 -3.36998e-05 3.37762e-05 0.0001713689 4.43734e-05 -0.6496207434 0.5436847356
350297900.0 0.0982427499 -0.0793862257 -9.8806e-05 2.4958e-06 -7.80731e-05 -7.09857e-05 -0.6439705303 0.551007204
355297870.0 0.0963344784 -0.0808635051 4.68688e-05 4.5951e-06 0.0001191134 1.21167e-05 -0.6387257419 0.5573506368
360297840.0 0.0950342203 -0.0820160481 0.0001653572 9.6728e-05 4.25327e-05 0.0001956216 -0.632127241 0.5635699087
365297810.0 0.0939537551 -0.0834639524 0.0001857947 4.04232e-05 -2.40215e-05 -3.70301e-05 -0.6262686903 0.5704447006
370297780.0 0.0923871073 -0.0848512768 2.62233e-05 -3.85201e-05 -5.38702e-05 3.23104e-05 -0.6211410414 0.5763577801
375297750.0 0.0909923877 -0.0856818978 0.0002998002 0.0003026563 1.92406e-05 1.83324e-05 -0.6143798211 0.5829736569
380297720.0 0.0899418423 -0.0872611111 0.0002618982 0.000175812 -5.21178e-05 -0.0001545598 -0.6083225624 0.5901712794
385297690.0 0.0882869954 -0.0885500367 -0.0001357532 2.09459e-05 6.05529e-05 0.0001616758 -0.6019549518 0.596083549
390297660.0 0.0868655412 -0.0897316338 7.52311e-05 0.0001411766 0.0001819294 8.35378e-05 -0.5954763619 0.6017587621
395297630.0 0.0856463215 -0.0913183141 7.97878e-05 6.53045e-05 0.0001091926 -0.000156891 -0.5895540536 0.6081930415
400297600.0 0.0838916618 -0.0921009275 0.0001874737 -3.22839e-05 0.0001280761 0.0003093394 -0.5830307357 0.6135943224
405297570.0 0.0825388189 -0.093084791 -2.66288e-05 7.43968e-05 8.21911e-05 5.01991e-05 -0.5774462595 0.6200559116
410297540.0 0.0811361935 -0.0944423717 4.90432e-05 0.0002120104 4.44442e-05 -5.28115e-05 -0.5700421862 0.6254778736
415297510.0 0.0797176318 -0.0954574953 4.68224e-05 0.0001635956 0.0001142532 -5.17307e-05 -0.5638295111 0.6317858325
420297480.0 0.0779827564 -0.0967187843 0.0001011738 7.5209e-06 0.0002287502 0.0001259631 -0.557148914 0.6369044138
425297450.0 0.0765728668 -0.0977380507 3.95347e-05 0.0001257631 0.0002267853 2.66422e-05 -0.5504638153 0.6430772683
430297420.0 0.0746710408 -0.0987407637 0.0003308074 7.57697e-05 0.0001655525 0.0002363027 -0.5441592527 0.648605521
435297390.0 0.073374663 -0.0996995747 0.0001169126 0.0001818638 0.0001706244 0.0001327928 -0.5366525194 0.6533853786
440297360.0 0.0720062738 -0.1006013829 8.05292e-05 6.90266e-05 0.0001479811 4.18563e-05 -0.5306751154 0.6590830307
445297330.0 0.0703237446 -0.1013685274 0.0001055915 0.0001687323 1.45655e-05 -0.0001787237 -0.5236154705 0.6639466575
450297300.0 0.0687741763 -0.1024845825 -3.24548e-05 -0.0001891948 0.000183891 -3.629e-05 -0.5171155565 0.6694793119
455297270.0 0.0671214561 -0.1031420592 5.36446e-05 2.70079e-05 0.0002924075 -1.02165e-05 -0.5103335383 0.6749290095
460297240.0 0.065578868 -0.1038858027 6.60882e-05 -1.83538e-05 -7.31271e-05 0.0001584304 -0.5026756419 0.6806460339
465297210.0 0.0642749067 -0.1050670792 0.0003966052 0.0001793054 4.81199e-05 -0.0001178063 -0.4966395092 0.6851871314
470297180.0 0.0624103509 -0.1058562653 7.29966e-05 0.0001238756 0.0002097409 1.1337e-06 -0.4897814954 0.6892758757
475297150.0 0.0608138649 -0.1064830477 -7.37455e-05 0.0001354289 9.42714e-05 -0.0001184211 -0.4822318789 0.6945736591
480297120.0 0.059292482 -0.1075759208 0.0001621144 0.0001036139 5.92244e-05 6.62488e-05 -0.4757154059 0.7000911705
485297090.0 0.0576489284 -0.107942906 1.92327e-05 7.7862e-05 0.0001333786 2.74131e-05 -0.4685448709 0.7038651844
490297060.0 0.056105967 -0.1085810458 0.0001174961 0.0001062456 -4.0942e-05 -6.08742e-05 -0.4614836715 0.7086764638
495297030.0 0.0545301896 -0.1095168995 0.000180929 4.43019e-05 4.60375e-05 8.70229e-05 -0.4539120304 0.7128004386
500297000.0 0.0529894424 -0.1100642391 0.0001316486 0.0001930858 7.05648e-05 -8.71296e-05 -0.4468008998 0.7177771531
505296970.0 0.0511181271 -0.1105874513 8.30954e-05 -0.000160108 0.0001902104 1.0655e-06 -0.4407723796 0.7221303431
510296940.0 0.0496152432 -0.1111090619 0.0002059341 -2.11262e-05 0.0001443603 -4.49634e-05 -0.4323873975 0.7263339549
515296910.0 0.0476130349 -0.111559552 2.00749e-05 -7.28717e-05 0.000147451 4.5395e-06 -0.4248269685 0.7307759638
520296880.0 0.0461379546 -0.112318198 4.0905e-05 0.0001936015 0.0001011768 -6.37869e-05 -0.4182085092 0.7343963819
525296850.0 0.0447718012 -0.1127137761 -3.763e-07 0.0002111078 0.0002553197 -2.82644e-05 -0.4103227776 0.7397477892
530296820.0 0.0428604003 -0.1134709357 0.0002341849 -0.0002106106 0.0001668048 7.39954e-05 -0.4036774608 0.742928627
535296790.0 0.0412270443 -0.1138049154 7.56926e-05 0.0001967525 0.0001190217 -4.8414e-05 -0.3956437768 0.746780616
540296760.0 0.0396597053 -0.1145718717 8.44216e-05 -0.0002306314 0.0001123973 -3.04734e-05 -0.3885757288 0.7511786099
545296730.0 0.0380263194 -0.1144854243 8.35203e-05 2.67624e-05 3.42247e-05 -1.75511e-05 -0.3812413508 0.7542983433
550296700.0 0.0362530303 -0.1150370453 0.0001312626 -7.55922e-05 6.55278e-05 5.5126e-05 -0.3735093609 0.7579921517
555296670.0 0.034734119 -0.1154014079 -1.568e-06 6.11625e-05 1.86516e-05 7.71513e-05 -0.3660452918 0.762060954
560296640.0 0.0329810596 -0.1158311942 7.34998e-05 4.1992e-06 -0.0001116521 -2.26054e-05 -0.3580843486 0.7655748803
565296610.0 0.0311368714 -0.1163730633 0.0001947162 0.0001766764 4.6773e-05 9.33096e-05 -0.3508817741 0.7687312526
570296580.0 0.0297084942 -0.1167593156 9.08961e-05 -0.0001825737 0.0002882451 -0.0001003275 -0.3434474854 0.7728686544
575296550.0 0.0281041189 -0.1166536566 -4.48297e-05 -0.0002422168 -0.0001623911 -7.34127e-05 -0.3353211298 0.7755506498
580296520.0 0.0264895726 -0.1171432672 0.0003318717 0.0001166063 -6.41274e-05 -4.90551e-05 -0.3275688365 0.7793095769
585296490.0 0.0244340983 -0.1173902914 -0.0001363443 -0.0002458987 0.000113403 -2.70618e-05 -0.3197832189 0.7819555008
590296460.0 0.0225141443 -0.1176033958 -8.3061e-05 -7.88215e-05 -5.87029e-05 -0.0001146557 -0.3119783803 0.7849770653
595296430.0 0.0211988165 -0.1178358425 0.0003468951 -9.8733e-06 0.0001750565 -2.07765e-05 -0.3044181756 0.7875028206
600296400.0 0.0193501115 -0.1179737382 -1.65156e-05 2.2744e-06 -1.17516e-05 7.82396e-05 -0.2964564211 0.7915751291
605296370.0 0.0179698632 -0.1178645718 0.0001537771 -0.0001456748 0.0001942433 -5.15182e-05 -0.2888053604 0.794358574
610296340.0 0.0161549276 -0.1183710908 7.66738e-05 -0.0001461423 0.0001319248 -0.0001587983 -0.2803475065 0.7967393945
615296310.0 0.0144934137 -0.1182643676 1.4322e-06 2.73211e-05 -7.60172e-05 -8.16374e-05 -0.2729617586 0.7995153593
620296280.0 0.0127055958 -0.1181385347 7.35526e-05 0.0001482886 0.000112291 -3.19142e-05 -0.2649511924 0.801530577
625296250.0 0.0110281464 -0.1185034157 4.30212e-05 -0.0001319845 0.0002225418 3.68738e-05 -0.2568764183 0.8046892897
630296220.0 0.0090817375 -0.1180925146 0.0002585359 -2.93523e-05 0.0001929357 -0.0001284368 -0.2494239126 0.8071356195
635296190.0 0.0075870937 -0.1183781928 0.0001696983 0.0001510614 0.0002537411 8.59947e-05 -0.2414015147 0.8095107454
640296160.0 0.0061136496 -0.118415565 0.0002059598 -8.8878e-05 0.0001554042 6.95273e-05 -0.2333085112 0.812003197
645296130.0 0.0040100481 -0.1182044426 0.0001786757 6.14553e-05 0.000329889 -2.07381e-05 -0.2253958053 0.8142862309
650296100.0 0.0025619728 -0.118075434 2.63116e-05 -0.0001426019 0.0002379997 6.88873e-05 -0.2170971846 0.8165917826
655296070.0 0.000970539 -0.1181879802 0.0001238601 -7.8326e-06 0.0001889529 -0.0001457498 -0.2091265185 0.8178828058
660296040.0 -0.0011614053 -0.1177380941 0.0001977315 5.13465e-05 0.0003892841 -2.52795e-05 -0.2007722116 0.8205776972
665296010.0 -0.002277144 -0.1180112366 9.64321e-05 -0.0001670506 0.0001244228 8.19055e-05 -0.19355203 0.8222460719
670295980.0 -0.0039909282 -0.1179149988 0.0001289213 -0.0001929998 0.0001636887 5.3993e-06 -0.1853628482 0.824304451
675295950.0 -0.0057449804 -0.1175943283 2.56627e-05 0.0002098542 0.0001090971 6.39248e-05 -0.1766476239 0.8260055016
680295920.0 -0.0074250995 -0.1171021261 1.9462e-06 3.59056e-05 0.0001714667 1.08755e-05 -0.1681525804 0.827559902
685295890.0 -0.0089035126 -0.1170227426 0.0002256678 -8.10207e-05 0.0001980285 -0.0001108902 -0.1602735214 0.8296916511
690295860.0 -0.0106326177 -0.1167799163 0.000120525 -0.0001180555 0.0001558669 -1.78893e-05 -0.1519951601 0.8306683294
695295830.0 -0.0122350039 -0.1166125478 0.0001470912 -3.22849e-05 4.1226e-05 -5.74803e-05 -0.1434890876 0.8324953057
700295800.0 -0.0138618169 -0.1159054567 -1.74492e-05 7.72776e-05 1.02014e-05 -3.51975e-05 -0.1354821753 0.8329044475
705295770.0 -0.0156691546 -0.1158066368 -0.0001377955 0.0001137606 0.0001325769 -2.85491e-05 -0.1279198647 0.8353937728
710295740.0 -0.017148399 -0.1155402955 9.32935e-05 -7.64043e-05 0.0002802145 -0.0001156028 -0.1195223057 0.8365501807
715295710.0 -0.0190522833 -0.1151589202 0.0001911331 -3.8758e-06 0.0001992545 -7.00369e-05 -0.11112054 0.8372703417
720295680.0 -0.0207381445 -0.1149337221 8.53482e-05 -0.0001591468 0.0002328609 -1.46179e-05 -0.1028844203 0.8385288922
725295650.0 -0.0221973349 -0.1142474627 0.0001900079 -0.000170056 0.0001044115 0.0002079782 -0.0943152365 0.839913573
730295620.0 -0.0237358226 -0.1141526983 0.0003222286 -3.34018e-05 0.00019749 0.0001262592 -0.0863263829 0.8400673101
735295590.0 -0.0251057947 -0.1134675371 0.0001551263 -0.0002168371 0.0002006146 4.88037e-05 -0.0774257127 0.8406314288
740295560.0 -0.0269571365 -0.1129844263 -2.03047e-05 -0.0001067941 -1.50481e-05 5.64585e-05 -0.0693615341 0.841200612
745295530.0 -0.0285995496 -0.1123274859 0.0001755043 3.1295e-05 -2.89149e-05 -3.31728e-05 -0.0608420582 0.8425889016
750295500.0 -0.0303376697 -0.1118974994 0.0001475152 -1.36803e-05 3.03825e-05 0.0002064775 -0.0525362969 0.842795373
755295470.0 -0.0315325453 -0.1113275638 0.0002922423 -4.2757e-05 0.0002067249 -0.0001287154 -0.0448557111 0.8434309785
760295440.0 -0.033628017 -0.1105422352 0.0001050292 -1.14538e-05 0.0003238399 -1.75528e-05 -0.036835735 0.8435671772
765295410.0 -0.0349526877 -0.1103414011 9.73593e-05 -2.08128e-05 5.8965e-05 1.159e-07 -0.0276959149 0.8445434436
770295380.0 -0.0364342975 -0.1094040779 0.0001909955 -0.0001077365 0.0001264869 -0.0001978637 -0.0190689398 0.844812002
775295350.0 -0.0382231997 -0.1087182694 0.0001337591 -0.0001063948 3.22025e-05 1.67777e-05 -0.0118703908 0.8443733817
780295320.0 -0.0395906939 -0.1085172988 0.0001585307 -0.0001403329 0.0002014812 -0.0001086353 -0.0033714409 0.8450490606
785295290.0 -0.0413551406 -0.1072909581 0.0001205963 -3.71772e-05 0.0003038995 -5.41278e-05 0.0047112894 0.844891238
790295260.0 -0.0428486175 -0.1069615709 0.0001826224 -1.70779e-05 5.9813e-05 7.87689e-05 0.0142236958 0.8448035545
795295230.0 -0.0440801551 -0.1059835634 -8.5928e-06 -0.0001736319 0.0002594692 1.82426e-05 0.0220426157 0.8450269997
800295200.0 -0.0455916242 -0.1051768659 0.0003003898 -0.0002089645 0.0001181733 1.4333e-06 0.0304327757 0.8441349648
805295170.0 -0.0469478553 -0.1048771571 -9.5936e-06 -9.1897e-06 0.0001816667 -0.000226002 0.0384110547 0.8432729971
810295140.0 -0.0485343825 -0.1039760869 0.0002882928 0.0001327931 0.0001608356 -9.43429e-05 0.0467578911 0.8443640044
815295110.0 -0.0501266183 -0.1032127791 0.0001167492 -0.0001240157 0.0001114647 0.0002004491 0.0545342919 0.8431921406
820295080.0 -0.0515908998 -0.1024269398 0.0002538621 -1.4826e-05 1.96623e-05 -0.0002816887 0.0629686674 0.8424532878
825295050.0 -0.0529872474 -0.1015918467 0.0001853718 -0.0001865699 0.0002468215 -0.0001902747 0.0713172859 0.8418432272
830295020.0 -0.0543473333 -0.1004745408 0.0001540745 3.82736e-05 0.0001689302 -7.5694e-06 0.0790993329 0.8409248542
835294990.0 -0.0559886773 -0.0996592098 0.0002109208 2.762e-06 0.0002130697 -0.0002724533 0.0880743189 0.8405143211
840294960.0 -0.0569900566 -0.0988943586 0.0001751685 -5.28388e-05 -2.3318e-06 -4.21591e-05 0.0959414601 0.8393269318
845294930.0 -0.0587788129 -0.0978614646 0.0002385669 -7.13616e-05 5.84035e-05 7.17332e-05 0.1038847323 0.8383040619
850294900.0 -0.0602517802 -0.0970197798 -2.0578e-05 -0.0001259495 4.74914e-05 -7.1198e-05 0.1121861356 0.837400216
