!Created with skrf (http://scikit-rf.org).
# Hz S RI R 50.0 
!freq ReS11 ImS11 ReS21 ImS21 ReS12 ImS12 ReS22 ImS22
300000.0 -0.2407739786 -0.0833790125 0.4717949275 0.0561580173 0.4679145269 0.0534019666 -0.2397953562 -0.0937395991
5299970.0 -0.2443576925 0.0070443184 0.4736934319 0.0048391452 0.4740887003 0.0051881514 -0.244125743 0.0070268641
10299940.0 -0.2412421599 0.0185858125 0.4757466259 0.0059719267 0.4753740304 0.006686046 -0.2407165716 0.02028144
15299910.0 -0.2367002326 0.0280509928 0.4791371881 0.0079100337 0.479497589 0.0078980397 -0.2362797099 0.0295145498
20299880.0 -0.232071622 0.0354244738 0.48403304 0.0084831902 0.483828348 0.0086156656 -0.2308621809 0.0372920222
25299850.0 -0.2267688702 0.0420981979 0.4890309663 0.0076870174 0.4888591453 0.0077612872 -0.224862796 0.044141176
30299820.0 -0.2215292069 0.0469514275 0.4944473105 0.0052615194 0.4947661205 0.0049393119 -0.218996886 0.0493755265
35299790.0 -0.2163287262 0.0514689868 0.5002077441 0.0020789074 0.5001093248 0.002208276 -0.2136855934 0.0533083346
40299760.0 -0.2114029335 0.0551471135 0.5051935275 -0.0017852265 0.5052597758 -0.0014755347 -0.2083544356 0.0562464433
45299730.0 -0.2063909618 0.0577539212 0.5097942894 -0.0062438342 0.5100683874 -0.0065483732 -0.203359727 0.0587507719
50299700.0 -0.202666284 0.0597446404 0.5143214755 -0.0118306134 0.5139471836 -0.0114094406 -0.1985264032 0.0606767532
55299670.0 -0.1982850276 0.0617026854 0.5180889258 -0.0182617108 0.5178796144 -0.0180051361 -0.1943938138 0.0624872186
60299640.0 -0.1943543966 0.0636266605 0.5210561666 -0.0242915231 0.5212822429 -0.023969079 -0.1904970355 0.0631704906
65299610.0 -0.1911320066 0.0648452144 0.5242385668 -0.03087018 0.5244466803 -0.0303970588 -0.1870953785 0.0641300765
70299580.0 -0.1879651759 0.0663638302 0.5264540416 -0.0373497102 0.5262587003 -0.0369305052 -0.1837520617 0.0647447854
75299550.0 -0.1851414207 0.0671040784 0.5285205693 -0.0438484456 0.5287139753 -0.0441592036 -0.1810480645 0.0654521894
80299520.0 -0.1823958978 0.0682840665 0.5305694305 -0.051306957 0.5303293333 -0.0508025745 -0.1783093746 0.0660282044
85299490.0 -0.179907126 0.068907584 0.5315651563 -0.0576334291 0.5321261921 -0.0573359976 -0.1762300419 0.0658290239
90299460.0 -0.177791938 0.0696828354 0.5323530967 -0.0647688268 0.5330349346 -0.0647199133 -0.1736727123 0.0668602487
95299430.0 -0.1755820658 0.0703615835 0.5339051171 -0.0717038116 0.5334954487 -0.0718384074 -0.1714320799 0.0672681575
100299400.0 -0.173955704 0.0716202513 0.5338597929 -0.0784430661 0.5336815912 -0.0783496519 -0.169296157 0.0670903287
105299370.0 -0.172036866 0.0723106027 0.5342395222 -0.0857406997 0.5344472527 -0.0858233461 -0.1675572007 0.0682426944
110299340.0 -0.1704225393 0.0733969407 0.5345666011 -0.0922154487 0.5343880801 -0.0917033077 -0.166739449 0.0682275986
115299310.0 -0.1685997457 0.0739019141 0.5345643765 -0.0991223034 0.5346012718 -0.0989061724 -0.1648307845 0.0690808063
120299280.0 -0.1674109737 0.0748161274 0.534167424 -0.105842968 0.5343912743 -0.1058895949 -0.1630972799 0.0695000899
125299250.0 -0.1658459265 0.0755887028 0.5338543932 -0.1124966812 0.5339971505 -0.112281217 -0.1623771474 0.0695606276
130299220.0 -0.1649652196 0.0767361582 0.5332685102 -0.1191484565 0.5334794603 -0.1191906924 -0.1610409121 0.0701821327
135299190.0 -0.163846236 0.0781168769 0.5328713853 -0.1264058868 0.5326275035 -0.1256254877 -0.159737549 0.0711613319
140299160.0 -0.1625714636 0.0789701611 0.5316738722 -0.1329023909 0.5320398429 -0.1328260864 -0.1587345688 0.0722151992
145299130.0 -0.1613887177 0.0800284765 0.5311696422 -0.1391476614 0.5310423101 -0.1388218016 -0.1578328262 0.0727005006
150299100.0 -0.1600546201 0.0811689139 0.5299182456 -0.1454304374 0.5298129631 -0.1452674306 -0.1570026713 0.0740732829
155299070.0 -0.1594612654 0.0822324493 0.5286770416 -0.1528522256 0.5286156473 -0.1524026673 -0.1556951081 0.0749945718
160299040.0 -0.1582437752 0.0835724569 0.5271143758 -0.1583981328 0.5269886739 -0.1585576737 -0.1555187124 0.0757101583
165299010.0 -0.1573736042 0.0846489796 0.5257496965 -0.1653079956 0.5258803693 -0.1651258036 -0.1541292255 0.0764969583
170298980.0 -0.1564399838 0.0858107284 0.5243886707 -0.1717446518 0.5245986852 -0.1714646252 -0.153322094 0.0775093224
175298950.0 -0.1556030122 0.0871287221 0.5230958852 -0.1780813429 0.5224497412 -0.1774960655 -0.1532220369 0.0787059225
180298920.0 -0.1546267085 0.0885756904 0.5210380057 -0.1843235729 0.5207302686 -0.1839293928 -0.1520343211 0.0798579279
185298890.0 -0.1532875618 0.0894924281 0.5188883771 -0.1902107197 0.5191266136 -0.1901345557 -0.1514058117 0.0807979064
190298860.0 -0.152721098 0.0911608671 0.5174432792 -0.1966962152 0.5174091744 -0.1960439795 -0.1504603635 0.081908364
195298830.0 -0.1516623862 0.0919277622 0.5149184206 -0.2024258924 0.515373549 -0.2024658046 -0.1495738538 0.0831803529
200298800.0 -0.1508077199 0.093624758 0.5129168026 -0.208651481 0.5134006924 -0.2087510579 -0.1494401249 0.0840742592
205298770.0 -0.1497250711 0.0952520714 0.5106711335 -0.2154224528 0.5108155299 -0.2147287759 -0.148463919 0.0848709948
210298740.0 -0.1486852037 0.0961064907 0.5082148813 -0.2203376804 0.5085859305 -0.2201787083 -0.1475010411 0.086674873
215298710.0 -0.1482260522 0.0979768678 0.506076201 -0.2268400938 0.5061447937 -0.2270078088 -0.1473060426 0.0877426046
220298680.0 -0.147133016 0.0989469514 0.5039091698 -0.2324291908 0.5036113057 -0.2326280763 -0.1467801963 0.0885915521
225298650.0 -0.1460920477 0.1005223044 0.5013739749 -0.2385312556 0.5014504319 -0.2384115745 -0.146323368 0.0896857063
230298620.0 -0.1452557652 0.1020268275 0.4989415016 -0.24401119 0.4996514207 -0.244064523 -0.1455628234 0.0909126397
235298590.0 -0.1440675899 0.1036070932 0.4962314855 -0.2498641904 0.4965213211 -0.2497836115 -0.1444729118 0.0923187966
240298560.0 -0.1430606489 0.1051605623 0.4936573347 -0.2560409152 0.4933804828 -0.2561105324 -0.143874414 0.0937365817
245298530.0 -0.1423529323 0.1065299188 0.4910567411 -0.2615692324 0.4907494315 -0.2616721879 -0.1429770316 0.0940987406
250298500.0 -0.1407359341 0.108214264 0.4874117116 -0.2673068572 0.4875450057 -0.2667611649 -0.1424223915 0.0957613487
255298470.0 -0.1397424433 0.1091599073 0.4840140715 -0.2724056663 0.4848493115 -0.2724222785 -0.1413212121 0.0966955569
260298440.0 -0.139117486 0.1106694695 0.4818321208 -0.2782402673 0.4820860481 -0.2778535345 -0.1404310468 0.0982498658
265298410.0 -0.1374610391 0.1124131276 0.4790951033 -0.2839623967 0.4792437952 -0.2835438283 -0.1398418272 0.0995151981
270298380.0 -0.1365126253 0.113783453 0.4760291846 -0.2887233551 0.4762735143 -0.2892531541 -0.1388286376 0.1004555144
275298350.0 -0.1354077199 0.1151748861 0.4726830072 -0.2946450324 0.4730863238 -0.2945271355 -0.1378310929 0.1017271591
280298320.0 -0.134021937 0.1167719772 0.4699644206 -0.300118217 0.4696119171 -0.2997022219 -0.136751641 0.1031188188
285298290.0 -0.1329122521 0.1182972165 0.4665531694 -0.3051841796 0.4661349249 -0.3051976152 -0.135940292 0.1043476088
290298260.0 -0.1313218996 0.1198897804 0.4627614491 -0.3106097572 0.4630460253 -0.3103239286 -0.1346543657 0.1055604171
295298230.0 -0.1302697019 0.1207786683 0.4602694159 -0.31552911 0.4597370454 -0.3158499498 -0.1335820451 0.1067447323
300298200.0 -0.1292038113 0.1224134131 0.4567150586 -0.3208243135 0.4563432477 -0.3213131336 -0.1328062377 0.1080333483
305298170.0 -0.1277304379 0.1235566125 0.4524254413 -0.3266640912 0.4530927628 -0.3261417742 -0.1311921468 0.1090487163
310298140.0 -0.1266163276 0.1251574386 0.4490978379 -0.3316137923 0.4496008195 -0.3316608171 -0.1304622104 0.1103123282
315298110.0 -0.1253456506 0.1263378738 0.4457201741 -0.3368662096 0.4458902092 -0.3362599001 -0.129649149 0.1115878752
320298080.0 -0.1237590469 0.1275063637 0.4412955747 -0.3423357228 0.4420759121 -0.3419080354 -0.1285418904 0.1131049593
325298050.0 -0.1226337716 0.1289792253 0.4380224928 -0.3470283325 0.4379860509 -0.347079324 -0.1279704128 0.1139983622
330298020.0 -0.121278245 0.1298633232 0.4336822233 -0.3517787813 0.433967611 -0.3519796741 -0.12686331 0.1153508599
335297990.0 -0.1198871476 0.1314810332 0.4296366384 -0.356621725 0.429935414 -0.356612634 -0.1264869046 0.1169312453
340297960.0 -0.1191855775 0.1328907666 0.4257176782 -0.3614543946 0.4258101728 -0.3615873892 -0.1250864333 0.1182562686
345297930.0 -0.1179248343 0.134838331 0.4219441174 -0.3665942565 0.421317119 -0.3663180072 -0.1240549931 0.119086554
350297900.0 -0.1165577915 0.1357664565 0.4171447261 -0.3708030231 0.4173434137 -0.371111384 -0.1235862328 0.1210417873
355297870.0 -0.115052822 0.1378366322 0.4129016497 -0.3756179672 0.4137278991 -0.3750717007 -0.1224211705 0.1223414198
360297840.0 -0.1137349808 0.1389884943 0.4096644595 -0.3799398336 0.4097573173 -0.3794980127 -0.1214904321 0.1235721429
365297810.0 -0.1126243859 0.1407134994 0.4050100148 -0.3850993905 0.405678185 -0.3843868483 -0.1201767392 0.1251071228
370297780.0 -0.1106808645 0.1414345506 0.4007162643 -0.3884377371 0.4013573983 -0.3883701306 -0.1192729892 0.1265109257
375297750.0 -0.1088092091 0.1431714412 0.3966983599 -0.3932537643 0.3969227534 -0.3933651715 -0.1176537126 0.1276365424
380297720.0 -0.1077553056 0.1440905674 0.3921533642 -0.3978611919 0.3922368623 -0.396831573 -0.1171185191 0.1284212143
385297690.0 -0.1064137477 0.1457527548 0.387703773 -0.4018632037 0.3875649114 -0.4016334756 -0.1155543906 0.1303017686
390297660.0 -0.1046169 0.1468912252 0.3831241844 -0.4061883572 0.3832102796 -0.4058106506 -0.1146861982 0.1310688459
395297630.0 -0.1029919745 0.148338407 0.3787672678 -0.4103980774 0.3790207984 -0.4103324244 -0.1131106205 0.1325262275
400297600.0 -0.1016274151 0.1498520057 0.374233014 -0.4149651925 0.3743869908 -0.4143825436 -0.112044658 0.134128028
405297570.0 -0.1002906344 0.1509495747 0.3697195839 -0.4184537809 0.3701963549 -0.4184543752 -0.1117617767 0.1351794696
410297540.0 -0.0982509329 0.1518683371 0.3648242811 -0.4223579594 0.3654758534 -0.4226876582 -0.1099804854 0.1364904217
415297510.0 -0.096825522 0.1530010577 0.3603929535 -0.4267271561 0.3609079782 -0.4266451302 -0.1087273391 0.137462059
420297480.0 -0.0951330492 0.1548441514 0.3553813109 -0.4308777915 0.3560028618 -0.4305709418 -0.1077303568 0.1382462726
425297450.0 -0.0935762551 0.1553199755 0.3508705082 -0.434393964 0.3513040703 -0.4342453757 -0.1062833913 0.1400288809
430297420.0 -0.0918073589 0.1566655523 0.3460554009 -0.4375646376 0.3464111563 -0.4376595334 -0.1052575641 0.1406329658
435297390.0 -0.0904419704 0.1577113238 0.3411057852 -0.442055348 0.341132401 -0.4419305538 -0.1030402163 0.1418128766
440297360.0 -0.0883609193 0.1591382049 0.3365974448 -0.4456834937 0.3365740386 -0.4455116116 -0.1023296775 0.1427185257
445297330.0 -0.0867350575 0.1597051553 0.3318820509 -0.4490115512 0.33185583 -0.4488663008 -0.100802176 0.143799988
450297300.0 -0.0849094228 0.1610376526 0.326732724 -0.4530616011 0.3268343508 -0.4529260564 -0.0995478343 0.1449641381
455297270.0 -0.0832771166 0.1621719156 0.3214144104 -0.4562171705 0.3220460475 -0.4562093161 -0.0982428222 0.1459144416
460297240.0 -0.0814721926 0.1630690532 0.3165558379 -0.459705904 0.316887034 -0.4596409907 -0.0967063502 0.1472627158
465297210.0 -0.0794068249 0.1643727671 0.3115296737 -0.4633430138 0.3118230064 -0.4634474518 -0.0952035891 0.1479337284
470297180.0 -0.07781858 0.1649351621 0.3061352244 -0.4663019577 0.3066108821 -0.4667460302 -0.0936284219 0.1495189705
475297150.0 -0.0760730089 0.1660982987 0.301440606 -0.4698668903 0.3016343271 -0.4694562874 -0.0919510393 0.1501203109
480297120.0 -0.0741261988 0.1674494651 0.295684129 -0.4732725457 0.2965390518 -0.473492325 -0.090314905 0.1511545039
485297090.0 -0.0728189331 0.1682319507 0.2914586255 -0.4757380992 0.2911241086 -0.4760304688 -0.0889488576 0.1520263284
490297060.0 -0.0708235394 0.1689830442 0.2862312951 -0.4796706674 0.2861262308 -0.4793121115 -0.0875350385 0.1534795598
495297030.0 -0.0686784687 0.1703424244 0.2806263501 -0.4824029519 0.2809604283 -0.4823255144 -0.0863205818 0.154318758
500297000.0 -0.06692716 0.1707682164 0.2752479242 -0.4849923646 0.2750325937 -0.4851610092 -0.0845132721 0.1558999332
505296970.0 -0.0649176804 0.1716057426 0.2702205821 -0.4881572404 0.2699145042 -0.4881021795 -0.0832352796 0.156526805
510296940.0 -0.062972924 0.172692082 0.2648932158 -0.4914351677 0.2644481257 -0.4911226991 -0.0816796186 0.1574883494
515296910.0 -0.061070205 0.173279194 0.2588031543 -0.4943785303 0.2592463199 -0.4942907682 -0.079955847 0.1585037286
520296880.0 -0.059497772 0.1743472598 0.2539082794 -0.4969210016 0.2540066299 -0.4964283087 -0.0785221038 0.1590872716
525296850.0 -0.0572905229 0.1748349762 0.2481812931 -0.4996869661 0.2489319516 -0.4994822148 -0.0771460982 0.1602624545
530296820.0 -0.0553736792 0.1760506595 0.2428772949 -0.5025601103 0.243110922 -0.5021985129 -0.0753640882 0.1614621674
535296790.0 -0.0537607023 0.176608612 0.2377185391 -0.504545088 0.2382258215 -0.504424338 -0.0743151211 0.1619468519
540296760.0 -0.0517797589 0.1772661053 0.2317764138 -0.5075553894 0.2317555831 -0.5075571574 -0.0726659566 0.1634122377
545296730.0 -0.0496565744 0.1782113607 0.2263980209 -0.5098525725 0.2266424226 -0.5096618457 -0.0712811204 0.1638284003
550296700.0 -0.047524977 0.1788696681 0.2205750365 -0.5117308874 0.2208353892 -0.512261844 -0.0700344642 0.1650384115
555296670.0 -0.0458065292 0.1791974043 0.2156048045 -0.5147671242 0.2158076164 -0.5143005758 -0.0684160411 0.1659584244
560296640.0 -0.043497825 0.1804582482 0.2092423797 -0.5172367586 0.209929572 -0.5170001444 -0.0668047066 0.1664628184
565296610.0 -0.0420755179 0.1807128768 0.2039004586 -0.5189855488 0.2043342579 -0.5189839215 -0.065200535 0.1669875373
570296580.0 -0.0400715865 0.1814788689 0.198347972 -0.5217366459 0.1981510203 -0.5214216354 -0.0637085316 0.1683659167
575296550.0 -0.0382909227 0.1823005999 0.1930656498 -0.5233875445 0.1926529009 -0.523601836 -0.0619509671 0.1690172561
580296520.0 -0.0359866718 0.182944843 0.1869219093 -0.5257425379 0.186957474 -0.5255810099 -0.0599478805 0.1695901077
585296490.0 -0.0341116232 0.1828800453 0.1818249651 -0.5271854604 0.1815034916 -0.5274741977 -0.0584852536 0.1703771736
590296460.0 -0.0314386208 0.1836043874 0.1756209515 -0.5289075598 0.1760152694 -0.5291961506 -0.0575603415 0.1710574755
595296430.0 -0.0296384974 0.1840319048 0.1695022892 -0.5313476894 0.1699212902 -0.5311934918 -0.0554875413 0.1714419297
600296400.0 -0.0279576009 0.1844142252 0.1640310429 -0.5329149124 0.1640798731 -0.532842796 -0.0537049695 0.1718474825
605296370.0 -0.0260017227 0.184942185 0.1582663517 -0.5345470163 0.1585943632 -0.5344964791 -0.0522126789 0.1727297058
610296340.0 -0.0237717264 0.185406669 0.1519654122 -0.5363122574 0.1527281735 -0.5361321137 -0.0503344198 0.1732808501
615296310.0 -0.0215085067 0.1856679372 0.1460918649 -0.53758811 0.1464585422 -0.5381051107 -0.0482541827 0.1739066868
620296280.0 -0.0197977353 0.1858874893 0.1409365675 -0.5392027032 0.1409878715 -0.5390661824 -0.0472207994 0.1742940217
625296250.0 -0.0178536495 0.1859002373 0.1353131441 -0.5405497838 0.135157173 -0.5413796315 -0.0448500986 0.174882327
630296220.0 -0.0147715434 0.1865610689 0.1283849402 -0.5424208305 0.1288502803 -0.5423876606 -0.0433707974 0.1757975004
635296190.0 -0.0137665424 0.1867921157 0.1232246163 -0.5434099568 0.122864277 -0.5433766696 -0.0414794278 0.1767083965
640296160.0 -0.0117802762 0.1871611443 0.1175614227 -0.5442695941 0.1178820594 -0.5449289147 -0.0398359688 0.1767806534
645296130.0 -0.009558841 0.1876738149 0.1113641072 -0.5457653594 0.1114751295 -0.5461069719 -0.0377729298 0.177545061
650296100.0 -0.0071470079 0.1875734067 0.1054290292 -0.547056514 0.1059502207 -0.5468900668 -0.0360120826 0.1777665336
655296070.0 -0.0053147438 0.1878669178 0.099467943 -0.5484246571 0.0999617468 -0.5480833197 -0.0342287718 0.1781258192
660296040.0 -0.0035633546 0.1878393681 0.0936863198 -0.5491997457 0.093836122 -0.5493987883 -0.0324736786 0.1788226264
665296010.0 -0.0010047386 0.1879906071 0.087376142 -0.550263492 0.087984624 -0.5499704873 -0.0303583189 0.1798268689
670295980.0 0.0002805167 0.1882550321 0.0822016203 -0.5508615206 0.0819812916 -0.5506798632 -0.0295308495 0.1800456544
675295950.0 0.0028400054 0.1886765796 0.0762191771 -0.5515328971 0.0758044834 -0.5511985214 -0.027772292 0.1801928677
680295920.0 0.0047861918 0.1883826345 0.0697278555 -0.5523546907 0.0695421197 -0.5526698211 -0.0255772516 0.1813843895
685295890.0 0.0068685424 0.1890941732 0.063851408 -0.5531132449 0.0635817957 -0.5532810576 -0.0239109063 0.1813878722
690295860.0 0.0092961636 0.1891404353 0.0579392862 -0.5535724026 0.0581187255 -0.5539930434 -0.0222780228 0.1826250732
695295830.0 0.010796708 0.1889209302 0.0523201168 -0.5541613092 0.0516880365 -0.5544607711 -0.0202249706 0.182766974
700295800.0 0.013209042 0.1884199296 0.0459568145 -0.5545884842 0.0453749583 -0.5544530137 -0.0188604878 0.1831395652
705295770.0 0.0151802618 0.1893150834 0.0397362896 -0.5554605436 0.0405066403 -0.555447817 -0.0171625877 0.1837356103
710295740.0 0.0177466378 0.1891139311 0.0339664886 -0.5562344491 0.0345220116 -0.5561188318 -0.0150271206 0.1834586797
715295710.0 0.0191106945 0.1887126729 0.0283023549 -0.5560334295 0.0277903594 -0.5559065628 -0.0136294178 0.1842585652
720295680.0 0.0214837286 0.1889604076 0.021560816 -0.55617225 0.0222152483 -0.5564032392 -0.0118276861 0.1846193853
725295650.0 0.0238398137 0.1886489408 0.0157709555 -0.5562339712 0.0163189698 -0.5568588924 -0.0101896179 0.1849559587
730295620.0 0.0260360531 0.1889483465 0.009879911 -0.5563047511 0.0103472973 -0.556686356 -0.0086301329 0.1847755281
735295590.0 0.027718532 0.1885499586 0.0040632752 -0.5567713633 0.0037519678 -0.5564535718 -0.0069354467 0.184920555
740295560.0 0.0297277789 0.1885969423 -0.0019591865 -0.5566557636 -0.0020734134 -0.5566002733 -0.0046201884 0.1854259874
745295530.0 0.031719123 0.1885875389 -0.0080609842 -0.5563598551 -0.00805238 -0.5563149907 -0.0030200546 0.1853501189
750295500.0 0.0339581965 0.1879109521 -0.0139864969 -0.5560577437 -0.0137978418 -0.5568655466 -0.0014212715 0.1858083071
755295470.0 0.0361651959 0.1876740552 -0.0196256958 -0.5560838488 -0.0197747107 -0.5562402154 0.0007837381 0.1854614412
760295440.0 0.0381409193 0.1875480241 -0.0262427322 -0.5560333823 -0.0262190412 -0.5562985826 0.0026150495 0.1856375887
765295410.0 0.0402181917 0.1872950888 -0.0322716248 -0.5557136033 -0.0323449313 -0.555844809 0.0042669674 0.1859768825
770295380.0 0.041822623 0.1868124892 -0.0384541573 -0.5550742399 -0.0380241213 -0.5549358801 0.0058467439 0.1858994424
775295350.0 0.0439020863 0.1861267964 -0.0444824505 -0.5543423202 -0.0434487092 -0.55449002 0.0072764026 0.1860048136
780295320.0 0.0463333259 0.186030307 -0.0501662433 -0.5538109426 -0.0491904906 -0.5538990069 0.0095160105 0.1856140927
785295290.0 0.047700537 0.1852744871 -0.0562679996 -0.5529677842 -0.0558573057 -0.5533577101 0.0115747505 0.1858890312
790295260.0 0.0507642726 0.1855051971 -0.0617409215 -0.5528660482 -0.0609634886 -0.5529293315 0.0134199375 0.1859911039
795295230.0 0.0521260873 0.1848302714 -0.067880969 -0.5518407895 -0.0675036496 -0.5521497367 0.0155239997 0.1861275553
800295200.0 0.0542204521 0.1844647219 -0.0740615602 -0.5511173873 -0.0736311221 -0.5512093886 0.0170988428 0.1861616733
805295170.0 0.0564711589 0.1836470487 -0.0798738078 -0.5499456729 -0.0797008086 -0.550612719 0.0189827734 0.1859251111
810295140.0 0.0582395969 0.1826460084 -0.0852138331 -0.5488485563 -0.0855330204 -0.5495881455 0.0214467314 0.1862450249
815295110.0 0.0603148308 0.1824610285 -0.0915061181 -0.5478920947 -0.0911500243 -0.5484870578 0.0227136717 0.1862155542
820295080.0 0.0621500265 0.1825285294 -0.0969687984 -0.5471909578 -0.0969950085 -0.5471907213 0.0246915356 0.1859377134
825295050.0 0.0648494723 0.1815635552 -0.1029193157 -0.5459242633 -0.1032616887 -0.5459644525 0.0265159864 0.1858506759
830295020.0 0.0663345132 0.1812662598 -0.1092680156 -0.5447475467 -0.109027259 -0.5451216415 0.0290693683 0.1859234879
