!Created with skrf (http://scikit-rf.org).
# Hz S RI R 50.0 
!freq ReS11 ImS11 ReS21 ImS21 ReS12 ImS12 ReS22 ImS22
300000.0 -0.2320292599 -0.1269636016 0.4663761753 0.0836556228 0.4683385932 0.0818681638 -0.2371489809 -0.1260154745
5299970.0 -0.2417799036 0.0053548565 0.4746733573 0.0057344836 0.4753573172 0.005817191 -0.2443755475 0.0048282862
10299940.0 -0.2387061304 0.0187094246 0.4771456756 0.006813536 0.4770640088 0.0069887845 -0.2408432296 0.0172035374
15299910.0 -0.2335497255 0.0285462426 0.4806430707 0.0079325126 0.4809211502 0.0082402622 -0.2369343366 0.0261356594
20299880.0 -0.2285318904 0.0369349082 0.4854276776 0.0081430603 0.4855794976 0.0083157569 -0.2322247691 0.0337689521
25299850.0 -0.2225298146 0.043556265 0.4906037808 0.0076256141 0.490673532 0.0071619143 -0.2269166662 0.0400775726
30299820.0 -0.217279021 0.0483774466 0.4959328522 0.0054484235 0.4960121768 0.0049406854 -0.2217907618 0.0449992142
35299790.0 -0.2112870409 0.0530464415 0.5009001692 0.0019687119 0.5013827159 0.0017383904 -0.2169189997 0.0489942629
40299760.0 -0.2062339238 0.0562763664 0.50634382 -0.0022780789 0.5068051902 -0.0022783352 -0.2119551096 0.052139283
45299730.0 -0.2010166884 0.0586916715 0.5113234498 -0.0066617836 0.5113931778 -0.0071511423 -0.207081512 0.0546906039
50299700.0 -0.1960886727 0.0608289823 0.5154019347 -0.0125272854 0.5152029449 -0.012701876 -0.2028073913 0.0569098158
55299670.0 -0.1920030694 0.0623483689 0.5190046652 -0.018099226 0.5189095854 -0.0183446259 -0.1991070393 0.0584873594
60299640.0 -0.1877539715 0.0641986242 0.5225227721 -0.0248623424 0.5222041353 -0.0247154431 -0.1952931399 0.0598772765
65299610.0 -0.1841161368 0.0651350074 0.525714392 -0.0309752408 0.525612843 -0.0309985264 -0.1916770892 0.0611268788
70299580.0 -0.1808324139 0.0658168963 0.5277188819 -0.0375909366 0.5280060575 -0.037567503 -0.1893065382 0.0616808334
75299550.0 -0.177902365 0.0667333078 0.5292800509 -0.0447796716 0.5296821737 -0.0445937078 -0.186196023 0.0626099003
80299520.0 -0.175117391 0.0677201384 0.5313107645 -0.0512576372 0.5317587289 -0.0511055193 -0.1838745143 0.063590335
85299490.0 -0.1724788743 0.0680287045 0.532499485 -0.0579774879 0.5329326232 -0.0580889915 -0.1815444152 0.0641026932
90299460.0 -0.1703585604 0.0690063644 0.5336547818 -0.0648907522 0.533820996 -0.0648524824 -0.1794339827 0.0648353223
95299430.0 -0.1680888155 0.0696150521 0.5345071191 -0.0719855649 0.5349301236 -0.0722442458 -0.17773227 0.0654854264
100299400.0 -0.1659047028 0.0703871798 0.5349979129 -0.0788875556 0.5348349265 -0.0788141292 -0.1760626025 0.0663687731
105299370.0 -0.1640789055 0.0712909584 0.5353078944 -0.0859951501 0.5356891383 -0.0855617016 -0.1738739469 0.0666492369
110299340.0 -0.162172849 0.0716344132 0.5351762919 -0.0922967801 0.5355986758 -0.0926346966 -0.1728177738 0.0674150276
115299310.0 -0.1607303219 0.0725564193 0.5355357467 -0.0995092475 0.5353329623 -0.0991738563 -0.1713256105 0.0681977962
120299280.0 -0.1595549901 0.0734854125 0.5357956036 -0.1066927391 0.5351687702 -0.1065173375 -0.1701521671 0.0686629314
125299250.0 -0.1577769242 0.073975239 0.5346576008 -0.1130830371 0.5349940985 -0.1126647425 -0.168936604 0.0698181071
130299220.0 -0.1567882377 0.0748317434 0.5341716884 -0.1196330781 0.5340733329 -0.1201689961 -0.167592909 0.0703893223
135299190.0 -0.1554685096 0.0759410518 0.534025203 -0.1259836173 0.534025448 -0.1263149078 -0.1668649429 0.0708322866
140299160.0 -0.154433733 0.0767740517 0.5330708129 -0.1333673488 0.5328200851 -0.1323987616 -0.1661502112 0.071764563
145299130.0 -0.1534600336 0.0779778234 0.5320415442 -0.13941341 0.532063272 -0.1394870799 -0.1651659079 0.0728059703
150299100.0 -0.152021908 0.0788292098 0.5306464926 -0.1459481816 0.5307593971 -0.1462827389 -0.1642953407 0.0740278512
155299070.0 -0.1507689088 0.0798516837 0.5289011226 -0.1524524175 0.5296892013 -0.1528204623 -0.1631886438 0.0746953655
160299040.0 -0.1499612408 0.0813476511 0.5281676489 -0.1587598154 0.5282427622 -0.1592928835 -0.1626919096 0.0760434219
165299010.0 -0.1487610925 0.082385129 0.5266406731 -0.1654913579 0.5265578786 -0.1653286012 -0.1616066959 0.0764779648
170298980.0 -0.1476743989 0.0835212237 0.5247432288 -0.1719064561 0.5251142179 -0.1717451045 -0.1612487347 0.0773931845
175298950.0 -0.1470566448 0.0848355095 0.5235178646 -0.1778827209 0.523503028 -0.1781537138 -0.1603630737 0.079011826
180298920.0 -0.1461817932 0.0860876495 0.5214683068 -0.1844569329 0.5218708669 -0.1845446093 -0.1596030201 0.0800279103
185298890.0 -0.1449862936 0.087323039 0.5204697605 -0.1903950606 0.5196146907 -0.190488277 -0.1585794548 0.0808192118
190298860.0 -0.1439879666 0.0889037048 0.5176332153 -0.1965615518 0.5182288349 -0.1964878004 -0.1580043618 0.0822189324
195298830.0 -0.1430206007 0.0902064663 0.5163441398 -0.2026028535 0.5161027467 -0.203053901 -0.1573275483 0.0836519551
200298800.0 -0.1421978748 0.0908834458 0.5141535512 -0.2093829085 0.5140583848 -0.2091212173 -0.1564644697 0.0843739965
205298770.0 -0.1413490779 0.0923272016 0.5117587363 -0.2145739463 0.5117951242 -0.2148180714 -0.1557586379 0.085717924
210298740.0 -0.140164018 0.0941622986 0.5095434304 -0.2211936387 0.5093948659 -0.2209901196 -0.1552867286 0.0868472757
215298710.0 -0.1394563137 0.0955415259 0.5069157363 -0.2266056137 0.5071908671 -0.2269912585 -0.1541738196 0.0883440003
220298680.0 -0.1381657821 0.0968954029 0.5044342296 -0.2329088726 0.5046223955 -0.2328354745 -0.1534897102 0.0894462606
225298650.0 -0.1372414013 0.0981756837 0.5020513162 -0.2384016832 0.5022396302 -0.2379297743 -0.1529249538 0.0903338482
230298620.0 -0.1362897777 0.0999875945 0.4997018106 -0.2444774492 0.5000541101 -0.2444843279 -0.1522958744 0.0917375079
235298590.0 -0.1355401925 0.1014743156 0.4972597588 -0.2507104156 0.4972547578 -0.250402173 -0.1511191352 0.0931151243
240298560.0 -0.1343888926 0.1029838068 0.4942910189 -0.2555997571 0.4943467013 -0.2558607274 -0.1506360813 0.0940842071
245298530.0 -0.1333608435 0.1040897608 0.4916434845 -0.2613956173 0.4918954083 -0.2618092233 -0.1498099487 0.0957615945
250298500.0 -0.1323468089 0.1055684977 0.488767109 -0.2673520967 0.4887138585 -0.266917368 -0.1490907106 0.0969573612
255298470.0 -0.1310434106 0.1072086023 0.4863507991 -0.2725119156 0.4866655903 -0.2730511638 -0.1479367379 0.0987264221
260298440.0 -0.1300342577 0.1084186518 0.4832175843 -0.2776372396 0.4832697246 -0.2780852591 -0.1473769083 0.0995892229
265298410.0 -0.1293491391 0.1100305907 0.4798977054 -0.2837075118 0.4796264711 -0.2840639786 -0.1460692019 0.1008935007
270298380.0 -0.1282859093 0.1110952019 0.4768946764 -0.2891241105 0.4769696287 -0.288990171 -0.1455060498 0.1024861146
275298350.0 -0.1269440304 0.113123141 0.4735972972 -0.2943366296 0.473720463 -0.2945149942 -0.1444081852 0.103790912
280298320.0 -0.1264252708 0.1145895113 0.4709359618 -0.2995761477 0.4711019757 -0.2999647546 -0.1434750515 0.105334294
285298290.0 -0.1248478353 0.1160620655 0.467120652 -0.3050284166 0.4675453577 -0.3048787462 -0.1427826605 0.1063601876
290298260.0 -0.1238118386 0.1174787741 0.4647498794 -0.3104962139 0.4640422819 -0.3106338501 -0.1418954823 0.1079862768
295298230.0 -0.1225593247 0.1184109799 0.4607042002 -0.3158632652 0.4609792052 -0.3162243591 -0.1405077421 0.1093791109
300298200.0 -0.1214268694 0.11998218 0.4572954919 -0.3210808376 0.4574277406 -0.320682806 -0.1398073216 0.1105170961
305298170.0 -0.1201706446 0.1211896319 0.4539976712 -0.3265809114 0.4542403858 -0.3262778813 -0.1387304803 0.1116493679
310298140.0 -0.118720451 0.1225492807 0.4506518725 -0.3312668043 0.450902255 -0.331297557 -0.1375916003 0.1126982874
315298110.0 -0.117557426 0.1236357479 0.4472202592 -0.3370751996 0.4470572071 -0.3367957123 -0.136584072 0.114101416
320298080.0 -0.1163370802 0.1250865968 0.4427864033 -0.3420345373 0.4432941884 -0.3420619777 -0.1357101279 0.1152967217
325298050.0 -0.1157743778 0.1261015157 0.4391493855 -0.3464613154 0.4395569022 -0.3467469209 -0.1347114629 0.116445273
330298020.0 -0.1148989791 0.12773884 0.4354576079 -0.351782014 0.4354191468 -0.3522121311 -0.1340108098 0.1178170088
335297990.0 -0.1136049228 0.12909912 0.431297653 -0.3569112692 0.4316574511 -0.3564962992 -0.1332703861 0.1189524479
340297960.0 -0.1124844274 0.1303155613 0.4270420849 -0.3613230176 0.4270678139 -0.361807476 -0.1318964615 0.1208700963
345297930.0 -0.1111994752 0.1317077709 0.4229746023 -0.366665241 0.4232970183 -0.3662766294 -0.1309977399 0.1217964387
350297900.0 -0.1099771247 0.1328584301 0.4190387693 -0.370569923 0.4195852441 -0.3706650956 -0.1302958358 0.1231295194
355297870.0 -0.1086397307 0.1344786631 0.4151901183 -0.3749629312 0.4150693084 -0.375268478 -0.1289113983 0.1246903602
360297840.0 -0.1072438218 0.1356381363 0.4105933179 -0.3798766969 0.4108793348 -0.3805123246 -0.1277433058 0.1261795955
365297810.0 -0.1061830829 0.1370592827 0.4066108457 -0.3843177247 0.4068197 -0.3843515223 -0.1271352158 0.1272137317
370297780.0 -0.1047076338 0.1383839125 0.4018007091 -0.3890511865 0.4021080483 -0.388452821 -0.1257336442 0.1288175007
375297750.0 -0.1033736725 0.1395395137 0.3983786986 -0.3929998629 0.3981672621 -0.3935395957 -0.1243346974 0.1302487166
380297720.0 -0.1021704745 0.1410887929 0.3942920821 -0.3975914626 0.3938747589 -0.3977825654 -0.1232656602 0.1315717444
385297690.0 -0.1010264337 0.1422641528 0.389382814 -0.401470479 0.3893901297 -0.4024961482 -0.1219902766 0.1332699098
390297660.0 -0.0990815039 0.1434994954 0.3849052096 -0.4057017404 0.3852454996 -0.4059403256 -0.1207013912 0.1339167702
395297630.0 -0.097491897 0.1445326101 0.3808346591 -0.4100091822 0.3804652348 -0.4101073778 -0.1194726897 0.1351176829
400297600.0 -0.0964547541 0.1457577123 0.3761742402 -0.4147469769 0.3764546839 -0.4144429846 -0.1181965674 0.1367796871
405297570.0 -0.0949937956 0.1464141357 0.3713189069 -0.4179569591 0.3714114114 -0.4186017177 -0.1165138216 0.1382802123
410297540.0 -0.0931758872 0.1481564516 0.3668322586 -0.4223049465 0.367015359 -0.4224289691 -0.1155287771 0.1393725404
415297510.0 -0.0916750379 0.1491850892 0.3621352037 -0.4265107296 0.362468638 -0.4269423378 -0.1140228933 0.1410282288
420297480.0 -0.0902781828 0.1500763246 0.3575473592 -0.430324222 0.3578331966 -0.4307972726 -0.1123581666 0.1423475802
425297450.0 -0.0881173474 0.1514188582 0.3525980055 -0.4344496424 0.3528321882 -0.4341303643 -0.1116152625 0.1430058408
430297420.0 -0.0869434042 0.1523457498 0.3485478057 -0.4382951377 0.3484459233 -0.4379005184 -0.109777252 0.1442177128
435297390.0 -0.0851760129 0.1533562942 0.3429483996 -0.4424076727 0.343556901 -0.4422184647 -0.1089757296 0.1458598948
440297360.0 -0.0834047538 0.1542414639 0.3381514887 -0.4456649666 0.3382289019 -0.4457750528 -0.107438764 0.146827176
445297330.0 -0.0817027354 0.1552483149 0.3335417526 -0.4489206449 0.3336464089 -0.449572769 -0.1058535838 0.1480570598
450297300.0 -0.0801476739 0.1565065137 0.3284928603 -0.4532279399 0.3294106975 -0.4527142835 -0.104517635 0.1492280429
455297270.0 -0.0785470405 0.1572629024 0.3237033883 -0.456579444 0.32417228 -0.4569148279 -0.1030746058 0.1504181322
460297240.0 -0.0764559579 0.1583042783 0.3187628633 -0.4606349191 0.3189146767 -0.4602053563 -0.1015629184 0.1510857561
465297210.0 -0.0746593223 0.1591369891 0.3135430782 -0.4636840662 0.313395546 -0.4639014087 -0.0996501864 0.1529886491
470297180.0 -0.0732207256 0.1601194094 0.3085423652 -0.4669317064 0.3091538075 -0.4669044592 -0.0983267959 0.1539758169
475297150.0 -0.0715240486 0.1611388867 0.3037156114 -0.4703225557 0.3035678284 -0.470450075 -0.0969189559 0.1549405728
480297120.0 -0.0691961346 0.1624413198 0.2981396495 -0.4731820168 0.2985425829 -0.4734034365 -0.0956284597 0.1557339692
485297090.0 -0.0679039127 0.1627551971 0.2930823434 -0.4770673602 0.2930544274 -0.4764874528 -0.0939880787 0.15709051
490297060.0 -0.0654010688 0.163897956 0.2873969959 -0.4801113892 0.2883929769 -0.4804252627 -0.0926144474 0.1580743589
495297030.0 -0.064111293 0.16436524 0.2826927974 -0.4829981467 0.2828161728 -0.4829980591 -0.0905393094 0.1589930082
500297000.0 -0.0623478361 0.1653472665 0.2777632524 -0.4856419142 0.2773696144 -0.4860682361 -0.0892625884 0.1601256541
505296970.0 -0.0597339859 0.1662755809 0.271969573 -0.4890221385 0.2722963658 -0.4886256992 -0.0876474158 0.1608376174
510296940.0 -0.0579508493 0.1670326352 0.2668316747 -0.4927456687 0.2669480636 -0.4923868157 -0.085519021 0.1622267714
515296910.0 -0.0563218565 0.1679683618 0.2609107862 -0.4949634273 0.260816565 -0.4950005086 -0.0843719873 0.1624835726
520296880.0 -0.054298302 0.1686129978 0.2558334588 -0.4975959192 0.2554696857 -0.497669979 -0.0822581517 0.1643318409
525296850.0 -0.0524650678 0.1690768059 0.2505199301 -0.5000758239 0.2502398563 -0.5003586967 -0.0806885039 0.1649822027
530296820.0 -0.0506569364 0.1698111876 0.2446510217 -0.5028410858 0.2446861476 -0.5027956694 -0.0790917428 0.165447973
535296790.0 -0.0480037171 0.1707003176 0.239317283 -0.5054472116 0.2393896056 -0.5057595067 -0.0773037144 0.1666377574
540296760.0 -0.0462591179 0.1713400559 0.234014821 -0.5083445197 0.2335771515 -0.5079864663 -0.0759588983 0.1673835754
545296730.0 -0.0447209066 0.1724828264 0.2289257205 -0.5105991736 0.2283433993 -0.5103368404 -0.074216889 0.1683154718
550296700.0 -0.0421329505 0.1727601866 0.2228514531 -0.5129204877 0.2224639624 -0.5134017851 -0.0724344437 0.1691888032
555296670.0 -0.0404698835 0.1736866946 0.217102891 -0.5159156896 0.2171245137 -0.5154411243 -0.0710359573 0.1695803831
560296640.0 -0.0377141988 0.1740623159 0.2111309157 -0.5177137361 0.2116808275 -0.517749192 -0.0692130034 0.1710360657
565296610.0 -0.0367222021 0.1747705314 0.2064285458 -0.5201621036 0.2062915157 -0.5196130332 -0.0673435346 0.1715938846
570296580.0 -0.0345441405 0.1754510305 0.200264559 -0.5219828324 0.2001891162 -0.5220516369 -0.0656812667 0.1721927746
575296550.0 -0.0321963676 0.175750238 0.1950414296 -0.5241769556 0.1947093787 -0.5241780536 -0.0641028922 0.1728646327
580296520.0 -0.0303420545 0.1765545509 0.1891882651 -0.5262882637 0.1888955851 -0.5266241898 -0.0624089777 0.1737240288
585296490.0 -0.0283451009 0.1771472036 0.1836877625 -0.5283681477 0.1829902569 -0.5282511001 -0.0602832238 0.1745434186
590296460.0 -0.0254828083 0.1773882462 0.1774137292 -0.5304039298 0.1776279652 -0.5304730896 -0.0588499173 0.1754818987
595296430.0 -0.0237080121 0.178109874 0.1713921178 -0.5320965271 0.1714650106 -0.5320008979 -0.0571768327 0.1755062027
600296400.0 -0.021396249 0.1785835478 0.1655247524 -0.5340185996 0.1654478921 -0.5339427822 -0.0554211388 0.1765703018
605296370.0 -0.0199349596 0.1788097443 0.1601616101 -0.5355744755 0.1599084453 -0.5359039365 -0.0535592746 0.1775836457
610296340.0 -0.0173546069 0.1798695809 0.1542682819 -0.5368054774 0.1544453856 -0.5370576818 -0.0519482125 0.1778367845
615296310.0 -0.015146204 0.1796527093 0.148304266 -0.5392201223 0.1480004237 -0.5388280028 -0.050217397 0.1787657278
620296280.0 -0.0138450339 0.1806321495 0.1424790041 -0.5401983677 0.1422812929 -0.5401791996 -0.0486107404 0.1795252343
625296250.0 -0.0114889745 0.1809536028 0.1366361708 -0.5417269477 0.1365065254 -0.5418801573 -0.046779844 0.1797369298
630296220.0 -0.0093634271 0.1814928082 0.1304358058 -0.5434500093 0.1306621131 -0.5434360788 -0.0449773024 0.1803349788
635296190.0 -0.007535687 0.1817594495 0.1250459052 -0.5444359548 0.1247836781 -0.5442968404 -0.0433259778 0.1810237596
640296160.0 -0.0053993582 0.1820378815 0.119113178 -0.5463497005 0.1186155846 -0.5458956991 -0.0414828922 0.1814393062
645296130.0 -0.0030187946 0.1827705708 0.112933154 -0.5474879261 0.1131680397 -0.5470585041 -0.0400836076 0.1817506177
650296100.0 -0.0012075476 0.1826929349 0.1074162249 -0.5486703657 0.1069206093 -0.548534162 -0.0372376725 0.1827464928
655296070.0 0.0007608986 0.1829993925 0.1015259395 -0.5494797094 0.101183953 -0.5491868955 -0.0361834613 0.18314937
660296040.0 0.0029399169 0.1832309231 0.0950893871 -0.5506775888 0.0952437778 -0.5503338773 -0.0338819379 0.183401244
665296010.0 0.0050145353 0.183382264 0.088843263 -0.5510091141 0.0889286621 -0.5509925724 -0.0323413177 0.1838829934
670295980.0 0.0069480493 0.1836837792 0.0831714589 -0.5521874766 0.0829152121 -0.5518501794 -0.0311426936 0.1844284279
675295950.0 0.0090141682 0.1838670914 0.0774631009 -0.5530700192 0.0773980524 -0.5531201204 -0.0288487074 0.1851243493
680295920.0 0.0107781862 0.1839774836 0.0716031899 -0.5535571166 0.071362388 -0.5535590885 -0.0268887 0.1851274467
685295890.0 0.0131620893 0.1845194674 0.0650526997 -0.5548364642 0.0652543144 -0.5546812492 -0.0252785605 0.1859774421
690295860.0 0.0149724427 0.1843247389 0.0595720075 -0.5548889178 0.0589529691 -0.5553881497 -0.0236690237 0.1862482668
695295830.0 0.0172118544 0.1844119493 0.054059981 -0.5559072206 0.053230359 -0.5555629182 -0.0215879798 0.1864717019
700295800.0 0.0193492359 0.1847701499 0.0476717929 -0.5563226636 0.0476543122 -0.5564866115 -0.0199103684 0.1868723897
705295770.0 0.0210631124 0.1847861303 0.0415196308 -0.5567989272 0.0413570741 -0.5569123962 -0.0181766328 0.1874899815
710295740.0 0.0229784205 0.1845594778 0.0359266368 -0.5570591127 0.0352883803 -0.5575010504 -0.0160505978 0.1878031047
715295710.0 0.0252622993 0.1849570675 0.0296987466 -0.5580538428 0.0294261019 -0.5575961145 -0.0142163079 0.1875877249
720295680.0 0.0276005558 0.1844937504 0.0233752574 -0.557356481 0.0232794013 -0.5577488024 -0.0124996042 0.1880456042
725295650.0 0.0288122983 0.1848048325 0.0179082025 -0.5578093185 0.0172923219 -0.5583026123 -0.0109708192 0.1890159906
730295620.0 0.0304840181 0.1845678475 0.0118777183 -0.5576465897 0.0112131543 -0.5577459249 -0.0092636897 0.1894553145
735295590.0 0.0333625943 0.1847699458 0.0055143539 -0.5585682079 0.005503027 -0.5583135956 -0.0071880248 0.1889110925
740295560.0 0.0346980376 0.1841631056 -0.0002020389 -0.5579900473 -0.0001764363 -0.5584095808 -0.0058856961 0.1894375741
745295530.0 0.0367840084 0.1841017139 -0.0064044399 -0.5574506029 -0.0056197317 -0.5582027709 -0.0041745895 0.1897806516
750295500.0 0.0384697804 0.1843295316 -0.0122020255 -0.5576477319 -0.0125303634 -0.5579872242 -0.0020784868 0.189920433
755295470.0 0.0405881591 0.1838653899 -0.0179857467 -0.557991048 -0.0184012911 -0.5581032677 3.227e-05 0.1904582308
760295440.0 0.0424885536 0.1842700583 -0.0246992924 -0.5575140919 -0.0244828233 -0.5570617376 0.0020395464 0.1894205256
765295410.0 0.0448261769 0.183604097 -0.0302400239 -0.5572850888 -0.0300628169 -0.5569826699 0.0037711942 0.190106509
770295380.0 0.046559701 0.183491571 -0.0361756602 -0.5562841917 -0.0364311819 -0.5569818696 0.0052094615 0.1903045806
775295350.0 0.0486209715 0.1830974727 -0.0421444451 -0.5564564395 -0.0424318436 -0.5560902101 0.0074143111 0.1905975228
780295320.0 0.0504761592 0.182904057 -0.0480251728 -0.5557296713 -0.0481661207 -0.5556173824 0.0094854804 0.1905791489
785295290.0 0.0523016653 0.1826456399 -0.0543884135 -0.5549717486 -0.0541464235 -0.5548816892 0.0107916561 0.1908115429
790295260.0 0.0542947857 0.1819988801 -0.0599827922 -0.5545665972 -0.0597809315 -0.5550050693 0.012472808 0.1911471893
795295230.0 0.05607347 0.1814035798 -0.0661230314 -0.5541097574 -0.0660665215 -0.5537577539 0.014694215 0.1903622832
800295200.0 0.0576570206 0.1815985396 -0.0714109575 -0.5526391237 -0.0722967541 -0.5534775358 0.0162578809 0.1907303799
805295170.0 0.0597499765 0.1808187268 -0.0778117101 -0.5522597061 -0.0777056163 -0.552758158 0.0186141999 0.1908849642
810295140.0 0.0618321466 0.1807362059 -0.0838354901 -0.5519846587 -0.0834952262 -0.5514989714 0.02043709 0.1906104855
815295110.0 0.0635338824 0.180177935 -0.0895892489 -0.5505302347 -0.0894297736 -0.550606427 0.0219519463 0.1907876549
820295080.0 0.0656616092 0.1793685778 -0.0950343937 -0.5491744027 -0.094975615 -0.5497236821 0.0232955902 0.191269728
825295050.0 0.0671506834 0.1788080304 -0.1015611209 -0.5486563408 -0.1014463138 -0.5484562152 0.0261163342 0.1909677724
830295020.0 0.0691673203 0.1784001094 -0.1073414483 -0.5471081855 -0.1072748625 -0.5473771239 0.0274964106 0.1905985762
