!Created with skrf (http://scikit-rf.org).
# Hz S RI R 50.0 
!freq ReS11 ImS11 ReS21 ImS21 ReS12 ImS12 ReS22 ImS22
300000.0 -0.0483770735 -0.046864176 -0.0004874031 0.0007979559 -0.0013393246 0.0010595284 -0.7768427252 -0.1433811809
5299970.0 -0.0499523253 0.015834386 -4.2141e-06 -3.98047e-05 -5.70195e-05 0.0001518574 -0.7848938339 -0.0076561313
10299940.0 -0.044215939 0.0323406044 2.15572e-05 -0.0002148381 -0.0001396797 6.06901e-05 -0.787699417 -0.003701712
15299910.0 -0.0359088244 0.0468558363 -6.36703e-05 6.53063e-05 -8.02884e-05 5.54526e-05 -0.7931466471 -0.0018387549
20299880.0 -0.0262732336 0.0588072677 7.64722e-05 1.92526e-05 -0.0001320858 -1.07362e-05 -0.7996835096 0.0022392983
25299850.0 -0.0153187328 0.0682262719 6.21455e-05 4.36769e-05 0.0001770817 0.0001056634 -0.8058975122 0.0081955125
30299820.0 -0.0040520108 0.0749816786 5.71494e-05 6.81873e-05 5.68236e-05 -3.83658e-05 -0.8123172547 0.0163289762
35299790.0 0.0071903899 0.0798370089 -5.94456e-05 -0.0001476838 8.40138e-05 0.0001547305 -0.8171653745 0.0250456804
40299760.0 0.0185990448 0.0830142945 8.519e-05 6.56748e-05 -1.8633e-06 -9.90283e-05 -0.8214366376 0.0344256869
45299730.0 0.0293870651 0.0844355655 2.3951e-06 -4.09444e-05 0.0002114127 0.0003112451 -0.8249773279 0.0441489324
50299700.0 0.0390802962 0.0844710333 3.12547e-05 -0.0001373212 0.0001989599 -1.21239e-05 -0.8270381038 0.0541501848
55299670.0 0.0484042908 0.0834256195 6.87108e-05 1.79224e-05 0.0001354073 -5.59832e-05 -0.829640494 0.0644379478
60299640.0 0.0566600057 0.0821547743 4.42002e-05 2.32773e-05 -0.0001395008 -9.9422e-05 -0.8300804703 0.0740318113
65299610.0 0.0644980143 0.0795861321 -3.96709e-05 0.0001546485 6.0323e-06 0.000140209 -0.8319323012 0.0841243691
70299580.0 0.071466385 0.0770346081 -3.3782e-05 -5.37824e-05 -0.0001489501 0.0001576359 -0.8319208026 0.0945447796
75299550.0 0.0780133232 0.0737958588 -5.97717e-05 -8.60922e-05 0.0001561091 0.0001128448 -0.8319714583 0.1042937843
80299520.0 0.0837304593 0.0704802429 0.0001107597 4.19579e-05 0.0002300514 4.48828e-05 -0.8320369969 0.1139184781
85299490.0 0.0886174386 0.0670511676 -0.0001163401 -0.0002410148 -6.97446e-05 5.74062e-05 -0.8313736308 0.1234299264
90299460.0 0.0933613019 0.0633814483 -4.72366e-05 8.8208e-05 -5.05384e-05 0.0001606312 -0.8308705289 0.1336339078
95299430.0 0.097690138 0.0591778952 -2.67961e-05 0.000251549 2.93699e-05 0.0002207677 -0.8288809923 0.1428433666
100299400.0 0.1009201179 0.0556363758 -7.59026e-05 0.0001110408 -2.81264e-05 0.0001006287 -0.8284005976 0.1519173929
105299370.0 0.104418675 0.0521818215 6.13728e-05 0.0001382259 6.79385e-05 2.4231e-05 -0.8262803643 0.1609751344
110299340.0 0.1075256242 0.0482523361 -2.05416e-05 0.0001995251 5.53114e-05 -4.62825e-05 -0.8254986061 0.170455262
115299310.0 0.1102790733 0.0442354566 4.12864e-05 -2.55199e-05 0.0002790064 6.43457e-05 -0.824192845 0.1797340827
120299280.0 0.1123608214 0.0402634684 6.5903e-05 0.0002014295 -4.8957e-06 0.0001435818 -0.8222295741 0.1885311459
125299250.0 0.1140723741 0.0365028504 0.0002079192 0.0001509246 -1.98384e-05 8.1785e-06 -0.8209194807 0.1976537423
130299220.0 0.1157584794 0.0332751313 0.000156767 -7.85756e-05 -6.60145e-05 -5.36001e-05 -0.8189496413 0.2067793286
135299190.0 0.1173559629 0.0299277448 0.000121245 0.0002015984 1.44916e-05 0.0001207731 -0.8167418195 0.2158741681
140299160.0 0.1186045837 0.0262362632 0.0001397924 7.36947e-05 7.69539e-05 0.0001868903 -0.8143682609 0.2248964265
145299130.0 0.119895752 0.0227927922 4.57682e-05 3.82591e-05 2.91103e-05 -4.76827e-05 -0.8123106147 0.2339640265
150299100.0 0.1211473174 0.0194257741 3.00357e-05 4.67837e-05 -8.46877e-05 0.0002704625 -0.8104076063 0.2431947131
155299070.0 0.1216165915 0.0160797544 0.0003294177 6.63038e-05 -1.63083e-05 0.0001161252 -0.8072887027 0.2516856085
160299040.0 0.1224008244 0.0131666487 0.0002871934 -5.04306e-05 0.0001128327 0.0003689724 -0.8058571556 0.2604716305
165299010.0 0.1230684911 0.0099145126 0.0001512939 -2.393e-05 -0.000139431 0.000105614 -0.8024624846 0.2694691599
170298980.0 0.1232168878 0.0071167948 -2.90445e-05 -0.0001428942 0.0002111159 0.000383835 -0.7992322436 0.2776275324
175298950.0 0.1236611622 0.0038563261 -7.34144e-05 8.6399e-05 -8.41428e-05 -4.27712e-05 -0.7970062037 0.2867974608
180298920.0 0.1241933358 0.001173221 4.68861e-05 -4.6858e-05 0.0001032056 0.0001091029 -0.7936103919 0.294994524
185298890.0 0.1243897542 -0.0016275249 -4.1453e-06 0.0001641627 0.0002595348 0.0001557413 -0.7902167086 0.3038900659
190298860.0 0.1241864512 -0.0041254647 8.92088e-05 0.0001726948 0.0001208983 0.0002326753 -0.7879513641 0.3125031375
195298830.0 0.1239862859 -0.0069793752 2.59014e-05 6.54172e-05 0.000109728 0.0003063692 -0.7841821374 0.3206120842
200298800.0 0.124093928 -0.0095902727 0.0001457894 7.33381e-05 0.0001021714 0.0002613161 -0.7817349631 0.3290524874
205298770.0 0.123745587 -0.0123946406 0.0002868032 9.4744e-05 -6.04974e-05 3.69056e-05 -0.7775207915 0.3371394752
210298740.0 0.1236238685 -0.0147768178 0.0001845592 0.0001193523 1.59491e-05 0.0001128906 -0.7745634629 0.3458168178
215298710.0 0.1232426379 -0.0171745983 3.90074e-05 0.00028396 0.0001251669 0.0001679808 -0.7710874011 0.3536692415
220298680.0 0.122518037 -0.0196308374 0.0001512339 5.18616e-05 6.8126e-05 0.0002553786 -0.7674901197 0.3621222408
225298650.0 0.1222167592 -0.0220439772 -8.99912e-05 -9.12273e-05 6.60275e-05 0.0002031186 -0.7636765714 0.3701899702
230298620.0 0.1217574408 -0.0242450369 0.0001909675 9.92747e-05 0.0001752059 0.000197198 -0.7597524758 0.3787868151
235298590.0 0.1214862386 -0.0265356226 0.0002322607 1.1967e-05 6.9138e-05 -5.40754e-05 -0.7553044334 0.3863969911
240298560.0 0.1207988811 -0.0289268866 8.99809e-05 4.55301e-05 0.0001476847 -1.42085e-05 -0.7515960081 0.3951237907
245298530.0 0.1203045837 -0.0308806653 0.0003086371 -1.22837e-05 0.0002331623 0.0001235447 -0.7477762468 0.4025261467
250298500.0 0.1196320409 -0.0330741037 4.27868e-05 0.0003136507 0.0001453928 8.62747e-05 -0.7438066802 0.4096250913
255298470.0 0.1187788986 -0.0354034421 -6.74701e-05 -2.98876e-05 0.0002661592 -0.0001209408 -0.7387470596 0.4183101543
260298440.0 0.1180366654 -0.03712775 0.000133047 0.0001470964 0.0001654592 0.0001696943 -0.7348011793 0.4261570471
265298410.0 0.1174325067 -0.0390133607 6.57773e-05 9.10099e-05 0.0001408026 0.0002392998 -0.7300210857 0.4332324209
270298380.0 0.1169707573 -0.041164354 4.60491e-05 1.01225e-05 0.0001657321 7.96953e-05 -0.7252242041 0.4408305501
275298350.0 0.1159030602 -0.0430035861 0.0001036453 2.28141e-05 8.00798e-05 0.0002555833 -0.720539653 0.4483052275
280298320.0 0.1155259216 -0.0447851984 0.0002216813 -3.90745e-05 0.0001005919 0.0004583165 -0.7161791495 0.4555159408
285298290.0 0.114686564 -0.0463869905 6.97912e-05 -0.0001840385 6.29555e-05 0.0001169226 -0.7106866002 0.4632540875
290298260.0 0.1141412772 -0.0484261474 0.000207008 0.0002017151 0.0002066439 0.0002200776 -0.7059977044 0.4706144017
295298230.0 0.113158666 -0.0503619609 0.0002191802 0.000488978 9.34349e-05 0.0002437317 -0.700945625 0.4778945449
300298200.0 0.1123761825 -0.0518601482 0.0001064808 0.0004716144 0.0001132526 0.0001036196 -0.6956448546 0.485259596
305298170.0 0.1114387109 -0.0537631387 9.62708e-05 0.0002864876 0.0001150152 6.21302e-05 -0.6902571689 0.492498587
310298140.0 0.110578341 -0.0553779277 6.57568e-05 0.0001275958 0.0002619926 0.0001559418 -0.6856897565 0.4996249561
315298110.0 0.1099772315 -0.0571208107 0.0001727122 0.0001391797 -9.9645e-05 0.0001369487 -0.6802451589 0.5067936338
320298080.0 0.1090282035 -0.0594776358 -5.59993e-05 7.81615e-05 0.0001341994 2.38777e-05 -0.6751816277 0.5144405146
325298050.0 0.1077355972 -0.0609660261 0.0001154233 0.0002103576 0.0003175647 0.0002427568 -0.6694217694 0.5207639261
330298020.0 0.106536103 -0.0628302424 0.0001588641 0.0001312993 0.000229054 0.0001694813 -0.6640962741 0.5280876345
335297990.0 0.1051253092 -0.0644379496 0.0003723543 2.49579e-05 0.0003176687 -6.5056e-05 -0.6587276323 0.5350715269
340297960.0 0.1037151901 -0.0657011328 0.0002434296 7.84362e-05 0.0002915619 0.0001822508 -0.652360181 0.5422715135
345297930.0 0.1025555146 -0.0671083383 0.0003004531 0.0002410497 0.0002114096 0.0002522621 -0.6468277579 0.5483913033
350297900.0 0.1012966397 -0.0683713702 0.0003802934 0.0003968656 0.0002610354 1.6752e-06 -0.6419091072 0.5549950599
355297870.0 0.1003449903 -0.0697412271 -0.0001071206 0.0001069472 0.0001829095 0.0001998408 -0.6356972229 0.5616787333
360297840.0 0.0989187399 -0.0708408731 0.0002191259 0.000406953 0.0003338281 7.41641e-05 -0.6297626177 0.5688928495
365297810.0 0.0976736717 -0.0722585245 0.0001252068 -7.56085e-05 0.0001777135 6.72376e-05 -0.6232354391 0.5751406933
370297780.0 0.0967328242 -0.0733547969 0.0001593037 -0.0003200797 0.0002724776 -9.5786e-06 -0.6178154724 0.5816597367
375297750.0 0.0954702123 -0.0747244985 0.0002078871 0.0002672574 0.0002013268 0.0002521049 -0.6115735632 0.5880314749
380297720.0 0.0943596756 -0.0760592834 -5.07009e-05 -8.221e-06 8.31792e-05 2.3063e-05 -0.6058262991 0.5938680907
385297690.0 0.0929246215 -0.0768881933 0.0002345083 0.0001823449 0.0003766707 7.64483e-05 -0.599456138 0.600389571
390297660.0 0.0915754641 -0.0777078503 0.0001840689 -6.73615e-05 -3.3781e-06 0.0001655539 -0.5933281012 0.606984858
395297630.0 0.0904869365 -0.0791772235 0.0001860444 0.0002301761 8.48336e-05 0.0001031542 -0.5863787964 0.6129514908
400297600.0 0.0892476665 -0.0803500599 0.0004081113 0.0002428528 0.0001912964 0.0001380889 -0.5806501627 0.6187133493
405297570.0 0.0878684239 -0.0813081057 0.0001752845 6.58315e-05 0.0001751004 2.2973e-05 -0.5743672568 0.6243791069
410297540.0 0.0864085613 -0.0825286998 0.0003473007 1.38821e-05 -1.69116e-05 -3.96583e-05 -0.5678316477 0.6309987317
415297510.0 0.0857555191 -0.083868853 1.60092e-05 0.0001892378 0.0001066232 7.12577e-05 -0.5614685155 0.6358000846
420297480.0 0.084080767 -0.084323793 0.0004029992 -1.29259e-05 0.0002694984 -0.0001341534 -0.5544302958 0.641964735
425297450.0 0.0827840116 -0.0857559501 0.000281168 -0.0001208484 0.000283722 0.0001010708 -0.5481717901 0.6477446321
430297420.0 0.0820904229 -0.0867661352 0.0003968666 0.000172698 7.77154e-05 0.0002224235 -0.5413397296 0.6527810371
435297390.0 0.0802402603 -0.0873862707 0.0002120465 0.0001124392 0.0002872283 0.0002121907 -0.5341676397 0.6580585167
440297360.0 0.0790337472 -0.088642927 0.0001128906 8.02418e-05 0.0001017328 0.0001153936 -0.5274150096 0.6631945178
445297330.0 0.0775562065 -0.0894298783 0.0001751362 -1.35264e-05 0.0004365226 0.0002198767 -0.5203676932 0.6685606174
450297300.0 0.0763969246 -0.0905778435 0.0003052314 8.9733e-06 0.0003478807 2.79427e-05 -0.5132232614 0.6740586092
455297270.0 0.0747724071 -0.0908977147 0.0001838203 0.0002849033 0.0002240861 0.0001225768 -0.5064598126 0.6783030676
460297240.0 0.0735599422 -0.0921055558 0.0002267326 6.69105e-05 0.0003620937 0.0001206358 -0.4999121999 0.6842302388
465297210.0 0.072320314 -0.0927960184 7.35956e-05 0.0001580543 0.0002407866 0.0001678542 -0.4923032023 0.6889157203
470297180.0 0.0709525639 -0.0935512056 0.0001521836 -3.62586e-05 0.0001114328 0.0001197322 -0.48506302 0.6946047271
475297150.0 0.0696576043 -0.0944150034 0.0002740064 -4.71493e-05 0.0001822593 0.0002087392 -0.4778197087 0.6987584921
480297120.0 0.0680172456 -0.0951694652 0.0003221566 -2.7219e-05 0.0001605221 0.0002016135 -0.4703159986 0.7035408047
485297090.0 0.0670307258 -0.0959636709 0.0003190705 -0.0001147592 0.0003286869 0.0001868349 -0.46353784 0.7084324674
490297060.0 0.0654972054 -0.0963745749 0.0002340212 0.0001953803 0.0002113114 -0.0001015648 -0.4563971939 0.7123608854
495297030.0 0.0641190141 -0.0972568982 0.0001001117 3.67149e-05 0.000226367 0.0001542968 -0.4488026484 0.7179642227
500297000.0 0.0629155446 -0.0981151303 0.0001347545 -0.0001876634 0.0002365764 0.0001746191 -0.4406220278 0.7225801469
505296970.0 0.0615492773 -0.0986007733 5.83315e-05 6.43594e-05 0.0003956413 2.4178e-06 -0.4337645327 0.7265110144
510296940.0 0.0600217782 -0.0993719226 9.91924e-05 0.0003191137 0.0002597098 1.60091e-05 -0.4262680163 0.7307003921
515296910.0 0.0587589937 -0.0997903925 0.0004053427 5.1318e-06 3.2639e-06 -0.000125648 -0.418591548 0.735379196
520296880.0 0.057201148 -0.10056723 0.0005244801 -6.74916e-05 0.0001204859 2.35211e-05 -0.4113050658 0.7389528099
525296850.0 0.0557799332 -0.1014838931 0.0002554796 -3.46891e-05 0.0003568854 0.0002689494 -0.403899167 0.7438795834
530296820.0 0.0544331017 -0.1014518532 0.0004096535 0.0001313875 0.0003137452 0.0002597766 -0.3969388356 0.7474172189
535296790.0 0.0531855537 -0.1019122896 0.0002999426 -9.955e-06 0.0002533625 -0.0001422863 -0.3896848881 0.7511912074
540296760.0 0.051428697 -0.1024237175 0.000342349 0.0001335129 0.0003645324 4.79178e-05 -0.3815495684 0.7554657767
545296730.0 0.050096192 -0.1029962316 0.0002278967 -3.79879e-05 0.0001138533 -4.80965e-05 -0.3742407053 0.7593606864
550296700.0 0.0489815182 -0.1033226478 0.0004065321 1.60823e-05 0.0002686994 -8.66961e-05 -0.3658859212 0.7628424842
555296670.0 0.0473891241 -0.1040710422 0.0003589199 0.0001696672 0.0003059266 0.0001592899 -0.3588286336 0.767046678
560296640.0 0.0461604788 -0.1043114297 0.0003546093 0.0001300974 0.0002680876 -1.41202e-05 -0.3500818698 0.7708481265
565296610.0 0.0441078157 -0.1045277816 0.0001828295 -5.43531e-05 0.0002171623 2.22405e-05 -0.3422558622 0.7735176994
570296580.0 0.0428284746 -0.1051148399 0.0003153939 0.0002050498 0.0003274924 6.48633e-05 -0.3355055197 0.7772755751
575296550.0 0.0413802091 -0.1052010783 0.0003223442 -8.98116e-05 0.0002802693 -0.0001808755 -0.3268406361 0.7802641697
580296520.0 0.0403230651 -0.1058324701 0.0003116014 8.89155e-05 0.0002668721 5.82337e-05 -0.3182383751 0.7833773791
585296490.0 0.0382758716 -0.1062241591 0.0004674109 -9.18138e-05 0.0003355235 -8.11657e-05 -0.3107429492 0.7869432052
590296460.0 0.0373351429 -0.1063477101 0.0005560152 -5.4798e-05 0.000278747 0.000151727 -0.3033589316 0.7899595039
595296430.0 0.0356998643 -0.1066909553 0.0003401258 -0.0001826318 0.0003667066 0.0001067179 -0.2951651575 0.7924252101
600296400.0 0.0341396826 -0.1069659969 0.0003346945 -4.77226e-05 0.0006066048 1.55618e-05 -0.2868996569 0.795151681
605296370.0 0.0326302942 -0.1071379468 0.0003729991 0.0001888756 0.0003787637 0.000108257 -0.2783114468 0.7983927076
610296340.0 0.0314793976 -0.107330882 0.0004404805 0.0001629956 0.0004081573 3.94078e-05 -0.2705385477 0.801106941
615296310.0 0.0299657598 -0.1074431786 0.000305272 -0.0001726342 0.0002143201 0.0002908858 -0.2621152076 0.8031032181
620296280.0 0.0280793769 -0.1079370423 0.0003666681 7.37916e-05 0.0003659625 0.0001081353 -0.2546802246 0.8061082398
625296250.0 0.0268189449 -0.1079598936 0.0004882749 6.94184e-05 0.0004319329 1.00163e-05 -0.2457258776 0.8079936947
630296220.0 0.0258360238 -0.1084644247 0.0002884802 6.24236e-05 0.0003169325 3.50561e-05 -0.2374445828 0.8110204519
635296190.0 0.0239107579 -0.1081057222 0.0001110743 3.478e-06 0.0003121458 -4.63592e-05 -0.2299628664 0.8127582039
640296160.0 0.0225730731 -0.1084551639 0.0003178342 5.87118e-05 0.0002566279 0.0001506709 -0.2214294506 0.815458291
645296130.0 0.0213136034 -0.108610021 0.0001845815 -2.12159e-05 0.0004409189 0.0002071458 -0.2135982161 0.8180592576
650296100.0 0.0197194369 -0.1085905438 0.0001587808 -3.88916e-05 0.0004477449 -3.93942e-05 -0.2052217078 0.8189778588
655296070.0 0.0182265974 -0.1086133597 0.000289099 9.4757e-06 0.0005127723 -8.6211e-06 -0.1965237852 0.8208635688
660296040.0 0.0166847178 -0.1088305333 0.0004724107 -7.57763e-05 0.0002675265 0.0002211291 -0.1880315895 0.8234747063
665296010.0 0.0155495439 -0.1087761563 0.0002378221 9.31796e-05 0.0003264663 5.82087e-05 -0.1793197318 0.825250565
670295980.0 0.013640834 -0.1084030074 0.0004752429 4.9458e-05 0.0002876114 -0.0001666982 -0.1722611221 0.8265387136
675295950.0 0.0124216034 -0.108461364 0.0004852248 -0.0003274155 0.0003179595 -5.67734e-05 -0.1640511932 0.8287131869
680295920.0 0.0109700562 -0.1085603007 0.0002374335 0.0001635588 0.0005809378 0.0001478919 -0.1553324823 0.831218667
685295890.0 0.0096758952 -0.1082383989 0.000384737 8.09476e-05 0.0004522077 0.0001820879 -0.1466529147 0.8316523017
690295860.0 0.0079491019 -0.1084352803 0.0004466233 0.0002528116 0.0003146252 -2.77328e-05 -0.1390069249 0.8336594667
695295830.0 0.0066065967 -0.1081561128 0.0002491541 0.0001505711 0.0004712722 -7.3154e-06 -0.1295057486 0.8346846916
700295800.0 0.0053082772 -0.108153915 0.0004035745 -0.0001271908 7.1008e-05 -0.0001618064 -0.1224714969 0.8363573327
705295770.0 0.0035543461 -0.1078626985 0.0005681767 -6.1626e-05 0.0004333383 0.0001085574 -0.1140278035 0.838005628
710295740.0 0.0026435933 -0.1077832135 0.0001471142 -7.64618e-05 0.0004197838 0.0001628202 -0.1056629842 0.8385715072
715295710.0 0.0007635671 -0.107496969 0.0003454473 4.85213e-05 0.0003928468 -0.0002102657 -0.0962670006 0.8390765567
720295680.0 -0.000396338 -0.1074089258 0.0002794624 -0.0001084363 0.0004319443 -1.3493e-05 -0.0886549123 0.8407225834
725295650.0 -0.0016022888 -0.1069230174 0.0002881972 8.7058e-05 0.0004519985 2.07303e-05 -0.08029695 0.8418319715
730295620.0 -0.0033577733 -0.1067680893 0.0004478823 -2.13022e-05 0.0002124732 -9.27446e-05 -0.0722061171 0.8423011568
735295590.0 -0.0044012046 -0.1065268288 0.0003179186 -2.5361e-06 0.0001924354 3.102e-06 -0.0631719963 0.8423260506
740295560.0 -0.0062815864 -0.1059614805 0.0005268639 -4.35161e-05 0.0003356486 6.90808e-05 -0.0546070083 0.8439606219
745295530.0 -0.0075949741 -0.1060197763 0.0004775347 -0.0001733507 0.0002516435 1.96218e-05 -0.0461703381 0.8438660932
750295500.0 -0.0088778085 -0.1054836821 0.0002305542 -0.0001296083 0.0005969133 -0.0001228616 -0.0383940381 0.8438665184
755295470.0 -0.0103400507 -0.1050679074 0.0002718097 4.20229e-05 0.0004122733 -0.0001236956 -0.0294251975 0.844365785
760295440.0 -0.011862869 -0.1049742506 0.0004409966 -4.55757e-05 0.0005141989 -5.6754e-05 -0.0215091992 0.8441739701
765295410.0 -0.0130069335 -0.1046514108 0.0005193535 -0.0001515374 0.0003978556 -4.17624e-05 -0.0127245663 0.8451426099
770295380.0 -0.0146146388 -0.1043143855 0.000422031 1.17417e-05 0.0004741191 5.9017e-06 -0.0045135969 0.8446148686
775295350.0 -0.0163001732 -0.1037786358 0.0005125851 0.0001128386 0.0002376299 -0.0001835606 0.0031550862 0.8444004834
780295320.0 -0.0173589701 -0.1034539928 0.0005035539 -0.0002211276 0.0004949198 -0.0001183381 0.0121187328 0.8442861798
785295290.0 -0.0187753478 -0.1031828666 0.0006680836 -0.0002209445 0.000525188 -1.93187e-05 0.02095985 0.8440315859
790295260.0 -0.0197972944 -0.1024402348 0.0001591672 -0.000323156 0.0003810996 -7.6026e-05 0.0296818386 0.8438383486
795295230.0 -0.0210787078 -0.102130814 0.0004954586 -5.88007e-05 0.0001378857 -8.1031e-06 0.0382267411 0.8429487687
800295200.0 -0.0230652516 -0.1014726516 0.000672855 -0.0001439443 0.0004512224 1.85738e-05 0.0467241078 0.8426042453
805295170.0 -0.0241257017 -0.1013475494 0.0005824341 -0.0001435846 0.0004068378 -0.0001354254 0.0544875894 0.842798489
810295140.0 -0.0250736998 -0.100755532 0.0004997316 2.5935e-05 0.00042654 -7.09384e-05 0.0633417348 0.8418165263
815295110.0 -0.0268033423 -0.1003368968 0.0006185866 5.52572e-05 0.0003622846 -7.4485e-05 0.0716167215 0.8411743017
820295080.0 -0.0279493893 -0.0995711552 0.0006165234 9.78986e-05 0.0006133175 -4.17267e-05 0.0805411627 0.8407942884
825295050.0 -0.0288639847 -0.0990277219 0.0003639665 -7.14703e-05 0.0004144999 -1.8728e-05 0.0883333376 0.8399075619
830295020.0 -0.0304042469 -0.0985637531 0.0001331323 -0.0001457913 0.0003654385 4.68734e-05 0.0970764118 0.8392329446
835294990.0 -0.0316071444 -0.0974299803 0.0003134738 -0.0001412458 0.0003312448 -0.0002072995 0.1051611297 0.8379996351
840294960.0 -0.0328009615 -0.0971169061 0.0004165327 -0.0003827362 0.0002075823 -0.0002303022 0.1133533535 0.8366397757
845294930.0 -0.0344092896 -0.0965030438 0.0002879947 -0.0002932511 0.0004511479 -0.0003521453 0.1212821004 0.8351084028
