!Created with skrf (http://scikit-rf.org).
# Hz S RI R 50.0 
!freq ReS11 ImS11 ReS21 ImS21 ReS12 ImS12 ReS22 ImS22
300000.0 -0.0985015769 -0.0786887241 0.6254921079 0.0734251655 0.626390518 0.0783379181 -0.0993275259 -0.0884450303
5299970.0 -0.1004513805 0.0130337091 0.6312463592 0.010396864 0.6304724686 0.010798548 -0.1024460371 0.0121159846
10299940.0 -0.0951861014 0.0300298887 0.6346428828 0.0151913899 0.6339423865 0.0160873568 -0.0972074839 0.0290183047
15299910.0 -0.0883001677 0.0431279973 0.6406479862 0.0204266698 0.6401774584 0.0207250712 -0.0899891624 0.0424056988
20299880.0 -0.0796280779 0.0545739846 0.6484445946 0.023758837 0.6488103202 0.0238914552 -0.0817296559 0.0533151375
25299850.0 -0.0696484395 0.0629226956 0.6581350618 0.0247020051 0.6578351622 0.0255376062 -0.0726428563 0.0619426284
30299820.0 -0.0594383102 0.0691997208 0.6680328225 0.0248823949 0.6672006527 0.0246435214 -0.0625841416 0.06887027
35299790.0 -0.0495319328 0.0742500719 0.6770462737 0.0218624846 0.6773577019 0.0220206413 -0.052566551 0.0733786705
40299760.0 -0.0396483878 0.0770286988 0.6863739676 0.017969204 0.6866936834 0.0174857429 -0.0434527352 0.077086561
45299730.0 -0.0303018487 0.0794273398 0.695705079 0.0117602091 0.6956486477 0.0120371182 -0.0342169934 0.0790449008
50299700.0 -0.0218195185 0.0796446279 0.7035317687 0.0047442119 0.7039583808 0.0046075902 -0.0253778627 0.0802693319
55299670.0 -0.0142510489 0.0799231917 0.7105064113 -0.0032837645 0.7110262827 -0.0025482782 -0.0179295828 0.0796666275
60299640.0 -0.0067569811 0.0790641839 0.7174849511 -0.0114232687 0.7173190339 -0.0113492107 -0.0101925258 0.0798290523
65299610.0 -0.0002145147 0.0780088883 0.723742095 -0.0199784154 0.7237361558 -0.0197919685 -0.0036032268 0.0785111064
70299580.0 0.0061384124 0.0759162614 0.7288598075 -0.0291945208 0.7286562399 -0.0294286508 0.0025849793 0.077262299
75299550.0 0.0117390572 0.0740700733 0.7323838277 -0.0390140967 0.7329855434 -0.0391235246 0.0082775829 0.0758958925
80299520.0 0.0162178331 0.0722105557 0.7380397253 -0.0489908416 0.7376921435 -0.0491145714 0.0133267065 0.07290338
85299490.0 0.020920606 0.0696102808 0.7407397263 -0.0589590267 0.7406324174 -0.0588779375 0.0176677688 0.0710065101
90299460.0 0.0247051556 0.067363733 0.7435106601 -0.0686773807 0.7435906646 -0.0690894144 0.0221761795 0.0684931362
95299430.0 0.0282048578 0.0651144067 0.7461004019 -0.0797560335 0.7458022896 -0.0787435254 0.0252174278 0.0662507654
100299400.0 0.0313270616 0.062713243 0.7473268754 -0.089510716 0.7475883797 -0.089431379 0.028567089 0.0639051892
105299370.0 0.034551778 0.0602638031 0.7488966258 -0.0990709637 0.7490275799 -0.099225339 0.0321592584 0.0618073977
110299340.0 0.0373011014 0.0578460553 0.7496829324 -0.1089827224 0.7501412182 -0.1096918737 0.0346716822 0.0591926493
115299310.0 0.0396483754 0.0546560442 0.750638706 -0.1188908591 0.7511638235 -0.1192069486 0.0373838446 0.056292031
120299280.0 0.0414117423 0.052741524 0.75183158 -0.1295372485 0.7513005596 -0.1295929622 0.0390667538 0.0541095808
125299250.0 0.0433253928 0.0501704157 0.7514998923 -0.1391770369 0.752053182 -0.1397418798 0.0416211233 0.0513325004
130299220.0 0.0451265763 0.0479823408 0.7517145299 -0.1489533704 0.7514592938 -0.1492043408 0.0432970946 0.0494515926
135299190.0 0.0468726696 0.0454910387 0.7513298239 -0.158607394 0.7506995553 -0.1590669639 0.0443877906 0.0477626025
140299160.0 0.0477779012 0.0439314231 0.7508241649 -0.1689076748 0.7505819202 -0.1690276098 0.0460800601 0.0454714979
145299130.0 0.0493477075 0.0417462133 0.7501439043 -0.1789010181 0.7496446672 -0.1781342821 0.0472826044 0.0427758487
150299100.0 0.0506970059 0.0399644469 0.74949915 -0.187929962 0.749195137 -0.1882682164 0.0487608731 0.0408220719
155299070.0 0.0512240894 0.0382163819 0.7477974373 -0.1978545712 0.747867561 -0.1982618771 0.049614684 0.0385894325
160299040.0 0.0523272347 0.035885236 0.7463980633 -0.2064255795 0.7463336623 -0.2073052275 0.0508369635 0.0371088435
165299010.0 0.0527762425 0.0340748925 0.7451918341 -0.216949679 0.7451022356 -0.2170364283 0.051671621 0.0347842836
170298980.0 0.0533326094 0.0323925416 0.7416521207 -0.2261041969 0.7429344766 -0.2263697518 0.0527285842 0.0328225136
175298950.0 0.0545827352 0.0304586075 0.7418602698 -0.2353984846 0.7416755734 -0.2354081149 0.0534553053 0.0314062662
180298920.0 0.0554581724 0.0289411554 0.7392501855 -0.2451388192 0.7389693884 -0.2445525673 0.0539870167 0.0299360191
185298890.0 0.0559245921 0.0273864049 0.7367614784 -0.2542132064 0.7366458665 -0.2542179694 0.0542863772 0.0276461453
190298860.0 0.0560807628 0.0255620975 0.7343599222 -0.2632865166 0.7344435875 -0.2630188555 0.055515726 0.0260450225
195298830.0 0.0562722531 0.0240207119 0.7313667164 -0.2718536117 0.73207433 -0.27248623 0.0559351974 0.023980665
200298800.0 0.0570594563 0.0225170804 0.7295890088 -0.2809309941 0.7290581494 -0.2804619012 0.0561249324 0.0233012334
205298770.0 0.0571830479 0.0212562987 0.7268273986 -0.2894152334 0.7268989756 -0.2896849733 0.0563968972 0.0210441619
210298740.0 0.0571090371 0.0194794998 0.7239404063 -0.2989507345 0.7237005016 -0.2989635773 0.0569035379 0.0197071238
215298710.0 0.057726855 0.0186118981 0.7205555054 -0.3071083766 0.7204170169 -0.3074500192 0.0570238592 0.018203099
220298680.0 0.0582940582 0.0171412304 0.7175684184 -0.3161705937 0.717295883 -0.3160979155 0.0574112991 0.0174086384
225298650.0 0.0586492013 0.0160777134 0.7134531683 -0.3239398507 0.7138618181 -0.3243081219 0.057336761 0.0157880171
230298620.0 0.0582419406 0.0146822761 0.7110928528 -0.3331612395 0.7112402864 -0.3330416869 0.0576489031 0.0143808384
235298590.0 0.0585171916 0.0131044263 0.7071505835 -0.3414957537 0.7072024975 -0.3419191682 0.0578050283 0.0129143731
240298560.0 0.0583413272 0.0118159041 0.7038094532 -0.3491697578 0.7036466126 -0.3489600127 0.0579308107 0.0118857981
245298530.0 0.0589650876 0.0110852758 0.6989788388 -0.3580210459 0.6995842976 -0.3584173111 0.0580809678 0.0107274623
250298500.0 0.0583445746 0.0094095764 0.69602421 -0.3659084956 0.6961305733 -0.3657230894 0.0586011143 0.0089642996
255298470.0 0.0581716716 0.0086687035 0.6914637001 -0.3744337242 0.6921978461 -0.3742310788 0.058674816 0.0071971915
260298440.0 0.0583081818 0.0075964132 0.6880958813 -0.3824409674 0.6882228535 -0.3827257931 0.0592569885 0.0068488347
265298410.0 0.0591220814 0.0069255808 0.683614199 -0.3909060166 0.6834733693 -0.3908585798 0.0587275368 0.0053208354
270298380.0 0.0590829537 0.0056360191 0.6792129142 -0.3984400952 0.6794418468 -0.3986630784 0.0587967221 0.0050090708
275298350.0 0.0582817208 0.0047829893 0.6753192694 -0.4064408619 0.6755544099 -0.4068101614 0.0588107663 0.0034898717
280298320.0 0.0585620378 0.0036545146 0.670741897 -0.4136499853 0.6707274553 -0.4144943867 0.0593143075 0.0027724643
285298290.0 0.0588405764 0.0030322633 0.6667641692 -0.4222694054 0.6664048687 -0.4221069069 0.0587874349 0.0015749267
290298260.0 0.0586701169 0.0016814714 0.6620175404 -0.4302846347 0.6621226931 -0.43024144 0.0594310688 0.0002532278
295298230.0 0.0586964531 0.0007650127 0.6578280286 -0.437512737 0.6576546089 -0.4377160669 0.0596349427 -0.000468795
300298200.0 0.0591227148 -0.0001586966 0.6528073908 -0.4451534952 0.6527329513 -0.4451263391 0.0591726963 -0.001489181
305298170.0 0.0588012208 -0.0013619945 0.6485238014 -0.453199172 0.6486865442 -0.4532865151 0.0595804494 -0.0023011895
310298140.0 0.0593810721 -0.0024023247 0.6438464067 -0.4608680165 0.6433539462 -0.461167473 0.0595546971 -0.0029435817
315298110.0 0.0588706758 -0.0035806832 0.6380444864 -0.4680782699 0.638416894 -0.4683620725 0.059626495 -0.0049622386
320298080.0 0.0586348497 -0.0044877339 0.6327669262 -0.4757586132 0.632710444 -0.4757807215 0.0592200388 -0.0062315057
325298050.0 0.0582341482 -0.0060534216 0.6282268989 -0.4838624754 0.627843241 -0.4834252083 0.0589453884 -0.0073207836
330298020.0 0.0577783411 -0.0067605631 0.6214423973 -0.4906391557 0.6216784994 -0.4908796594 0.0584950646 -0.0084464675
335297990.0 0.0575685183 -0.0079335894 0.6165315349 -0.4979876923 0.6162154945 -0.4982051227 0.0578101901 -0.0091891588
340297960.0 0.0565290235 -0.0080946312 0.610328472 -0.5051779236 0.6105699961 -0.5044701988 0.0571649276 -0.0096584223
345297930.0 0.0561026869 -0.0087921917 0.6044333235 -0.5107247751 0.6040331163 -0.5113139406 0.0576050221 -0.0108457538
350297900.0 0.0564286336 -0.0094900196 0.5987758494 -0.5177037868 0.598587383 -0.5181875912 0.0565448094 -0.0110308624
355297870.0 0.0557216771 -0.0104946452 0.5925420211 -0.5243450465 0.5930037141 -0.5251535426 0.0561552695 -0.0117464962
360297840.0 0.0559793757 -0.0107703203 0.587344373 -0.5315360906 0.5872928084 -0.5317229132 0.0561604852 -0.0119588212
365297810.0 0.0559469437 -0.0117208102 0.5812404756 -0.5382365753 0.5811940739 -0.5383676466 0.0556997743 -0.0125974471
370297780.0 0.0556744532 -0.0120863712 0.5757512576 -0.5446053952 0.5754062341 -0.5448319888 0.0559897782 -0.0130316822
375297750.0 0.0547959643 -0.0125531283 0.5696789218 -0.5512774419 0.5694557746 -0.5515319717 0.0555266039 -0.0138495848
380297720.0 0.0548504936 -0.01381078 0.5631708444 -0.5567341457 0.5630284311 -0.5572595662 0.0552083831 -0.0144240771
385297690.0 0.0548637776 -0.014314139 0.5569041324 -0.5634337002 0.5565881276 -0.5634909332 0.0548235282 -0.0150754045
390297660.0 0.0542506151 -0.0147560743 0.5502030275 -0.5697936999 0.5509849573 -0.57057976 0.0550504369 -0.0160570443
395297630.0 0.0545383102 -0.015908264 0.5445621842 -0.5760065031 0.5445938758 -0.5758806864 0.0542738676 -0.016009835
400297600.0 0.0537697222 -0.0161226106 0.5380700272 -0.5818530226 0.5388254984 -0.582395925 0.0532410387 -0.0171077369
405297570.0 0.0538666907 -0.016699401 0.5320329051 -0.5876501355 0.5323433326 -0.5881717949 0.0536393205 -0.0172585344
410297540.0 0.0536457204 -0.0175755732 0.5246702697 -0.5933984456 0.5252270682 -0.5938699509 0.053230888 -0.0182802078
415297510.0 0.0531739214 -0.0174483693 0.5186080385 -0.5998480656 0.5185481698 -0.6000158215 0.0527309763 -0.018523728
420297480.0 0.0527856058 -0.0192553702 0.5116486743 -0.6064193854 0.512323846 -0.6057090804 0.0529934557 -0.0193259815
425297450.0 0.0530367729 -0.0197140896 0.5053149766 -0.6110712909 0.5052737357 -0.6110024331 0.0520752814 -0.0192414281
430297420.0 0.0524770271 -0.0195944301 0.4991406254 -0.6174298228 0.4987090566 -0.6173068133 0.0516725916 -0.0204956646
435297390.0 0.0522277352 -0.0208490563 0.4915871833 -0.6220184556 0.4918773121 -0.6221102579 0.0511687165 -0.020124521
440297360.0 0.0519726937 -0.0216127384 0.4845153698 -0.6278985908 0.4844427416 -0.628004217 0.0509995684 -0.0216425341
445297330.0 0.0521835362 -0.0221040441 0.4778731136 -0.6338790084 0.477594148 -0.633110675 0.050508876 -0.0218464162
450297300.0 0.051593818 -0.0226427672 0.4713603577 -0.6378347084 0.4709392328 -0.6389948832 0.0500881905 -0.0220649056
455297270.0 0.0510279094 -0.0233427631 0.4643100376 -0.643522219 0.4647473919 -0.6434544608 0.0503631542 -0.0228503407
460297240.0 0.0504676452 -0.0238375015 0.4572818434 -0.6483079363 0.4566437468 -0.6490767977 0.0498097881 -0.022607448
465297210.0 0.0506545951 -0.0246185362 0.449931159 -0.6538246177 0.4501216539 -0.6538460749 0.0488815614 -0.0238818139
470297180.0 0.049821118 -0.0250752099 0.4426395125 -0.6591105275 0.4430855371 -0.6591502761 0.0481342392 -0.0244715326
475297150.0 0.0495851985 -0.0263617829 0.43493741 -0.6631457711 0.4356079206 -0.6628731245 0.0483164172 -0.0249248512
480297120.0 0.0496696732 -0.0269435437 0.4284152873 -0.6682137358 0.4283436925 -0.6681748445 0.0473547148 -0.024379531
485297090.0 0.0492234005 -0.0273135657 0.4212943729 -0.6732045908 0.4207625764 -0.673665626 0.0470907779 -0.0258851316
490297060.0 0.0488728058 -0.0279926875 0.4136027805 -0.6779930968 0.4135570058 -0.6781083287 0.0469710464 -0.0258622996
495297030.0 0.0478901012 -0.0280311184 0.4057651329 -0.6824509493 0.4059173286 -0.6822137066 0.046618878 -0.0263615364
500297000.0 0.0478512186 -0.0290250191 0.3982335847 -0.6863283606 0.3980305909 -0.6869713142 0.0454742828 -0.0268693143
505296970.0 0.0472508445 -0.0297501242 0.390133444 -0.6908170275 0.3903644034 -0.6911107825 0.0448545245 -0.0272027756
510296940.0 0.0467893538 -0.0299296055 0.3832798671 -0.6955768344 0.3834720192 -0.6954816462 0.0451960262 -0.0271137605
515296910.0 0.0459976825 -0.0304952682 0.3750553129 -0.6992414917 0.375166626 -0.6996478403 0.0441433238 -0.0281370408
520296880.0 0.0458624732 -0.031416887 0.3674747387 -0.7035654395 0.3682297843 -0.7037502491 0.0441832935 -0.0283550084
525296850.0 0.0452209881 -0.0320477916 0.3601184649 -0.7075602085 0.3601510066 -0.7079977673 0.0438636422 -0.0288235438
530296820.0 0.0450471976 -0.0324991615 0.3530411411 -0.7109781903 0.3521703657 -0.7118444385 0.0429463547 -0.0299951365
535296790.0 0.0442774481 -0.0330392022 0.3446328325 -0.7149356485 0.3449744502 -0.7155377568 0.0424557072 -0.0303313985
540296760.0 0.0438348013 -0.0337884341 0.3371827216 -0.7193466778 0.3364967119 -0.7195809819 0.041407908 -0.0301924845
545296730.0 0.0434170879 -0.0336394366 0.3288062341 -0.7222190293 0.3290273805 -0.7233491419 0.0414054739 -0.0312222324
550296700.0 0.0424051675 -0.0346147298 0.3215500716 -0.7265934049 0.3211046279 -0.7266386935 0.0407394741 -0.0304561705
555296670.0 0.0422908457 -0.0353286051 0.3132512717 -0.7300417734 0.313007382 -0.729931432 0.0399573547 -0.0310060975
560296640.0 0.0417323262 -0.0355652974 0.3052690472 -0.7330320676 0.3052247482 -0.7329489865 0.0395498342 -0.0315234719
565296610.0 0.0405855115 -0.0363475178 0.2969469536 -0.7365238222 0.2964255146 -0.737194698 0.0387247739 -0.0324092813
570296580.0 0.040905827 -0.0367709635 0.2886571311 -0.739410827 0.2891707465 -0.739960193 0.0389563895 -0.0318507535
575296550.0 0.0400652094 -0.0363465879 0.280855422 -0.7419507207 0.2813475445 -0.7424582173 0.0384926067 -0.0328555609
580296520.0 0.0393401376 -0.0371098418 0.2734152403 -0.746194111 0.2724714212 -0.7459030141 0.0372221713 -0.0333763749
585296490.0 0.0393673605 -0.0379303943 0.2652177498 -0.748703573 0.26454834 -0.7489281797 0.0367809936 -0.0335308154
590296460.0 0.0380537571 -0.0385840861 0.2563178741 -0.7516082137 0.2559182624 -0.751630694 0.0364181027 -0.0333462855
595296430.0 0.0374543685 -0.038695825 0.2483397134 -0.7547418707 0.2478581853 -0.7551396868 0.0362009204 -0.0341925595
600296400.0 0.0368831209 -0.0386626882 0.2398253921 -0.7573306054 0.2402932028 -0.7572446495 0.0354175905 -0.0341232372
605296370.0 0.0365449551 -0.038919012 0.2315249844 -0.7596062483 0.2315335651 -0.7598283491 0.0349227992 -0.0349473609
610296340.0 0.0357892316 -0.0394963517 0.2235922318 -0.7626376019 0.2237755379 -0.7624585518 0.0342655779 -0.0343592526
615296310.0 0.0353377462 -0.0394325453 0.2148864455 -0.764097868 0.2149991818 -0.7644248508 0.033834453 -0.0351098053
620296280.0 0.0343951968 -0.0402359764 0.2068243539 -0.7669054876 0.20675679 -0.7664904219 0.0332942273 -0.0357781057
625296250.0 0.0343002629 -0.040557556 0.1979590745 -0.769269351 0.1976064251 -0.7689391857 0.0326211298 -0.0353430847
630296220.0 0.0334921172 -0.0406585394 0.1896258648 -0.7717690547 0.1900763569 -0.7714290552 0.0317675081 -0.0359801415
635296190.0 0.0329910113 -0.0410617565 0.181219915 -0.7729786441 0.1808352205 -0.7727629463 0.0309579105 -0.0363929368
640296160.0 0.032075443 -0.0412089642 0.1732507385 -0.774781772 0.1727651819 -0.7755408964 0.0314059987 -0.0366445934
645296130.0 0.0316866962 -0.0413096148 0.1644613492 -0.7774484514 0.1644762691 -0.7769331859 0.0295371436 -0.0373345218
650296100.0 0.0309699148 -0.0411136697 0.1568057871 -0.778193767 0.1564114029 -0.7784044726 0.0294767002 -0.0369983573
655296070.0 0.0302246079 -0.0422067802 0.1472640381 -0.7801136758 0.14723977 -0.7802224979 0.0295057065 -0.0369944995
660296040.0 0.0290527623 -0.0418281751 0.1392012334 -0.7814569825 0.1390239804 -0.782012945 0.0285677945 -0.0378899743
665296010.0 0.0292147564 -0.0424811484 0.1307753902 -0.7831910454 0.1314115965 -0.7833494012 0.0274485578 -0.0375527026
670295980.0 0.0292258412 -0.0423648045 0.1225346604 -0.7843043579 0.1225098731 -0.7844129003 0.0267315135 -0.0383826441
675295950.0 0.0283033994 -0.0426059235 0.1136062281 -0.7855478608 0.1136891866 -0.7860264201 0.0266201726 -0.0381077555
680295920.0 0.0271942554 -0.0425493381 0.1047091767 -0.78691537 0.104643274 -0.7873135487 0.0260832812 -0.0386976366
685295890.0 0.0265281904 -0.0427253819 0.0963868658 -0.7882926425 0.0957882017 -0.7888305184 0.025471731 -0.0382828317
690295860.0 0.0261841574 -0.0430418993 0.0877762144 -0.788352188 0.0871033953 -0.7888482075 0.025158192 -0.0382410091
695295830.0 0.0260077052 -0.0433642669 0.0784824184 -0.7901325167 0.0784609349 -0.7902711096 0.0237479063 -0.0386259553
700295800.0 0.0254966197 -0.0434779152 0.0702250958 -0.7908584811 0.0697917948 -0.7913841405 0.0235111113 -0.0394526983
705295770.0 0.024357969 -0.0434321898 0.0622242806 -0.7916949617 0.0613752529 -0.7915282484 0.0227356051 -0.0393471063
710295740.0 0.0240498081 -0.0434920792 0.0526656931 -0.7921785359 0.0531043063 -0.7921192068 0.021160267 -0.0391482872
715295710.0 0.0234088146 -0.0437593503 0.0444430312 -0.7931808081 0.0447415017 -0.7930438273 0.0217336308 -0.039972915
720295680.0 0.0227544297 -0.0441067297 0.0358566645 -0.7929814902 0.0356948886 -0.7934826144 0.0215081911 -0.039248832
725295650.0 0.0224085467 -0.0442038839 0.0267344842 -0.7936081677 0.0273424454 -0.7933392212 0.0208098389 -0.0396584644
730295620.0 0.0211308758 -0.0444752315 0.018419643 -0.7932318227 0.0186723035 -0.7933139386 0.0202711732 -0.0407772537
735295590.0 0.021188082 -0.0441119765 0.0106849532 -0.7941225117 0.0103229981 -0.7938139894 0.0192448099 -0.0397436262
740295560.0 0.0201064365 -0.0442541988 0.0009721638 -0.7930648164 0.0013907383 -0.793816712 0.0194779028 -0.0402180186
745295530.0 0.0199689994 -0.0447874496 -0.0072474281 -0.7942155292 -0.0072321134 -0.7941237928 0.0181588383 -0.0398979679
750295500.0 0.0192286357 -0.0448131905 -0.0155000534 -0.7932285813 -0.0158987481 -0.7936900483 0.0179595811 -0.0407825528
755295470.0 0.0190696803 -0.04436056 -0.0242434887 -0.7931453158 -0.0244006692 -0.7935414811 0.0166937176 -0.0403883639
760295440.0 0.0177974515 -0.0442935178 -0.0333366777 -0.7931944089 -0.0333822723 -0.7933738893 0.0159272674 -0.0406827975
765295410.0 0.0169534999 -0.044896343 -0.0410378014 -0.7921706462 -0.0410260837 -0.7928033657 0.0166002004 -0.0403311545
770295380.0 0.0168570328 -0.044931491 -0.0503463042 -0.7917036134 -0.0504911756 -0.7922677835 0.0157394247 -0.0400884524
775295350.0 0.0160143923 -0.0446591366 -0.0589451874 -0.79108481 -0.0589066144 -0.7916221686 0.0144978314 -0.0413392393
780295320.0 0.0154552184 -0.0448322899 -0.0672338081 -0.7909099536 -0.0671961635 -0.7909496496 0.0140778754 -0.0402639476
785295290.0 0.0147078292 -0.0442699654 -0.0760113315 -0.7892133555 -0.0763032243 -0.7899965007 0.01317018 -0.0402866756
790295260.0 0.0139342666 -0.0445134819 -0.0839724276 -0.7892352373 -0.0848527173 -0.7893845665 0.013138781 -0.0405522214
795295230.0 0.0134948852 -0.0447211697 -0.092919687 -0.7878610414 -0.092930016 -0.7880264074 0.0123372062 -0.0398928724
800295200.0 0.0128202429 -0.0443284815 -0.1021952028 -0.7871151531 -0.1022324526 -0.78750848 0.0117899852 -0.0402212652
805295170.0 0.0117242635 -0.0447329379 -0.1104324587 -0.7856497115 -0.1103134986 -0.7854527088 0.010955254 -0.0407056492
810295140.0 0.0116162553 -0.0446435043 -0.1190757055 -0.784262183 -0.1187420789 -0.7853380117 0.0105457287 -0.0399346796
815295110.0 0.0107440143 -0.044322327 -0.1280476823 -0.7831157389 -0.1278714359 -0.7833580455 0.0095190757 -0.0404145706
820295080.0 0.0101046517 -0.0447487131 -0.1359534338 -0.7818497226 -0.1355236104 -0.7820524285 0.0093264378 -0.0403128406
825295050.0 0.0097268368 -0.0447027111 -0.1444354469 -0.7801520675 -0.1444591124 -0.7802132881 0.0090735657 -0.0399414907
830295020.0 0.0088509257 -0.0441735498 -0.1529396342 -0.7788230433 -0.1535363315 -0.7790468662 0.0079950627 -0.0402074297
