!Created with skrf (http://scikit-rf.org).
# Hz S RI R 50.0 
!freq ReS11 ImS11 ReS21 ImS21 ReS12 ImS12 ReS22 ImS22
300000.0 -0.0989449197 -0.0630585468 0.6299714532 0.0591063503 0.6236620763 0.0590692501 -0.0999668956 -0.0682409045
5299970.0 -0.1022063369 0.0132449458 0.6303158437 0.009794161 0.6307051738 0.0102169197 -0.1012954188 0.0133700643
10299940.0 -0.0973851585 0.0294857692 0.6340728658 0.0151629144 0.6343083111 0.0155511365 -0.0961288983 0.0305538368
15299910.0 -0.0901766158 0.0425887426 0.6402445328 0.0204734691 0.6408795829 0.020382891 -0.0886801035 0.0436455311
20299880.0 -0.0817953725 0.0531242094 0.6482358177 0.0241220721 0.648611108 0.0243003187 -0.0802161501 0.0544049178
25299850.0 -0.0723986893 0.0623679257 0.6576411923 0.0252645349 0.6577417679 0.0256756855 -0.0701284392 0.0631177944
30299820.0 -0.0621776972 0.0687115046 0.6676144062 0.0243190015 0.6674176099 0.0246189207 -0.0599815589 0.0700010772
35299790.0 -0.0525414782 0.0737235654 0.677239445 0.0214449953 0.6772324439 0.0216786235 -0.0500763832 0.0746084461
40299760.0 -0.043453562 0.0772052046 0.6865023323 0.0175784357 0.68678112 0.017691481 -0.0405954014 0.0775744505
45299730.0 -0.0340558686 0.0792864345 0.6949807231 0.0123705962 0.6955450185 0.0121635016 -0.0313941323 0.0796820193
50299700.0 -0.0255700991 0.0802787882 0.7038509713 0.0049524741 0.7036274443 0.0056312945 -0.0227433555 0.0804106321
55299670.0 -0.0174379965 0.0804760329 0.7108378299 -0.0031468961 0.7109010782 -0.0027181917 -0.0148790388 0.0805222135
60299640.0 -0.010110926 0.0800389045 0.7173018476 -0.0113574827 0.7176392844 -0.0109961854 -0.0073723094 0.0792041261
65299610.0 -0.0037882458 0.078888255 0.7235613159 -0.0200823812 0.7236264683 -0.0197484047 -0.0011789303 0.0784414705
70299580.0 0.0026850578 0.0777410103 0.7290818535 -0.0289674505 0.728703909 -0.0289561841 0.0052244843 0.076669699
75299550.0 0.0082306388 0.075814282 0.7327273647 -0.0386603573 0.7328150648 -0.0386846085 0.0104046836 0.0749330612
80299520.0 0.0131364609 0.0734822652 0.7372284304 -0.0486962873 0.7370883498 -0.0486531018 0.0154139944 0.0728626695
85299490.0 0.017776715 0.0715716497 0.7405029526 -0.0577646131 0.7404225999 -0.057917714 0.0197214617 0.0698371467
90299460.0 0.0218315008 0.068798565 0.7419393499 -0.0685377718 0.7437156604 -0.0682483993 0.0237805331 0.0680241321
95299430.0 0.0260245575 0.0664470697 0.7458529196 -0.078837518 0.7456819213 -0.0787883102 0.0278178118 0.0657757376
100299400.0 0.0290853244 0.0645752634 0.746650829 -0.0891476455 0.7471419404 -0.0888957641 0.0314550962 0.0627319644
105299370.0 0.0321012223 0.061986897 0.7489613213 -0.099197254 0.7493114643 -0.0993177152 0.0343213844 0.0608360583
110299340.0 0.0350381337 0.0597132457 0.750187919 -0.1093145454 0.7498063097 -0.1087233639 0.0360941707 0.0579364368
115299310.0 0.0373237529 0.0573208575 0.7508394087 -0.1190229594 0.750826063 -0.1190845013 0.0391595556 0.0559717054
120299280.0 0.039716815 0.0545583017 0.751057728 -0.1290042255 0.7514381622 -0.1294554551 0.0414028544 0.0534814737
125299250.0 0.0418083979 0.052329158 0.7516577393 -0.1385061589 0.7516617894 -0.1382454781 0.0430283075 0.0509983073
130299220.0 0.0435661369 0.0501690942 0.751026613 -0.1492130737 0.7515131566 -0.1490624168 0.0446899707 0.0485134926
135299190.0 0.0453173765 0.0482335739 0.7512215193 -0.1584579727 0.7512261818 -0.1583001781 0.0467295557 0.0464952234
140299160.0 0.0466080704 0.0462505757 0.7510348218 -0.1685439526 0.7507883119 -0.1687912931 0.0477202993 0.0446949879
145299130.0 0.048077255 0.0437825833 0.7500591564 -0.1782710487 0.7498771574 -0.1777209657 0.0490795817 0.0424194364
150299100.0 0.0493506851 0.0420247077 0.7484232993 -0.1872471052 0.7490305218 -0.1876964187 0.0505482701 0.0406293507
155299070.0 0.0500298 0.0396918902 0.7484370777 -0.1980454941 0.7477373529 -0.197880106 0.0513643888 0.0386310161
160299040.0 0.052005627 0.0382113746 0.7464748754 -0.2078142656 0.7458674182 -0.2070010706 0.0517222429 0.0363716357
165299010.0 0.0524063418 0.0365138988 0.7446037207 -0.2164877138 0.7452136553 -0.2169804168 0.0530748627 0.0350242422
170298980.0 0.0532398419 0.0340617133 0.7429910065 -0.2266241404 0.743265939 -0.2259743434 0.054013932 0.0330714665
175298950.0 0.0535845428 0.0326373953 0.7415946307 -0.2353488375 0.7410941814 -0.2354194424 0.0545380983 0.0313529178
180298920.0 0.0541934516 0.0309242068 0.7390161141 -0.2443805118 0.7391130272 -0.2443134693 0.0550826312 0.0299051184
185298890.0 0.055505524 0.0292153068 0.7369727557 -0.2533421211 0.7363166143 -0.2535723572 0.0556457234 0.0286111875
190298860.0 0.0553925764 0.0275746802 0.7347070698 -0.2626706628 0.7345940611 -0.2624984034 0.0562566703 0.0262618995
195298830.0 0.0561604385 0.0253653336 0.7323395858 -0.2713968987 0.7319590221 -0.272039587 0.0571851435 0.024738747
200298800.0 0.0564207354 0.024484146 0.7294370437 -0.2807756697 0.7290141035 -0.2808824213 0.0567078378 0.023652848
205298770.0 0.0568955241 0.0229530603 0.7262251509 -0.2902352228 0.7263228675 -0.2895575736 0.0574787095 0.021305308
210298740.0 0.0571012493 0.021187191 0.7230541891 -0.2982659795 0.7232285686 -0.2974144007 0.0579150111 0.0210313307
215298710.0 0.057023977 0.0199462456 0.7204330424 -0.3073229126 0.7204101807 -0.307362715 0.057804945 0.0195854279
220298680.0 0.0578172021 0.0176860172 0.7171222363 -0.3157799899 0.7170383519 -0.3155537618 0.0574003383 0.0176668203
225298650.0 0.0578331057 0.0167641325 0.7140396141 -0.324382123 0.7145928328 -0.3245656338 0.0573768076 0.0163984301
230298620.0 0.0581548608 0.0158821282 0.7104490638 -0.3324736504 0.7108360959 -0.3324029297 0.0576992499 0.0145476817
235298590.0 0.0582243245 0.0146053249 0.7072747514 -0.3415823222 0.7072358811 -0.3404551618 0.0579199488 0.0136221154
240298560.0 0.0581034927 0.0134268316 0.7036895088 -0.3496246358 0.7031747808 -0.349931009 0.057938829 0.0130078908
245298530.0 0.0580481316 0.0121514709 0.7006868148 -0.3582375434 0.7002178165 -0.3583319711 0.0588674169 0.0106510961
250298500.0 0.0585363429 0.0111674205 0.6954154088 -0.3661651326 0.6955844255 -0.365367603 0.0582456262 0.0101177392
255298470.0 0.0585142136 0.0092533303 0.6916467108 -0.3737567915 0.6918776413 -0.3737741641 0.0585345822 0.0088060126
260298440.0 0.058077628 0.0082447157 0.6877708738 -0.3832045608 0.6879116329 -0.3822493267 0.0590842457 0.0079589041
265298410.0 0.0587671355 0.007523199 0.684015959 -0.391222505 0.6838487884 -0.389989811 0.0586300274 0.0070726956
270298380.0 0.0585931457 0.0061813283 0.6801296591 -0.3982322625 0.6798205647 -0.3980549024 0.0583260641 0.0061040584
275298350.0 0.0590152335 0.0050888874 0.6753935993 -0.4067252812 0.6755463994 -0.4065497538 0.0585362448 0.0044269321
280298320.0 0.0587243057 0.0042672461 0.6717615335 -0.4146090138 0.6714633371 -0.4142188974 0.0589321002 0.0038153998
285298290.0 0.0587307406 0.0030859126 0.6668263666 -0.4223080588 0.6666853733 -0.4222592098 0.0585127393 0.0025410155
290298260.0 0.0590326923 0.0022074734 0.6620529712 -0.4292486315 0.6622973108 -0.4298849553 0.0590783479 0.0021068557
295298230.0 0.0588463693 0.0011135013 0.6582374455 -0.4377575759 0.6574556043 -0.4376258857 0.0592043282 0.0009042214
300298200.0 0.0584692866 -0.000393714 0.6531020478 -0.4446534147 0.6534350704 -0.4455345269 0.0588175992 -0.000604228
305298170.0 0.0586513441 -0.0012059613 0.6476128586 -0.4531374344 0.6479152736 -0.4529880453 0.0593775373 -0.0016567971
310298140.0 0.0582349827 -0.0022775282 0.643386262 -0.46055671 0.6438652704 -0.4603300748 0.0590920393 -0.002525762
315298110.0 0.0584554624 -0.0041595999 0.6384809404 -0.4682995461 0.6384341584 -0.468087534 0.0586187403 -0.0039378053
320298080.0 0.0582916332 -0.0046982236 0.6327378738 -0.4760394547 0.6330702129 -0.4755259785 0.0584650465 -0.0049143963
325298050.0 0.0578599212 -0.0059037747 0.6274655264 -0.4833971026 0.6276743087 -0.4833570058 0.05778979 -0.0058991668
330298020.0 0.057255365 -0.0071296179 0.6214387536 -0.4908800271 0.6216854767 -0.4907978005 0.0570205536 -0.0075052231
335297990.0 0.0569792999 -0.0083468726 0.6163192583 -0.4979457205 0.6158407341 -0.4976699171 0.0561233445 -0.0077929352
340297960.0 0.0561824744 -0.0085954662 0.6103575101 -0.5047284282 0.6099329408 -0.5043773233 0.0566505141 -0.0085036141
345297930.0 0.0557302372 -0.0088841921 0.60436697 -0.5119491124 0.6045364361 -0.5120748342 0.0562253905 -0.0095941222
350297900.0 0.0551098428 -0.0105912993 0.5980807119 -0.5186548602 0.5980789398 -0.5179809573 0.0552348894 -0.009753361
355297870.0 0.0550034138 -0.0101241852 0.5923908547 -0.5245703131 0.5935630073 -0.5247496063 0.0549666131 -0.0105210332
360297840.0 0.0548135154 -0.0113277904 0.5876533294 -0.5312079334 0.5879860004 -0.5315409352 0.0549878708 -0.0111102426
365297810.0 0.0540496236 -0.011903344 0.5810209793 -0.538328586 0.5818026026 -0.5385104545 0.0546322679 -0.0118612149
370297780.0 0.0544916545 -0.0130080553 0.5750495924 -0.5442486513 0.5754867479 -0.5439008856 0.0539234122 -0.0123566847
375297750.0 0.0538222606 -0.0134905177 0.5694096121 -0.5509935965 0.5698185638 -0.5505665259 0.054048468 -0.013297055
380297720.0 0.0538231652 -0.0142235822 0.5629196426 -0.5577620504 0.5631840441 -0.5567083241 0.0533794815 -0.0140286614
385297690.0 0.0530998659 -0.0151763551 0.5565868432 -0.5640179287 0.5566510005 -0.56285131 0.0534807401 -0.014563225
390297660.0 0.0527790247 -0.015217328 0.5504948048 -0.5696748928 0.5505413007 -0.5696573027 0.0526205638 -0.0157440932
395297630.0 0.0526777663 -0.016207208 0.5445185741 -0.5761746751 0.5446173214 -0.5763229547 0.0531215216 -0.0161206454
400297600.0 0.0519587087 -0.0165172741 0.5371555121 -0.5824837143 0.5382332071 -0.5819733586 0.0526114883 -0.0164100659
405297570.0 0.0515820313 -0.0173252868 0.5316988139 -0.5876710986 0.5313415815 -0.5876621361 0.0518639917 -0.0171308801
410297540.0 0.0513619017 -0.0182012062 0.5251440556 -0.594016389 0.5257091599 -0.5939999305 0.0517050659 -0.017289741
415297510.0 0.0513879465 -0.0187513007 0.5183628751 -0.599732813 0.5185792444 -0.6002143341 0.0514575037 -0.0178360897
420297480.0 0.050960902 -0.0190446745 0.5117492436 -0.6056207763 0.5118459293 -0.60567757 0.0505983323 -0.0190529006
425297450.0 0.0504787401 -0.0203138486 0.5049091813 -0.6115731495 0.505806957 -0.6107098802 0.0498610351 -0.0189397157
430297420.0 0.049869606 -0.0210895003 0.4984923212 -0.6159325934 0.4984149241 -0.6165354085 0.0500004233 -0.0200846392
435297390.0 0.0495627253 -0.0213753482 0.4913910221 -0.6224106333 0.4913109607 -0.62185335 0.0503898046 -0.0207206457
440297360.0 0.0495132949 -0.0216074428 0.4846113566 -0.6274126977 0.4846318057 -0.6277323617 0.049198691 -0.0214701901
445297330.0 0.0486960192 -0.0229488532 0.4783153186 -0.6330046217 0.4783755433 -0.6325916739 0.0491497144 -0.0220036276
450297300.0 0.0484343415 -0.0231175787 0.4706730646 -0.638351884 0.4711640256 -0.6382432143 0.0487784706 -0.0227307378
455297270.0 0.0481071383 -0.0235639767 0.4636706401 -0.6434702365 0.4640900791 -0.6439192895 0.0485961516 -0.0230056832
460297240.0 0.0477072584 -0.0242365717 0.4561825569 -0.6480014732 0.4565397743 -0.6486295108 0.0478469579 -0.0234170843
465297210.0 0.0474362121 -0.0247447553 0.4496524759 -0.6538608562 0.4500059826 -0.654054656 0.0475713466 -0.0243544114
470297180.0 0.0470095542 -0.025293017 0.4422371191 -0.6584440062 0.4426231236 -0.6591399785 0.0473860758 -0.0247308839
475297150.0 0.0466930393 -0.0258611151 0.4347999832 -0.6627682115 0.4356129295 -0.6633192946 0.0473056065 -0.025689883
480297120.0 0.045913101 -0.0258841287 0.427206048 -0.6682694074 0.4279917096 -0.6685484547 0.0472637277 -0.0256804218
485297090.0 0.0454361331 -0.0266676083 0.4205433871 -0.6727779106 0.4207718314 -0.6725572809 0.0462629577 -0.0264532875
490297060.0 0.04459018 -0.0273915151 0.4131966795 -0.6782220162 0.4129015584 -0.6771176104 0.0455102261 -0.026409259
495297030.0 0.0445995493 -0.0277901819 0.4054455969 -0.6822049776 0.4064147732 -0.6817775305 0.0450996636 -0.0271813267
500297000.0 0.0443384685 -0.0284714152 0.3980817476 -0.6859648524 0.3977361907 -0.6857719273 0.0450236683 -0.0269872541
505296970.0 0.0440383324 -0.0289658471 0.3906358462 -0.6906668033 0.3903938456 -0.6908002188 0.0443147467 -0.0278529051
510296940.0 0.0434162281 -0.0292764992 0.3825268304 -0.6951418291 0.3831756371 -0.695146002 0.0439989129 -0.0279923514
515296910.0 0.042867239 -0.0294091694 0.3753074381 -0.6987311944 0.3749751346 -0.6988662154 0.0436933187 -0.028916283
520296880.0 0.0422250611 -0.0303066406 0.3677414309 -0.7041170596 0.3672552731 -0.7029673085 0.0430696481 -0.029488956
525296850.0 0.0423442247 -0.0310764545 0.3596609439 -0.7073282691 0.3601109482 -0.7076551115 0.0424401595 -0.0298952884
530296820.0 0.0416957885 -0.0311459839 0.3516416414 -0.7116200172 0.3521430875 -0.711141934 0.0421421368 -0.0301209777
535296790.0 0.0405285825 -0.0315106611 0.3446126419 -0.7150444555 0.3444565483 -0.714637818 0.0417749626 -0.0313528615
540296760.0 0.0401026411 -0.0320158291 0.335953395 -0.7186186694 0.3363161166 -0.7183815612 0.0404874831 -0.0307060445
545296730.0 0.0395410985 -0.0322869289 0.3285391411 -0.722036358 0.3284497872 -0.7224992135 0.0405662248 -0.0316684829
550296700.0 0.0399120171 -0.0326134353 0.3201068111 -0.7259786974 0.3201896861 -0.7262031141 0.0397144304 -0.031709093
555296670.0 0.0389130076 -0.0331410625 0.3123937329 -0.7296745535 0.3132548348 -0.7294524993 0.0393758328 -0.0321551527
560296640.0 0.0388099772 -0.0330967879 0.3044335711 -0.7332652857 0.3049287886 -0.7329700274 0.0394330829 -0.032926543
565296610.0 0.0374209157 -0.0340085511 0.2962580121 -0.7364735949 0.2965444981 -0.7360640349 0.0379708928 -0.0333441547
570296580.0 0.0372263937 -0.0340414891 0.2883876712 -0.7398761718 0.2877997468 -0.7387210937 0.0378990537 -0.0328327162
575296550.0 0.0365238917 -0.0343792117 0.2805511832 -0.7429985931 0.2805886759 -0.743200131 0.0376848051 -0.0338555451
580296520.0 0.036400269 -0.034870813 0.2722158708 -0.7459645394 0.2725965737 -0.7460039486 0.0369406024 -0.0342302982
585296490.0 0.0355519727 -0.0358711724 0.2641650024 -0.7479503787 0.264620358 -0.7487119599 0.0365465361 -0.0347138005
590296460.0 0.0354840568 -0.035724093 0.256026015 -0.7506199491 0.2559417915 -0.7510754937 0.0352738717 -0.0345630801
595296430.0 0.0349879633 -0.0357396578 0.2473329651 -0.7542028845 0.2476133048 -0.7540881196 0.0354678841 -0.0356329675
600296400.0 0.0340383197 -0.0364493357 0.239190593 -0.7570393359 0.2396450217 -0.7564607546 0.0345459686 -0.0357708313
605296370.0 0.0334834155 -0.0364133591 0.2311532639 -0.759009662 0.2314073194 -0.7591137414 0.0343385981 -0.0357809091
610296340.0 0.0331950331 -0.036948423 0.2221769681 -0.7614791085 0.2227182843 -0.7618002808 0.0338725741 -0.0360822151
615296310.0 0.0328780206 -0.0377699924 0.2141122167 -0.7644678342 0.2142974795 -0.7644665823 0.0335220164 -0.0363047112
620296280.0 0.0320963547 -0.0379271593 0.2062277015 -0.7661443027 0.2062068519 -0.7658706859 0.0325037812 -0.0364873967
625296250.0 0.0314183922 -0.0382414699 0.1984326043 -0.768661021 0.197965066 -0.7689154625 0.0329506946 -0.0369891861
630296220.0 0.0317671452 -0.0380677229 0.1892651441 -0.771208426 0.1888996092 -0.7703557304 0.0319046459 -0.0368558959
635296190.0 0.0299296316 -0.0386184674 0.1813328727 -0.7726923955 0.1808073442 -0.7722415498 0.0314553285 -0.036917835
640296160.0 0.0296310948 -0.038766834 0.1723594412 -0.7746725362 0.1726863284 -0.774371465 0.030677011 -0.037213173
645296130.0 0.0293457262 -0.0387660405 0.1632990259 -0.7761079977 0.1644163459 -0.776641258 0.0302395937 -0.037865137
650296100.0 0.0287818359 -0.0393422463 0.1551336973 -0.7782442007 0.1560121052 -0.7787435538 0.0301985395 -0.038883822
655296070.0 0.0276459423 -0.0399756663 0.1468880411 -0.7802460908 0.1472021356 -0.7801781966 0.0294928935 -0.0382564745
660296040.0 0.0268323791 -0.0404254294 0.1382438863 -0.7813931804 0.1389247213 -0.7815166759 0.0289816604 -0.0384448382
665296010.0 0.027026808 -0.0400291768 0.1296404676 -0.782185476 0.1300699965 -0.7823237116 0.0283356257 -0.0381575519
670295980.0 0.0252116929 -0.0403219628 0.1209952115 -0.7841094883 0.1212980249 -0.7838241635 0.0269323548 -0.0389098222
675295950.0 0.0252853058 -0.0400864564 0.1127874759 -0.7855276461 0.1130792887 -0.7844093502 0.0262306305 -0.0390319637
680295920.0 0.0242500465 -0.0410546708 0.1041555606 -0.7863917875 0.103503653 -0.7872113778 0.0262886353 -0.038486199
685295890.0 0.0242228646 -0.0404534705 0.0949816358 -0.7879709424 0.0955449483 -0.7878478682 0.0255865293 -0.0391489394
690295860.0 0.0238467505 -0.0406484708 0.0870741007 -0.7876368712 0.0871005473 -0.7888923118 0.0247286377 -0.0385694918
695295830.0 0.0230848147 -0.0410480904 0.0788573503 -0.7895142874 0.0782707341 -0.7896247891 0.0238682234 -0.0390482523
700295800.0 0.0224981854 -0.041708548 0.0695803539 -0.7901520045 0.0697412575 -0.7897115651 0.0234496244 -0.038813737
705295770.0 0.0215753948 -0.0407561126 0.0605888653 -0.7906880944 0.0615565311 -0.7910520819 0.0226398303 -0.0393493751
710295740.0 0.0212026221 -0.0414175352 0.0532708378 -0.7923798895 0.0535346169 -0.7921027852 0.0221536354 -0.0402054807
715295710.0 0.0197656403 -0.0416440673 0.0446136232 -0.7928078784 0.0438404077 -0.7918279686 0.0222163835 -0.0400234234
720295680.0 0.0197261071 -0.04176752 0.0353757595 -0.7929606313 0.0362592259 -0.7923185709 0.021412201 -0.0393242588
725295650.0 0.0194239811 -0.0419070498 0.0265597998 -0.7927334321 0.0272621263 -0.7930053315 0.0201876721 -0.0397119381
730295620.0 0.0187151209 -0.0411548913 0.0182147254 -0.7927209144 0.0182984582 -0.7932410236 0.0195872439 -0.0403138079
735295590.0 0.0180542423 -0.0414283429 0.0096637086 -0.7933884864 0.0096730849 -0.7936472833 0.01894071 -0.0405742125
740295560.0 0.0170739943 -0.0414916468 0.0007562746 -0.7933975937 0.0009565355 -0.7938856894 0.0191002657 -0.0399522833
745295530.0 0.0168797684 -0.0414788562 -0.0081373433 -0.7925817388 -0.0073939484 -0.7934631107 0.0182836186 -0.0406473916
750295500.0 0.016300295 -0.0417091266 -0.0160848943 -0.7929188756 -0.016392482 -0.793323883 0.0178505167 -0.0406279503
755295470.0 0.0157845371 -0.0420746937 -0.0245259412 -0.7931103991 -0.0248094019 -0.7929168489 0.0179022919 -0.0408154306
760295440.0 0.0146707655 -0.0418604188 -0.033570155 -0.7925063701 -0.0331896806 -0.7931463564 0.0167265875 -0.0406567632
765295410.0 0.0143323437 -0.0417403116 -0.0425878446 -0.7921902635 -0.0427506007 -0.7925764993 0.0162571175 -0.0406824056
770295380.0 0.0130746356 -0.0423388993 -0.0509913164 -0.7921183628 -0.0506233627 -0.7914627418 0.0153882793 -0.0410978298
775295350.0 0.0129052382 -0.0426892886 -0.0598090217 -0.7906352397 -0.0592049015 -0.7909296499 0.0140569082 -0.0405096352
780295320.0 0.0124849623 -0.0422408327 -0.0680740612 -0.7900745134 -0.0672895334 -0.7901137733 0.0137830866 -0.0411002043
785295290.0 0.0115013197 -0.0427105449 -0.0768428986 -0.7889289604 -0.075823881 -0.7890944855 0.0142387833 -0.0406964614
790295260.0 0.0115462319 -0.0416395071 -0.0845499681 -0.7881817903 -0.0839981261 -0.7882091243 0.0129929521 -0.0409031666
795295230.0 0.0107332031 -0.0425055542 -0.0937184056 -0.787683347 -0.0930749461 -0.7880574558 0.0129772929 -0.0400002426
800295200.0 0.0096395072 -0.0419483314 -0.1031419492 -0.7861392965 -0.1024065331 -0.7865758332 0.0118623603 -0.040436748
805295170.0 0.0093904918 -0.0422931051 -0.1109446353 -0.7848165462 -0.110554885 -0.7857983019 0.0114726843 -0.0403110791
810295140.0 0.0083980369 -0.042687686 -0.1190718956 -0.7837315594 -0.1187020437 -0.7842321102 0.0113013138 -0.0400135871
815295110.0 0.0083428671 -0.0425343361 -0.1277055639 -0.7819048551 -0.1274772666 -0.7825787788 0.0099751519 -0.0400093844
820295080.0 0.0070152073 -0.0416980006 -0.136782779 -0.7806264115 -0.1352638709 -0.7808807876 0.0099452008 -0.0399184406
825295050.0 0.0074692643 -0.0417670248 -0.1437689808 -0.7790998782 -0.1447798815 -0.7796356115 0.0094958778 -0.0401791223
830295020.0 0.006281892 -0.0418030973 -0.1537127916 -0.7773288282 -0.1532484855 -0.777801715 0.009660724 -0.0395305097
