!Created with skrf (http://scikit-rf.org).
# Hz S RI R 50.0 
!freq ReS11 ImS11 ReS21 ImS21 ReS12 ImS12 ReS22 ImS22
300000.0 -0.0475793051 -0.0584030461 -0.0013724215 0.0017080382 -0.0001224284 0.0004307388 -0.7754098732 -0.1599986831
5299970.0 -0.0491674475 0.0157399836 0.0001270707 0.0001017288 7.36182e-05 -0.0001268694 -0.7844835772 -0.0088884916
10299940.0 -0.0430678125 0.0333087898 7.71055e-05 -2.53467e-05 -3.10884e-05 0.0001431803 -0.7879126954 -0.0052451816
15299910.0 -0.0350620332 0.0481116901 -6.73205e-05 -7.62167e-05 -0.0001473174 1.41284e-05 -0.7934453258 -0.0027369199
20299880.0 -0.0245881595 0.0598216581 5.07e-05 0.0001509308 -5.73745e-05 9.46261e-05 -0.8001739065 0.0015717099
25299850.0 -0.0132225007 0.0690726478 -0.0001125249 4.94397e-05 3.01508e-05 -3.32519e-05 -0.8066207045 0.0074888568
30299820.0 -0.0014766219 0.0758527263 -5.62747e-05 4.02705e-05 0.0001184702 2.71844e-05 -0.8121000297 0.0147674009
35299790.0 0.0104042744 0.080932223 0.0002383221 0.0001026905 -8.58375e-05 -3.67356e-05 -0.8179287765 0.0237179683
40299760.0 0.0217835624 0.0832552205 -8.11704e-05 1.98649e-05 2.78767e-05 -0.000152501 -0.8216529561 0.0333269189
45299730.0 0.0324321327 0.0847786877 2.43051e-05 0.0002306323 2.92431e-05 9.43337e-05 -0.8251662203 0.0423641927
50299700.0 0.0431126327 0.084380853 5.48616e-05 -2.8104e-06 9.0914e-05 -9.2369e-05 -0.8272915118 0.0525007359
55299670.0 0.0519174414 0.0833937041 0.0001524441 -9.00705e-05 -5.89761e-05 4.64915e-05 -0.8297860976 0.063302251
60299640.0 0.0607952653 0.0814083859 6.8928e-05 -0.0001102426 -3.00514e-05 0.0002449736 -0.8307665767 0.073028681
65299610.0 0.068724554 0.0788590992 0.000107286 6.1962e-05 -2.67661e-05 0.0001607459 -0.8312647592 0.0831497803
70299580.0 0.0755470723 0.0755652383 0.0001432084 -7.22698e-05 6.05754e-05 1.247e-05 -0.8321336015 0.0929406233
75299550.0 0.0821215053 0.0721119619 -9.2446e-05 6.0182e-05 -9.13268e-05 -0.000112047 -0.832570098 0.1025959201
80299520.0 0.087517665 0.0688562428 7.17045e-05 -0.0002015698 0.0001025005 -0.0001238456 -0.8319496173 0.1123020842
85299490.0 0.0927586254 0.0648105682 0.0001150301 -2.97718e-05 9.54975e-05 2.73351e-05 -0.8318863411 0.1215813713
90299460.0 0.0972121367 0.0610293137 -5.0383e-06 0.000173685 -0.000173295 -0.0001579684 -0.8308704799 0.131677098
95299430.0 0.1014045702 0.0567914003 -0.0001013094 3.88357e-05 0.0002018061 -8.04282e-05 -0.8301906292 0.140989763
100299400.0 0.1047039388 0.052814932 -0.000104394 -4.3304e-06 1.62854e-05 0.000196195 -0.8290411675 0.1498544427
105299370.0 0.1082479042 0.0487773278 -0.0001332282 0.0001110483 9.18985e-05 3.89285e-05 -0.8270107945 0.1586599413
110299340.0 0.1110135796 0.0447273286 0.0001651424 2.89025e-05 0.0002139737 7.06525e-05 -0.8265002687 0.1685915627
115299310.0 0.1135961589 0.0403637178 0.0001815299 0.0001174658 7.628e-05 0.0002065645 -0.8250032682 0.1772881572
120299280.0 0.1158251843 0.0369196765 0.0002098178 -7.24215e-05 -0.0002562262 -1.7654e-05 -0.8230632738 0.1861621023
125299250.0 0.1175712266 0.0324241154 7.39162e-05 6.29282e-05 0.0001270117 -0.0001038077 -0.8217597754 0.1955464149
130299220.0 0.1192354891 0.0292201299 -2.65983e-05 -9.10801e-05 -0.0001432984 0.0002085219 -0.8201072542 0.2037757297
135299190.0 0.1208908239 0.0251197325 -5.70195e-05 -9.04195e-05 0.0002388582 4.14236e-05 -0.8179926219 0.2126381176
140299160.0 0.1218945535 0.0213910704 6.91294e-05 7.3948e-05 -3.00561e-05 0.0001578061 -0.8158907694 0.2215492102
145299130.0 0.1228717436 0.0176011764 0.0003026749 8.10244e-05 0.0001838652 -6.99421e-05 -0.8135682127 0.230136893
150299100.0 0.1237288818 0.0142342251 -6.23e-07 8.54607e-05 -9.75144e-05 -4.85175e-05 -0.8118154238 0.2383799531
155299070.0 0.1244487814 0.0109279128 6.21326e-05 -1.72256e-05 -4.47486e-05 7.24591e-05 -0.8090023121 0.2477275141
160299040.0 0.1251106953 0.0074828762 3.53134e-05 0.0001148943 3.04853e-05 2.27135e-05 -0.8076612849 0.2568455112
165299010.0 0.1253658766 0.0041842212 9.3198e-06 5.98936e-05 4.43244e-05 4.37683e-05 -0.8042686408 0.2648629439
170298980.0 0.125914873 0.0008565611 -3.92016e-05 -2.7051e-06 5.2406e-06 0.0002553482 -0.80211157 0.2728766036
175298950.0 0.1260444446 -0.0017901522 -4.44049e-05 7.06493e-05 6.31608e-05 -1.58755e-05 -0.7988087688 0.2820488775
180298920.0 0.1260034879 -0.005211551 -6.05737e-05 1.99184e-05 0.0001343826 2.98001e-05 -0.7957525136 0.2908481241
185298890.0 0.1260163336 -0.0082405317 -6.8286e-05 0.0001455227 -1.17166e-05 0.000124735 -0.7932075089 0.2987245295
190298860.0 0.1260178462 -0.0112152405 5.11874e-05 -8.09207e-05 -1.05895e-05 8.75607e-05 -0.7898495203 0.3078243967
195298830.0 0.1263025888 -0.0142459188 -3.95727e-05 0.0002009604 -5.46671e-05 3.03931e-05 -0.7867363744 0.3158362393
200298800.0 0.1257657353 -0.0168755868 0.000230058 8.68313e-05 0.0001481868 6.35317e-05 -0.7834805511 0.3243273169
205298770.0 0.1255959424 -0.0196969538 0.000114471 0.0001193691 0.0001265708 6.66e-07 -0.7795992806 0.3324095985
210298740.0 0.1252800331 -0.0224743245 -3.45399e-05 -0.0001341302 3.85149e-05 -6.41208e-05 -0.776945182 0.3407643904
215298710.0 0.1247446393 -0.0249624917 -0.0001494883 1.79581e-05 0.0001385411 2.6345e-06 -0.7737452611 0.3483606957
220298680.0 0.1242005388 -0.027491347 1.04283e-05 -0.0001223257 1.75312e-05 3.54431e-05 -0.7694399574 0.3572851188
225298650.0 0.1238147892 -0.0299691675 9.11872e-05 -6.24553e-05 9.72696e-05 0.0003756256 -0.7658541119 0.364827802
230298620.0 0.1231428356 -0.0324801315 -0.0001435996 4.6471e-06 0.0001483183 0.0001345911 -0.7611942543 0.372823655
235298590.0 0.1221454013 -0.0351108765 0.0001573116 -0.0001021436 9.65281e-05 -1.4027e-05 -0.7579752763 0.3807124619
240298560.0 0.1216906457 -0.0371744563 0.0002744042 -3.27191e-05 4.95336e-05 0.00020753 -0.7540362291 0.3886175562
245298530.0 0.121007525 -0.0395932176 -9.01555e-05 -4.13274e-05 0.0001409377 -1.4755e-05 -0.7499793203 0.3963875321
250298500.0 0.120122222 -0.0418051161 -2.4165e-06 -3.09344e-05 0.0001160375 7.2502e-05 -0.7458680933 0.4048616042
255298470.0 0.1193090023 -0.0441091662 5.5589e-05 0.0001474448 6.04757e-05 7.87644e-05 -0.7408797136 0.4126657227
260298440.0 0.1185523732 -0.0461175891 -1.04708e-05 0.0001500482 0.0001069374 4.35376e-05 -0.7362812721 0.4199580486
265298410.0 0.1177607589 -0.0481094731 -0.0002140861 0.00025741 -0.0001808342 -2.71029e-05 -0.7322300816 0.4275273579
270298380.0 0.1171718859 -0.0502124567 -4.85203e-05 0.0001798187 9.86191e-05 6.8779e-05 -0.7275503885 0.4355322882
275298350.0 0.1160708816 -0.0523244901 6.30894e-05 0.000234646 1.13303e-05 3.75579e-05 -0.7227074595 0.4430059207
280298320.0 0.1153799973 -0.0541578069 0.0002269025 0.0001319772 7.69569e-05 -0.0002282773 -0.7185743875 0.4503347489
285298290.0 0.1141103593 -0.0560323433 8.96255e-05 0.0001325138 -0.0001970687 -2.6657e-06 -0.7133294128 0.4575726352
290298260.0 0.1132373681 -0.0583667817 0.000205576 9.11162e-05 3.71136e-05 0.0001209043 -0.7085832196 0.465623261
295298230.0 0.1122889285 -0.0604550798 -3.72469e-05 0.0001176707 0.0001317507 -0.0002385443 -0.7035587323 0.4725049744
300298200.0 0.1111450193 -0.0624474026 2.51014e-05 0.0002431991 2.13194e-05 5.53871e-05 -0.698820757 0.4806166571
305298170.0 0.1106688571 -0.0641765572 0.0002029386 -0.0001434147 -6.38614e-05 4.46626e-05 -0.6934288708 0.4873505688
310298140.0 0.1092837997 -0.0665186612 0.000221402 0.000263561 -5.18144e-05 0.0001561734 -0.689025034 0.4948707383
315298110.0 0.1077552449 -0.0682476704 6.4717e-06 -9.07613e-05 7.85872e-05 0.0002369976 -0.6829759421 0.50243242
320298080.0 0.1066334569 -0.0700130496 0.0001169682 -4.0965e-05 0.0001352692 0.0002353431 -0.6778997362 0.5094129678
325298050.0 0.1051192812 -0.0718507311 -4.52843e-05 -0.0001424096 0.0001770815 -5.98467e-05 -0.6723242259 0.5161772051
330298020.0 0.1035682775 -0.0733840799 0.0001788339 0.0001034315 8.76937e-05 3.16587e-05 -0.6662730858 0.5234265791
335297990.0 0.1021395437 -0.0748758771 -6.71731e-05 7.02989e-05 -0.000119999 8.39477e-05 -0.6613034841 0.5300022768
340297960.0 0.1006703139 -0.0764339546 9.2267e-06 -2.62278e-05 0.0002447608 0.0002548116 -0.6558338439 0.5371982577
345297930.0 0.0989949679 -0.0779480984 0.0001630984 2.71485e-05 0.0001258667 9.17192e-05 -0.6494500535 0.5436417767
350297900.0 0.0980247063 -0.0793157323 5.965e-07 6.631e-05 0.0001411537 0.0001366688 -0.6438240575 0.5509407125
355297870.0 0.0963066053 -0.0809932557 -3.42536e-05 -1.91238e-05 0.0001328674 2.60722e-05 -0.638098444 0.5577157317
360297840.0 0.0950809075 -0.082146614 -2.54864e-05 0.0001088082 -7.51408e-05 0.0002350113 -0.6320873821 0.5636425833
365297810.0 0.0936950602 -0.083684685 0.0001644392 0.0001175112 0.0001531542 -9.03668e-05 -0.6261354734 0.5706602666
370297780.0 0.0922657625 -0.0849180743 -2.30107e-05 0.0002465024 9.06385e-05 -2.1689e-06 -0.6205201229 0.5766896008
375297750.0 0.0909663271 -0.0860194192 0.0002217913 -0.000109571 0.0002894175 0.0001662877 -0.6138793627 0.5830263416
380297720.0 0.0899210505 -0.0874086467 3.91512e-05 -1.68639e-05 4.72999e-05 0.0001022551 -0.6078095372 0.5904179858
385297690.0 0.0882434409 -0.0883908371 8.88135e-05 0.0001847611 -1.96806e-05 2.37055e-05 -0.6016610016 0.5960662241
390297660.0 0.0870173389 -0.0898890739 8.51811e-05 9.21407e-05 1.7544e-05 -9.86136e-05 -0.5954399715 0.6017445792
395297630.0 0.0857826329 -0.0910654673 0.0001418326 1.61606e-05 -4.32038e-05 9.26252e-05 -0.588839998 0.6080817533
400297600.0 0.0837857422 -0.0920879399 0.0001421614 0.0001273211 8.99745e-05 4.36676e-05 -0.5826232737 0.6136862959
405297570.0 0.0825751457 -0.093201645 8.6524e-06 -1.1904e-06 -0.0001297233 -0.0001879674 -0.5774231145 0.6200557458
410297540.0 0.0811701335 -0.0944772159 0.0001070994 -9.97481e-05 4.74436e-05 -6.63424e-05 -0.5699864876 0.6257477869
415297510.0 0.0798126244 -0.0955336401 -3.88113e-05 0.0001310121 1.39064e-05 3.994e-07 -0.5639888399 0.6323479299
420297480.0 0.0778335373 -0.0968433892 0.0002029232 0.000158993 0.0002825823 -2.52025e-05 -0.5571225671 0.6366464648
425297450.0 0.07633616 -0.0978624862 -7.18564e-05 9.92282e-05 0.0001599265 -0.0001445948 -0.5498628148 0.6432598349
430297420.0 0.0751057817 -0.0988178792 8.70628e-05 5.66324e-05 8.44288e-05 5.27158e-05 -0.5437847861 0.6485695421
435297390.0 0.073646822 -0.0998767628 9.65576e-05 -0.0001549913 -1.43912e-05 2.9579e-05 -0.5372207314 0.6535324486
440297360.0 0.0721565592 -0.1009085163 0.0001474403 7.02466e-05 -6.97969e-05 3.88404e-05 -0.5300166494 0.6589383038
445297330.0 0.0702856468 -0.1016118654 0.000101529 -0.0001060987 0.0002126697 8.97582e-05 -0.5232223313 0.6645300672
450297300.0 0.0687263333 -0.1025628555 9.9402e-05 1.08183e-05 0.0001166212 -1.61101e-05 -0.516703642 0.6696310189
455297270.0 0.0673839256 -0.1033543232 6.30101e-05 -0.0001140991 1.0445e-05 -0.0001813806 -0.5097487267 0.6749319983
460297240.0 0.0656339079 -0.10414213 0.00030522 0.0001708375 0.0001642109 3.26531e-05 -0.5023294593 0.6807139903
465297210.0 0.0642347483 -0.1050444067 0.0002398489 6.29701e-05 6.62351e-05 -0.0001788704 -0.4958667828 0.6846353769
470297180.0 0.0626295603 -0.105763618 -0.0001084573 0.000215005 3.56208e-05 -0.0001918295 -0.4892541596 0.6897535682
475297150.0 0.0611228571 -0.1065504879 0.0001933449 9.76021e-05 0.000164703 0.0001235301 -0.4817682091 0.6947491499
480297120.0 0.0594000126 -0.1075034511 0.0002200489 4.05216e-05 2.83474e-05 4.2085e-05 -0.4748695096 0.6999103432
485297090.0 0.0575553647 -0.1082485265 0.0001805699 2.10759e-05 0.0001238753 -6.5662e-05 -0.4678010498 0.7036664438
490297060.0 0.0560216012 -0.1087876506 0.000279607 0.0001443553 7.27951e-05 4.79326e-05 -0.4610415344 0.7087119289
495297030.0 0.0544823347 -0.1096851752 0.0002007245 2.80944e-05 -0.0001376883 0.0001056221 -0.4531037999 0.7126290338
500297000.0 0.0529027557 -0.1104075918 0.000238278 5.90684e-05 -1.17947e-05 6.28185e-05 -0.4462978439 0.7178222864
505296970.0 0.0509425228 -0.1109696882 -8.09956e-05 6.5219e-06 3.79281e-05 0.0001244062 -0.4396248737 0.7223060434
510296940.0 0.0497715205 -0.111446269 2.68093e-05 5.00039e-05 9.6816e-06 9.19012e-05 -0.4315603519 0.726720346
515296910.0 0.0477659599 -0.111829065 0.0004427915 -2.14989e-05 -5.6233e-06 -1.9574e-05 -0.4242429927 0.7308100477
520296880.0 0.0462116211 -0.1125513099 0.0002534474 8.4086e-06 9.62623e-05 0.0002319427 -0.4168136377 0.7345588255
525296850.0 0.0446888211 -0.1128690437 3.52623e-05 -0.0001427947 4.7111e-06 -9.13944e-05 -0.4093165826 0.7395834617
530296820.0 0.0428773849 -0.1135142407 0.0001261047 -3.31261e-05 0.0002863225 7.62473e-05 -0.4027994378 0.7427531784
535296790.0 0.0413325766 -0.1140953522 0.0002645437 0.0001661697 0.0002927253 4.58869e-05 -0.3954866921 0.7463139277
540296760.0 0.0395790057 -0.1146863827 0.0001145042 0.0001927997 0.0001497208 9.45221e-05 -0.3876842321 0.7508964458
545296730.0 0.0380441203 -0.1147129355 4.87042e-05 -0.000119727 9.03661e-05 -7.17473e-05 -0.3805615181 0.7539363492
550296700.0 0.0360901077 -0.1152881888 0.0001405049 -4.1255e-05 0.000135752 0.0001583274 -0.3724303782 0.7579010455
555296670.0 0.0347010262 -0.1155707945 -0.0001444231 -0.0001480667 1.99671e-05 -1.78998e-05 -0.3656289743 0.761672287
560296640.0 0.0330655605 -0.1163881636 8.57541e-05 9.99404e-05 -0.0001248135 -0.0001213521 -0.3573319889 0.7650046366
565296610.0 0.0310290404 -0.116405973 9.9323e-05 5.48923e-05 0.0001565468 3.7381e-06 -0.3499464006 0.7686299171
570296580.0 0.0295525398 -0.1167964135 0.0001504381 -0.0001616361 1.6705e-05 -2.06774e-05 -0.3427012434 0.7728781233
575296550.0 0.0279569422 -0.116828398 -0.0001473019 9.5004e-06 6.89967e-05 -0.0001696808 -0.3342656988 0.7754826092
580296520.0 0.0263937377 -0.1172634711 -9.0316e-05 3.53141e-05 0.0001489777 1.92629e-05 -0.3270901776 0.7790868408
585296490.0 0.0243798588 -0.1175196757 0.0001671589 -0.0001116619 -4.19162e-05 0.0001136327 -0.3192664489 0.7817778029
590296460.0 0.0226156522 -0.1177771146 0.0004012184 0.000110109 0.000119398 0.0001053175 -0.3115057537 0.7849812613
595296430.0 0.0209504858 -0.1180804232 0.0002735286 0.0001108656 0.000175085 1.25261e-05 -0.3034328247 0.787231393
600296400.0 0.0192650627 -0.1178584023 0.000275949 0.0001108435 -0.0002242594 -0.0001069854 -0.295801977 0.7913376843
605296370.0 0.0180398548 -0.1182475347 0.0001084497 -0.0002169394 0.0002455116 0.0001101242 -0.2883369807 0.7943464778
610296340.0 0.0161731025 -0.1185415796 0.0001696789 -7.25734e-05 -4.19826e-05 -0.0002555266 -0.2800420118 0.7965339198
615296310.0 0.014267931 -0.1183772 0.0002352534 0.0001302085 9.59077e-05 -4.71358e-05 -0.2724778367 0.7994749466
620296280.0 0.0124711971 -0.1185284392 0.0002246464 8.8932e-06 0.0002351976 -0.0001504198 -0.2648132948 0.8015862459
625296250.0 0.0109732979 -0.1185341321 2.28554e-05 2.23212e-05 0.000209287 0.0001518918 -0.2562870029 0.8044893001
630296220.0 0.0092497941 -0.1187825291 -4.86231e-05 -3.98088e-05 0.0002685278 2.20748e-05 -0.2484031016 0.8076730904
635296190.0 0.0075972882 -0.1186595261 -1.93431e-05 0.0002284318 0.0002371673 1.5976e-06 -0.239892053 0.8093952568
640296160.0 0.0060912883 -0.1185041761 4.6832e-05 -4.5737e-05 1.48196e-05 4.368e-06 -0.2319617032 0.8118220619
645296130.0 0.0041482338 -0.1183673371 0.0001693982 -6.9745e-05 0.0002599402 -1.49604e-05 -0.2246536659 0.813879249
650296100.0 0.0025313573 -0.1181526559 7.74979e-05 -9.15825e-05 0.0002437826 -3.04247e-05 -0.2167213377 0.8164175028
655296070.0 0.0007725729 -0.1181937339 0.0002818058 7.46508e-05 -5.1161e-06 0.0001602705 -0.2080828972 0.8176881122
660296040.0 -0.0010810701 -0.1180580412 0.0002136544 -0.0002087614 -8.05163e-05 -6.08141e-05 -0.2003553689 0.8202980581
665296010.0 -0.0024797196 -0.1179416045 -6.70507e-05 4.28627e-05 0.0001225013 -0.0001352987 -0.1920936466 0.8221677611
670295980.0 -0.0040734997 -0.1177785085 8.28842e-05 4.98065e-05 3.68738e-05 8.023e-05 -0.18473028 0.8243037848
675295950.0 -0.0056269076 -0.117779854 9.18095e-05 -9.618e-06 -9.5328e-06 -0.000156088 -0.1762979717 0.8263491085
680295920.0 -0.0076651356 -0.11721071 0.0002053112 -0.0001518964 0.0002301166 8.20966e-05 -0.167520374 0.8275527676
685295890.0 -0.0093721735 -0.1169117885 0.0002140974 -2.5949e-05 0.0001710205 2.85922e-05 -0.1595457005 0.8289590265
690295860.0 -0.0105183545 -0.1168652493 8.62198e-05 -0.0001498549 0.0002370641 4.30132e-05 -0.1511173572 0.8307795783
695295830.0 -0.0123599135 -0.1166502583 -2.09162e-05 -3.35915e-05 0.0002408809 0.0001236131 -0.1429517943 0.8323766993
700295800.0 -0.0139894642 -0.1164086633 0.0001631832 0.0001108965 8.57044e-05 0.0001290678 -0.1346112628 0.8333638618
705295770.0 -0.0158557699 -0.1159641925 6.36769e-05 2.35799e-05 0.0001717898 -4.82593e-05 -0.1273383538 0.835239913
710295740.0 -0.0172422711 -0.1154013045 6.2979e-05 0.0001999222 0.0002364946 -0.0001157552 -0.1191983192 0.836598915
715295710.0 -0.0193485207 -0.1152303829 9.05364e-05 5.55954e-05 0.0002072108 8.0249e-06 -0.1105384918 0.8374809146
720295680.0 -0.0207835068 -0.1150750149 0.0002818001 9.2183e-06 5.81522e-05 2.08255e-05 -0.1023962611 0.8380794333
725295650.0 -0.0222468733 -0.1144399516 6.47224e-05 -8.91064e-05 0.0001627297 0.0002622737 -0.0936943184 0.8393727158
730295620.0 -0.0243056501 -0.1142183268 1.95283e-05 5.14302e-05 0.0001058552 0.0001052459 -0.0854133813 0.8397769493
735295590.0 -0.0252471255 -0.1136748668 0.0001569624 -0.0001720014 9.29042e-05 6.82983e-05 -0.0764807667 0.8408346358
740295560.0 -0.0272736601 -0.1128996602 0.0001583453 -1.9738e-06 0.0001929248 -2.33201e-05 -0.0690333095 0.8413008815
745295530.0 -0.0290009901 -0.1127859656 8.82671e-05 7.3973e-06 0.0003721226 -9.16247e-05 -0.0606142273 0.8423736743
750295500.0 -0.0303312718 -0.1119349883 -0.0001213991 -2.84335e-05 5.0861e-06 -1.24556e-05 -0.0512552957 0.8423211953
755295470.0 -0.0317672808 -0.1113159594 -4.74019e-05 -0.0001074496 2.06213e-05 -0.0001783677 -0.0442111706 0.8436652652
760295440.0 -0.0334027725 -0.1107348902 0.0002481556 -4.06673e-05 0.0001038819 -5.5762e-05 -0.0359773319 0.8436774428
765295410.0 -0.0351055332 -0.1104752544 0.0004408445 2.09907e-05 9.86547e-05 1.33095e-05 -0.0271317253 0.8440610099
770295380.0 -0.0365891083 -0.1097177575 0.0002915456 -0.0001753577 0.0001179613 -0.0002000337 -0.0188775956 0.8440311238
775295350.0 -0.0383257888 -0.108883103 0.0002319328 -1.3733e-05 0.0001630361 6.28989e-05 -0.011076235 0.843729254
780295320.0 -0.0397652134 -0.1084747652 6.72129e-05 -6.7692e-06 -6.2539e-06 -0.0001225198 -0.0025256088 0.8445120621
785295290.0 -0.0411378696 -0.1077703856 0.0002536964 -2.38216e-05 7.76775e-05 5.67054e-05 0.0050422268 0.8445607091
790295260.0 -0.0430229432 -0.1070069161 0.0001485873 -0.000120939 8.83882e-05 -2.45857e-05 0.0151121843 0.8439955773
795295230.0 -0.0442002894 -0.1062115122 7.30523e-05 -0.0001797734 8.50197e-05 -6.74658e-05 0.0224758375 0.8442132638
800295200.0 -0.0457532165 -0.105422924 0.0002246455 -0.0002361182 0.0001524693 -1.67545e-05 0.0307133007 0.8436426473
805295170.0 -0.047228294 -0.1049692071 0.0001430993 -0.0001487925 8.54858e-05 -0.0002586203 0.0389775081 0.843193913
810295140.0 -0.0486804604 -0.1039886468 0.0002678034 -4.34716e-05 0.0003727831 -0.0001339392 0.0472555501 0.8436822005
815295110.0 -0.0500192294 -0.1032148258 -4.93164e-05 -0.000113398 0.0001074327 -0.000163311 0.0557812799 0.8431342725
820295080.0 -0.0517918461 -0.1024041247 9.42243e-05 0.0001377054 0.0003475073 -0.0001855348 0.0638135023 0.8418019595
825295050.0 -0.0528069171 -0.1015189539 0.0003022907 5.18463e-05 0.0002762137 -0.0001134226 0.0722994121 0.8415634175
830295020.0 -0.0545702844 -0.1007190549 2.54964e-05 0.0002384762 0.0002553058 -0.0002853126 0.0803340448 0.8402652593
835294990.0 -0.056021058 -0.099656094 0.0001539314 -1.83644e-05 0.0001067585 1.66954e-05 0.089014676 0.8395045582
840294960.0 -0.0573775334 -0.0988876422 4.55173e-05 -0.0003221502 8.44647e-05 -6.7398e-06 0.0966550927 0.8389029462
845294930.0 -0.0588384983 -0.0979095396 0.0002623444 -7.28957e-05 0.0001655346 -0.0002571136 0.1050113205 0.8378722664
850294900.0 -0.060261288 -0.0970012667 3.49762e-05 4.0337e-06 0.000218267 0.0001483749 0.1135169055 0.8372466409
