!Created with skrf (http://scikit-rf.org).
# Hz S RI R 50.0 
!freq ReS11 ImS11 ReS21 ImS21 ReS12 ImS12 ReS22 ImS22
300000.0 -0.7752911478 -0.1068934557 -0.0001693626 0.0002909852 -4.14112e-05 0.0018371504 -0.0459414017 -0.0624471193
5299970.0 -0.7852564519 -0.0063933942 0.0001136573 1.47084e-05 0.0001272993 9.1609e-05 -0.045797062 0.0154958934
10299940.0 -0.7875563544 -0.0042232939 -0.0001789879 7.38074e-05 -2.9978e-05 1.301e-07 -0.0400941727 0.0338691494
15299910.0 -0.7931985164 -0.0021741145 8.71614e-05 -4.91626e-05 -6.1289e-06 3.78362e-05 -0.0316633936 0.0482227532
20299880.0 -0.8004726578 0.0018205781 -6.23025e-05 0.0002617029 -9.17207e-05 2.4446e-05 -0.0213053336 0.0602230566
25299850.0 -0.8063632729 0.0075542496 0.0001791927 0.0001958556 -5.86142e-05 9.41687e-05 -0.0102330385 0.0695685488
30299820.0 -0.8122837059 0.015217202 5.84235e-05 -3.36352e-05 -0.0002009685 0.0001745866 0.0018648541 0.076297521
35299790.0 -0.8171057886 0.0245195755 1.31498e-05 0.0001202677 6.99768e-05 0.0001527388 0.0130578662 0.0812670699
40299760.0 -0.8214271878 0.0335579647 7.25483e-05 -0.0001051555 0.0001899139 5.9648e-05 0.0244068314 0.0836621983
45299730.0 -0.8243867443 0.0428015598 -7.71248e-05 6.17473e-05 0.0001436295 -7.99377e-05 0.0353073976 0.0857825918
50299700.0 -0.8273009156 0.0532798355 -6.20432e-05 8.221e-07 -3.70447e-05 7.11338e-05 0.0451161266 0.0855964935
55299670.0 -0.8296534778 0.0630164986 7.98343e-05 3.3064e-06 -0.0001125286 6.28618e-05 0.0545974931 0.0844216738
60299640.0 -0.8303812803 0.073065869 -2.61158e-05 9.41778e-05 0.0001451041 -0.000128645 0.0631675734 0.0825928965
65299610.0 -0.8315870582 0.08310586 -4.28141e-05 -7.86865e-05 6.44823e-05 3.57504e-05 0.0710344119 0.0799147015
70299580.0 -0.8318131224 0.0932786461 0.000150147 0.0001241027 -9.947e-07 0.0001395528 0.0776452754 0.0773454447
75299550.0 -0.8314225745 0.1035542079 -0.0001758899 0.0003128279 3.53077e-05 3.2667e-06 0.0840854177 0.0735988506
80299520.0 -0.8320459598 0.1129115474 0.0002863732 1.31048e-05 -2.32085e-05 -3.71968e-05 0.0894588972 0.0705370349
85299490.0 -0.8313749492 0.1223054246 -3.36103e-05 -0.0001622662 -1.39049e-05 3.58141e-05 0.0946422491 0.0666094055
90299460.0 -0.8297717094 0.1322220524 0.000125155 -3.40891e-05 -2.82527e-05 0.0002749314 0.0993349303 0.0629004245
95299430.0 -0.8291990634 0.1415558855 -8.04794e-05 -1.63436e-05 5.15144e-05 0.0001742372 0.1032104996 0.0590695002
100299400.0 -0.8281909347 0.1508242718 0.0001866696 -2.15935e-05 -8.28855e-05 0.0001724233 0.1074251978 0.0548516598
105299370.0 -0.8267055614 0.1600871346 -4.14575e-05 9.64683e-05 5.83752e-05 -7.97559e-05 0.1106383626 0.0511648389
110299340.0 -0.8251950783 0.1691915422 0.0001150793 -1.3183e-06 0.0001041246 0.0003504916 0.1131948518 0.0472603951
115299310.0 -0.8241239148 0.1785059117 0.0002925797 0.0001507194 8.69108e-05 4.26381e-05 0.1160909508 0.0435610911
120299280.0 -0.8219070328 0.1868257206 7.37523e-05 9.2886e-06 -0.0001071759 -0.0001289324 0.118235742 0.0398538962
125299250.0 -0.8204572772 0.1957147705 2.89857e-05 -0.0001963042 8.66811e-05 0.000116821 0.1203050937 0.0356268986
130299220.0 -0.8193260694 0.205171595 -2.88271e-05 -0.0001414896 -7.93901e-05 4.88968e-05 0.122008642 0.0318452413
135299190.0 -0.8165384975 0.2140730209 0.0001589512 0.0001026203 5.15567e-05 0.0002418705 0.1236579189 0.0286712637
140299160.0 -0.8146371589 0.2229916427 0.0001410534 0.0002065087 4.02026e-05 7.2051e-06 0.1248129106 0.025169976
145299130.0 -0.8124485942 0.2322103399 -0.0001294164 -8.14774e-05 -7.07211e-05 0.0001578843 0.1262237507 0.0218521698
150299100.0 -0.8101064046 0.2408601139 4.68115e-05 0.0001243333 -5.56524e-05 -1.48636e-05 0.126776524 0.0190205527
155299070.0 -0.8073559124 0.2493657816 0.0001262898 7.62934e-05 4.87347e-05 0.0001848901 0.1279735139 0.0153698193
160299040.0 -0.8052328047 0.2579717365 1.52781e-05 0.0001314947 8.60493e-05 9.20875e-05 0.1282965001 0.012394856
165299010.0 -0.8029297907 0.2662330552 2.12229e-05 8.39446e-05 -7.42172e-05 0.0001776508 0.1293010436 0.0091471967
170298980.0 -0.7995961081 0.2747584441 6.31238e-05 0.0002528741 -6.793e-06 0.0002995842 0.1295736404 0.0063845202
175298950.0 -0.7971015596 0.2840970891 0.0001520834 -2.72367e-05 -1.35574e-05 0.0001140831 0.1298364142 0.003157638
180298920.0 -0.7946674313 0.2924427214 -5.0154e-06 -0.0001214069 -3.14728e-05 8.54683e-05 0.1302646192 0.0007017777
185298890.0 -0.7914854187 0.3005516762 7.89501e-05 -5.42682e-05 8.71457e-05 9.0062e-06 0.1300713038 -0.0023705497
190298860.0 -0.7884086064 0.3093551564 0.0002625932 0.0001630422 4.98711e-05 7.25121e-05 0.1302722067 -0.0046688779
195298830.0 -0.7850827221 0.3175366723 2.94895e-05 0.0001198145 0.0001658122 9.0069e-05 0.1301247179 -0.0075918
200298800.0 -0.7815871939 0.3257653142 6.09508e-05 0.0002849456 8.25872e-05 0.0003260849 0.1299200394 -0.0101093641
205298770.0 -0.778839172 0.3336222819 -2.93426e-05 -1.3628e-05 9.5398e-06 2.91447e-05 0.1296235528 -0.0130743142
210298740.0 -0.7745169338 0.3421863672 -0.0001450181 0.0001289917 8.41493e-05 0.0002578316 0.1295739944 -0.0153624269
215298710.0 -0.7719054952 0.3502998397 8.03211e-05 -5.63764e-05 0.0001223229 0.0002047067 0.12896647 -0.0179733837
220298680.0 -0.7675231102 0.3586972828 -2.30165e-05 0.000278045 -5.83936e-05 -0.0001056224 0.1284815806 -0.0203846266
225298650.0 -0.7641592929 0.3668797746 0.0001414705 0.0002647253 0.0001899049 0.0001871921 0.1279204113 -0.0226658735
230298620.0 -0.7605041711 0.3745765702 0.0001706181 -7.21548e-05 1.58436e-05 5.22778e-05 0.1279067163 -0.025241342
235298590.0 -0.7563237546 0.3832827119 0.0001584902 5.44463e-05 8.4323e-05 8.83456e-05 0.1273333053 -0.0269412948
240298560.0 -0.7523445034 0.3906873721 2.99656e-05 -1.36733e-05 0.0001587982 6.22166e-05 0.1268831296 -0.0295265398
245298530.0 -0.7485719232 0.3985487141 -3.64958e-05 0.0001015841 0.0003134339 4.8582e-05 0.1261145017 -0.0320345785
250298500.0 -0.7440817169 0.406273626 5.59428e-05 0.0002240088 5.4865e-06 0.0001389326 0.1252252906 -0.0342001743
255298470.0 -0.7395192316 0.4140029283 3.87746e-05 0.0002710559 0.0003245364 0.0002336197 0.1245855475 -0.0365804547
260298440.0 -0.7354346154 0.4212024514 0.0003519864 0.0001510356 0.000278257 0.0001579585 0.124180289 -0.0382632652
265298410.0 -0.7311917376 0.4296128776 0.0002099716 8.16013e-05 0.0001818923 -9.07467e-05 0.1235690042 -0.040155378
270298380.0 -0.7272505485 0.4373971824 1.76185e-05 0.0001135194 -8.70737e-05 -3.50445e-05 0.1228606172 -0.0422349969
275298350.0 -0.7221321407 0.4444460821 0.0001025242 0.0001167891 0.0001142715 0.0002944337 0.1220238952 -0.0440171374
280298320.0 -0.7170643771 0.4522903889 0.0002572924 9.61487e-05 5.50891e-05 0.0001544792 0.1216121105 -0.0460654924
285298290.0 -0.7133035654 0.4601508103 -0.0001072894 0.000218597 0.0002749848 0.0001586515 0.1206790554 -0.047758846
290298260.0 -0.7082976706 0.4671564661 0.0001291528 7.8047e-05 7.78148e-05 0.0001575531 0.1201902094 -0.0497244276
295298230.0 -0.7027946808 0.4740367962 0.000192158 1.5611e-06 8.70165e-05 1.95305e-05 0.1197646293 -0.0517997355
300298200.0 -0.698304869 0.4815081704 3.96496e-05 8.8815e-05 0.0002252801 0.0002026716 0.1187897517 -0.0534473666
305298170.0 -0.692763557 0.4881079712 -3.6882e-05 0.0001921871 0.0002969328 0.0002597607 0.1181367422 -0.0559073555
310298140.0 -0.6872860545 0.4957579157 0.0001238345 0.0004196244 0.0002088273 -5.01576e-05 0.1169713675 -0.0576553095
315298110.0 -0.6827223193 0.5030551239 4.11762e-05 0.000209436 0.0001561584 0.0001835263 0.1160283292 -0.0593419655
320298080.0 -0.6776627023 0.5098901357 0.0001122216 0.0001820175 6.34799e-05 0.0001428196 0.115139909 -0.0607319014
325298050.0 -0.6720631402 0.5173846426 -1.81849e-05 0.0001174897 -7.72263e-05 0.000107215 0.1137299711 -0.0629593287
330298020.0 -0.6667320049 0.5237599648 0.0003050146 9.26414e-05 0.0002449143 2.91394e-05 0.1123421388 -0.0641329003
335297990.0 -0.6608609547 0.5306509578 9.80592e-05 0.000339995 3.03368e-05 0.0003524839 0.1110616328 -0.0651528287
340297960.0 -0.6561879592 0.537757602 4.58618e-05 -9.90565e-05 0.0003957738 0.0001644904 0.1104339975 -0.0667544112
345297930.0 -0.6503060408 0.5442912251 0.0001671428 0.00024025 0.0001660145 0.000285058 0.1087319534 -0.0684000069
350297900.0 -0.6445484281 0.5504630986 3.93414e-05 9.71776e-05 3.65511e-05 0.0001964028 0.1076228874 -0.0689646692
355297870.0 -0.6382018196 0.5578542938 0.0003348696 0.0002827674 0.000219427 0.0002267237 0.1062439546 -0.0707634575
360297840.0 -0.6328801917 0.5637931748 5.4856e-06 4.5149e-05 0.0004007038 0.0002269292 0.1054314285 -0.0721956958
365297810.0 -0.6274182393 0.5704303586 0.0002357152 -0.0001164952 0.0001666053 5.3029e-05 0.103940842 -0.0736172861
370297780.0 -0.6212775977 0.5767930352 -8.23426e-05 -3.68857e-05 0.0001236706 0.0002972465 0.103227159 -0.0744653731
375297750.0 -0.6147026628 0.5831965215 0.0002836837 4.65645e-05 1.97527e-05 0.0001861271 0.101728809 -0.0762650984
380297720.0 -0.6086094251 0.5892060961 0.0002747627 0.0001260222 -2.24873e-05 2.63703e-05 0.1001254179 -0.0771056271
385297690.0 -0.6031705859 0.5954519475 0.0001806339 1.23132e-05 2.37705e-05 9.3103e-05 0.0993136146 -0.0786354902
390297660.0 -0.5971670702 0.6009512655 5.83763e-05 -0.0001926637 0.0002196428 7.41621e-05 0.0981625689 -0.0790293987
395297630.0 -0.5905198878 0.6079615333 0.000224866 5.40825e-05 0.0002704934 0.0001014187 0.0969511392 -0.0804999658
400297600.0 -0.5838193149 0.6139500902 -5.0901e-05 3.6435e-05 6.7237e-05 0.0001140729 0.0958893373 -0.0820385759
405297570.0 -0.5783495504 0.6190406039 0.0002169437 8.46319e-05 7.26195e-05 -5.9961e-06 0.094056304 -0.0832772042
410297540.0 -0.5714509126 0.6250562141 0.0002531892 0.0001208913 0.0001820658 0.0002106178 0.0929688358 -0.0839726215
415297510.0 -0.5646825362 0.6309483516 0.000267323 0.0002246012 4.6575e-05 0.000246126 0.0916933691 -0.0851519767
420297480.0 -0.559386573 0.6368924456 5.8487e-05 0.000407671 0.0004118856 5.13781e-05 0.0905529667 -0.0860970275
425297450.0 -0.5517279316 0.6419185163 3.78071e-05 0.0001213988 0.000321816 2.56321e-05 0.0892354575 -0.0875453925
430297420.0 -0.5457429823 0.6484098526 9.37392e-05 5.06818e-05 5.27509e-05 -0.0001439715 0.087848682 -0.0886831583
435297390.0 -0.5388496279 0.6531762533 0.0004693934 0.0001651542 0.0002681525 -4.02576e-05 0.0865451276 -0.0897037891
440297360.0 -0.5319259251 0.6589084464 0.0001939227 0.0001372596 9.8195e-06 0.0001750111 0.0852368616 -0.0906281122
445297330.0 -0.5248821571 0.6641979702 0.0003125951 0.0001402917 0.0003623073 0.0001258794 0.084254912 -0.0921465388
450297300.0 -0.5184296579 0.6694066749 9.40268e-05 3.79249e-05 4.52207e-05 -0.0002610209 0.0830114174 -0.0927241239
455297270.0 -0.5114132615 0.6744002333 0.0003187267 5.49068e-05 0.0002867865 1.13819e-05 0.0812933234 -0.0937456565
460297240.0 -0.5051262909 0.6792732309 9.64591e-05 8.46116e-05 0.0002927462 0.0002254802 0.0805079453 -0.0944334871
465297210.0 -0.4979560771 0.6848417987 0.0001489801 6.60104e-05 0.0004291765 0.0002683205 0.0789753055 -0.0955882763
470297180.0 -0.4903786033 0.6897621977 2.30694e-05 0.000347296 0.0002849581 0.0001547698 0.0775380194 -0.096022156
475297150.0 -0.4836271425 0.6942159801 0.000143487 3.69464e-05 0.0002430678 -2.27948e-05 0.0762465256 -0.0974940534
480297120.0 -0.4768990449 0.6991623852 0.0002002313 9.143e-05 0.0003625336 6.78133e-05 0.0751496155 -0.0978696547
485297090.0 -0.469386108 0.7039735183 0.0002083692 4.62649e-05 0.0003666118 4.93171e-05 0.0741326971 -0.0985853708
490297060.0 -0.4625695026 0.7088035135 9.6679e-05 0.0001812062 0.0002968407 0.000197498 0.0725358587 -0.0995273424
495297030.0 -0.4549727664 0.7127946273 0.000222234 -0.0001135124 0.0001359986 0.0001169237 0.0710919272 -0.0999586936
500297000.0 -0.4477879185 0.7182122469 0.0003314416 -0.0001019077 0.0001723563 7.36264e-05 0.0699728027 -0.1003752002
505296970.0 -0.4399875407 0.7221174165 0.0001206798 0.0001845555 0.00040012 3.46855e-05 0.0683950756 -0.1012497799
510296940.0 -0.4330210626 0.7265571695 0.0002908807 0.0001422209 0.0002886985 0.0002870834 0.0669516037 -0.1017531214
515296910.0 -0.4248019507 0.7307032706 0.0003545419 -8.93244e-05 0.0003354482 9.15116e-05 0.0658546798 -0.1025472468
520296880.0 -0.4186411616 0.7354008072 0.0003733348 0.0002021596 0.0002370293 0.0001447059 0.0643084499 -0.1031502119
525296850.0 -0.4106768361 0.7386687543 0.0004517856 0.000103192 0.000249381 -5.03664e-05 0.0629168439 -0.103382652
530296820.0 -0.4031766122 0.7431858386 6.37766e-05 0.0001302644 0.0003589329 0.0002194051 0.0617534106 -0.1041939347
535296790.0 -0.3960690139 0.7465892444 0.0002396631 0.0003289697 8.27734e-05 -8.3529e-05 0.0596200152 -0.1050872097
540296760.0 -0.3882479889 0.7505423037 0.0001750801 0.0002004198 0.0002981801 -6.75108e-05 0.0583800105 -0.1055669943
545296730.0 -0.3814155285 0.754903497 0.0004594981 0.0004093199 3.73634e-05 8.83159e-05 0.0571033138 -0.1062681462
550296700.0 -0.3735798747 0.7584261893 8.46527e-05 -8.73037e-05 0.0002956602 0.0001180953 0.0554497325 -0.1066665098
555296670.0 -0.3647976723 0.7616760599 0.0004956644 -4.33409e-05 0.0001661495 -1.8357e-06 0.0542267448 -0.1068499775
560296640.0 -0.3576148825 0.7658614949 0.0001297282 -7.10509e-05 0.0004827053 0.0002185372 0.05252056 -0.106977311
565296610.0 -0.3494244756 0.7692711423 0.0005118262 -1.05989e-05 0.0003891798 2.54468e-05 0.0511766158 -0.1076733519
570296580.0 -0.3427062376 0.7719926045 0.0002161191 -4.66307e-05 0.0002094325 3.15852e-05 0.0495540217 -0.1083182097
575296550.0 -0.3350077777 0.7767229575 0.0002816 -7.27978e-05 0.0002971526 5.58157e-05 0.0483439785 -0.1088757632
580296520.0 -0.3263187738 0.779641698 0.0004011227 0.0001546536 0.0002989651 9.226e-05 0.0469122539 -0.1095804545
585296490.0 -0.3190784921 0.782583856 -4.32453e-05 0.0001716721 0.0003097197 0.0002137057 0.0455545099 -0.1095432698
590296460.0 -0.3110208651 0.7860532071 0.0002498085 0.0002384431 0.0002075572 -1.12845e-05 0.0433634306 -0.1100862084
595296430.0 -0.3029148062 0.7881344343 0.0003569419 0.000150934 0.0004022526 0.0001156166 0.0421655396 -0.1106611384
600296400.0 -0.2951330832 0.7919314907 0.0002321348 -2.0333e-06 0.0002439394 -0.0001003994 0.0407308624 -0.1111226308
605296370.0 -0.2877597609 0.7948788717 0.0004611791 0.0001176536 0.000108483 0.000107942 0.0394578904 -0.1114634153
610296340.0 -0.2796084851 0.797360912 0.0002845908 -3.59431e-05 0.0002653608 9.24796e-05 0.0379511858 -0.111392727
615296310.0 -0.2704012637 0.8002004582 0.0003433211 -3.13219e-05 0.0003084771 0.0002699654 0.0367141726 -0.1123428795
620296280.0 -0.2629617007 0.8020030556 0.0004049079 0.0001441948 0.0002311763 0.0003391154 0.0350973071 -0.1120794693
625296250.0 -0.2548208896 0.8052112155 0.0004900706 0.0002059569 0.0003219189 0.0001622155 0.0342938146 -0.1121790612
630296220.0 -0.2466007368 0.8075220037 0.0001297732 -0.0001291006 0.0003257856 0.000148389 0.0321491714 -0.1125509049
635296190.0 -0.2392768277 0.8103242515 0.0001918678 5.47466e-05 0.0003248711 -1.99211e-05 0.0309853028 -0.112876534
640296160.0 -0.2311657097 0.8124535168 0.0003023335 -1.744e-06 0.0004439939 3.03309e-05 0.0297177898 -0.1129863277
645296130.0 -0.2229979057 0.8155582012 0.0003303401 -0.0002205242 0.0003875494 -2.43958e-05 0.0283892543 -0.1129822657
650296100.0 -0.2144248984 0.8169871355 0.0003196361 0.0001183684 0.0002090552 0.0001537956 0.0267437347 -0.1134998907
655296070.0 -0.2063164919 0.8192032774 6.40494e-05 -0.0001882962 0.000324141 7.06325e-05 0.0257127565 -0.1134559243
660296040.0 -0.1984091162 0.8209104706 0.0003718433 -0.0001939398 0.0004202782 0.0001509688 0.0243771097 -0.1132411011
665296010.0 -0.1897157942 0.8225669272 0.0005180686 -0.000100766 0.0002087542 0.000266792 0.0225266465 -0.1133710918
670295980.0 -0.1821305572 0.8243297903 0.0001696315 7.3024e-05 0.000350985 8.57774e-05 0.021039919 -0.1131463834
675295950.0 -0.1738062568 0.8257788827 0.0003819964 -8.91607e-05 0.0005632569 -8.77204e-05 0.0192253359 -0.1131408253
680295920.0 -0.1649226129 0.8281208523 0.0001686715 0.0001929704 0.0002291879 -0.000355081 0.0182952873 -0.1130726202
685295890.0 -0.1570182064 0.8300520401 0.0004031134 -6.59352e-05 0.0005125761 -2.64654e-05 0.0167219334 -0.1132739069
690295860.0 -0.1489588159 0.8308937617 0.0003391671 -1.75965e-05 0.0003995418 -0.0001185325 0.0152682609 -0.1129054824
695295830.0 -0.141095913 0.8318423506 0.0003225313 -6.96143e-05 0.0004421992 4.82382e-05 0.0138009957 -0.1125686167
700295800.0 -0.1321170409 0.8336855477 0.0004907693 8.58904e-05 0.0003093674 -9.42781e-05 0.0123212465 -0.1127136517
705295770.0 -0.1248034672 0.835628381 0.0005321078 6.07344e-05 0.0004165228 -3.81228e-05 0.0108761067 -0.1120108351
710295740.0 -0.1160464882 0.8364770245 -2.1464e-05 0.0001384757 0.0001876304 7.39969e-05 0.0092051211 -0.1125777319
715295710.0 -0.1076475363 0.8371003596 0.0004580426 0.0001345384 0.000373656 2.91652e-05 0.0079892208 -0.1122789765
720295680.0 -0.0987510699 0.8383730257 0.0005776841 -9.2761e-05 6.61264e-05 -1.59896e-05 0.0065893126 -0.11223952
725295650.0 -0.0910893324 0.8397363486 0.0005182609 -1.08162e-05 0.0005062945 8.53265e-05 0.0048234083 -0.1115930791
730295620.0 -0.0819234075 0.8403531502 0.0001769428 -0.000183115 0.000437501 2.93857e-05 0.0031715369 -0.1116793952
735295590.0 -0.0743040903 0.8408352472 0.0004359718 -4.67155e-05 0.0005037653 -2.46639e-05 0.0019140726 -0.1120397888
740295560.0 -0.0662937941 0.8415565901 0.0003825583 -0.0002703128 0.0003969679 0.0002524898 0.0005217607 -0.1114346904
745295530.0 -0.0579060614 0.8428131892 0.0002455271 -0.00019824 0.0004541639 -9.05447e-05 -0.0008582616 -0.1114248723
750295500.0 -0.0490314133 0.8430974753 0.0003782235 -8.8555e-05 0.0004336814 6.79361e-05 -0.0022938484 -0.1112462379
755295470.0 -0.0406230205 0.8428670368 8.87884e-05 4.39912e-05 0.000417669 -0.0001423537 -0.0034314605 -0.1109658269
760295440.0 -0.0328029995 0.8435840085 0.0002719735 -5.8362e-05 0.0004206359 -0.0001352367 -0.0053377376 -0.1111301693
765295410.0 -0.0245831454 0.8440934569 0.0005934833 -0.0001203606 0.0005200232 -7.4227e-06 -0.0065316962 -0.1104037856
770295380.0 -0.0163381905 0.8439470988 0.0006037416 -0.0001227727 0.0005023414 -8.03132e-05 -0.0083316566 -0.1102438072
775295350.0 -0.0082171331 0.8439438026 0.0003001486 -0.0001082972 0.0002558321 3.97183e-05 -0.0095912706 -0.1099267089
780295320.0 0.0004174773 0.8442432427 0.000247478 -0.0002213044 0.0005937356 -6.19221e-05 -0.0106964201 -0.10975465
785295290.0 0.0088473755 0.8437148299 0.0005191052 -5.2005e-06 0.0005217933 0.0001012016 -0.0118482418 -0.109455352
790295260.0 0.017474561 0.8439593998 0.0004359447 -0.0001857072 0.0003745803 2.3615e-05 -0.0130885732 -0.1093247487
795295230.0 0.0253030205 0.8434375204 0.0002408399 4.78182e-05 0.0003839505 -0.000235797 -0.0145764589 -0.1086449569
800295200.0 0.0338323207 0.8433335794 0.0003141487 4.3571e-06 0.0005093196 -0.0001525077 -0.0157694103 -0.1080614358
805295170.0 0.042274187 0.8428269281 0.0004426664 -0.0002085783 0.0004979955 -0.0003018858 -0.0173800751 -0.1076481862
810295140.0 0.0510101667 0.8425697049 0.0003929795 -8.602e-07 0.0005557679 5.41672e-05 -0.0182777533 -0.1073244692
815295110.0 0.0591499764 0.8420174004 0.0003175792 0.0001304855 0.000418984 -0.0002151678 -0.0196928896 -0.1068509517
820295080.0 0.0673373618 0.8416002321 0.0003572603 -5.23907e-05 0.0002342718 -0.0001542129 -0.0208353704 -0.10630386
825295050.0 0.0764924987 0.8402716258 0.0004782085 -3.53348e-05 0.0003840552 -0.0001683713 -0.0219695305 -0.1060396217
830295020.0 0.083683533 0.8399906765 0.0003133919 -0.0003837981 0.0002949041 -0.0003978308 -0.0233202687 -0.1050993206
835294990.0 0.0917756616 0.8391002329 0.0002823223 -0.0001013697 0.0002309583 -0.0001280561 -0.0246664805 -0.1045235271
840294960.0 0.100055565 0.8386633398 0.0004339716 2.39894e-05 0.0004449843 -0.0001767972 -0.0262264919 -0.1040209797
845294930.0 0.1080286741 0.8367825068 0.0001432893 2.13915e-05 0.0004413866 -0.000240028 -0.0277095716 -0.1032984859
850294900.0 0.1167198138 0.8363789258 0.0003466852 7.27695e-05 0.0003360657 -0.0002115564 -0.0287595505 -0.1026038431
