!Created with skrf (http://scikit-rf.org).
# Hz S RI R 50.0 
!freq ReS11 ImS11 ReS21 ImS21 ReS12 ImS12 ReS22 ImS22
300000.0 -0.2387375847 -0.0708625389 0.4717625938 0.0474819496 0.4662958581 0.0470107967 -0.2428152965 -0.0836290454
5299970.0 -0.244452555 0.0074138392 0.4737732081 0.0049220526 0.4737780138 0.0049592261 -0.2447544719 0.0076369856
10299940.0 -0.2410594898 0.0190157043 0.4755609299 0.005980489 0.4756726102 0.0063168795 -0.2414060007 0.0203556971
15299910.0 -0.236880762 0.0280021859 0.4793740115 0.0075805963 0.4795898976 0.0075551889 -0.2367050675 0.029892795
20299880.0 -0.2321816555 0.0355326132 0.4841146934 0.0084397538 0.4840457586 0.0083118654 -0.2313544634 0.0374740797
25299850.0 -0.2267550894 0.0419826865 0.4892208907 0.0072679179 0.4889839629 0.0075678378 -0.2251081905 0.0437672736
30299820.0 -0.2214759855 0.0468192342 0.4943096565 0.0055492492 0.4945632708 0.005517619 -0.2195214339 0.0490236159
35299790.0 -0.216413913 0.0515289265 0.5003190932 0.0018942271 0.5001126944 0.0020397794 -0.2140459402 0.0531252044
40299760.0 -0.2117163046 0.0551829736 0.5048587359 -0.0014810499 0.5052788442 -0.0017378539 -0.2085558531 0.0558710953
45299730.0 -0.2066697597 0.057726431 0.509547325 -0.0063426532 0.5099750538 -0.0060509244 -0.2034909731 0.0588160559
50299700.0 -0.202373015 0.0599519397 0.5142444623 -0.0119523538 0.5142992581 -0.0118641024 -0.1986241732 0.0602540519
55299670.0 -0.1981746348 0.0618990126 0.5179551592 -0.0186798106 0.5180566056 -0.0176587823 -0.1945379893 0.0620751074
60299640.0 -0.1941791325 0.0633375918 0.5210571378 -0.0243756526 0.5215700598 -0.0237571665 -0.190476371 0.0628744529
65299610.0 -0.1910326637 0.0646167843 0.5241690129 -0.03035965 0.5246557341 -0.0303623601 -0.187179481 0.0638968271
70299580.0 -0.1881548314 0.0660058335 0.5269172178 -0.0370930126 0.5265574122 -0.0371175304 -0.1835519069 0.0646259362
75299550.0 -0.1851536049 0.0668172378 0.5284937598 -0.0438443848 0.5285982327 -0.0441762244 -0.1809245228 0.0651200244
80299520.0 -0.1826881815 0.0680472453 0.5307148253 -0.0508721642 0.5307225189 -0.0506680803 -0.1782449484 0.065774017
85299490.0 -0.1802127929 0.0687177862 0.5319324223 -0.0573878132 0.5318911907 -0.0572709537 -0.1758293395 0.0658693114
90299460.0 -0.1778091496 0.0696450711 0.5323297069 -0.0647457109 0.5330762064 -0.0646170122 -0.17346312 0.0669333076
95299430.0 -0.1755833877 0.07041432 0.5339479292 -0.0713676585 0.5334531412 -0.0716889342 -0.1709464642 0.0674292587
100299400.0 -0.1736267722 0.071633968 0.5337420387 -0.0780827302 0.5341043395 -0.078416796 -0.1692520917 0.067788673
105299370.0 -0.1720419029 0.0723210856 0.5343489809 -0.0856883264 0.5344466012 -0.0855035476 -0.1672562961 0.0682692473
110299340.0 -0.1704085383 0.0730694475 0.5349581233 -0.0921308317 0.5344846384 -0.0918903478 -0.1663428533 0.0687363114
115299310.0 -0.1686197455 0.0739509237 0.5350474916 -0.0988106679 0.5348126101 -0.0989337701 -0.1647989367 0.0693354241
120299280.0 -0.1673563553 0.0745225692 0.5339562375 -0.1055130853 0.5341601092 -0.1057915268 -0.1635239215 0.0698231517
125299250.0 -0.1659796688 0.0753909988 0.5338375987 -0.112512191 0.5340238325 -0.1120918998 -0.162272381 0.0698706373
130299220.0 -0.1649432886 0.076715504 0.5333817698 -0.1192894462 0.5333831953 -0.1192419021 -0.1612637327 0.0706892859
135299190.0 -0.1638518911 0.0777969427 0.5327805291 -0.1257612981 0.5324868517 -0.1256432288 -0.159733696 0.0714149821
140299160.0 -0.1624883058 0.0791696242 0.5319600529 -0.1331788361 0.5319527303 -0.1326714317 -0.1588275984 0.0726659216
145299130.0 -0.1615007004 0.0798241059 0.5309855636 -0.1390354562 0.5309005956 -0.1389970575 -0.158263588 0.0731256499
150299100.0 -0.1603280502 0.0811714676 0.529804305 -0.1455490447 0.5300060698 -0.1451904185 -0.157311357 0.0743056278
155299070.0 -0.1595079624 0.0821666792 0.5291766594 -0.1528400747 0.5285182911 -0.1523820619 -0.1563916979 0.0748642759
160299040.0 -0.1583345162 0.0834221469 0.5276704564 -0.1585141845 0.5269466792 -0.1590016413 -0.1560848952 0.0757446563
165299010.0 -0.1573254625 0.0848124791 0.5258489434 -0.1650842687 0.5260468295 -0.1655536458 -0.1547164489 0.0768058876
170298980.0 -0.1565182854 0.0856983773 0.5245149722 -0.1715663836 0.5243297533 -0.1714528004 -0.1539222733 0.0778159065
175298950.0 -0.1556917084 0.0868815106 0.5232384645 -0.1774946344 0.5223368945 -0.1776962349 -0.1533848664 0.0786025422
180298920.0 -0.1550574008 0.0884645274 0.521548875 -0.1839962452 0.5210797712 -0.1838254437 -0.1524355045 0.0796940874
185298890.0 -0.1534091265 0.0891784857 0.5189486671 -0.1900267498 0.5189713219 -0.1899803122 -0.1519129565 0.0810262424
190298860.0 -0.1529180733 0.0911354423 0.5172946368 -0.1965860353 0.5178858642 -0.1960991053 -0.1511441133 0.0816185846
195298830.0 -0.1519148564 0.0918814528 0.5154007466 -0.2020395783 0.5156057611 -0.2024694018 -0.1502464994 0.08276459
200298800.0 -0.1510137072 0.0937091172 0.5130355698 -0.2088864829 0.5133982014 -0.208817203 -0.1498704358 0.0838624682
205298770.0 -0.1498044701 0.0950446371 0.5109377108 -0.2146961973 0.5111706394 -0.2148386065 -0.148667881 0.0844236925
210298740.0 -0.1489442505 0.0962658004 0.5088521835 -0.2204160274 0.5087784996 -0.2204217629 -0.147846717 0.0862901614
215298710.0 -0.1483367884 0.0978687597 0.5068336678 -0.2266770217 0.5064588508 -0.2268861256 -0.1475818676 0.0877979328
220298680.0 -0.1470792145 0.0988424111 0.5034452697 -0.2327784828 0.5037569567 -0.232460356 -0.1465095451 0.0881079704
225298650.0 -0.1461196992 0.1002752074 0.5013767427 -0.2387242587 0.5015932098 -0.2384907753 -0.1461186453 0.0893713164
230298620.0 -0.1452096811 0.1020308125 0.4991398537 -0.2440076663 0.4992724911 -0.2441443458 -0.1455909689 0.0905235593
235298590.0 -0.1441311331 0.1036019717 0.4962573786 -0.2500439451 0.4965872875 -0.2495532204 -0.1447171756 0.0919584264
240298560.0 -0.1429222246 0.1049734702 0.4939818107 -0.2561098156 0.4939649708 -0.2557946138 -0.1442333976 0.0934380887
245298530.0 -0.142168423 0.1062959127 0.4913939358 -0.2614826886 0.4912606784 -0.2614927016 -0.1426893759 0.093995533
250298500.0 -0.1406851966 0.1078819092 0.487656229 -0.2671093523 0.4874060015 -0.2667589725 -0.1421144411 0.0954755893
255298470.0 -0.1400257747 0.1089839772 0.4846085634 -0.272334232 0.4851780554 -0.2724808386 -0.1412602214 0.0966393598
260298440.0 -0.1390241401 0.1104278722 0.4817939005 -0.2786511347 0.4825042823 -0.2780271347 -0.140305608 0.0982487339
265298410.0 -0.1374964074 0.112508376 0.4787590974 -0.2843482259 0.4794431006 -0.2835616979 -0.1396261373 0.0995375921
270298380.0 -0.1364266643 0.1136543229 0.476276761 -0.2889332328 0.476542646 -0.288857029 -0.1387033841 0.1007844795
275298350.0 -0.1353389667 0.1152031124 0.4728437257 -0.2946626706 0.4731591719 -0.2943565083 -0.137601993 0.1022673555
280298320.0 -0.1338499837 0.1167867395 0.4697923353 -0.3000082008 0.4702247125 -0.2997164428 -0.1367611729 0.1033262926
285298290.0 -0.1329905574 0.1183632283 0.4669547152 -0.30529279 0.4662817171 -0.3054433372 -0.1357157317 0.1046765583
290298260.0 -0.1318204631 0.1196349723 0.4632132407 -0.3102643781 0.463361261 -0.3106205282 -0.1348338635 0.106142427
295298230.0 -0.1302617014 0.1207671823 0.4598600019 -0.3155830769 0.4600837393 -0.3153876072 -0.1336568423 0.1071666099
300298200.0 -0.1293095807 0.1224028202 0.4568634467 -0.3208639464 0.4566908533 -0.321098155 -0.1328517323 0.1083125469
305298170.0 -0.1278420256 0.1234680358 0.4525910103 -0.3263653685 0.452737082 -0.3258707405 -0.1313188475 0.1093404895
310298140.0 -0.1263711835 0.1250487275 0.4492934482 -0.3315585681 0.4497603208 -0.3314778384 -0.1306929232 0.1107233824
315298110.0 -0.1255395676 0.1261061243 0.4459780621 -0.3366956684 0.4459647317 -0.3365843174 -0.1300244618 0.1120667745
320298080.0 -0.1239118503 0.1276078082 0.4414309917 -0.3421060102 0.442041988 -0.3419882526 -0.1287736008 0.1132874169
325298050.0 -0.1227707968 0.1287707456 0.4378774151 -0.3470913595 0.438223114 -0.346826549 -0.1283918167 0.1142543543
330298020.0 -0.1214446511 0.1302020172 0.4335972697 -0.3523422931 0.4343115756 -0.3517514741 -0.1273309753 0.1154543538
335297990.0 -0.1200632609 0.131308544 0.4295954452 -0.3564492046 0.4299309602 -0.3566040401 -0.1272692213 0.1172361498
340297960.0 -0.1194872134 0.1330653067 0.4259230853 -0.3616099741 0.4255966997 -0.3613802312 -0.1253615029 0.1184219948
345297930.0 -0.117894992 0.1347751072 0.4218100784 -0.3663777331 0.4218321693 -0.3662407152 -0.1247085092 0.1192692804
350297900.0 -0.1167700069 0.1357225317 0.4173937926 -0.3709068737 0.4173638155 -0.3705005193 -0.1239705519 0.1211055451
355297870.0 -0.1149431498 0.1376918899 0.413443266 -0.3755052471 0.4137570543 -0.3752967911 -0.1226765039 0.1224433525
360297840.0 -0.1135552975 0.138779577 0.4097349547 -0.3798933092 0.4095374921 -0.3796048426 -0.1217042396 0.1234030771
365297810.0 -0.1124689512 0.1405595347 0.4046289999 -0.3845047246 0.4054421761 -0.3845429253 -0.1205483566 0.1248736253
370297780.0 -0.1105592076 0.1415895109 0.4004567435 -0.3889984575 0.4012815841 -0.388503458 -0.1193757955 0.1259808575
375297750.0 -0.1090642591 0.1429597268 0.3963805114 -0.3933976832 0.3967309089 -0.39321733 -0.1182148156 0.1269783396
380297720.0 -0.1077773857 0.1440563929 0.3917108799 -0.3976386711 0.392386154 -0.3969243408 -0.1177350452 0.1283480954
385297690.0 -0.1063618037 0.1453344733 0.3875076842 -0.4020756144 0.3875322578 -0.4017083979 -0.1159865892 0.1296346517
390297660.0 -0.1048210267 0.1468522971 0.3837866692 -0.4060747495 0.3834351559 -0.4058291853 -0.115032766 0.1313583387
395297630.0 -0.1032791981 0.1483563847 0.3789599415 -0.4101686672 0.3787947426 -0.4102959675 -0.113011394 0.1322596472
400297600.0 -0.1016839404 0.1497713305 0.3739147893 -0.4149099544 0.3746864266 -0.4145341326 -0.1123919697 0.1335605445
405297570.0 -0.1002778373 0.1508589864 0.3697895666 -0.4183173008 0.3699546448 -0.4182734995 -0.1110687803 0.1347930599
410297540.0 -0.0985698731 0.1519125478 0.3652870603 -0.4227794683 0.3656570892 -0.4226509694 -0.1097199216 0.1364037453
415297510.0 -0.0965014292 0.1527437857 0.3605348125 -0.4268869758 0.3609960925 -0.4267925723 -0.1086279162 0.1373997092
420297480.0 -0.0950950755 0.1546401382 0.3557519188 -0.4306940247 0.3556491056 -0.4305293437 -0.1074466581 0.1382955282
425297450.0 -0.0934614766 0.1552893367 0.3514013958 -0.4343759941 0.351637245 -0.434757759 -0.1064107417 0.1399698158
430297420.0 -0.0916351003 0.1565264211 0.3460945998 -0.4375882593 0.3462372998 -0.4375894157 -0.1049233451 0.1405989015
435297390.0 -0.0904129537 0.1577918809 0.3413354367 -0.4420629645 0.3412360517 -0.4418414669 -0.1029628239 0.1419361017
440297360.0 -0.0884294387 0.1589212928 0.3363551052 -0.4454423887 0.3371885032 -0.4455312785 -0.1022711159 0.1430943658
445297330.0 -0.0868719658 0.1598417645 0.3320115744 -0.4490476782 0.3318655779 -0.4491533818 -0.1002687921 0.1440211215
450297300.0 -0.0846747106 0.161030989 0.326711872 -0.4527040661 0.3266501558 -0.4528110518 -0.0992636633 0.145018621
455297270.0 -0.0831599793 0.1623846585 0.3215689358 -0.4565445628 0.3219115962 -0.4564430726 -0.0980557332 0.1463368071
460297240.0 -0.081851731 0.163189305 0.3166814026 -0.4600870546 0.3170818672 -0.4596295122 -0.0965992962 0.1475835697
465297210.0 -0.0795345383 0.164433038 0.3119722873 -0.4633920765 0.3121584741 -0.4637082403 -0.0950266898 0.1483294309
470297180.0 -0.0779550945 0.165015037 0.3065036574 -0.4662344537 0.3067382941 -0.4668940738 -0.0933932588 0.1494794491
475297150.0 -0.0761459851 0.1660726141 0.301444698 -0.4696454182 0.3016799289 -0.46961145 -0.0916430992 0.1501645695
480297120.0 -0.0742721375 0.1675281048 0.2963044576 -0.4735020015 0.2963114614 -0.473395243 -0.0905141782 0.1518663228
485297090.0 -0.0725947925 0.1683424165 0.2912091566 -0.4759920919 0.2914168652 -0.4760955365 -0.0892006348 0.1526955315
490297060.0 -0.0709703813 0.1693357055 0.2864338102 -0.4795692333 0.2864902807 -0.4794260008 -0.0876865803 0.1538779071
495297030.0 -0.0689797987 0.1701349936 0.2810046522 -0.4822365754 0.2813896028 -0.482109222 -0.0863306351 0.1545304075
500297000.0 -0.0671185885 0.1708071927 0.2753015736 -0.485169732 0.2752804698 -0.4850316057 -0.0848796236 0.1563218084
505296970.0 -0.0650188666 0.1717178817 0.2701481564 -0.4880909129 0.2699028354 -0.4883569525 -0.0837472134 0.156938108
510296940.0 -0.0631925008 0.1725159041 0.2648116646 -0.4912486525 0.2646550974 -0.4913709465 -0.0819506711 0.1578519288
515296910.0 -0.0611606704 0.1737341736 0.259403848 -0.4941801707 0.2593348049 -0.4935115618 -0.0803543917 0.1584994469
520296880.0 -0.0594152853 0.1744675987 0.2538380488 -0.4972705885 0.2543487035 -0.496564386 -0.0789845537 0.1593509515
525296850.0 -0.0571926408 0.1745491958 0.2480901198 -0.4993810783 0.2487821063 -0.4994595907 -0.0775143238 0.1601257013
530296820.0 -0.0553735627 0.1758887785 0.2432047356 -0.5026524751 0.2429450437 -0.5021968959 -0.0760505051 0.1611258613
535296790.0 -0.0538833221 0.1765966141 0.237758376 -0.5047596864 0.2379674536 -0.5043919657 -0.0746215149 0.1618857466
540296760.0 -0.0515901254 0.1775546632 0.2315918185 -0.5076560671 0.2320553607 -0.5075594147 -0.0729064628 0.1630784738
545296730.0 -0.0497787641 0.1779430051 0.2263186263 -0.509871538 0.2264873619 -0.5101011554 -0.0714003894 0.1636097506
550296700.0 -0.047617281 0.1788166754 0.2209596116 -0.5118322344 0.2212781659 -0.5125576846 -0.0700632624 0.1643858302
555296670.0 -0.0461432634 0.1793285474 0.2156510192 -0.5147085493 0.2158316729 -0.5144973318 -0.0683709771 0.1656784358
560296640.0 -0.0436445586 0.1803211949 0.209560884 -0.5169283876 0.2101249381 -0.517050329 -0.0666100102 0.1662836063
565296610.0 -0.0419116101 0.180882332 0.2041242265 -0.519464148 0.2046750414 -0.5191623723 -0.0650933253 0.1667873175
570296580.0 -0.0401266252 0.1815033317 0.1984973131 -0.5217748956 0.1981903311 -0.5211303034 -0.0635215116 0.1679683447
575296550.0 -0.038161611 0.1821546617 0.1931603273 -0.523495554 0.1929139045 -0.5236790207 -0.0618161639 0.1688824098
580296520.0 -0.0360511539 0.1824635734 0.1874039242 -0.5258478601 0.1875482848 -0.525479582 -0.0601918243 0.1693651725
585296490.0 -0.0341927193 0.1823564622 0.181661039 -0.5270798411 0.1817334697 -0.5275155403 -0.0583659121 0.1703253197
590296460.0 -0.0318228144 0.1836200314 0.1759568425 -0.5288638715 0.1758344558 -0.5293082185 -0.0574207741 0.1710964386
595296430.0 -0.0297734531 0.1840097392 0.1694517645 -0.5316955267 0.1699881489 -0.5311878962 -0.0553179209 0.1712840169
600296400.0 -0.0279587176 0.1843095318 0.1642107847 -0.5329231072 0.1642188994 -0.5328517674 -0.0538463992 0.172218131
605296370.0 -0.0260912416 0.1847537388 0.1585228228 -0.5347784538 0.1587227893 -0.5348780124 -0.0518523666 0.1727940346
610296340.0 -0.0236619548 0.1852174281 0.152115694 -0.5362108049 0.1526344992 -0.5368170256 -0.0500061527 0.1736540618
615296310.0 -0.0214211438 0.1852111807 0.1467888221 -0.5373760987 0.1465674733 -0.5380453697 -0.0485477728 0.1741993384
620296280.0 -0.0196360439 0.1856169717 0.141008861 -0.5392224754 0.1409332255 -0.5391491762 -0.0468915814 0.1748667674
625296250.0 -0.0176151957 0.1857322978 0.1353874057 -0.5407954097 0.1356208922 -0.5409779249 -0.0445393123 0.17554817
630296220.0 -0.0148774581 0.1864882474 0.1288443168 -0.5424525908 0.1290844611 -0.5424211804 -0.0432063367 0.1763099953
635296190.0 -0.0139177047 0.1869667724 0.1235650572 -0.5436546688 0.1237393513 -0.5438217267 -0.0416796416 0.1768942779
640296160.0 -0.0115578509 0.1870708908 0.1174840579 -0.5445650007 0.1177778819 -0.5448194728 -0.0400124833 0.177091325
645296130.0 -0.0093350832 0.1877615131 0.1111768834 -0.5458194313 0.1119094557 -0.5461508522 -0.0380904169 0.1780359661
650296100.0 -0.0073188962 0.1876999883 0.1057359265 -0.5467939576 0.1057446002 -0.5471756404 -0.0361868683 0.1779306239
655296070.0 -0.005207873 0.1876734383 0.1001133062 -0.5480573429 0.1002799956 -0.5482358689 -0.0343934763 0.1786272034
660296040.0 -0.0038057888 0.1877093022 0.0936633521 -0.5492069103 0.0942359615 -0.5492144286 -0.0325442815 0.1792497828
665296010.0 -0.0010261055 0.1881166201 0.0876480755 -0.5498917664 0.0876955785 -0.5503143151 -0.030994492 0.1800574885
670295980.0 0.0004125149 0.188528443 0.0822376973 -0.5509292382 0.0822502657 -0.5510947289 -0.0295891333 0.1801733355
675295950.0 0.0027763663 0.1884982448 0.0760911395 -0.5516727287 0.0763013409 -0.551805515 -0.0279472117 0.1811253659
680295920.0 0.0045927091 0.1885738606 0.0701849315 -0.552694908 0.0700475782 -0.553144304 -0.0260656679 0.1815555383
685295890.0 0.0069281987 0.1892429009 0.0639495453 -0.5533260437 0.0642215348 -0.5534944786 -0.0242263786 0.1817948408
690295860.0 0.0092650274 0.1889332083 0.0581487873 -0.5532938686 0.0583140916 -0.5543778405 -0.0229614495 0.1829175334
695295830.0 0.0110797304 0.1887017591 0.0523846325 -0.5544236393 0.0519122055 -0.554438628 -0.0207540053 0.1827931912
700295800.0 0.0134374765 0.1886993651 0.0457540053 -0.5547613665 0.0460916588 -0.5547494351 -0.0191234751 0.1835283521
705295770.0 0.0152268446 0.1890240154 0.0396604502 -0.5553414104 0.0404199663 -0.5554888752 -0.0177061508 0.1835683239
710295740.0 0.0174969882 0.1889385916 0.0341918509 -0.5562908786 0.0345708596 -0.5563072845 -0.0155284113 0.183074206
715295710.0 0.018867726 0.1889530067 0.0284841546 -0.5561819435 0.027656947 -0.5563476274 -0.0135453934 0.1838085817
720295680.0 0.021239503 0.1887657118 0.0221573145 -0.5566891637 0.0225654166 -0.5561964584 -0.0117722714 0.1843568204
725295650.0 0.0235738808 0.1884744869 0.0159815365 -0.5565221069 0.016439226 -0.5570501837 -0.0104608243 0.1847767134
730295620.0 0.0256999847 0.1886781693 0.0100785208 -0.5562919391 0.0104956371 -0.5564217044 -0.0087566274 0.1845677322
735295590.0 0.0276928469 0.1885656179 0.0042644867 -0.5570848765 0.0042344526 -0.5567652344 -0.0071108721 0.1847232645
740295560.0 0.0296079799 0.1883700154 -0.0018982475 -0.5566603624 -0.00187829 -0.5567979504 -0.0047016704 0.1853555004
745295530.0 0.0313596054 0.1885282848 -0.0081159726 -0.5563686655 -0.007926022 -0.5568647777 -0.0028441317 0.1852026168
750295500.0 0.0341161515 0.1878063467 -0.0140893927 -0.5560895795 -0.0135151861 -0.5565509953 -0.0014307604 0.1855257607
755295470.0 0.0360883024 0.1874184435 -0.0196007055 -0.55603083 -0.0197438264 -0.5561806381 0.0012187762 0.1850292179
760295440.0 0.0379115438 0.1874001709 -0.0259946228 -0.5562340306 -0.0257850555 -0.5561788754 0.0024799186 0.1854711369
765295410.0 0.0400992215 0.1869946843 -0.0320950774 -0.5555369886 -0.0320656166 -0.5559949602 0.0044701817 0.1859429828
770295380.0 0.0418320744 0.1866962471 -0.0377189573 -0.5554269042 -0.0377913263 -0.5551722112 0.0061169746 0.1858708579
775295350.0 0.0436997884 0.1861083432 -0.0439333222 -0.554593817 -0.0434700317 -0.5543512145 0.0071896044 0.1862067797
780295320.0 0.0460996413 0.1859004599 -0.0498450714 -0.5538014398 -0.049204903 -0.5542186551 0.0095230993 0.1857802147
785295290.0 0.0478109521 0.1849811143 -0.0556725625 -0.5529800064 -0.0557971469 -0.5536890052 0.0119352871 0.1860713267
790295260.0 0.0505493435 0.1852820101 -0.0615635709 -0.5529305337 -0.0609061121 -0.5527407249 0.0136190095 0.1861651491
795295230.0 0.0524219186 0.1846662615 -0.0676698096 -0.5521764058 -0.0674077599 -0.5523370784 0.015516466 0.1865029757
800295200.0 0.0541027189 0.1845815795 -0.0740259273 -0.5510355483 -0.0737428313 -0.5512454246 0.0172182403 0.1863421073
805295170.0 0.0564416244 0.1838080218 -0.0794343463 -0.5502707581 -0.0794420209 -0.5509016943 0.019376011 0.1865160335
810295140.0 0.0581398213 0.1832916094 -0.0851839754 -0.5491736952 -0.0852058591 -0.549788346 0.021302769 0.1866162209
815295110.0 0.0604094496 0.1824993624 -0.0917237016 -0.5481894259 -0.090791105 -0.5483812043 0.0225120478 0.1866398266
820295080.0 0.0617157002 0.1826681864 -0.0969859628 -0.5471714344 -0.0964881004 -0.5475698241 0.0245330027 0.1864668862
825295050.0 0.0645698905 0.1818035934 -0.102655373 -0.5458623853 -0.1029405523 -0.546543175 0.0265611359 0.1865277459
830295020.0 0.0664509136 0.1811451989 -0.1091160559 -0.5450813515 -0.1089754405 -0.5448829504 0.0288544104 0.1862958358
