!Created with skrf (http://scikit-rf.org).
# Hz S RI R 50.0 
!freq ReS11 ImS11 ReS21 ImS21 ReS12 ImS12 ReS22 ImS22
300000.0 -0.2159150948 -0.0548482659 -0.0014979888 0.0023737602 -0.000630145 0.000308195 -0.7781577714 -0.1221346572
5299970.0 -0.2170202807 0.0083450993 0.0001856552 -0.000127633 0.0002269891 -3.63627e-05 -0.7850731992 -0.0071353907
10299940.0 -0.213508578 0.0193878065 -6.84484e-05 0.0003068576 -5.07721e-05 -4.90144e-05 -0.7883891969 -0.0034608792
15299910.0 -0.2087205728 0.0283963844 -0.0001254487 -0.0001024352 6.22543e-05 0.0001248594 -0.7935805967 -0.0016261936
20299880.0 -0.20351181 0.0360741321 -7.82876e-05 7.6375e-06 6.8282e-06 -3.69291e-05 -0.8004232759 0.0022628867
25299850.0 -0.1977558636 0.0421529474 4.56943e-05 0.0002671516 -0.0001117766 -8.1777e-06 -0.8061691978 0.0081885762
30299820.0 -0.1920803856 0.046624658 -0.0001034144 2.7311e-05 0.0001380801 -0.0001137145 -0.8124678396 0.0161513693
35299790.0 -0.1864813572 0.0502232875 -5.8575e-05 0.0002421601 0.0001487815 -0.0001248708 -0.817255811 0.0246867724
40299760.0 -0.1805888789 0.0533360325 0.0002178725 -0.0001833835 0.0001394739 -2.34852e-05 -0.8217156886 0.0344249367
45299730.0 -0.1754959249 0.0554752127 -9.28087e-05 0.0001803772 0.0001486031 -1.86174e-05 -0.8255552283 0.0436814768
50299700.0 -0.1708367481 0.0569363662 -0.0001327195 6.23121e-05 3.97867e-05 -2.33069e-05 -0.8278011672 0.0535289024
55299670.0 -0.1666987685 0.0575755042 4.83156e-05 8.42753e-05 0.0001067204 3.294e-07 -0.8296883962 0.0645573318
60299640.0 -0.1623494696 0.0587742929 -0.000152672 7.9149e-06 8.49629e-05 0.0001070993 -0.830443517 0.0741525057
65299610.0 -0.1585118043 0.058973116 3.62577e-05 4.7645e-05 -0.0001182311 4.77325e-05 -0.8318799069 0.084314899
70299580.0 -0.1558257717 0.0594060009 4.44953e-05 -6.27e-08 1.81542e-05 1.23125e-05 -0.8318781192 0.0943773057
75299550.0 -0.1524363071 0.0599271422 0.0001809656 -4.00153e-05 9.60936e-05 -8.78887e-05 -0.8322324774 0.1039281728
80299520.0 -0.149926039 0.0599287616 9.77622e-05 -3.34845e-05 -3.18657e-05 5.93996e-05 -0.8320006384 0.1138123329
85299490.0 -0.1479085058 0.0596752994 -2.99553e-05 -0.0001267244 -1.61981e-05 -5.39266e-05 -0.8315186901 0.1234416133
90299460.0 -0.1455861643 0.0599225415 -1.8709e-05 3.44936e-05 4.71748e-05 -3.22489e-05 -0.8310721744 0.1331640922
95299430.0 -0.1430473432 0.0595497238 0.0002013885 5.04995e-05 1.26276e-05 0.0001235087 -0.8291678429 0.1426532364
100299400.0 -0.1418668622 0.0601197976 0.0002191367 0.000113336 1.22319e-05 1.69641e-05 -0.8286115304 0.1519669563
105299370.0 -0.1400533671 0.060127928 0.0001823706 -5.00884e-05 0.0001737668 5.1086e-06 -0.8273388992 0.1611802595
110299340.0 -0.1386425648 0.0600992833 -2.2018e-05 6.55644e-05 -3.3323e-06 7.92954e-05 -0.8257361074 0.1708836353
115299310.0 -0.1369439831 0.0597836205 -0.0002380468 0.0002781964 -0.0001463019 -1.35423e-05 -0.8239834532 0.1797458109
120299280.0 -0.1360247925 0.0599335856 7.13457e-05 -0.0001378483 -0.0001094791 -4.23559e-05 -0.8226566694 0.1885479556
125299250.0 -0.1349767642 0.0600590953 0.000231471 6.74036e-05 5.482e-07 1.88393e-05 -0.8209059064 0.1980030795
130299220.0 -0.1341412077 0.0602076977 -0.0001236492 0.000279728 0.0001116502 -4.69342e-05 -0.8194656315 0.2064266115
135299190.0 -0.1332545744 0.0605434016 0.0002790148 -0.0002032519 4.71397e-05 2.75673e-05 -0.8172545631 0.2161449505
140299160.0 -0.1326556829 0.0610900026 -0.0001170935 -2.37e-06 -8.1452e-06 -8.8451e-06 -0.8143921609 0.2247996745
145299130.0 -0.1317944842 0.0610476597 7.89638e-05 -7.7649e-06 6.1426e-06 1.0439e-05 -0.8130206953 0.2343442062
150299100.0 -0.1306137711 0.0615634167 -0.0001453156 -3.82359e-05 -0.0001101514 -9.26545e-05 -0.8111391395 0.2433516114
155299070.0 -0.1301654631 0.0618026872 7.33905e-05 -6.35835e-05 8.46833e-05 2.14038e-05 -0.807814322 0.2513639614
160299040.0 -0.1299125841 0.0626057808 -1.39892e-05 7.29276e-05 2.4609e-06 3.54582e-05 -0.8058950723 0.2606073879
165299010.0 -0.1290037959 0.062700278 0.0001913701 2.82237e-05 0.0001510251 0.0001148053 -0.8034034104 0.2697145671
170298980.0 -0.1285430849 0.0634948857 0.0003421544 -0.0001000309 0.0001405428 -0.0001563401 -0.8000696954 0.2777284293
175298950.0 -0.1280332413 0.0641234466 -4.5997e-05 3.6638e-06 9.3308e-06 -5.73294e-05 -0.7976397198 0.2862958205
180298920.0 -0.1272104387 0.0647775692 -5.20018e-05 -8.63346e-05 0.0001193489 0.0001248851 -0.7944904534 0.294666811
185298890.0 -0.1264821455 0.0650335744 -3.08728e-05 6.96101e-05 -0.0002381847 0.0001970588 -0.7908670008 0.3037449039
190298860.0 -0.1262087639 0.0659840669 -2.80987e-05 -4.37173e-05 -6.96002e-05 -7.27554e-05 -0.7889345073 0.3122616571
195298830.0 -0.125998065 0.066503061 0.0001804266 0.00012873 4.67931e-05 -0.0001321233 -0.7851777765 0.321202289
200298800.0 -0.1254513761 0.0674187885 0.0001841891 0.0001991915 -1.02031e-05 0.0001124345 -0.7822169409 0.3282642554
205298770.0 -0.1249248848 0.0682394109 0.0001516708 0.0001051475 0.0001674135 0.0002355481 -0.7777606043 0.3372928038
210298740.0 -0.1245293211 0.0688417818 8.14048e-05 8.04259e-05 -0.0001139727 4.00085e-05 -0.7749305606 0.3452594984
215298710.0 -0.1242751637 0.0698400978 4.96455e-05 6.67912e-05 0.0002348316 -6.57083e-05 -0.7710549962 0.3531316446
220298680.0 -0.1239107331 0.0703477238 0.0003283393 7.72565e-05 -1.6718e-05 0.0001072702 -0.7673724527 0.3618726948
225298650.0 -0.1234921802 0.0711738419 7.8903e-05 0.0001459053 -0.0001272345 5.20771e-05 -0.7639691959 0.3698645833
230298620.0 -0.1229026092 0.0724289512 6.6072e-06 0.0001136407 2.95372e-05 3.03149e-05 -0.7600925215 0.3778140727
235298590.0 -0.1218752652 0.0730261053 0.0002908623 0.0001417247 2.57236e-05 0.0001329883 -0.7556813128 0.3864025927
240298560.0 -0.1218350149 0.0740534179 0.000202394 0.0001619685 -5.164e-07 -2.21452e-05 -0.7516733734 0.3947825845
245298530.0 -0.1213731993 0.0749223168 0.0002178399 0.0003384176 -5.53576e-05 0.000245352 -0.747791646 0.401943007
250298500.0 -0.1207477054 0.0757989339 -0.0001376727 0.0001527064 0.0001476917 8.17379e-05 -0.7436178568 0.4095800688
255298470.0 -0.1205080461 0.0765553132 0.0001842566 1.54016e-05 7.36536e-05 -7.81634e-05 -0.7386823807 0.4172879927
260298440.0 -0.1201565937 0.0778068103 4.41716e-05 0.000236096 -0.0001387133 -4.63935e-05 -0.7346037129 0.4256794937
265298410.0 -0.1194285293 0.0788570075 -0.0001286398 0.000214972 0.0002149033 0.0001943358 -0.7305013969 0.4332905017
270298380.0 -0.1189479404 0.0795698957 -9.6742e-06 0.0001576998 -5.6109e-06 0.0002153503 -0.7259097418 0.4410941337
275298350.0 -0.1184075976 0.0806839495 0.0001441156 -0.0001076387 -0.0001242042 0.0001919757 -0.7208412866 0.4483661776
280298320.0 -0.1175775736 0.0815199506 0.0001131769 9.21631e-05 4.44946e-05 -2.1854e-05 -0.7161043192 0.4562046797
285298290.0 -0.117092742 0.0830717527 -1.94522e-05 -4.68413e-05 6.03688e-05 0.0002646018 -0.7109752182 0.4634838791
290298260.0 -0.1166186059 0.0839672529 0.0001036345 0.0002112896 -9.12234e-05 9.15123e-05 -0.7064824202 0.4712540385
295298230.0 -0.1159342458 0.0846919114 0.0001661895 0.0001903614 2.83217e-05 -3.36989e-05 -0.7019423467 0.4778108513
300298200.0 -0.1153996292 0.0859435068 3.31424e-05 -0.00010434 -6.37126e-05 6.31624e-05 -0.6961914397 0.4855398547
305298170.0 -0.1147609942 0.0867321285 0.0002738322 9.34744e-05 0.0002270878 3.26328e-05 -0.6907073317 0.4933870459
310298140.0 -0.1140126133 0.0879625435 0.000179134 0.0001766672 0.0001146494 9.57089e-05 -0.6861674799 0.4999528426
315298110.0 -0.1134136311 0.0889869218 9.52568e-05 0.0001649758 1.35011e-05 -4.91228e-05 -0.6804351451 0.5070850957
320298080.0 -0.1127325036 0.0896503341 9.61659e-05 -5.75332e-05 0.0001228788 2.595e-07 -0.675198466 0.5149336521
325298050.0 -0.1116439411 0.0903685599 0.0001093806 -0.00012456 0.0001858246 0.0002533965 -0.6697195526 0.5214840489
330298020.0 -0.1115145283 0.0915277085 0.000171672 6.22662e-05 5.24052e-05 4.40962e-05 -0.6645496386 0.528685946
335297990.0 -0.1110517083 0.0924565613 0.0001376597 -2.5716e-05 3.04542e-05 0.0001731714 -0.6591273708 0.5355664323
340297960.0 -0.1105530582 0.0937777044 -0.0001005934 0.0002728348 8.54825e-05 7.7992e-06 -0.653858791 0.5426923408
345297930.0 -0.1100139418 0.0948401741 9.00692e-05 -8.69632e-05 0.0002433708 0.0002105836 -0.6476297339 0.5487922046
350297900.0 -0.1091426141 0.0959489709 -7.42763e-05 -0.0001145492 0.0001213215 -1.90303e-05 -0.6422542428 0.5552892941
355297870.0 -0.1086645302 0.0975032051 8.19945e-05 -0.0001871087 5.23977e-05 0.0001079003 -0.6363533564 0.5622216081
360297840.0 -0.1078414409 0.0983166305 2.66672e-05 -5.34717e-05 0.0001727901 -7.36907e-05 -0.6299934131 0.5687419254
365297810.0 -0.1071415654 0.099766902 0.0002302357 6.98049e-05 7.58139e-05 0.0001525533 -0.6236084476 0.5753003015
370297780.0 -0.1063733334 0.1007249765 0.0002567523 0.0001163212 -2.01565e-05 3.45393e-05 -0.6178871736 0.5816818984
375297750.0 -0.105452056 0.1017005854 0.0002011484 0.0002036996 -6.54376e-05 0.0001116118 -0.6122215569 0.5873550717
380297720.0 -0.104977828 0.1027343824 8.87388e-05 0.0002154215 0.0001295812 3.86125e-05 -0.6057571028 0.5940146938
385297690.0 -0.1041592969 0.1037249247 0.0001901184 3.57215e-05 -0.0001220657 -5.20337e-05 -0.5996031581 0.6006964495
390297660.0 -0.1036315575 0.1052346515 0.0001631273 0.0001327211 4.18551e-05 -4.3499e-06 -0.5938566752 0.6064660803
395297630.0 -0.1025441271 0.1061674572 2.56566e-05 0.0001162616 0.0001269917 -4.4487e-06 -0.5868846759 0.6128621495
400297600.0 -0.1014137641 0.1072669766 0.0001875804 0.0001461038 0.0001964852 0.0002044242 -0.5812340597 0.6185832189
405297570.0 -0.1011990508 0.1084434605 -5.79485e-05 0.000351728 3.04062e-05 0.0002304983 -0.5743174466 0.6249021605
410297540.0 -0.0999926897 0.1096529079 0.0003367888 0.0001241456 0.0001900617 0.0001253349 -0.5676086056 0.6304054974
415297510.0 -0.0990501388 0.1100628988 0.0001027854 -0.0001240469 0.0001809401 0.0001065282 -0.5613274365 0.6360229718
420297480.0 -0.0981779466 0.111607234 0.0003334984 0.0002487101 1.9071e-06 0.0001108349 -0.5545305657 0.6422328259
425297450.0 -0.0971256473 0.1125213538 9.02138e-05 2.40027e-05 0.0001981585 0.0002113545 -0.5480603601 0.6479122212
430297420.0 -0.0963195439 0.1133184647 0.0001949618 7.6515e-05 0.0001057962 6.51319e-05 -0.5416322152 0.6527113861
435297390.0 -0.095494915 0.114626432 0.0001985152 9.81332e-05 0.000408561 -1.95898e-05 -0.5344168479 0.6583493418
440297360.0 -0.0947115015 0.1154460781 0.0002124598 0.0001165185 0.0002905247 8.64568e-05 -0.5280401103 0.6637512452
445297330.0 -0.0935915086 0.1165219854 9.56169e-05 6.1374e-06 0.0001371066 0.0002341791 -0.5208611171 0.6686010936
450297300.0 -0.092399414 0.1173104611 0.0002896438 1.4905e-05 7.30765e-05 1.52571e-05 -0.5135155824 0.674092608
455297270.0 -0.091755211 0.1186629596 0.0002858217 0.0001271015 0.0001962894 0.000159488 -0.5067857425 0.6785751443
460297240.0 -0.090762178 0.1195988016 0.0001575106 0.0001000266 0.0001513189 -0.0001050393 -0.5001120756 0.6843946871
465297210.0 -0.0894201255 0.1209926231 7.91852e-05 -4.61913e-05 7.14662e-05 7.23406e-05 -0.492385041 0.6893376879
470297180.0 -0.0886460579 0.1216408502 0.000438282 7.27606e-05 0.0001259382 9.91586e-05 -0.485306066 0.6945503747
475297150.0 -0.0876473668 0.1226021892 0.0002908391 -4.88132e-05 0.0003142774 4.01225e-05 -0.4778386491 0.699045992
480297120.0 -0.0861994576 0.1235767633 0.0003742659 0.0002841152 0.0001000261 0.0001296898 -0.4711759404 0.7043553317
485297090.0 -0.0853566672 0.1246000079 0.0003010171 1.48327e-05 0.0002281088 -3.6407e-06 -0.4637425378 0.7091116656
490297060.0 -0.0845619127 0.1260834544 0.0002713464 0.0001626401 -5.33428e-05 -0.0001836677 -0.4567367456 0.7132612617
495297030.0 -0.0835088838 0.1266071625 -0.000103433 4.81446e-05 0.0001970069 0.000179985 -0.4493785559 0.7182142643
500297000.0 -0.0822313301 0.1277915452 0.0001952082 -1.7101e-06 0.0001104279 0.0002100474 -0.4414036806 0.7230991409
505296970.0 -0.0809001787 0.1284509017 0.0001677852 9.58913e-05 9.36561e-05 0.0001697971 -0.4343424237 0.7268374072
510296940.0 -0.0796992675 0.1293757343 0.0001766377 -4.90283e-05 0.0001296324 0.0004570438 -0.4267369969 0.7309161964
515296910.0 -0.0784038039 0.1301226178 0.0003630624 -8.09681e-05 3.58404e-05 0.0001254579 -0.4196024372 0.7357326546
520296880.0 -0.0776973466 0.1313277622 8.1841e-06 0.0001597497 0.0001335167 -0.0001057311 -0.4118140562 0.7395382136
525296850.0 -0.0763086418 0.1318545467 0.0003029541 5.86881e-05 6.96938e-05 -0.0001095421 -0.4042485253 0.7437889337
530296820.0 -0.0754544931 0.1330031626 0.000164006 0.0001191759 0.0003919742 -8.35009e-05 -0.3967178939 0.7476698484
535296790.0 -0.0743913673 0.1340450404 0.0001346737 -1.5244e-06 0.0003280712 -0.000103697 -0.3898813944 0.7516427108
540296760.0 -0.0732441872 0.1346452012 0.0002358145 0.000141389 9.55465e-05 0.000173258 -0.3814598936 0.7551031862
545296730.0 -0.0719926876 0.1360266554 0.0002264785 3.14949e-05 0.0001784339 0.0002112288 -0.3738869246 0.7589449652
550296700.0 -0.0702715253 0.1366973737 6.28376e-05 0.0002008871 0.0001846402 -1.57517e-05 -0.3664476529 0.7628938803
555296670.0 -0.0694475726 0.1373736845 6.7563e-06 0.000116147 2.03147e-05 0.0001423327 -0.3585500506 0.7669082642
560296640.0 -0.0678616921 0.138325597 0.0001613056 0.000125915 0.0001715962 -8.10322e-05 -0.3503092588 0.7706164889
565296610.0 -0.0669312186 0.1390146837 0.0002557364 -4.52304e-05 0.0001867798 7.57738e-05 -0.3427954879 0.7735782347
570296580.0 -0.0659104252 0.1398910265 0.0001609311 0.0001342576 0.0001210913 6.01955e-05 -0.3351569478 0.7776252012
575296550.0 -0.0643671899 0.1408766484 0.0002613225 5.87932e-05 0.0003114226 6.90671e-05 -0.3270311489 0.7805085959
580296520.0 -0.0633048244 0.1415721136 0.0002045321 0.0001564155 0.0003866034 -4.57507e-05 -0.3187158862 0.7836742996
585296490.0 -0.062159198 0.1420710391 0.0001978938 -0.0001050645 0.0001847882 0.0001449976 -0.3110900438 0.787108269
590296460.0 -0.0604963319 0.1430288447 0.0003552712 0.0002179137 0.0003470587 6.75264e-05 -0.3030385889 0.7901013725
595296430.0 -0.0593951692 0.1437307507 0.0001376076 0.0001884176 -9.36752e-05 0.0001453072 -0.2953323043 0.7922288224
600296400.0 -0.0583259606 0.1444550283 0.0001510081 0.0001849692 0.000198188 -3.87418e-05 -0.2871452351 0.795469764
605296370.0 -0.0569408806 0.145174146 0.0003642508 8.87027e-05 0.0002583557 1.58177e-05 -0.2787918219 0.7986862696
610296340.0 -0.0557941649 0.1460491579 0.0001000834 0.0001921034 0.000111624 -1.30995e-05 -0.2708487643 0.8012093947
615296310.0 -0.0540795574 0.146843281 3.57958e-05 -4.0215e-06 0.000273143 -3.8861e-06 -0.261851878 0.8039890446
620296280.0 -0.0529485895 0.1471036673 0.0002548201 8.96612e-05 0.0002193979 -9.3808e-06 -0.2548642571 0.8065136467
625296250.0 -0.0516392825 0.1477631411 0.0003060858 2.49621e-05 0.0003218471 0.0001842693 -0.2460619079 0.8086946362
630296220.0 -0.0498833556 0.1485652625 0.0002462877 9.30607e-05 0.0003254769 5.42576e-05 -0.2382906966 0.8116109131
635296190.0 -0.0491158011 0.1496034205 1.45652e-05 0.0001156592 1.80627e-05 -4.71625e-05 -0.2301122122 0.8132508284
640296160.0 -0.0475462875 0.1499113694 0.0002060487 5.17172e-05 0.000128721 1.57158e-05 -0.2219888569 0.8157218325
645296130.0 -0.0461816669 0.1507026989 0.0002848919 -7.7289e-06 0.0002088 -9.38084e-05 -0.2134298165 0.8183941843
650296100.0 -0.0445866131 0.1514762599 0.0002602489 -7.33061e-05 0.0003875591 4.55993e-05 -0.2056604718 0.8197926275
655296070.0 -0.0433985847 0.1520428338 0.0002960799 -0.000284789 0.0003184028 5.34112e-05 -0.1967423242 0.8213763611
660296040.0 -0.0420697242 0.1522929542 0.0001810781 -0.0002902148 0.0003632732 -4.34732e-05 -0.1883702502 0.82402513
665296010.0 -0.0403178263 0.1525442591 0.0002054327 0.0002429 0.000455215 -2.08065e-05 -0.1800632823 0.8260245761
670295980.0 -0.0393917879 0.1537032178 0.0003672554 4.08347e-05 0.0002615713 3.43971e-05 -0.1728330092 0.8272739419
675295950.0 -0.0379633186 0.1540727148 0.0003271148 -5.43143e-05 0.0001108879 -4.05313e-05 -0.1643497753 0.8297606118
680295920.0 -0.0363375224 0.1550869038 0.0001981549 0.0002042282 0.0001307503 -2.34695e-05 -0.1556920003 0.8314820811
685295890.0 -0.0347458576 0.1559308866 0.0002559297 -0.0001778189 0.0002404401 -4.76755e-05 -0.1463491273 0.8324853383
690295860.0 -0.0333471194 0.1558851561 0.0001392488 -0.0001010987 0.0003786678 0.0002371897 -0.1387759279 0.8337433196
695295830.0 -0.0321239187 0.156505866 0.0002938353 -5.38761e-05 0.0001512696 9.64211e-05 -0.1299112187 0.8351498311
700295800.0 -0.0309327615 0.1569094031 0.0006636575 0.0002450776 0.0003311572 0.0001276492 -0.1227822257 0.8362823781
705295770.0 -0.0292714517 0.1576568518 0.0001486213 0.0002998123 0.0001303994 4.89544e-05 -0.1139329188 0.8380215993
710295740.0 -0.0278427633 0.1580221048 0.0002922975 -2.95215e-05 0.000253634 0.0001534455 -0.1053646814 0.8386319571
715295710.0 -0.0265739439 0.1581743982 0.0003802923 -1.1631e-05 0.0002507347 3.62462e-05 -0.0969842358 0.8391193372
720295680.0 -0.0250407655 0.1588827753 0.0002927132 0.0001102971 0.0001365759 -1.3157e-05 -0.0885716008 0.8407948661
725295650.0 -0.0234330781 0.1591487645 0.0002754506 -9.89146e-05 0.0003520314 -0.0001322454 -0.0806034284 0.8420854339
730295620.0 -0.021797743 0.1598442928 0.0002895546 5.02192e-05 0.000362289 7.15332e-05 -0.0726546973 0.8423504381
735295590.0 -0.0203517435 0.1601372126 -1.4847e-06 5.93882e-05 0.0002627941 -7.84058e-05 -0.0635112314 0.8427181755
740295560.0 -0.0191946011 0.1607172478 0.0005803701 -2.2173e-05 0.0002374598 0.0002287337 -0.0546079277 0.8440756233
745295530.0 -0.0177261238 0.1609939441 0.0002002316 -3.26554e-05 0.0002358173 7.76834e-05 -0.0461089577 0.8436511851
750295500.0 -0.01588412 0.1614244629 0.0002536602 3.15655e-05 0.0002315382 -0.0001623812 -0.0383711438 0.8444500833
755295470.0 -0.0145628806 0.1613909447 0.0002283193 -0.0002222724 0.0001898862 0.0001381585 -0.0294648687 0.8441167311
760295440.0 -0.0130330311 0.1617333911 0.0003029966 3.25961e-05 0.0002788556 -5.41267e-05 -0.0218351927 0.8441321723
765295410.0 -0.0116168699 0.1623527207 0.0003596071 -0.0001778215 0.0004394293 0.0001157975 -0.0127110089 0.8452578686
770295380.0 -0.0098568751 0.1626338379 0.0003827249 -0.0001909949 0.0001917617 7.59302e-05 -0.004625532 0.845082306
775295350.0 -0.0087888121 0.1626813607 0.0003528376 -0.0001427698 0.0002559423 9.90296e-05 0.0036075423 0.8446118863
780295320.0 -0.0069642873 0.1630924836 0.0003735518 4.45206e-05 0.0003164144 -2.17506e-05 0.0120972673 0.8445863551
785295290.0 -0.0057102479 0.1631897663 0.0002634445 -0.0002180707 0.0003212289 5.06583e-05 0.0211222025 0.8444985185
790295260.0 -0.00371158 0.1639376006 0.0003294684 0.0001876863 0.000350738 4.19323e-05 0.0295314754 0.8446961779
795295230.0 -0.0024376818 0.1640368692 0.0003080309 -0.0003224814 0.0002243934 -1.75448e-05 0.0380190756 0.8432643206
800295200.0 -0.0010013519 0.1642289912 0.0002888132 0.0002234795 0.0003392323 -8.66355e-05 0.0469164633 0.8437491747
805295170.0 0.000787976 0.1642135244 7.76829e-05 -3.56352e-05 0.0002936151 -0.0001781684 0.0543041262 0.8431301042
810295140.0 0.0025307512 0.1642624653 0.000227407 7.15047e-05 0.0002562665 -2.59531e-05 0.0633011983 0.842376489
815295110.0 0.0035441478 0.1643817308 0.0002066957 9.86812e-05 7.53927e-05 -0.0001981214 0.071486805 0.8418253296
820295080.0 0.0050148906 0.1650183077 9.93471e-05 -8.49274e-05 0.0001873396 -0.0001250218 0.0799661876 0.841266311
825295050.0 0.0071528235 0.1650472455 0.0001366543 -0.0002673944 0.0002516212 -5.35145e-05 0.0879872316 0.8399870374
830295020.0 0.0084364318 0.1652147426 0.0002590914 -0.0001503482 0.000504326 8.46787e-05 0.0973535291 0.8393033719
835294990.0 0.0097415413 0.1655627134 0.0002082498 2.34556e-05 0.0003630727 2.94063e-05 0.1051569767 0.8385751133
840294960.0 0.0115952311 0.1655419219 0.0004998149 -1.2425e-05 0.0002577239 -5.08373e-05 0.1134251684 0.8370129467
845294930.0 0.0130615302 0.1656853446 0.0003877874 7.19165e-05 0.000373675 -0.0002279191 0.1210195485 0.8357837885
850294900.0 0.0147638059 0.1657578275 0.0002171345 -0.0001809086 0.0002377416 -0.0001608271 0.129144347 0.8345028993
