!Created with skrf (http://scikit-rf.org).
# Hz S RI R 50.0 
!freq ReS11 ImS11 ReS21 ImS21 ReS12 ImS12 ReS22 ImS22
300000.0 -0.7737914026 -0.1644600879 0.0009113962 0.0013105331 0.001275796 0.0001556913 -0.0454358597 -0.074710787
5299970.0 -0.7861904472 -0.0092827871 0.0001245634 -0.0002878902 -9.94103e-05 -0.0001750464 -0.0489170201 0.0142309685
10299940.0 -0.7894131915 -0.0058012264 0.0001521189 -0.0001732813 2.62592e-05 9.6062e-06 -0.0432749325 0.0321213066
15299910.0 -0.7943777305 -0.0030622645 -6.96384e-05 -2.69294e-05 7.20877e-05 -6.90329e-05 -0.0348038691 0.0465369238
20299880.0 -0.8007471318 0.0007302532 0.0001218958 7.42605e-05 8.59931e-05 -0.0001818577 -0.0252838624 0.0585229133
25299850.0 -0.8076761029 0.0068007971 -0.0001823926 -0.0001775469 5.87224e-05 3.75409e-05 -0.0144110173 0.0677446672
30299820.0 -0.8135793366 0.0140135529 -8.4349e-06 1.90619e-05 -4.6871e-06 -0.0001084218 -0.0028766886 0.074739139
35299790.0 -0.8186010663 0.0233589981 -0.0001552646 0.0001149763 -0.0001109062 9.87822e-05 0.0085141395 0.0796016731
40299760.0 -0.8235331409 0.0319636884 0.0001385486 0.000192648 -0.0001358559 -3.52085e-05 0.0196848136 0.0825812596
45299730.0 -0.8259605537 0.0416722069 7.56859e-05 -3.12349e-05 7.90904e-05 -0.0002314449 0.0304006537 0.084220557
50299700.0 -0.8294803776 0.0516055674 0.0001633993 -0.0001171463 7.83496e-05 9.59295e-05 0.0403482031 0.0843919843
55299670.0 -0.8310593947 0.0617971117 6.7082e-05 -0.0001282971 0.0001927441 3.03888e-05 0.0493742628 0.0834370615
60299640.0 -0.8322750836 0.0723909632 6.57072e-05 -0.0002838519 -0.0003249012 0.0001763255 0.058003608 0.0815120392
65299610.0 -0.8333571254 0.0818542101 0.0001797479 -6.8375e-06 9.03582e-05 -5.69197e-05 0.0656370133 0.0793826813
70299580.0 -0.8335605516 0.0918141716 8.41829e-05 -6.60223e-05 -4.62842e-05 9.11741e-05 0.0725049848 0.0767938992
75299550.0 -0.8332885937 0.1019014238 -0.0001037631 0.0001031543 -0.0001267363 6.49822e-05 0.0793040516 0.0734779079
80299520.0 -0.833729306 0.1126780406 0.0001254242 8.85821e-05 -3.65904e-05 -4.491e-07 0.0850204401 0.0703772769
85299490.0 -0.8326819398 0.1209196016 0.0001130388 0.0001522514 1.75412e-05 -9.31505e-05 0.0898198228 0.0663575331
90299460.0 -0.8323630042 0.1315666756 8.83447e-05 0.0001030011 0.0001894885 0.0001540454 0.094173093 0.0626458329
95299430.0 -0.8309643292 0.1410789332 -3.85642e-05 6.72317e-05 -5.14109e-05 0.0001385844 0.0986384337 0.0592420852
100299400.0 -0.8301086653 0.1507416028 0.0001645771 -1.09661e-05 8.59131e-05 -6.22184e-05 0.1022091662 0.0556150772
105299370.0 -0.8286887636 0.1593897008 0.0002163936 0.0001944738 9.96652e-05 5.41057e-05 0.1056840758 0.0514274634
110299340.0 -0.8279553815 0.1685925247 0.0001215681 -3.20855e-05 -7.30116e-05 0.0002110682 0.1082969536 0.0473370515
115299310.0 -0.8257173439 0.1782202178 5.87162e-05 -7.57511e-05 0.0001298054 3.59742e-05 0.1108739609 0.0439162613
120299280.0 -0.8243747445 0.1868335722 -0.0001106293 0.000215462 0.0002260823 -0.000140887 0.113095464 0.0399931531
125299250.0 -0.8224247626 0.195919493 8.02287e-05 0.0002053806 6.59086e-05 2.53474e-05 0.1152142 0.0363432683
130299220.0 -0.8204900172 0.2051046263 -8.55807e-05 0.0001424312 8.76946e-05 7.99926e-05 0.1172898325 0.0326274818
135299190.0 -0.8183909026 0.2144722337 0.0001519788 -2.71144e-05 5.22937e-05 0.0001309776 0.1185623072 0.0289683131
140299160.0 -0.817138646 0.2236341111 0.0002033848 5.17404e-05 -0.0003188878 6.26803e-05 0.1194354095 0.0256069791
145299130.0 -0.8145037915 0.2322009679 -1.72868e-05 7.37637e-05 0.0001121477 0.0002462144 0.1209126169 0.0224655321
150299100.0 -0.8118460879 0.2411561949 0.000292739 0.0002549712 1.22251e-05 -6.05789e-05 0.1219469913 0.0188664722
155299070.0 -0.8099617704 0.2500066274 -5.45887e-05 -0.0002100133 0.0002504055 1.34568e-05 0.1227542248 0.0155788828
160299040.0 -0.8071930964 0.2591427859 9.47743e-05 5.22672e-05 3.44093e-05 0.0001348464 0.123029722 0.0124541921
165299010.0 -0.8039562655 0.2675128716 0.0001943113 0.0001431131 -1.4984e-06 0.0001426641 0.1239991347 0.0094739057
170298980.0 -0.8016478614 0.2764370178 8.82003e-05 0.0001445476 -5.00679e-05 3.96812e-05 0.124318801 0.0064732556
175298950.0 -0.7990670479 0.2846307758 0.0001674464 2.63144e-05 0.0003245952 7.05369e-05 0.1244963552 0.0037235826
180298920.0 -0.7961807823 0.2938391868 0.0002420498 0.0001001212 0.0001935833 0.0001510736 0.1248422335 0.0005111158
185298890.0 -0.7927195978 0.3021097576 0.0001157745 0.0001809917 -5.31264e-05 0.0001097677 0.125079019 -0.0026231387
190298860.0 -0.7892800673 0.3113426478 -4.5305e-06 0.0002049879 3.71251e-05 0.0002290982 0.1251345887 -0.0049677192
195298830.0 -0.7864763808 0.3195001399 5.53703e-05 -0.000101381 5.8485e-05 -7.37194e-05 0.1250331469 -0.0080483048
200298800.0 -0.7826944264 0.3276363741 0.0003793953 0.0001219542 0.0002028044 -2.12144e-05 0.12485429 -0.0103824528
205298770.0 -0.7792558382 0.3368863005 0.0001943424 7.32116e-05 -6.49859e-05 0.0002794549 0.1246584877 -0.0130644195
210298740.0 -0.7759497427 0.3449942121 8.47936e-05 9.35027e-05 0.0001145153 0.0003145075 0.1243339435 -0.0156688626
215298710.0 -0.7722779483 0.3535691944 0.000180715 6.14422e-05 9.95065e-05 0.0001116466 0.1242446675 -0.0180943461
220298680.0 -0.7687064645 0.3612738327 -0.00011019 5.79358e-05 -3.51436e-05 3.04357e-05 0.1238163254 -0.0202790374
225298650.0 -0.7646912714 0.3693954087 4.14853e-05 7.7614e-05 0.0001056552 0.0001059123 0.1233072586 -0.0228123225
230298620.0 -0.7610436078 0.3773671511 0.000236693 0.0001194129 9.9091e-05 0.0002008908 0.1228962804 -0.0252529399
235298590.0 -0.7572054917 0.3856807936 -0.0001132312 1.09082e-05 0.0002554912 0.0001094981 0.1224203461 -0.0271338694
240298560.0 -0.752092268 0.3938177343 5.33456e-05 6.1481e-05 0.0001531478 0.0001585549 0.1219373418 -0.0297988951
245298530.0 -0.748559051 0.4016706093 0.0002053019 -4.07371e-05 0.000202557 5.721e-07 0.1210509523 -0.0319683451
250298500.0 -0.7444412582 0.4093960412 0.0001736734 -5.0868e-06 0.0002295292 -3.14018e-05 0.1206901752 -0.0336812658
255298470.0 -0.7407854701 0.4178549925 2.14762e-05 -6.15966e-05 0.0001948476 0.0003086185 0.1201429482 -0.0361463007
260298440.0 -0.7360673048 0.424944176 -8.62127e-05 0.000136317 -3.25677e-05 -0.0001554024 0.1188662688 -0.0378871986
265298410.0 -0.7318668959 0.4328714752 0.0002277752 0.0002252188 2.08655e-05 0.000115025 0.1185332453 -0.0400306229
270298380.0 -0.7268524164 0.4404956639 0.0001428176 0.0001303784 0.0002215541 0.0002889686 0.1180358076 -0.0422996493
275298350.0 -0.7230460513 0.4484471843 6.83617e-05 -2.79454e-05 0.0001394658 0.0002919166 0.1173123233 -0.0441357763
280298320.0 -0.7179367177 0.4555411247 0.0002090981 3.67499e-05 9.38373e-05 8.5738e-06 0.1165199932 -0.0458104277
285298290.0 -0.7133629979 0.4631909804 0.0001565794 0.0001412361 0.0002818041 0.000155209 0.115466495 -0.0474495586
290298260.0 -0.7083864543 0.4711935156 9.92873e-05 6.06631e-05 0.0002219487 0.0002269841 0.1144793258 -0.0494213755
295298230.0 -0.7036619718 0.477863217 3.4074e-05 7.23525e-05 0.0001961695 4.94658e-05 0.1139572449 -0.051157571
300298200.0 -0.6990934586 0.4854387774 0.0002649446 0.0003762082 0.0001194538 0.0001562748 0.1132044395 -0.0529753214
305298170.0 -0.6944665039 0.4927292174 0.0002375586 -0.000121037 0.000425288 9.65872e-05 0.1122485617 -0.054773991
310298140.0 -0.6887678556 0.49997065 0.0001277953 4.73311e-05 3.71819e-05 0.0002120785 0.1115117934 -0.0563281326
315298110.0 -0.6843274845 0.5071204905 7.6481e-05 0.0001247275 8.79072e-05 1.86099e-05 0.1106719943 -0.0581037786
320298080.0 -0.6783257474 0.5143027293 3.53159e-05 6.87886e-05 0.0001156487 0.0002113984 0.1092760043 -0.0600128665
325298050.0 -0.6730210172 0.5210038713 0.0001082302 0.0001937076 0.0001527752 -3.66874e-05 0.1086340595 -0.0619588691
330298020.0 -0.6678979461 0.5282531775 0.0001887805 0.0002464889 8.31348e-05 0.0002072621 0.1073525384 -0.063801188
335297990.0 -0.662983571 0.5345223772 0.000211895 4.63975e-05 0.0001252351 0.0002251903 0.1063034226 -0.0654445215
340297960.0 -0.6574638648 0.5413410886 0.0002830808 0.0001994064 0.0001703404 8.65821e-05 0.1051544649 -0.0665180171
345297930.0 -0.6515703027 0.5482958791 0.0001494286 1.19951e-05 0.0001073336 2.4588e-05 0.1036768192 -0.0682058247
350297900.0 -0.6457852244 0.555071442 0.0002423151 0.0002229234 0.0001379369 0.0003280874 0.1022032705 -0.0696796889
355297870.0 -0.6399373523 0.5612688667 -1.4024e-05 0.000341979 0.0001493953 0.000209938 0.1009430998 -0.0707669985
360297840.0 -0.6348279611 0.567946362 0.0004960449 0.0003249859 5.21661e-05 0.0001481554 0.0998847736 -0.072287137
365297810.0 -0.6292513973 0.5748333157 0.0001046532 0.0001699485 1.51534e-05 -1.17028e-05 0.0987479081 -0.0734265259
370297780.0 -0.6226981171 0.5807144218 0.0003360499 0.0001435065 0.0003774658 0.0001931144 0.097150318 -0.0747733641
375297750.0 -0.6176923465 0.5866259918 7.06522e-05 0.0001442729 0.0003197374 0.0001980444 0.0960628797 -0.0762495674
380297720.0 -0.6116618554 0.5933636825 0.0002509333 0.0002594933 0.0002936113 0.000112494 0.0950609302 -0.0770955292
385297690.0 -0.6053764219 0.5998843618 9.49109e-05 0.0001812026 4.90212e-05 0.0001118692 0.0939176497 -0.0780455103
390297660.0 -0.5981072777 0.6051556301 0.0001009837 0.0003396521 0.0002726734 0.0003078825 0.0924343892 -0.0793853527
395297630.0 -0.5925702954 0.6124058461 0.0002138584 -1.34067e-05 0.0003141809 0.0001262721 0.0911219629 -0.0807591574
400297600.0 -0.586275151 0.6181321714 0.0002402138 5.22205e-05 0.0001806569 0.0003750187 0.0901103369 -0.0816572372
405297570.0 -0.5804787677 0.6232988584 0.0002277659 3.37635e-05 0.0003541648 -2.54e-08 0.0888514294 -0.0828367751
410297540.0 -0.5732485725 0.6297230118 0.0001049984 0.0003180558 0.0002373216 0.0001221078 0.087553197 -0.0836946062
415297510.0 -0.5680482247 0.6354196008 0.0003047368 0.0002133575 0.0002932169 0.0002610307 0.0862329839 -0.0851381074
420297480.0 -0.5602101343 0.6410926079 0.0001453642 0.0002225559 0.000104086 6.18691e-05 0.0854321784 -0.0857278375
425297450.0 -0.5539173742 0.646497264 0.0004110643 0.0001668002 -4.61341e-05 0.0001362862 0.08361999 -0.0870571572
430297420.0 -0.5477402967 0.6517255554 8.07481e-05 0.0002539155 0.000198081 -1.54171e-05 0.0826695334 -0.0878698241
435297390.0 -0.5406239151 0.6574109677 0.00030011 -0.0001256663 0.0003229035 -1.22044e-05 0.0809446479 -0.0887196024
440297360.0 -0.5334283883 0.6634431615 0.0001922331 7.67463e-05 3.85853e-05 2.90295e-05 0.0797617553 -0.0897519706
445297330.0 -0.5273644474 0.6675595267 0.0002650156 0.0001307499 0.0003377382 0.0001628067 0.0786115527 -0.0907613772
450297300.0 -0.519793964 0.6733494417 5.19345e-05 0.0001828496 0.0002982694 5.2053e-05 0.0773082669 -0.0917778931
455297270.0 -0.5136540403 0.6783042305 0.0002376169 9.06409e-05 0.0001607352 -0.0001523574 0.0759986124 -0.0921590658
460297240.0 -0.5052248632 0.6840544065 0.0002861006 5.35749e-05 0.0001324138 0.0002025622 0.0742945817 -0.0936015547
465297210.0 -0.498689216 0.6889689106 0.0005550919 1.46188e-05 0.0003107442 0.0001246781 0.0732101832 -0.0939404332
470297180.0 -0.4915814157 0.6944231297 0.0001002167 0.0003219897 0.0005670556 -2.8981e-05 0.0720048404 -0.0950381879
475297150.0 -0.4840819294 0.6985073024 0.0002981295 3.72054e-05 0.0001636404 0.0002728017 0.0707353647 -0.0953986931
480297120.0 -0.4764219811 0.7039435858 0.000406586 3.59717e-05 0.0002648373 -0.0001184997 0.0691578858 -0.0967248129
485297090.0 -0.4700834933 0.7087382779 0.0004105253 5.75915e-05 5.4819e-05 -4.18578e-05 0.0677287112 -0.0972487511
490297060.0 -0.4614121943 0.7139252809 0.0001554995 3.04046e-05 0.0002431205 6.95857e-05 0.0662868642 -0.0979957952
495297030.0 -0.4545742934 0.7183186681 0.0002903136 0.0001072208 0.0002408489 5.60349e-05 0.0647488884 -0.0987059798
500297000.0 -0.4469606429 0.7219123863 0.0003108936 0.0001963902 0.0002590241 0.0001483696 0.0637026451 -0.0992393395
505296970.0 -0.4391735876 0.727327793 0.0003781442 -8.2207e-06 0.0004137314 0.0002714594 0.0622400937 -0.0999409604
510296940.0 -0.4315881778 0.7314347895 0.0002694527 -0.0001126278 0.0003650721 0.000132128 0.0608144347 -0.1006584829
515296910.0 -0.4240485839 0.7357053262 0.0002117483 0.0001192093 0.0003176167 -5.18858e-05 0.0592478137 -0.1010959053
520296880.0 -0.4158436735 0.7400554161 0.0002154431 -2.82588e-05 0.0004211305 0.0001559468 0.0582340887 -0.1017050662
525296850.0 -0.4083774225 0.7440028385 0.0002803615 9.1714e-05 0.0003411331 -1.49789e-05 0.0567672423 -0.1024670449
530296820.0 -0.4012970253 0.74804027 0.0002046169 0.0001046212 0.0002808253 0.000171611 0.055155811 -0.1031194674
535296790.0 -0.3922431375 0.7512897149 0.0003759892 0.0001851019 0.0001489893 9.56002e-05 0.0543277574 -0.1034751589
540296760.0 -0.3845448722 0.7558427982 0.0003205128 7.56609e-05 0.0001584621 0.0002919122 0.0525056668 -0.1040630829
545296730.0 -0.3771284734 0.7604344399 0.0003911933 0.0002509233 0.0002971259 -0.0001002717 0.0512998354 -0.1045411484
550296700.0 -0.369155984 0.7634634574 0.0004057599 0.000392696 0.000276551 -3.93743e-05 0.0494760983 -0.10495804
555296670.0 -0.361049013 0.7668597715 0.0001955531 -2.3036e-05 0.0001500497 6.31513e-05 0.0479891436 -0.1056352584
560296640.0 -0.3530328151 0.7705135078 0.0003392999 0.0001865059 0.0002681464 -0.0001199454 0.0465494182 -0.1059010673
565296610.0 -0.3454265135 0.774550271 0.0002013019 -2.78589e-05 0.0001889751 0.0001020893 0.0453044694 -0.1063882183
570296580.0 -0.3367783967 0.777681717 0.0005180172 0.0002000974 0.0002418799 0.0001415861 0.0438426988 -0.1067976932
575296550.0 -0.3276831076 0.7810767524 0.0003560021 0.0002670502 0.0005264912 -2.03868e-05 0.0422256557 -0.1072064086
580296520.0 -0.321092782 0.7845789756 0.0002801191 7.30706e-05 0.0002572122 0.0001216419 0.0408867066 -0.1075650746
585296490.0 -0.3117555705 0.7870264676 0.0004946918 3.10854e-05 0.000302235 0.0002424062 0.0396429829 -0.1077039658
590296460.0 -0.3039065715 0.7903637176 0.0005681145 1.78353e-05 0.0004788979 6.8321e-05 0.0376868685 -0.108245097
595296430.0 -0.2960999933 0.7936428853 0.0004809773 0.000200538 0.000309937 8.11993e-05 0.0367638247 -0.108305783
600296400.0 -0.2878956196 0.7965250858 0.0003440879 4.32923e-05 0.0003455806 0.000117282 0.035084824 -0.108674123
605296370.0 -0.2797061254 0.7991947219 0.00048415 -7.17026e-05 0.0004252234 7.77989e-05 0.0339283223 -0.1089155761
610296340.0 -0.2711537991 0.8027646829 0.0003247872 4.15778e-05 0.0002284174 0.0001321901 0.0320409659 -0.1092398761
615296310.0 -0.2626173666 0.8053988377 0.0003761049 1.98365e-05 0.0002971318 8.27833e-05 0.0307269735 -0.1094230753
620296280.0 -0.2547364127 0.8078911899 0.0005209336 0.0001035203 0.0003142182 -3.79664e-05 0.0292130743 -0.1095242841
625296250.0 -0.2469797496 0.8103473739 0.0003031699 -0.0002126682 0.0002991219 -0.000112169 0.0276176865 -0.1098935111
630296220.0 -0.238745927 0.8130889567 8.68292e-05 -0.0001999779 0.0003144786 6.57769e-05 0.0262179856 -0.1099278443
635296190.0 -0.2300674982 0.8158553525 0.0003665061 5.57326e-05 0.000373569 -4.04549e-05 0.0244062109 -0.1099113569
640296160.0 -0.2214613921 0.8177035296 0.0003336103 3.96716e-05 0.0003666015 -3.55183e-05 0.0233706438 -0.1097534056
645296130.0 -0.2138763489 0.8202474581 0.0003655815 -3.0896e-05 0.0003823501 -4.04691e-05 0.0218351042 -0.1102319799
650296100.0 -0.2051949764 0.8218869538 0.0004671341 -9.36491e-05 7.95972e-05 5.06564e-05 0.0205324681 -0.110245324
655296070.0 -0.1974215254 0.8239320219 0.0005513691 0.0002750394 0.0004428778 2.40828e-05 0.0190154245 -0.1101877718
660296040.0 -0.1886424091 0.8260533648 0.0005138678 6.75948e-05 0.0001867784 -3.27668e-05 0.0176206781 -0.1104947514
665296010.0 -0.1807293245 0.8281023559 0.0003327728 -0.0001107 0.0002577421 0.0001168781 0.01627482 -0.110410049
670295980.0 -0.1725657137 0.8305334469 0.0002629912 4.01758e-05 0.0004981538 3.68808e-05 0.0145342703 -0.1103335854
675295950.0 -0.1637976872 0.8317747333 0.0001799536 -8.58895e-05 0.0004813941 -0.000333056 0.0132165475 -0.1102923399
680295920.0 -0.1562419704 0.8338444211 0.0007126966 0.0001711077 0.0003127693 -7.08986e-05 0.0117073164 -0.110027043
685295890.0 -0.147362214 0.8356639254 0.0002727088 -3.52722e-05 1.25465e-05 1.11546e-05 0.0103838582 -0.1099775143
690295860.0 -0.1391663692 0.8368068158 0.0003660902 -6.42093e-05 0.0002373808 -7.50613e-05 0.008889027 -0.1099743875
695295830.0 -0.1304938172 0.8384537914 0.0001034078 -2.65542e-05 0.0002300784 0.0002685131 0.0073761062 -0.109735866
700295800.0 -0.1224453409 0.8402028051 0.000301821 -0.0001347734 0.000449165 5.23445e-05 0.006159553 -0.1100264592
705295770.0 -0.1143686598 0.8411168168 0.0002874874 0.0001418582 0.0004580462 -4.03458e-05 0.0046623375 -0.1096002467
710295740.0 -0.10672655 0.8416844994 0.0004912513 0.000119548 0.000154002 -0.000116094 0.0031483794 -0.109657634
715295710.0 -0.0973503707 0.8433849451 0.0003860279 -1.69569e-05 0.0003698014 2.3615e-06 0.0018849683 -0.1096957998
720295680.0 -0.0886621792 0.8437989409 0.0004137326 0.0002101739 0.0003684049 0.0001433429 0.0004056615 -0.1093235524
725295650.0 -0.0810754273 0.8454158244 0.0004654877 -5.0794e-05 0.0003729179 -8.52806e-05 -0.0013946502 -0.1086089547
730295620.0 -0.0734909759 0.8459942266 0.000298685 -0.0002175082 0.0004788306 -0.0001830247 -0.002473964 -0.1084300442
735295590.0 -0.0653249886 0.8475383705 0.0003677826 1.09954e-05 0.0003890567 -0.0001796942 -0.0039293805 -0.1084821129
740295560.0 -0.0574499728 0.8477028021 0.0004186273 7.43651e-05 0.000472337 -0.0001279701 -0.0053275017 -0.108236058
745295530.0 -0.0482455211 0.8484083445 0.0002347655 5.14189e-05 0.0002691866 -0.0001371342 -0.006835642 -0.1077831401
750295500.0 -0.040873006 0.8490972885 0.000314786 1.50042e-05 0.0004290363 2.90543e-05 -0.0082643068 -0.1076412932
755295470.0 -0.031923371 0.8494995753 0.0005597043 -3.91037e-05 0.0002348745 0.0001455177 -0.0093954749 -0.1067921091
760295440.0 -0.0237988253 0.8505979555 0.0004059217 7.7483e-06 0.000325938 1.4391e-06 -0.01070619 -0.1070736046
765295410.0 -0.0157472028 0.8505395349 0.0003286487 -0.000105052 0.0001354965 -0.0001537771 -0.0124508113 -0.1063430948
770295380.0 -0.0076727895 0.8506346322 0.0003684706 -0.0001403605 0.0004552067 8.5377e-06 -0.0138668833 -0.1060946687
775295350.0 0.00032379 0.8506343202 0.0006423777 6.246e-07 0.000406833 4.01503e-05 -0.0149040224 -0.1060175118
780295320.0 0.0091893865 0.8513026656 0.0004398278 -0.0001573087 0.0004937639 -0.000344167 -0.0163238871 -0.1053290407
785295290.0 0.0173760181 0.850642331 0.000139312 -1.17584e-05 0.0003103459 -0.0002064139 -0.0182695265 -0.1048743135
790295260.0 0.0253983052 0.8504312694 0.0001817201 -0.0002380107 0.0003642937 -8.33797e-05 -0.0189599232 -0.1042958448
795295230.0 0.0333291972 0.8504253835 0.0005214751 6.8111e-05 0.0004063581 -0.0002239482 -0.0204945461 -0.1041892933
800295200.0 0.0410868157 0.8505693612 0.0006808582 -9.45627e-05 0.0003162467 -2.18774e-05 -0.0216869262 -0.1034453537
805295170.0 0.0498570944 0.8505906122 0.0003422967 -0.0001056115 0.0002291094 -0.0001926002 -0.0226543326 -0.1036509088
810295140.0 0.0584293006 0.8502497045 0.0004553163 -0.0002993123 0.0004032192 -7.1393e-06 -0.0243413759 -0.1024272057
815295110.0 0.0651223916 0.8489426272 0.0005473899 -0.0001308272 0.0005138083 -0.000233799 -0.0260495633 -0.1020349407
820295080.0 0.0740609104 0.8488342804 0.0004707269 -0.0002808702 0.0002965222 -0.0001102977 -0.0275713201 -0.1010253063
825295050.0 0.0824409056 0.847979406 0.0004844193 -0.0001060205 0.0004911879 -0.000253131 -0.0282584541 -0.100999386
830295020.0 0.0910206745 0.8473548232 0.0005363052 -0.0001509207 0.0005320567 -0.0002606087 -0.0298855153 -0.1005360746
835294990.0 0.0984308529 0.8466611963 0.0005807526 -8.7026e-06 0.0004188381 -0.0002526271 -0.0310372632 -0.0996875335
840294960.0 0.1073031322 0.8450262446 0.000545413 -0.0001473297 0.0003315242 -0.0002306727 -0.0322265532 -0.0990813819
845294930.0 0.1152691371 0.8438048418 0.0006043545 -5.80559e-05 0.0004963389 -0.0003062033 -0.0334761509 -0.0984252374
850294900.0 0.1242377692 0.8432267888 0.0004400543 -0.0001313192 0.0003229882 -9.1439e-06 -0.03468632 -0.0978527105
