!Created with skrf (http://scikit-rf.org).
# Hz S RI R 50.0 
!freq ReS11 ImS11 ReS21 ImS21 ReS12 ImS12 ReS22 ImS22
300000.0 -0.3243654637 -0.0739821774 0.377028016 0.0398940713 0.3751550939 0.0375502181 -0.3215435603 -0.0893301589
5299970.0 -0.3265846707 0.0047859171 0.378644414 0.0023635446 0.3784444137 0.0024887061 -0.3245860627 0.0052378
10299940.0 -0.3242260042 0.0135729114 0.3794198818 0.0016580499 0.3793402866 0.0022785477 -0.3221322021 0.015986784
15299910.0 -0.3213487112 0.020455577 0.381755322 0.0022221007 0.3821849004 0.0021648599 -0.3188037761 0.0236230431
20299880.0 -0.3187696311 0.0259594366 0.3849034473 0.0019640005 0.3850756234 0.0017248733 -0.3153299107 0.0301328918
25299850.0 -0.3156704402 0.031411326 0.3881501682 0.0002366791 0.3881273799 -5.17254e-05 -0.3113625318 0.0357763504
30299820.0 -0.312903886 0.0357979003 0.3916822394 -0.0019440042 0.3915476085 -0.002454813 -0.3075591826 0.0408232265
35299790.0 -0.309684766 0.0397919056 0.3948382845 -0.0055683909 0.3947924098 -0.005178947 -0.3038066903 0.0449856819
40299760.0 -0.3072236846 0.0434305269 0.398099065 -0.0089432894 0.3978381202 -0.008384791 -0.3005775585 0.0480658578
45299730.0 -0.3046876124 0.0463579345 0.4007071454 -0.0129586524 0.4010076711 -0.0125145742 -0.2975847816 0.0515947646
50299700.0 -0.3022222882 0.0493376586 0.4034492297 -0.0170009958 0.4035132293 -0.0168000104 -0.294148688 0.0540653924
55299670.0 -0.3001900286 0.0520625955 0.4057976891 -0.0222796669 0.4057554015 -0.0221057979 -0.2916910506 0.056631465
60299640.0 -0.2980747313 0.0550018324 0.4075377732 -0.0270646453 0.4077815926 -0.0265640847 -0.2890821513 0.0589976296
65299610.0 -0.2961845842 0.0571417589 0.4091555929 -0.0318173543 0.4091757663 -0.0317470586 -0.2870909719 0.0614458444
70299580.0 -0.2947735193 0.0598168748 0.4108375829 -0.0367135222 0.4103363859 -0.0366869945 -0.2848914505 0.0638206566
75299550.0 -0.2929132709 0.0625852495 0.4114377148 -0.0420715483 0.4113967686 -0.0421473471 -0.2830866078 0.065514521
80299520.0 -0.2914627777 0.064681548 0.4123166586 -0.0475383566 0.4127489332 -0.0473196345 -0.281596935 0.0677238452
85299490.0 -0.2904696593 0.0668601561 0.4130161964 -0.0523912508 0.4129182346 -0.0522205515 -0.2797848437 0.0700675791
90299460.0 -0.2888129114 0.0692608967 0.4130149307 -0.0580740299 0.4134019501 -0.0578237241 -0.2782759781 0.0719927415
95299430.0 -0.2871223881 0.0713347847 0.4137672599 -0.0630792655 0.4137502046 -0.0629964819 -0.2764490613 0.0742933615
100299400.0 -0.2864029851 0.0742049563 0.4134009314 -0.0683060119 0.4132175143 -0.0681979478 -0.2751046165 0.0763263309
105299370.0 -0.2851006839 0.0762539478 0.4132844241 -0.0737108803 0.4136005146 -0.0736952579 -0.2737078711 0.0784250152
110299340.0 -0.2840101011 0.078715548 0.4133602052 -0.0786685144 0.413195652 -0.0783680802 -0.2727469858 0.0805617199
115299310.0 -0.2827210184 0.0809164983 0.4131048483 -0.0838378969 0.4129347938 -0.0834266225 -0.2714405907 0.0827043545
120299280.0 -0.2819074355 0.0830472841 0.4122076744 -0.0888869792 0.4124094768 -0.0886979615 -0.2704876835 0.0847382162
125299250.0 -0.281153217 0.0852848857 0.4119115286 -0.0938294982 0.4121820578 -0.0936129156 -0.2698065062 0.0868778958
130299220.0 -0.2803126651 0.0878984924 0.4112479884 -0.0986852636 0.4112045752 -0.0990327142 -0.2687641603 0.0890461077
135299190.0 -0.2793624277 0.0902268177 0.4107584755 -0.10381406 0.4107124149 -0.1037600938 -0.2675929916 0.0915065259
140299160.0 -0.2786599247 0.0932721712 0.4097940896 -0.1089852104 0.4099610557 -0.1088785935 -0.2664056573 0.0938772168
145299130.0 -0.2775529361 0.0958304252 0.4094194347 -0.114122671 0.408420716 -0.1138947284 -0.2655735012 0.0960360688
150299100.0 -0.2764807555 0.0981593455 0.4078632319 -0.1184007074 0.4077166462 -0.1181303012 -0.2644876572 0.0988649439
155299070.0 -0.2755392651 0.1007926392 0.406960219 -0.1241349326 0.406555908 -0.1235555408 -0.2636699708 0.1010674309
160299040.0 -0.2746517748 0.1032251468 0.4052332396 -0.1286184038 0.4053632263 -0.1284051493 -0.2629634505 0.1031961049
165299010.0 -0.2737171828 0.1059129447 0.4043996718 -0.1339648822 0.4044071554 -0.1335917749 -0.2618574382 0.1058848422
170298980.0 -0.2727753872 0.1086800861 0.4028708348 -0.1383791823 0.403229485 -0.1382356593 -0.2609169194 0.1080961368
175298950.0 -0.2720895357 0.1112066033 0.4018871868 -0.1433303469 0.4015620181 -0.1431366358 -0.2601421662 0.1106366231
180298920.0 -0.2711909056 0.1141567905 0.4000848161 -0.1478235812 0.3999871282 -0.1476097409 -0.2588910742 0.1134801166
185298890.0 -0.2698250633 0.1163977511 0.3986259692 -0.152479096 0.3985944583 -0.1524049016 -0.257793191 0.1157338453
190298860.0 -0.2688333312 0.1193831498 0.3971890125 -0.157553008 0.397340587 -0.1569882848 -0.2566934387 0.118034561
195298830.0 -0.2679448056 0.1220693187 0.3953755687 -0.1621747493 0.3952855028 -0.1616724612 -0.2553527334 0.1205679134
200298800.0 -0.2664571064 0.1243778458 0.3935688967 -0.1667258006 0.3938384989 -0.1664489793 -0.2548475431 0.123061256
205298770.0 -0.2654487929 0.1272217237 0.3913178415 -0.1713736435 0.3919111933 -0.1709511141 -0.2535786566 0.1253114624
210298740.0 -0.2644257964 0.1294950738 0.3897712659 -0.1752417031 0.3897636185 -0.175209128 -0.2519332156 0.1281404897
215298710.0 -0.2636152007 0.1325930187 0.3882577525 -0.1796814378 0.3879575064 -0.1801905515 -0.2513338068 0.1308177861
220298680.0 -0.2623136732 0.1348272142 0.3856119343 -0.1841417581 0.3860689986 -0.1843479871 -0.2503134549 0.1331539839
225298650.0 -0.261157877 0.1376302208 0.3837596516 -0.188960671 0.3841743762 -0.1889135638 -0.2491166151 0.1353565439
230298620.0 -0.2598673567 0.1409115806 0.3823029951 -0.1933409438 0.3823273417 -0.1935636992 -0.2478131749 0.1380567366
235298590.0 -0.2582642398 0.1438169316 0.3800596678 -0.1978223438 0.3800982424 -0.1973637321 -0.2465488208 0.1409813407
240298560.0 -0.2572365101 0.1461850601 0.3779460704 -0.2021950336 0.3780313837 -0.2020350421 -0.2451567097 0.1436299398
245298530.0 -0.2559172406 0.148932507 0.3760128619 -0.2063764393 0.3756932172 -0.2067447601 -0.2438304794 0.1456647469
250298500.0 -0.2542847903 0.1517650901 0.3730621918 -0.2110714057 0.3729512411 -0.2106589545 -0.2424931406 0.1484471612
255298470.0 -0.2530161945 0.1539676558 0.3704691765 -0.2147432131 0.3708946058 -0.2146799198 -0.2412728423 0.1507872919
260298440.0 -0.251803971 0.1566229213 0.368497642 -0.2194050477 0.3685709808 -0.2192123783 -0.2392073976 0.1537450259
265298410.0 -0.2498476884 0.1600686825 0.3658168416 -0.2235437835 0.3662039359 -0.2231843476 -0.2380286267 0.156431716
270298380.0 -0.2487343613 0.1620778047 0.3638704368 -0.2273763708 0.3639549839 -0.2271549614 -0.2366018791 0.1588119071
275298350.0 -0.2469232726 0.1649770248 0.3611107653 -0.2314397654 0.3612910973 -0.2314634486 -0.2348126644 0.1612903566
280298320.0 -0.2451704509 0.1678985796 0.3590996301 -0.2359493993 0.3589253639 -0.2355724138 -0.2334693288 0.1635438141
285298290.0 -0.2433637168 0.1706441968 0.3561397374 -0.2396186217 0.3558542706 -0.2398039395 -0.2317484227 0.1664541922
290298260.0 -0.2419581441 0.1732402802 0.3533472205 -0.243794941 0.3535287477 -0.243798431 -0.2303640689 0.1687877777
295298230.0 -0.2401905931 0.1752863978 0.3508011859 -0.2475437425 0.3508310858 -0.247531634 -0.2283694473 0.1715449838
300298200.0 -0.2385744932 0.1782811607 0.3484751454 -0.2510959421 0.3483218947 -0.2518099682 -0.2268950034 0.1737231217
305298170.0 -0.2367846159 0.1805332175 0.3448977434 -0.2558690663 0.3453239998 -0.2555066255 -0.2246673612 0.1761316978
310298140.0 -0.2350803891 0.1834143523 0.3424266956 -0.2597572589 0.3425346497 -0.2594081451 -0.2234027664 0.1788464334
315298110.0 -0.2333118561 0.1857463423 0.3395846045 -0.2635338526 0.3397978087 -0.263256965 -0.2216039426 0.1809253414
320298080.0 -0.2313150086 0.1884380678 0.336315017 -0.2676572852 0.3367351447 -0.2674526771 -0.2198339351 0.1834441675
325298050.0 -0.2294469396 0.1907465349 0.3335260633 -0.2713309127 0.333695247 -0.2712087521 -0.2181081124 0.1858463916
330298020.0 -0.2278800374 0.1929915358 0.3303805397 -0.2747954182 0.3304644929 -0.2749712197 -0.2164500963 0.1882293875
335297990.0 -0.2257554899 0.1954785847 0.3274060955 -0.2782487584 0.3274601176 -0.278477429 -0.2151758632 0.1907890386
340297960.0 -0.2244805015 0.1982212289 0.3241340445 -0.2820456275 0.3237678499 -0.2823082442 -0.21281753 0.1932609174
345297930.0 -0.2223895073 0.2010508338 0.3210754781 -0.28581608 0.3207613113 -0.2857780335 -0.2112195111 0.1953727343
350297900.0 -0.2202229949 0.2031860707 0.3173106933 -0.2893786695 0.3177478362 -0.2893860115 -0.2093471868 0.1981175117
355297870.0 -0.2178684042 0.2060447011 0.3141400682 -0.292977047 0.3145705545 -0.2926138616 -0.2074881104 0.2001370885
360297840.0 -0.2163882381 0.2082921626 0.3115138753 -0.2963487064 0.311553877 -0.2962362899 -0.2055814132 0.2028130954
365297810.0 -0.2141283873 0.2110924161 0.3077685113 -0.2998314632 0.3081418063 -0.2996548377 -0.2031759048 0.2045500084
370297780.0 -0.2117223519 0.2130836887 0.3043068775 -0.3027504909 0.3047869655 -0.3027935222 -0.201077537 0.2074430362
375297750.0 -0.2095437295 0.2157506659 0.3010473502 -0.3063786305 0.3013046779 -0.3064006244 -0.199011668 0.2093090827
380297720.0 -0.2076756454 0.2176611974 0.2978289878 -0.3099165454 0.297594314 -0.3091771824 -0.1972949767 0.211249768
385297690.0 -0.2055754768 0.2204291802 0.2940539941 -0.312902377 0.2939782864 -0.3127097329 -0.1947419279 0.2139078423
390297660.0 -0.2032753232 0.2228367864 0.2905188575 -0.3162019883 0.2906569182 -0.3160197025 -0.1928884184 0.2162108669
395297630.0 -0.2008781933 0.2250656526 0.2871361709 -0.3194015055 0.287471732 -0.319211272 -0.1900352634 0.2184377045
400297600.0 -0.198732625 0.2273173971 0.283581814 -0.3226764239 0.2839888929 -0.3222924423 -0.1882162202 0.2204057767
405297570.0 -0.1966767237 0.2294535323 0.280512355 -0.3252651648 0.2804553815 -0.3252774019 -0.186093606 0.2224962759
410297540.0 -0.1939501761 0.2316962793 0.2767553755 -0.3283334273 0.2767714007 -0.3284954588 -0.1838937682 0.2251079668
415297510.0 -0.1913896645 0.2334859727 0.2729399061 -0.3316594473 0.2730056261 -0.3316531044 -0.1811910646 0.2269878891
420297480.0 -0.189303936 0.2364620254 0.2688218011 -0.3349599228 0.2691897211 -0.3346527466 -0.1793170487 0.229220061
425297450.0 -0.186519132 0.2381909719 0.2655193378 -0.3373350867 0.2660070503 -0.3371816725 -0.1770901881 0.2311954435
430297420.0 -0.1841286085 0.2402113939 0.2616702638 -0.3398209207 0.2618858679 -0.3399781927 -0.1745585272 0.2329463186
435297390.0 -0.1817544573 0.2423126935 0.2578332208 -0.3430174975 0.2580155834 -0.343070008 -0.1718175367 0.2350248699
440297360.0 -0.179367989 0.2443483463 0.2541946727 -0.3456439341 0.2546031179 -0.3458746235 -0.1696534134 0.2369584516
445297330.0 -0.1766783401 0.2460457212 0.2504824762 -0.3486695396 0.2506819178 -0.3481817572 -0.1670439159 0.2388003054
450297300.0 -0.174103979 0.2484108172 0.2465237975 -0.3510774011 0.2468282813 -0.3513563911 -0.1645257236 0.2407918573
455297270.0 -0.1713523773 0.2502839848 0.2425657595 -0.3535129992 0.2428556282 -0.3541065592 -0.1619892837 0.2425103803
460297240.0 -0.1691588175 0.2524447563 0.2386782475 -0.3565820335 0.2390778766 -0.3567454954 -0.1598944931 0.2449691595
465297210.0 -0.1662532104 0.2548584844 0.2347191947 -0.3591501657 0.235055079 -0.3593502075 -0.1570625619 0.2465120154
470297180.0 -0.1637937381 0.2562004663 0.2304895388 -0.3618559675 0.2308698907 -0.3616681193 -0.1546583429 0.2487189595
475297150.0 -0.1612146095 0.2576912382 0.2268646583 -0.3636257791 0.2272553555 -0.3638096478 -0.151652566 0.2502004935
480297120.0 -0.1584006503 0.260173952 0.2228068215 -0.3664766968 0.2227986399 -0.3663995919 -0.1490387453 0.2517418628
485297090.0 -0.1557814968 0.2617887669 0.2191368359 -0.3687607652 0.2189256592 -0.3685438539 -0.1463182094 0.253528986
490297060.0 -0.1533831809 0.2637752966 0.215032876 -0.371453815 0.2149327716 -0.3712333695 -0.1439351879 0.2553990621
495297030.0 -0.1504784902 0.265345733 0.2105263336 -0.3733274832 0.2109203197 -0.3737128403 -0.1416714283 0.2571465537
500297000.0 -0.1474402221 0.2673555839 0.2065009781 -0.3758058242 0.2065721701 -0.3755427897 -0.1383734777 0.2591446538
505296970.0 -0.1444478801 0.2687829862 0.2025020287 -0.3777655003 0.2024944141 -0.3781037181 -0.1359155944 0.260421782
510296940.0 -0.1420047368 0.270567496 0.1984013778 -0.3803389368 0.198148937 -0.380434075 -0.1330929672 0.2620531681
515296910.0 -0.1388736802 0.2719826015 0.193979713 -0.3826315073 0.1939877531 -0.3822768169 -0.1305440811 0.263325327
520296880.0 -0.1364369501 0.2739128629 0.1898684541 -0.3844617753 0.1899036423 -0.3840150273 -0.1277832234 0.2647993285
525296850.0 -0.133000737 0.2747864725 0.1854594251 -0.3862258223 0.1860515839 -0.3862708247 -0.12503406 0.2667890826
530296820.0 -0.1301406271 0.2768660623 0.1811608051 -0.3886530296 0.1815883233 -0.3882567859 -0.1221324728 0.2682376371
535296790.0 -0.127828049 0.2784161255 0.1773308447 -0.3903794101 0.1775588546 -0.3896234643 -0.1197960394 0.2689009617
540296760.0 -0.1248466144 0.2797267102 0.1729699962 -0.3923881194 0.172902578 -0.3922220883 -0.1168107373 0.270888242
545296730.0 -0.1219446633 0.2812606214 0.1681556698 -0.394013794 0.1684650925 -0.393793369 -0.1140535942 0.2719554784
550296700.0 -0.1184700444 0.2829109452 0.1641305898 -0.3953266848 0.1643722111 -0.3959548246 -0.1112253586 0.2734302847
555296670.0 -0.1158137946 0.2838085957 0.1600042682 -0.3975132383 0.1603058953 -0.3972065767 -0.1081182435 0.2751306882
560296640.0 -0.1127488282 0.2855503796 0.1555519527 -0.39906289 0.1555798109 -0.3991822559 -0.1051323412 0.276127559
565296610.0 -0.1098662352 0.2868072233 0.1508865627 -0.4006901016 0.15154243 -0.4006564781 -0.1027617307 0.276958269
570296580.0 -0.1072114803 0.2878994287 0.1468522653 -0.4026608053 0.1467433659 -0.4021529701 -0.099535733 0.2789107913
575296550.0 -0.1040647526 0.2896242648 0.1425821309 -0.40396328 0.1422778943 -0.4041412614 -0.0963493724 0.2800961473
580296520.0 -0.1008996033 0.2907004469 0.1384052167 -0.4055469593 0.1382439223 -0.4053087301 -0.0932008395 0.2810752514
585296490.0 -0.0981455258 0.2916317176 0.1336180825 -0.4065696288 0.1339917349 -0.4070169399 -0.0905826144 0.282418448
590296460.0 -0.0947691913 0.2931204289 0.129236091 -0.408110463 0.1293774467 -0.4080485298 -0.0880148887 0.2834991826
595296430.0 -0.091988295 0.2939145568 0.1247970402 -0.4097013365 0.1246519079 -0.4096467832 -0.084607297 0.2840831519
600296400.0 -0.0889602156 0.2950276997 0.1206181623 -0.4109419912 0.1203972359 -0.4106068586 -0.0815558456 0.2851397026
605296370.0 -0.0858057567 0.2960969369 0.1157702547 -0.4119180717 0.116042064 -0.4120501538 -0.0782959354 0.2863221042
610296340.0 -0.082311965 0.2972394185 0.1109666223 -0.4132576392 0.1115654624 -0.4132104889 -0.0755711751 0.2870711751
615296310.0 -0.0791505853 0.2981816724 0.1065786375 -0.4142774527 0.1067216436 -0.4147921817 -0.0722438769 0.2883280735
620296280.0 -0.0762466821 0.2988940022 0.10220754 -0.4153008057 0.102350673 -0.4152665744 -0.0696131613 0.289197726
625296250.0 -0.0736112918 0.2999130943 0.0982621698 -0.4165020821 0.0977245503 -0.4168016662 -0.0662498489 0.2898988852
630296220.0 -0.0692666079 0.3010602795 0.0924476481 -0.4177578637 0.0929994985 -0.4176139179 -0.0631794429 0.2911949868
635296190.0 -0.0670833945 0.3018641329 0.0884881175 -0.4183279992 0.0887441142 -0.4186306428 -0.0602011428 0.2917339526
640296160.0 -0.0637802716 0.3025170587 0.0841349178 -0.4192156227 0.084311773 -0.4193246766 -0.0570739215 0.2924773843
645296130.0 -0.0603182742 0.3035433622 0.0795629202 -0.4197803838 0.0798318298 -0.4202923536 -0.0543511443 0.2934540995
650296100.0 -0.0570295444 0.3043552333 0.0746755747 -0.4207885687 0.0748211524 -0.4210594223 -0.0510079668 0.2937162266
655296070.0 -0.0541637384 0.3051140993 0.0704191374 -0.4218258461 0.0706022417 -0.4219541582 -0.0477934497 0.294763803
660296040.0 -0.0514334719 0.3055114261 0.0657197338 -0.4221715003 0.0660146853 -0.4226396279 -0.0446103916 0.2956541663
665296010.0 -0.0477433725 0.3060719589 0.061035482 -0.4232166581 0.0612974103 -0.42326166 -0.0415609533 0.2963411449
670295980.0 -0.045100586 0.307187752 0.0565435323 -0.4238736492 0.0567310737 -0.4237877264 -0.0386156958 0.2966581116
675295950.0 -0.0415379671 0.3077247198 0.0520911876 -0.4242154809 0.0523655342 -0.4236295894 -0.0362427648 0.2974543267
680295920.0 -0.0382550511 0.3079689621 0.0472507594 -0.4245111948 0.0471067549 -0.4250564241 -0.0322060456 0.2980965756
685295890.0 -0.0350371629 0.3087001964 0.0425810209 -0.4250833827 0.0425873599 -0.4250969219 -0.0292144792 0.2981798978
690295860.0 -0.0318485172 0.3091573795 0.0383686446 -0.4250546086 0.0382552506 -0.4258940128 -0.0262210547 0.2992370206
695295830.0 -0.0284709182 0.3096859863 0.0336681572 -0.4259757525 0.0334590509 -0.4258780327 -0.0228492976 0.2992557973
700295800.0 -0.0249289782 0.3098900776 0.0286240962 -0.4259293005 0.0288928391 -0.425743019 -0.0205503281 0.2996937391
705295770.0 -0.0221877518 0.3106840411 0.0239962911 -0.4264867392 0.0247386411 -0.4265858023 -0.0170218656 0.3006582271
710295740.0 -0.0187880626 0.3109489758 0.0198110636 -0.4269702511 0.019915378 -0.4269074946 -0.0140233452 0.3001668612
715295710.0 -0.0158349942 0.310801567 0.0150908496 -0.4266931133 0.0150847224 -0.426819231 -0.010715847 0.3007461103
720295680.0 -0.0126178706 0.3113706973 0.0105587436 -0.4272179653 0.010510951 -0.4270986303 -0.0071968472 0.3009504413
725295650.0 -0.0092195521 0.3118046026 0.0057397397 -0.4268670837 0.0059334654 -0.4273491882 -0.0044432291 0.3015308239
730295620.0 -0.0058454892 0.3118352469 0.0011261194 -0.4267261939 0.0014735573 -0.4270395075 -0.0012422085 0.3012731977
735295590.0 -0.0027182297 0.3121502472 -0.0029464041 -0.427263066 -0.0032832354 -0.4270263877 0.0014525386 0.3012037079
740295560.0 0.0004966843 0.3125119471 -0.0078725881 -0.427033453 -0.0079458108 -0.426987361 0.005374296 0.3017674654
745295530.0 0.0039835605 0.3127483849 -0.0128619063 -0.4263675103 -0.0128598755 -0.4263325033 0.0085579553 0.3012905053
750295500.0 0.00708934 0.3125463178 -0.0170432299 -0.4261480313 -0.0171439528 -0.4267407927 0.011569626 0.301875321
755295470.0 0.0103702165 0.3124739021 -0.0216556135 -0.4263863214 -0.0217864702 -0.4263891361 0.0148667052 0.3013188599
760295440.0 0.0134612025 0.3125404104 -0.0262001192 -0.4261200739 -0.0263051882 -0.4260362683 0.0180169586 0.3013783396
765295410.0 0.0169543074 0.3125150195 -0.0309005763 -0.4255650353 -0.0313079096 -0.4257075045 0.0212348932 0.3019045628
770295380.0 0.0199077954 0.3126587519 -0.0357796766 -0.4252051466 -0.0357583146 -0.4250131518 0.0242148296 0.3013384512
775295350.0 0.0231536982 0.312207296 -0.0405169044 -0.4246298124 -0.03975122 -0.4248446925 0.0272157978 0.3014692461
780295320.0 0.0264785798 0.3123426978 -0.0448820267 -0.4241347062 -0.0446195544 -0.4242142428 0.0302646355 0.3010660832
785295290.0 0.0297169687 0.3116711068 -0.0497418264 -0.4230512703 -0.0493166005 -0.4233453695 0.0340441601 0.3009075484
790295260.0 0.0334005793 0.3118394702 -0.0537671246 -0.4230413182 -0.053407533 -0.4230755302 0.0371387299 0.3007820062
795295230.0 0.0364759511 0.311424144 -0.0583459582 -0.4221777551 -0.0581254708 -0.422315038 0.0404994147 0.3006982859
800295200.0 0.0391939911 0.3114799957 -0.0628518725 -0.4214167174 -0.0627337963 -0.4219518964 0.0435606805 0.3005232352
805295170.0 0.0431507488 0.310601892 -0.0675665602 -0.4208192559 -0.0674413785 -0.4210677077 0.0465270244 0.3002903493
810295140.0 0.045946927 0.3103016065 -0.0719545377 -0.4195171437 -0.0719568603 -0.4201127198 0.0500690231 0.2998050186
815295110.0 0.0494094169 0.3101486508 -0.0766629475 -0.4188623037 -0.0760871585 -0.4192549932 0.0530666588 0.2994628486
820295080.0 0.0523437 0.3103142419 -0.0808238918 -0.4181665272 -0.0806529131 -0.418285335 0.0562990726 0.2993716028
825295050.0 0.0563183571 0.3094354142 -0.0852620304 -0.4174203712 -0.0854427258 -0.4175857668 0.0590152652 0.2985919024
830295020.0 0.0590791674 0.3091794189 -0.0903553009 -0.4164381509 -0.0902498236 -0.4166635704 0.0631212158 0.2983209418
