!Created with skrf (http://scikit-rf.org).
# Hz S RI R 50.0 
!freq ReS11 ImS11 ReS21 ImS21 ReS12 ImS12 ReS22 ImS22
300000.0 -0.3160875813 -0.1268857205 0.3709692929 0.0620601858 0.3718032021 0.0639758918 -0.3131951799 -0.1291854991
5299970.0 -0.3249199343 0.0028048566 0.3784205508 0.0032099386 0.3788862035 0.0034032473 -0.3257606919 0.0021597606
10299940.0 -0.322395413 0.0142462336 0.3799890723 0.002702014 0.3796223082 0.0027838009 -0.3235016219 0.0126198031
15299910.0 -0.3190582819 0.0224150847 0.3819196378 0.0027179092 0.3823289932 0.002672151 -0.3207821043 0.0197544856
20299880.0 -0.3154317786 0.0290320713 0.3847143597 0.0018472776 0.3855008413 0.0020290931 -0.3177060748 0.0259687783
25299850.0 -0.3116112302 0.034710594 0.3886524318 0.0005167536 0.388757254 0.000459024 -0.3150335769 0.0310499145
30299820.0 -0.3084464213 0.039574543 0.3922653198 -0.0021961968 0.3923595669 -0.002148154 -0.311923048 0.035974951
35299790.0 -0.3045142032 0.0435291449 0.3951721792 -0.0049217288 0.3952086128 -0.0052027085 -0.3089902736 0.0398176311
40299760.0 -0.3011856263 0.0467485967 0.3984365823 -0.0085994297 0.3985191544 -0.0087778705 -0.3064541685 0.0432778854
45299730.0 -0.2980663573 0.0499927437 0.4011063642 -0.0123832831 0.4015514114 -0.0125955792 -0.3037131694 0.0465031135
50299700.0 -0.2947480115 0.0525394519 0.4033816724 -0.0168534695 0.4038143598 -0.0175357921 -0.3009737933 0.0495946134
55299670.0 -0.2922158054 0.0552789866 0.4057197247 -0.0213612695 0.4062286773 -0.0219120977 -0.2994190126 0.0524436976
60299640.0 -0.2895942857 0.0578552491 0.408066279 -0.0267251205 0.4081059266 -0.0268419101 -0.2970968947 0.0548177859
65299610.0 -0.2873210649 0.0600432917 0.4096726551 -0.0314243564 0.4098687173 -0.0316753535 -0.2950934099 0.0572976883
70299580.0 -0.2854312519 0.0621755365 0.4107671571 -0.0366137778 0.4111540028 -0.0370424958 -0.2936407633 0.0597585823
75299550.0 -0.2835689257 0.0642304817 0.4117897276 -0.0421485749 0.4119023759 -0.0417974032 -0.2921452986 0.0623775755
80299520.0 -0.2816204005 0.0666024828 0.4129102375 -0.0472689243 0.4129927119 -0.0472736609 -0.2905888802 0.0647341497
85299490.0 -0.2799051897 0.0681423174 0.4133478546 -0.0523128967 0.4136646617 -0.0521915655 -0.2893498442 0.0667665938
90299460.0 -0.2783422844 0.0707616133 0.4136458313 -0.0578676772 0.4136553179 -0.057661928 -0.287518222 0.0693391529
95299430.0 -0.2769246633 0.0726787662 0.4139329304 -0.0632054858 0.414243588 -0.063089245 -0.2863104461 0.0719338148
100299400.0 -0.2750336194 0.0747725486 0.4138935318 -0.0680252684 0.4142649799 -0.068370336 -0.2853763663 0.0744594701
105299370.0 -0.2741247374 0.0766102438 0.4139060844 -0.0731515633 0.4139624845 -0.0736266613 -0.2839961319 0.0761697181
110299340.0 -0.2725157837 0.0790205715 0.4134923921 -0.0783260643 0.4139877428 -0.0780882367 -0.2833357142 0.0787609023
115299310.0 -0.2713789208 0.0809873944 0.4134448409 -0.0837786415 0.4136712649 -0.0835602074 -0.282351619 0.0814677335
120299280.0 -0.2704937363 0.0832250884 0.4132927887 -0.0891066167 0.4128388491 -0.0891619686 -0.280802694 0.0833316889
125299250.0 -0.2693205262 0.0852068119 0.412556729 -0.0939663839 0.4126416814 -0.093517998 -0.2802062047 0.0859172304
130299220.0 -0.268392603 0.0874547043 0.4120987764 -0.0991549893 0.4117688627 -0.0994837835 -0.2789528936 0.0882485887
135299190.0 -0.267081114 0.0898541012 0.4112365026 -0.1037118646 0.4112641685 -0.1043418219 -0.2782086708 0.0908291164
140299160.0 -0.2664593771 0.0919102015 0.4106620451 -0.1091442399 0.4101922957 -0.1087195074 -0.2776351315 0.0930468948
145299130.0 -0.2651948978 0.0946832891 0.4094412091 -0.1137651137 0.4093649481 -0.1139855129 -0.2764545818 0.0956168161
150299100.0 -0.2643624498 0.0967865571 0.4083750668 -0.1187252262 0.4084826628 -0.1190487394 -0.2754873324 0.0985622783
155299070.0 -0.2629925615 0.0994795143 0.4068527009 -0.1238138283 0.4073120697 -0.1240267914 -0.2748449709 0.1010985682
160299040.0 -0.2622651216 0.1021635813 0.4059534382 -0.1289634131 0.4060472057 -0.1292276044 -0.2738980779 0.1037416275
165299010.0 -0.2611580724 0.1044067189 0.4049926349 -0.1333648619 0.4047156226 -0.1336278417 -0.2726570717 0.1059165211
170298980.0 -0.2600923455 0.1068725872 0.4032649283 -0.1382075443 0.4037825764 -0.1384290207 -0.2721299002 0.1087610226
175298950.0 -0.2589845239 0.1091859526 0.4021650994 -0.1431182374 0.402327435 -0.1434467434 -0.2709480159 0.1115200475
180298920.0 -0.258410399 0.1120324887 0.400722199 -0.1480871459 0.4004836781 -0.148189766 -0.2699226517 0.1140306944
185298890.0 -0.2567996073 0.1142012155 0.3992718643 -0.1525392987 0.3990442081 -0.1525769685 -0.2688186015 0.116301053
190298860.0 -0.255373193 0.1172440917 0.3969674166 -0.1572986004 0.397902157 -0.1572862386 -0.26773032 0.1192099461
195298830.0 -0.2549519485 0.1197044223 0.3964945651 -0.1619521613 0.3964039425 -0.1619232862 -0.2671311796 0.1221392472
200298800.0 -0.253456701 0.1219490144 0.3941662108 -0.1670889992 0.3943587083 -0.1668166832 -0.2655020679 0.1247497403
205298770.0 -0.2529797161 0.1247300402 0.3922008924 -0.1708020306 0.3924886074 -0.1711347701 -0.2645818144 0.1273441856
210298740.0 -0.251431972 0.1275045519 0.390664291 -0.1757747809 0.3904512434 -0.1754444612 -0.2637698819 0.1298413458
215298710.0 -0.2503092257 0.130077724 0.3882010393 -0.1801011866 0.3886864768 -0.1804319435 -0.2623936926 0.1326366713
220298680.0 -0.2491852374 0.1325745114 0.3864285045 -0.1848182596 0.3865425955 -0.185078601 -0.261010863 0.1353021699
225298650.0 -0.2476231645 0.1351029266 0.3843797035 -0.1888117287 0.3847999776 -0.1886679222 -0.2596511772 0.1378403748
230298620.0 -0.2461520666 0.138089564 0.3826355734 -0.1934599108 0.382725046 -0.1936259825 -0.258752163 0.1405810763
235298590.0 -0.2454934578 0.1404453559 0.3804927688 -0.1978699911 0.3806000858 -0.1979503862 -0.2573653783 0.1434779881
240298560.0 -0.2438638577 0.1432259336 0.3784217053 -0.202020783 0.3783265798 -0.2020883169 -0.256196415 0.1458950978
245298530.0 -0.2427703098 0.145686401 0.3762149987 -0.2066061416 0.3762014718 -0.2065599409 -0.2546398564 0.1482945944
250298500.0 -0.2416586185 0.1482953174 0.3741263495 -0.2108613577 0.3739089352 -0.2105790542 -0.2534024759 0.1513133746
255298470.0 -0.2399577438 0.1513524629 0.3718546187 -0.2149569412 0.3722099686 -0.2151804033 -0.2521190178 0.1543417875
260298440.0 -0.2386608603 0.1535942293 0.3692911019 -0.2190100892 0.3695367697 -0.2188465639 -0.2507276601 0.1563344532
265298410.0 -0.2375487122 0.1563166974 0.3670073852 -0.2236973758 0.3667099882 -0.2235508839 -0.2484790619 0.1592348569
270298380.0 -0.2361012881 0.1587091194 0.3643954376 -0.2273371302 0.3644163268 -0.227796894 -0.2472145568 0.1621381914
275298350.0 -0.2346227272 0.1613603448 0.3616701546 -0.2312286298 0.3615985967 -0.2314952102 -0.2455900869 0.1650045881
280298320.0 -0.2332372432 0.1638904515 0.359787739 -0.2353301367 0.359659295 -0.2357435289 -0.24436232 0.1674789552
285298290.0 -0.2316282359 0.1667738863 0.3568025515 -0.2396583206 0.3570462471 -0.2394627211 -0.2428522093 0.1703297569
290298260.0 -0.229687345 0.1691681414 0.354301612 -0.2435226584 0.3543309052 -0.2439398031 -0.2410490723 0.1726799349
295298230.0 -0.2283923956 0.1715931071 0.351596377 -0.2479759956 0.3516983401 -0.2477345219 -0.2394300637 0.1752268716
300298200.0 -0.2267350688 0.1744331775 0.3485155371 -0.2518236597 0.3491500039 -0.2513974559 -0.2377328195 0.1780360864
305298170.0 -0.2253268089 0.1765791027 0.346291475 -0.2555880029 0.346440783 -0.2554229716 -0.2357238546 0.1801510795
310298140.0 -0.2231534315 0.1788450672 0.3432855828 -0.259597606 0.3436563606 -0.2593704237 -0.2339840789 0.1827118388
315298110.0 -0.2220010153 0.1813444359 0.3405408281 -0.2637132564 0.3405571126 -0.2636569842 -0.2323559456 0.1854754246
320298080.0 -0.2198691307 0.1838108618 0.3371269945 -0.2676303 0.3381518107 -0.2674936973 -0.2305587089 0.1878084951
325298050.0 -0.2186688343 0.1856201534 0.3346787104 -0.2707613416 0.3352630279 -0.2709802801 -0.2285110876 0.1904013655
330298020.0 -0.2173184603 0.1884978169 0.3313812035 -0.2749701978 0.331774286 -0.2750258155 -0.227087029 0.1929696056
335297990.0 -0.2152091962 0.1907911828 0.3282907547 -0.2784314183 0.3288582864 -0.2788757076 -0.2250026591 0.1954802599
340297960.0 -0.213508322 0.1933044887 0.3248607974 -0.2821294164 0.3251815915 -0.2823045633 -0.2231112817 0.1981920112
345297930.0 -0.2118449835 0.1955803876 0.3217706558 -0.2860548819 0.3220346901 -0.2857822166 -0.2213889891 0.200471423
350297900.0 -0.2101966838 0.1979173897 0.3188091585 -0.2889441885 0.3189021246 -0.2894565056 -0.2193323543 0.2026532299
355297870.0 -0.2083139441 0.2002633153 0.315508729 -0.2924410483 0.3152576341 -0.292534758 -0.216855843 0.2054922476
360297840.0 -0.2061533867 0.2026996106 0.3121750179 -0.2962366872 0.3123359968 -0.2965402141 -0.215077428 0.2079144989
365297810.0 -0.2047213963 0.2050885003 0.3089271904 -0.2997738757 0.3091243566 -0.2995928411 -0.213618368 0.2099502487
370297780.0 -0.2023864354 0.20719181 0.3050895109 -0.3030179447 0.3058719287 -0.3030602169 -0.2112648614 0.2128644371
375297750.0 -0.2005838665 0.2094497581 0.3024967041 -0.3063582734 0.3024365703 -0.3065400305 -0.2089853185 0.2153086157
380297720.0 -0.198810132 0.2120539748 0.2992909642 -0.3099867552 0.2988284451 -0.3097722204 -0.2068054786 0.2176015201
385297690.0 -0.1964714816 0.2140583 0.2954573095 -0.3131272997 0.2954170925 -0.3132740571 -0.2042820109 0.219909134
390297660.0 -0.1941740574 0.2160569468 0.2919547265 -0.3157244606 0.292292563 -0.31620609 -0.2019849234 0.2221423441
395297630.0 -0.1919371708 0.2182768706 0.2885018253 -0.3191123568 0.2885288594 -0.31928701 -0.1999202308 0.224571915
400297600.0 -0.1900198934 0.2207321955 0.2850956224 -0.3226242786 0.2851492025 -0.3224131966 -0.1973905412 0.2266992216
405297570.0 -0.1878712815 0.2222665865 0.2815042589 -0.325401322 0.281920754 -0.3257427766 -0.1949287189 0.2288819353
410297540.0 -0.1855941084 0.2246721434 0.2775692111 -0.3288610817 0.2779445875 -0.3285056918 -0.1928510493 0.2313372286
415297510.0 -0.1837396346 0.226968691 0.2742716655 -0.3317130258 0.2743837672 -0.3318350235 -0.1902215398 0.2335930949
420297480.0 -0.1810129279 0.2284923331 0.2703146355 -0.3347431337 0.2706045978 -0.3346882107 -0.1878657881 0.2359166282
425297450.0 -0.1788347028 0.2308518236 0.2669472041 -0.3375891713 0.2665885527 -0.3373645605 -0.1856260136 0.2376332544
430297420.0 -0.1765348792 0.2326158876 0.2634768919 -0.3406058629 0.2632571728 -0.3404395986 -0.1827568396 0.2397369525
435297390.0 -0.1739577462 0.2344926561 0.2593127939 -0.3435883733 0.2592648173 -0.3434713401 -0.1809594148 0.2425084648
440297360.0 -0.1714638974 0.2365380302 0.2553786516 -0.3462027276 0.2552840602 -0.3464821128 -0.1780294693 0.2441979802
445297330.0 -0.1689914195 0.2381054036 0.2514482027 -0.3487510836 0.2514842622 -0.3489596077 -0.1751676434 0.2463110681
450297300.0 -0.1665554502 0.2402905211 0.2476774583 -0.3514463227 0.2483588435 -0.3514416413 -0.1728626578 0.2484015664
455297270.0 -0.1646091175 0.2419088203 0.2439626488 -0.3542345978 0.2442393697 -0.3546360097 -0.1702872592 0.2502167282
460297240.0 -0.1615983164 0.2438981771 0.2400539322 -0.3571710325 0.2402854695 -0.3573202406 -0.1676307706 0.2522677131
465297210.0 -0.1592068062 0.245863563 0.2360731814 -0.3598628799 0.2358364574 -0.3602213007 -0.1648790557 0.2543550547
470297180.0 -0.156385777 0.2474983447 0.2320329339 -0.3618225321 0.2324174009 -0.3621902895 -0.1621487167 0.2559250141
475297150.0 -0.1540213202 0.2495774656 0.228208683 -0.3644962685 0.228162685 -0.3649107732 -0.1594173323 0.2578294577
480297120.0 -0.1510039739 0.251427233 0.2242989927 -0.3673553953 0.224307005 -0.3671876361 -0.1569240552 0.2596959307
485297090.0 -0.1485235539 0.2527906709 0.2200446211 -0.3696682944 0.2201668788 -0.3695699255 -0.1544140092 0.2617666893
490297060.0 -0.1452730272 0.2547383357 0.215631038 -0.3721705144 0.216239729 -0.3721139364 -0.1515113208 0.2634529171
495297030.0 -0.1430566151 0.2560819618 0.2122002778 -0.3745942991 0.2120230011 -0.3744413374 -0.1484964051 0.2651559425
500297000.0 -0.1404369041 0.2577224583 0.2079026622 -0.3763336545 0.2079390278 -0.3765704232 -0.1456488293 0.2668332505
505296970.0 -0.1372444361 0.2595868322 0.2037264588 -0.3789139057 0.2036759092 -0.3787523168 -0.1430609366 0.2682654391
510296940.0 -0.1346743658 0.2610533875 0.1996348458 -0.3813138373 0.1993836635 -0.3812657989 -0.1395136018 0.2703323946
515296910.0 -0.1315992212 0.2628302232 0.1949958767 -0.3833013734 0.1950908915 -0.3828032304 -0.1373607309 0.2713114554
520296880.0 -0.1289812384 0.2641493451 0.1910544461 -0.384878608 0.1908055569 -0.3851812562 -0.1340484793 0.273649107
525296850.0 -0.1264604439 0.2655574346 0.1867814661 -0.3872014886 0.1862482398 -0.3868865511 -0.1312010839 0.2749650658
530296820.0 -0.1237196407 0.267214932 0.182517377 -0.3890272414 0.1827306398 -0.3892858968 -0.1283457018 0.2763942065
535296790.0 -0.1200055115 0.2684715776 0.1783123329 -0.3909860964 0.178008028 -0.3910519347 -0.1251139909 0.2780579717
540296760.0 -0.1172466939 0.2700072819 0.1739601384 -0.3928121418 0.1735485617 -0.3929708163 -0.1225049261 0.2790422828
545296730.0 -0.1146310416 0.2717376497 0.1697763649 -0.3947231957 0.1696294985 -0.394722064 -0.1194289666 0.2807626457
550296700.0 -0.111251647 0.2729588001 0.1650155832 -0.3964889171 0.1647099303 -0.3966269338 -0.1164194006 0.282072346
555296670.0 -0.1083767636 0.2743763463 0.16064479 -0.3983481664 0.1606775336 -0.3983197693 -0.1136935439 0.2830906048
560296640.0 -0.1050701523 0.275244229 0.156225609 -0.3998374355 0.1565005879 -0.4001099994 -0.1104183756 0.2848624049
565296610.0 -0.1026340734 0.2768842293 0.1522906444 -0.4016784766 0.1519254511 -0.4011171747 -0.1074191024 0.2861806124
570296580.0 -0.0995522128 0.2780461103 0.1473677147 -0.4033390266 0.1476528519 -0.4032547164 -0.1047561592 0.2870988951
575296550.0 -0.0962752292 0.2792356971 0.1435094894 -0.4049487829 0.1433110169 -0.40477528 -0.1015241171 0.288262719
580296520.0 -0.0933095115 0.2807340876 0.1387972384 -0.4061235841 0.1384723404 -0.4064407524 -0.0986394049 0.2893927228
585296490.0 -0.0903799165 0.2818464696 0.1349671206 -0.4077174066 0.1339101575 -0.4076431737 -0.0952126651 0.2911229394
590296460.0 -0.0865952472 0.2827409144 0.1297941392 -0.4094579004 0.1299638781 -0.4091738421 -0.0926504209 0.2920254747
595296430.0 -0.0836863778 0.2843251713 0.1248367286 -0.4106173946 0.1249248311 -0.4103605164 -0.0890986066 0.2931329327
600296400.0 -0.0808915412 0.2851258957 0.1205673791 -0.4115917685 0.120605076 -0.4117225941 -0.0862986338 0.2941571549
605296370.0 -0.0779032247 0.2862643977 0.1166788951 -0.4129692671 0.1161276753 -0.413212793 -0.0828442658 0.2951096681
610296340.0 -0.0744616322 0.2877055115 0.1117998953 -0.4135307348 0.1120485804 -0.414017741 -0.0802648537 0.2961578666
615296310.0 -0.0710013898 0.2884973673 0.1070735427 -0.4154174337 0.1068071822 -0.4155099389 -0.0762081721 0.297428146
620296280.0 -0.0684236142 0.2897638287 0.1026472369 -0.4164117903 0.1025801501 -0.4164483336 -0.0737575286 0.2983888128
625296250.0 -0.0655163394 0.2902715268 0.0983613764 -0.4174825058 0.0982924521 -0.4175096916 -0.070705008 0.2986428413
630296220.0 -0.0620400226 0.2916022175 0.093456936 -0.4184286872 0.0934329324 -0.4185081594 -0.067371452 0.2999898021
635296190.0 -0.0592952871 0.292441645 0.089411658 -0.4192676511 0.0890861973 -0.4192353662 -0.0644507581 0.3006826609
640296160.0 -0.0560231966 0.2932407865 0.0847059112 -0.4204714938 0.0845114899 -0.4203978317 -0.0614381825 0.3018159312
645296130.0 -0.0524829199 0.2945501475 0.0797830478 -0.421161599 0.0800249464 -0.4211029801 -0.0580325969 0.302069879
650296100.0 -0.0498302463 0.2947571473 0.0754638469 -0.4219694901 0.0749434163 -0.4223557 -0.0544755058 0.303065245
655296070.0 -0.0469780077 0.2955197979 0.0708204814 -0.4230995546 0.0707412455 -0.4225545526 -0.0516283913 0.3038978686
660296040.0 -0.0435059014 0.2965821492 0.0661511873 -0.423480985 0.0660445208 -0.423624059 -0.0484289571 0.3043339983
665296010.0 -0.0402005308 0.2972709222 0.0614344093 -0.4237660682 0.0613176917 -0.4241318348 -0.0449217524 0.3049349818
670295980.0 -0.0375213514 0.2981572172 0.0570834954 -0.4247660523 0.056368856 -0.424277287 -0.042215139 0.3056145671
675295950.0 -0.0340293387 0.2985958696 0.0522155851 -0.4249051004 0.0523027641 -0.4253182001 -0.0387315485 0.3065971291
680295920.0 -0.031094932 0.2994539091 0.0479496461 -0.4254503894 0.0477680403 -0.4256585272 -0.0352918448 0.3067092665
685295890.0 -0.027656587 0.3001611968 0.0428723179 -0.4262927848 0.0430725075 -0.426369151 -0.0325003347 0.3075194312
690295860.0 -0.0250729316 0.3006046198 0.0386557501 -0.4264672482 0.0384585703 -0.4265559358 -0.0291908389 0.3077722844
695295830.0 -0.0217233609 0.3011533258 0.0345082582 -0.4269611839 0.0340566455 -0.427060413 -0.0261414201 0.3086561361
700295800.0 -0.0183566481 0.3016961079 0.0296611958 -0.4273522111 0.0293691744 -0.427064673 -0.0224570632 0.3083699221
705295770.0 -0.0152368573 0.3021469645 0.0246092994 -0.4277143303 0.0246808048 -0.4275286821 -0.019459917 0.3092612809
710295740.0 -0.0123774348 0.3024486992 0.0202879761 -0.4278230924 0.0198193814 -0.4280222633 -0.0162527091 0.3097767202
715295710.0 -0.0089655697 0.3029076576 0.0156925185 -0.4279258282 0.0154640161 -0.4280039437 -0.012836237 0.3092812114
720295680.0 -0.0057504379 0.303438682 0.0109807976 -0.4277965369 0.0107396104 -0.4284406803 -0.0097181503 0.3096967705
725295650.0 -0.0029564884 0.3037052492 0.0062161764 -0.4280150376 0.0063118757 -0.4282301148 -0.0067030796 0.3106275304
730295620.0 -0.0006065074 0.3040407604 0.0018120229 -0.4276922631 0.0018397425 -0.4276312385 -0.0033568609 0.3107996464
735295590.0 0.0031468898 0.3040864012 -0.0026787968 -0.4278208923 -0.0031482046 -0.4279846919 0.0001001861 0.3105446153
740295560.0 0.0057537726 0.3042995288 -0.0075054429 -0.4279534563 -0.0074593287 -0.428436554 0.0031469836 0.3109905804
745295530.0 0.0094963805 0.304696843 -0.0118459987 -0.4272636361 -0.0113622024 -0.4278807957 0.0058920801 0.3111137505
750295500.0 0.0119804342 0.3046205831 -0.016276686 -0.4271358469 -0.0167585941 -0.4274680425 0.009616118 0.3109093122
755295470.0 0.0152527192 0.3046116436 -0.0209476481 -0.4275560131 -0.0215913218 -0.427668039 0.0131361956 0.311492629
760295440.0 0.0181925227 0.3056550294 -0.0261606045 -0.4270279385 -0.0260156873 -0.4270482478 0.0162416806 0.3105715554
765295410.0 0.021602749 0.3045084799 -0.0304918019 -0.4265508302 -0.0305037274 -0.4267155819 0.0195325276 0.3109188114
770295380.0 0.0241941523 0.305081664 -0.034762815 -0.4259909796 -0.0353396122 -0.4267179088 0.0224495275 0.3110052771
775295350.0 0.0276309565 0.304756297 -0.0396103013 -0.4258109204 -0.0396474281 -0.425741549 0.0258727913 0.3109952618
780295320.0 0.0308706266 0.3048690264 -0.0439822467 -0.4248611448 -0.0441346394 -0.4252766796 0.0294919781 0.3107072729
785295290.0 0.0336002976 0.3047285528 -0.0485974114 -0.4246582414 -0.0484408466 -0.4249678588 0.0322399731 0.3109578829
790295260.0 0.0368905666 0.3044521098 -0.05320585 -0.4241198272 -0.0534437094 -0.4245930164 0.0356293641 0.3105449751
795295230.0 0.0398325475 0.3042992445 -0.0580012237 -0.4240110083 -0.0578542387 -0.4237175502 0.0386923385 0.3097601266
800295200.0 0.0425410521 0.3043585137 -0.0619069849 -0.4226191891 -0.0623691081 -0.4230300465 0.0420168654 0.3097247864
805295170.0 0.0454432428 0.304221233 -0.0668131968 -0.4223880002 -0.0670977268 -0.4226072655 0.0458348099 0.3094455854
810295140.0 0.0491054893 0.3039963829 -0.0714923852 -0.4214992759 -0.0716195474 -0.4214944059 0.0489196986 0.3092064578
815295110.0 0.0517559511 0.3035446361 -0.0761021551 -0.4205748094 -0.0758705732 -0.4207905521 0.0515278141 0.3087130784
820295080.0 0.0547311761 0.3030014872 -0.080042113 -0.4194976457 -0.0802219457 -0.4199453025 0.054281544 0.3086842477
825295050.0 0.0576105424 0.3027814462 -0.0849170043 -0.4190223104 -0.0854425484 -0.418922688 0.0586320447 0.3079519586
830295020.0 0.0609999546 0.3020580644 -0.0894945841 -0.4178877621 -0.0896622374 -0.4179064067 0.0615327998 0.3073505716
