!Created with skrf (http://scikit-rf.org).
# Hz S RI R 50.0 
!freq ReS11 ImS11 ReS21 ImS21 ReS12 ImS12 ReS22 ImS22
300000.0 -0.1018542065 -0.0614092165 0.6309692334 0.0564905633 0.6250096669 0.0589559371 -0.1016424727 -0.06882621
5299970.0 -0.1024816835 0.0134358417 0.6304224977 0.0100437585 0.6307181185 0.0102732911 -0.1014367614 0.0132811102
10299940.0 -0.0974774868 0.0294237323 0.6340781065 0.0152737675 0.6342428282 0.0154819555 -0.0963584367 0.0303675127
15299910.0 -0.0900261369 0.0426091926 0.6408183171 0.0203816379 0.6408493862 0.0205957484 -0.0889905794 0.0433282016
20299880.0 -0.0822646903 0.0531302445 0.6485711044 0.0242070819 0.6486321141 0.0242423862 -0.0803227514 0.0545203428
25299850.0 -0.0723099309 0.0623068075 0.6580911216 0.0252506309 0.6578147356 0.025603104 -0.0702764685 0.0632247181
30299820.0 -0.0624344884 0.0688558716 0.6675368819 0.0245779599 0.6673654774 0.0246173641 -0.0599785498 0.0700011036
35299790.0 -0.0526988014 0.0737595529 0.6774389792 0.0213962606 0.6772420036 0.0219354523 -0.0501919455 0.0746680173
40299760.0 -0.0434104847 0.0771306841 0.6862227101 0.0171245004 0.6867441535 0.0177262913 -0.0403827317 0.0772242912
45299730.0 -0.034028441 0.0794187564 0.6951970135 0.0121310071 0.6953755331 0.0122879939 -0.0313450147 0.0794435074
50299700.0 -0.0258788171 0.0802491816 0.70397698 0.0053270395 0.7036649573 0.0055957406 -0.0228059798 0.0802113879
55299670.0 -0.0176515373 0.0804708206 0.7110483056 -0.0033816252 0.7108449584 -0.0023533182 -0.0148551815 0.0804115046
60299640.0 -0.0100929075 0.0801483894 0.7173826401 -0.0111390217 0.7179726705 -0.0109431616 -0.0075970504 0.0793309468
65299610.0 -0.0035638583 0.0789809277 0.7235123986 -0.0200790415 0.7236060082 -0.019649532 -0.0009268466 0.078492188
70299580.0 0.0027104163 0.0777947207 0.728878707 -0.0291943246 0.7288263029 -0.0290660353 0.0050626399 0.0768475977
75299550.0 0.0083552086 0.0757786679 0.7329949265 -0.038840982 0.7329566679 -0.0387702733 0.0102945302 0.0747034672
80299520.0 0.0130438039 0.0738244928 0.737350349 -0.0488757928 0.7372293183 -0.0484726456 0.0155344495 0.0727616042
85299490.0 0.0179248037 0.0714826312 0.7402057121 -0.0580953686 0.7409026836 -0.0581245869 0.0196038034 0.0701000162
90299460.0 0.0220162335 0.0689675533 0.7426280571 -0.0685939284 0.7438399604 -0.0686363927 0.0239168155 0.0681652947
95299430.0 0.0259303703 0.066472478 0.7457804002 -0.078711085 0.7459709423 -0.0787471448 0.0277222009 0.065671835
100299400.0 0.0291835542 0.0646147346 0.7469820096 -0.0885673799 0.7474655872 -0.088870983 0.0315318988 0.062944123
105299370.0 0.0323891825 0.0620497091 0.7490327693 -0.0989752052 0.7492494962 -0.0990906146 0.0344406713 0.0610591917
110299340.0 0.0349681494 0.0597037745 0.7500283658 -0.108660393 0.7497964412 -0.1087068663 0.0363112107 0.0581637456
115299310.0 0.0376255038 0.0570880041 0.7510239714 -0.1192589245 0.7512340578 -0.1191923302 0.0389774906 0.0559810459
120299280.0 0.039766171 0.0544567785 0.7513621755 -0.1288913077 0.7522485586 -0.1293637275 0.0414935262 0.0535455365
125299250.0 0.0419288218 0.0521210795 0.7520067954 -0.1383309495 0.7519093996 -0.1383534432 0.0431407009 0.0511015654
130299220.0 0.0434385047 0.0502552984 0.7515801917 -0.1492933333 0.7516189071 -0.1488639585 0.0445097701 0.0485295481
135299190.0 0.0451294677 0.0481929823 0.751485981 -0.1584181379 0.751568976 -0.1583515458 0.0465658828 0.0463882033
140299160.0 0.0463488166 0.046127703 0.7509840371 -0.1686691068 0.7508858242 -0.1684112992 0.0479135454 0.0448201077
145299130.0 0.0479871941 0.0436885472 0.7502771079 -0.1780532831 0.7499085502 -0.1780382397 0.0489954091 0.0425969829
150299100.0 0.0495423235 0.0421428307 0.7485294154 -0.187311346 0.7492843538 -0.1877385875 0.050680179 0.0404682084
155299070.0 0.0498896793 0.0398621153 0.7478877579 -0.1980887108 0.7477879568 -0.1977144707 0.0516272695 0.038774408
160299040.0 0.0516998682 0.0382572163 0.746769259 -0.2070671572 0.7460020969 -0.2072901778 0.0516015151 0.0365145376
165299010.0 0.052091892 0.0362655896 0.7447606024 -0.2171335585 0.7452386794 -0.2163650524 0.053080797 0.0352631379
170298980.0 0.0529709418 0.0342620168 0.7432958701 -0.2258031546 0.7431380167 -0.2257364339 0.0536361659 0.0330000124
175298950.0 0.0536116136 0.0325177452 0.7415178399 -0.2351758782 0.7408606125 -0.2346658632 0.0542722744 0.0315456954
180298920.0 0.0540628973 0.0307415948 0.7390274607 -0.2449044385 0.7389732307 -0.2439385243 0.0549890477 0.0298249471
185298890.0 0.0554405801 0.0289751833 0.7369080493 -0.2537799761 0.7366214535 -0.2533185221 0.0553096336 0.0284736402
190298860.0 0.055422233 0.0277936168 0.7345743576 -0.2625653166 0.7353808769 -0.2625970758 0.0558703249 0.0262805946
195298830.0 0.0558686738 0.0256176862 0.7325297313 -0.2716380202 0.732707015 -0.2712062136 0.0570971477 0.0250505535
200298800.0 0.0564837585 0.0245352481 0.7289635072 -0.2809843757 0.7297818297 -0.2808574044 0.0565844569 0.0234744066
205298770.0 0.0570063086 0.0230220642 0.7262244032 -0.2899543677 0.7264349657 -0.2897100516 0.0571652547 0.0209561371
210298740.0 0.0570314455 0.0209720557 0.7230868184 -0.2981175076 0.7234911185 -0.2979356966 0.0578700584 0.0209151482
215298710.0 0.056883705 0.0198536061 0.7210709748 -0.3074490654 0.7208521676 -0.307311552 0.0578101077 0.0195704169
220298680.0 0.0577587616 0.0178126144 0.7166701343 -0.3155801856 0.7170398587 -0.3156082461 0.0576034018 0.0177204212
225298650.0 0.057648491 0.0167284406 0.7144083243 -0.32462754 0.7139099535 -0.3244187485 0.0574979641 0.0162685932
230298620.0 0.0578646093 0.0155918813 0.7111689919 -0.3326398387 0.7115599358 -0.3329220947 0.0577076962 0.0146715706
235298590.0 0.0581601082 0.0147420303 0.7070634592 -0.3403670008 0.7071329084 -0.3408320681 0.057917984 0.0137915144
240298560.0 0.0582579147 0.0132938222 0.703706137 -0.3497626499 0.7037874348 -0.349808615 0.0578384714 0.0127736361
245298530.0 0.0581067004 0.0120874605 0.7001503851 -0.3578040844 0.700205766 -0.3583031186 0.0586553548 0.0111024018
250298500.0 0.0587388812 0.010946635 0.6958381479 -0.366172303 0.6956633087 -0.3655912946 0.0584345378 0.010098659
255298470.0 0.0584971444 0.0093542713 0.6914532948 -0.3739010374 0.6922764358 -0.3739574122 0.0585084614 0.0091956527
260298440.0 0.0581826573 0.0079683935 0.6880439733 -0.3830829983 0.6882679113 -0.3819377946 0.0589461427 0.0080495024
265298410.0 0.0589855914 0.0075521532 0.6840791926 -0.3904169144 0.6844521911 -0.3902540081 0.0584937799 0.0069984305
270298380.0 0.0587825399 0.0062067274 0.6802119834 -0.3979695402 0.6798729446 -0.3982133606 0.0585083036 0.0060539828
275298350.0 0.0591358281 0.0052083804 0.6759208093 -0.4066648868 0.6760970102 -0.4064386675 0.0586006589 0.0045965963
280298320.0 0.0586608914 0.0042558675 0.6715853684 -0.4141676071 0.6714742007 -0.4142161503 0.0590199731 0.0035884252
285298290.0 0.0586185984 0.0030404365 0.667040659 -0.4221528973 0.6666879754 -0.4221965593 0.05884964 0.0024635081
290298260.0 0.0588869186 0.002217041 0.6623210691 -0.4293636049 0.6622949257 -0.4301390417 0.0588911173 0.0022830868
295298230.0 0.0587635997 0.0008965066 0.6582887168 -0.4374231376 0.65780393 -0.4373373233 0.0593220479 0.0007275727
300298200.0 0.0580674137 -6.69437e-05 0.6535129256 -0.4452459911 0.6537955902 -0.4455047516 0.0589768917 -0.000353767
305298170.0 0.0586887128 -0.0011676229 0.6481971917 -0.4531076859 0.6485257468 -0.4527908642 0.0594897392 -0.0016570044
310298140.0 0.0585026852 -0.0021310291 0.6434999831 -0.4603783555 0.6439097286 -0.4606733903 0.0593042396 -0.0026923066
315298110.0 0.0581199712 -0.0039751912 0.6386643023 -0.4679231562 0.6386359535 -0.4684274563 0.0584743581 -0.0040152298
320298080.0 0.0585715424 -0.0047438152 0.6325118538 -0.475966574 0.6332219334 -0.4757013166 0.0584304775 -0.0049407636
325298050.0 0.0577641766 -0.0058752271 0.6276475998 -0.4832155994 0.6276895289 -0.4835925754 0.0575306104 -0.0059917208
330298020.0 0.0573664266 -0.0069389554 0.6216300822 -0.4914129868 0.6225486364 -0.4911060994 0.0574619229 -0.0071757719
335297990.0 0.0571499403 -0.0082082131 0.6160984489 -0.4973651188 0.616122258 -0.4976421682 0.0561841841 -0.0074546065
340297960.0 0.0562186366 -0.0085589634 0.6101711872 -0.5044155986 0.609885182 -0.5048792761 0.0567295802 -0.008369505
345297930.0 0.0558116161 -0.0088373855 0.6046902536 -0.5115705765 0.6045201628 -0.5116582843 0.0559357728 -0.0094808336
350297900.0 0.0553034252 -0.0104082972 0.5980013235 -0.5184627036 0.5983650281 -0.518291326 0.055136002 -0.0095436586
355297870.0 0.0552252429 -0.010214082 0.5928686714 -0.5248672034 0.5936840696 -0.5249214622 0.0548146901 -0.0106735279
360297840.0 0.0545650834 -0.0111628865 0.5875327417 -0.5312024385 0.5880962424 -0.531201518 0.0546989335 -0.011026612
365297810.0 0.0542432492 -0.0117483172 0.5809626518 -0.538403648 0.5819209729 -0.5385327235 0.0546152575 -0.0119853571
370297780.0 0.054569955 -0.0129406506 0.5753058105 -0.5442481634 0.5756919467 -0.5441438301 0.0539037216 -0.0125441092
375297750.0 0.0540348669 -0.0134948373 0.5691890439 -0.5508371829 0.5700922219 -0.550742956 0.0539967877 -0.0129929241
380297720.0 0.0535787556 -0.0143096964 0.5632180912 -0.5574737487 0.5636298815 -0.5565381661 0.0535535895 -0.0143590013
385297690.0 0.0531645219 -0.0148269018 0.5571162906 -0.5633014176 0.5568838002 -0.5630561618 0.0532851709 -0.0143781522
390297660.0 0.0531076733 -0.0151748581 0.5510462734 -0.5701271588 0.5506623519 -0.5691795293 0.0525863882 -0.0155145107
395297630.0 0.052280087 -0.0159982447 0.544382117 -0.5762711973 0.5447573193 -0.575686883 0.0534458741 -0.0160090602
400297600.0 0.0520196674 -0.01669612 0.5372820128 -0.5824535035 0.5380876782 -0.5822327169 0.0524615688 -0.0164835589
405297570.0 0.0513851204 -0.0175261344 0.5322015852 -0.5885416162 0.5317646197 -0.5878612187 0.0522553975 -0.016852847
410297540.0 0.0514922998 -0.0181122005 0.5252022952 -0.5942492283 0.5256098964 -0.5935505407 0.0516916724 -0.0174277472
415297510.0 0.0513348883 -0.0185503275 0.5183850025 -0.5999132583 0.5188202244 -0.5999184479 0.0515913894 -0.0180712551
420297480.0 0.0510735068 -0.019112442 0.5118977374 -0.6057454343 0.5117262581 -0.6055777823 0.0509905295 -0.0191473354
425297450.0 0.0503993938 -0.0207197667 0.5060879164 -0.6112169282 0.5057388832 -0.6110512495 0.0500157781 -0.0187882513
430297420.0 0.0498949971 -0.0209104227 0.498728329 -0.6164274874 0.4987102171 -0.6162940732 0.0500223596 -0.0199594274
435297390.0 0.0495213845 -0.0214822262 0.4915395201 -0.6223829368 0.4918222285 -0.622237275 0.050554122 -0.0204333352
440297360.0 0.0494285377 -0.0214135089 0.4844873333 -0.6274216132 0.4850556144 -0.6279793676 0.0493616274 -0.0213172821
445297330.0 0.0487996574 -0.0226733044 0.4783993494 -0.6329814951 0.4784155558 -0.6326534897 0.0497077286 -0.0219907892
450297300.0 0.0488155743 -0.0228703911 0.4707429657 -0.6376842283 0.4711277325 -0.6387850789 0.0489985301 -0.0226101755
455297270.0 0.0480513493 -0.0236090805 0.4637362262 -0.6435147672 0.4641771709 -0.6432566379 0.048485681 -0.0228605776
460297240.0 0.0477926668 -0.0240238295 0.4567132842 -0.648516402 0.4568881996 -0.6483605221 0.048090835 -0.0233991995
465297210.0 0.0476490826 -0.0243633954 0.4498008269 -0.6534897279 0.4497006255 -0.6544330964 0.0476998756 -0.0245407531
470297180.0 0.0470128594 -0.0253775994 0.4420837137 -0.65809512 0.4422909027 -0.6588290898 0.0473517983 -0.0245243742
475297150.0 0.0467875698 -0.0262717127 0.4348843 -0.6628198344 0.4352629148 -0.663008532 0.0472026235 -0.0251049308
480297120.0 0.046093537 -0.0256598626 0.4279138115 -0.6681765843 0.4277737543 -0.6685174663 0.0469430121 -0.0253344542
485297090.0 0.0455809874 -0.0264213886 0.4204513264 -0.6726642714 0.421208099 -0.6728061473 0.0463332496 -0.0264478489
490297060.0 0.0448311096 -0.0272194509 0.4137497062 -0.6777415871 0.4135605483 -0.6774716061 0.0459676482 -0.0264343245
495297030.0 0.0448279223 -0.0275081723 0.4056084311 -0.681789132 0.4064350822 -0.6817872558 0.0450022746 -0.0270619359
500297000.0 0.0443411235 -0.0284027274 0.3978887324 -0.686237378 0.3974375297 -0.685798961 0.04454035 -0.0270893756
505296970.0 0.0442160848 -0.029092222 0.3906653812 -0.6908316496 0.3907503183 -0.691214994 0.0446506675 -0.0278691347
510296940.0 0.043343349 -0.0290829428 0.3825367387 -0.6956768148 0.3833614876 -0.6952617656 0.0441468166 -0.0279638137
515296910.0 0.0427450186 -0.0293750022 0.3752283882 -0.6995029887 0.3754886068 -0.6987478254 0.0437941931 -0.0284802749
520296880.0 0.0424738733 -0.0300381297 0.3675327729 -0.7040386397 0.3677930002 -0.7032089738 0.0428579604 -0.0295283706
525296850.0 0.0422069237 -0.0310225089 0.3598923273 -0.7073502767 0.3600529475 -0.7071278143 0.0422961598 -0.0297594266
530296820.0 0.041795719 -0.0310357227 0.3519721541 -0.7114049012 0.3522618773 -0.7111865954 0.0422143582 -0.0300544474
535296790.0 0.0408449538 -0.0318355213 0.3447837415 -0.7153464856 0.3450536793 -0.7149371795 0.0418163184 -0.0313728927
540296760.0 0.0403507904 -0.0317725533 0.3365459 -0.7193077642 0.3368399848 -0.7190248823 0.0408530753 -0.0307652015
545296730.0 0.0398611623 -0.0324928361 0.3282015171 -0.7224866152 0.3288782097 -0.7224575188 0.0403277124 -0.0315845328
550296700.0 0.0401923878 -0.032377997 0.320784104 -0.7257881818 0.3208242891 -0.72641737 0.0395760765 -0.0318438495
555296670.0 0.039061177 -0.0330371332 0.3133685046 -0.7296551612 0.3129546803 -0.7295107991 0.0396320244 -0.0321814945
560296640.0 0.0384883922 -0.033178849 0.3048199075 -0.733585893 0.3049560199 -0.7332698607 0.0389995654 -0.032929235
565296610.0 0.037772323 -0.033792713 0.2961254461 -0.7363241188 0.2968331147 -0.7363224286 0.0380851824 -0.0333461043
570296580.0 0.0373064048 -0.0340534515 0.2885780976 -0.7401411705 0.2878874794 -0.7396012649 0.0379082709 -0.0328484859
575296550.0 0.0365232755 -0.0342597243 0.2800061478 -0.7432063053 0.2806043428 -0.7431107096 0.0378818338 -0.0337823098
580296520.0 0.0362392466 -0.0348803129 0.2725760605 -0.7458282986 0.2725280153 -0.7458952419 0.0370837739 -0.0343981771
585296490.0 0.0355992042 -0.0358359994 0.2645754093 -0.7483631702 0.2645723461 -0.7487212168 0.0365760063 -0.0342300656
590296460.0 0.0355852969 -0.0354710992 0.2561804855 -0.7505626944 0.2560010249 -0.7511745974 0.0352140611 -0.0347029168
595296430.0 0.0351225849 -0.0355997314 0.24784047 -0.754390259 0.2475812506 -0.754293794 0.0355937605 -0.0354023779
600296400.0 0.0339691353 -0.0361475957 0.2397921328 -0.7572492512 0.2393659636 -0.7567324776 0.0347049886 -0.0355393527
605296370.0 0.0335549177 -0.0363427615 0.2312477486 -0.7594894523 0.231242985 -0.7590435828 0.0343553756 -0.0355162682
610296340.0 0.0332346007 -0.0367728572 0.2223812597 -0.7612331562 0.2233954847 -0.7617752674 0.0343347609 -0.0362458382
615296310.0 0.0328596785 -0.0375897731 0.2146501631 -0.7643091779 0.2142055624 -0.7645428913 0.0335068049 -0.0361076339
620296280.0 0.0322742432 -0.0377214287 0.2061800133 -0.7661336526 0.2062409289 -0.7663476946 0.0328098189 -0.0366569677
625296250.0 0.0312166866 -0.0382951119 0.1982279125 -0.7692728243 0.1987986282 -0.7695530634 0.0331169983 -0.0367003826
630296220.0 0.0318241716 -0.037865402 0.1888602094 -0.77112898 0.1890654146 -0.7705738942 0.0318702852 -0.0367072532
635296190.0 0.0296826743 -0.0389003626 0.1813654376 -0.7732545831 0.1812825354 -0.7726184322 0.0316116359 -0.037205435
640296160.0 0.0297896114 -0.0386224998 0.1725546008 -0.7739346646 0.173264412 -0.7747875722 0.030779348 -0.0374894183
645296130.0 0.0293948539 -0.0388248033 0.1641573078 -0.7763047043 0.1648194148 -0.7766652467 0.030277775 -0.0373338107
650296100.0 0.0288785961 -0.0393103033 0.1556827394 -0.7779327642 0.1559251245 -0.7788846243 0.030163636 -0.0386312253
655296070.0 0.0277531831 -0.0398824712 0.1471374255 -0.7799314262 0.1476524848 -0.7798935032 0.0291744253 -0.0380699681
660296040.0 0.0268172724 -0.0402667806 0.138743234 -0.7819203321 0.1392119038 -0.7817580061 0.0289524948 -0.0387138583
665296010.0 0.0272130279 -0.0400195592 0.130094276 -0.7826997278 0.1302377378 -0.7829086694 0.0283736176 -0.0379578653
670295980.0 0.0253455555 -0.0400109316 0.1214653032 -0.7848599156 0.1218651673 -0.784932664 0.0273040974 -0.0387379235
675295950.0 0.0254698977 -0.0399016288 0.1131510601 -0.785767323 0.1137985434 -0.7849223785 0.0265678217 -0.0390128056
680295920.0 0.0243734485 -0.0407892724 0.1043707789 -0.7865847994 0.1040997978 -0.7872061981 0.0261255307 -0.0383994321
685295890.0 0.0243235868 -0.0400807023 0.0962359124 -0.7874416846 0.0955798757 -0.7879312943 0.025387041 -0.0389564122
690295860.0 0.0240020027 -0.0405286262 0.0875451736 -0.7883108987 0.0874801491 -0.7892722811 0.0248269573 -0.0383927199
695295830.0 0.023120905 -0.0411228778 0.0788156927 -0.7896352189 0.0788684045 -0.7896621324 0.0242524274 -0.0393278197
700295800.0 0.0225563557 -0.041649226 0.0698787453 -0.7901475535 0.0697284195 -0.7901244056 0.0236467409 -0.0387558177
705295770.0 0.021754327 -0.0407423346 0.0614050196 -0.791372834 0.0614486531 -0.7909042786 0.022842694 -0.0393354358
710295740.0 0.0214725054 -0.0412172107 0.0531459607 -0.7923312616 0.0534915642 -0.7919294516 0.0225595808 -0.0402272558
715295710.0 0.0200241495 -0.0416299337 0.0442844171 -0.7925231701 0.0442615241 -0.7924357444 0.022231107 -0.0399190528
720295680.0 0.0202168868 -0.0415895366 0.0358857953 -0.7934157532 0.0360157064 -0.7925529107 0.021637918 -0.0391865121
725295650.0 0.0194767571 -0.0417286947 0.0268878231 -0.7931938277 0.026851784 -0.7935090605 0.0202300366 -0.0395180242
730295620.0 0.0190336073 -0.041383461 0.0180913164 -0.7930269305 0.0185575223 -0.7936248564 0.0193688802 -0.0403843071
735295590.0 0.0182541654 -0.0414040186 0.0096769337 -0.7936067984 0.0100645781 -0.7932733409 0.0193238205 -0.0406573646
740295560.0 0.0170309495 -0.041359238 0.0013282611 -0.7934160862 0.0008143254 -0.7935244584 0.0191922641 -0.0400551037
745295530.0 0.0166787475 -0.0414755657 -0.0074907631 -0.7930187885 -0.0075992727 -0.7935097092 0.0186110523 -0.0406943544
750295500.0 0.0163812575 -0.0417924665 -0.0159782297 -0.7930531428 -0.0160495516 -0.7936886 0.0178219591 -0.04057698
755295470.0 0.0158500245 -0.0419588928 -0.0243810095 -0.7929356402 -0.0243176169 -0.7938501659 0.0175634442 -0.0409053338
760295440.0 0.0150192606 -0.0418942047 -0.0334489175 -0.7932733531 -0.0333030741 -0.7936612289 0.0169273223 -0.0406522362
765295410.0 0.0143335899 -0.0418286446 -0.0420505205 -0.7924845429 -0.0422716519 -0.7924776725 0.0166254845 -0.0405986823
770295380.0 0.0133746393 -0.0422304353 -0.0512740417 -0.7919408231 -0.0505982436 -0.7920168665 0.0156618992 -0.0413410462
775295350.0 0.0127617531 -0.0424492304 -0.0594294361 -0.7906634692 -0.0592319586 -0.7910294867 0.0141747345 -0.0401615022
780295320.0 0.0124903642 -0.0419733768 -0.0679562557 -0.7900715933 -0.0671311339 -0.790683178 0.0141966457 -0.0411767443
785295290.0 0.0113508634 -0.0426387379 -0.0766150281 -0.7891912595 -0.076225395 -0.7896222726 0.0143089041 -0.0406671835
790295260.0 0.0116388607 -0.0415489539 -0.0844604704 -0.7885991918 -0.083531982 -0.7885769832 0.0131777132 -0.0406228785
795295230.0 0.0109003033 -0.0421318732 -0.0931496095 -0.7877754304 -0.0927779094 -0.7881116607 0.0129084423 -0.0403686105
800295200.0 0.009790157 -0.0416157235 -0.1027572989 -0.786472738 -0.1023533277 -0.7865399312 0.0119582182 -0.0408759569
805295170.0 0.0093480713 -0.0421107157 -0.1109326346 -0.7852335379 -0.1106363079 -0.785957761 0.0113634506 -0.0401208128
810295140.0 0.0086592474 -0.0427008244 -0.1192041119 -0.7840389978 -0.1190610674 -0.7844950146 0.0117112483 -0.0398390419
815295110.0 0.0084324484 -0.0425675399 -0.1271019111 -0.7822819667 -0.1272081267 -0.7829719924 0.0103027159 -0.0398668898
820295080.0 0.0071435461 -0.0413002853 -0.1361051893 -0.7809391271 -0.135494456 -0.7815074196 0.0097078318 -0.0400231718
825295050.0 0.0071814894 -0.0416398205 -0.14430774 -0.7792599243 -0.1440128314 -0.7798541361 0.0093504029 -0.0398823543
830295020.0 0.0064146857 -0.0417031604 -0.153321833 -0.7775562995 -0.1527997897 -0.777620699 0.0095692177 -0.0395845435
