!Created with skrf (http://scikit-rf.org).
# Hz S RI R 50.0 
!freq ReS11 ImS11 ReS21 ImS21 ReS12 ImS12 ReS22 ImS22
300000.0 -0.2413127852 -0.0895943312 0.4725956476 0.0603550859 0.4701947962 0.0560671927 -0.2383559808 -0.0956623494
5299970.0 -0.2447211843 0.0063406655 0.4746791157 0.0050656534 0.4749455815 0.0051972622 -0.2407981449 0.0074224652
10299940.0 -0.2416704607 0.0178819492 0.476483566 0.0061372648 0.4766654435 0.0062374679 -0.2375557454 0.0206459174
15299910.0 -0.2377013 0.0270978482 0.4807099426 0.0072754983 0.4807643759 0.0074212178 -0.2330751765 0.0299615916
20299880.0 -0.2327519162 0.0339000883 0.4848294152 0.0080519991 0.4854358904 0.007921492 -0.2276299143 0.038012931
25299850.0 -0.2275966449 0.040352504 0.4899847879 0.0072066199 0.4901588552 0.0070636147 -0.2219802575 0.0448742896
30299820.0 -0.2224083304 0.0450906187 0.4954674498 0.0046442484 0.4956386861 0.0049022783 -0.2159593163 0.0503441968
35299790.0 -0.2172989346 0.0488596545 0.500800059 0.0014050631 0.5009597475 0.0015980629 -0.2103705689 0.0544097108
40299760.0 -0.2126721453 0.0525524224 0.5060755892 -0.0025962272 0.5060577893 -0.002390295 -0.2051696907 0.0573366231
45299730.0 -0.2079489441 0.0548410179 0.5105251081 -0.0070899473 0.5108800005 -0.0071632379 -0.2003128052 0.0605090176
50299700.0 -0.2038887255 0.0568816089 0.5148515779 -0.0127753908 0.5149055802 -0.0125736543 -0.1957231624 0.0625362076
55299670.0 -0.2000244899 0.0581852724 0.5188982856 -0.0190248644 0.5186560461 -0.0186111809 -0.1911486106 0.0642926812
60299640.0 -0.1960996733 0.0598704129 0.5218472739 -0.0249848713 0.5221396183 -0.0245881327 -0.1875847092 0.0653073115
65299610.0 -0.1932014877 0.0610263015 0.5248502895 -0.0313148302 0.5248500087 -0.0310253484 -0.1842173104 0.0666263443
70299580.0 -0.1898993066 0.0620686392 0.5269393345 -0.0378045223 0.5270451329 -0.037732155 -0.1808441875 0.0678324753
75299550.0 -0.1872305178 0.0630871907 0.5289749691 -0.0445577571 0.5290042969 -0.0446250222 -0.178153952 0.068778569
80299520.0 -0.1849161734 0.0635452188 0.5310826665 -0.051529087 0.5310970468 -0.0515367188 -0.1753694409 0.0693989628
85299490.0 -0.1828287355 0.0641252775 0.5322511262 -0.0582143292 0.5321789486 -0.0582891565 -0.1728744533 0.0696614155
90299460.0 -0.1805571528 0.0648053893 0.5330238014 -0.0653886963 0.5334145465 -0.0654069382 -0.1704352057 0.070369595
95299430.0 -0.1781478643 0.0654107751 0.534040845 -0.0720209917 0.5340699202 -0.0723115904 -0.1682236316 0.0713075237
100299400.0 -0.1766835119 0.0662255445 0.5340335382 -0.0789870793 0.5342245132 -0.0790825662 -0.1661435184 0.0716061939
105299370.0 -0.1749697705 0.0668510128 0.5348198443 -0.0860387614 0.5350721988 -0.0858060912 -0.1641953818 0.0724232071
110299340.0 -0.1734765033 0.0675674519 0.534998109 -0.0927578437 0.534698854 -0.0926369957 -0.162860917 0.0730561565
115299310.0 -0.1721525146 0.0683153649 0.534726697 -0.0996657619 0.5347139129 -0.0996941617 -0.1614675691 0.0736577313
120299280.0 -0.1707405268 0.0686844788 0.5343193003 -0.106468877 0.5345887867 -0.1064557183 -0.159611159 0.0742288077
125299250.0 -0.169634856 0.0693200098 0.5340806966 -0.1128328121 0.5343511944 -0.1132611346 -0.1586336693 0.0748753785
130299220.0 -0.1687411663 0.0701767532 0.5331997814 -0.1201728033 0.5336636265 -0.1197748312 -0.1571073789 0.0757898768
135299190.0 -0.1675478294 0.0712407207 0.5328722991 -0.1262634092 0.5328051321 -0.1263025849 -0.1557963452 0.0768012091
140299160.0 -0.166410856 0.0719592802 0.5317588706 -0.1330546173 0.532113783 -0.1332975923 -0.1543162196 0.0781042569
145299130.0 -0.1656608142 0.0727548108 0.5310864398 -0.1395551477 0.5308721294 -0.1396255751 -0.1534128893 0.0786189858
150299100.0 -0.1643054635 0.073947505 0.5300017978 -0.1460106803 0.5300629463 -0.1455387092 -0.1522957282 0.0800116839
155299070.0 -0.1637354733 0.0747164315 0.5290206585 -0.1532284856 0.5286393879 -0.1527329411 -0.1511519791 0.0811200705
160299040.0 -0.1627440075 0.0758400654 0.5271840267 -0.1594529351 0.5265864376 -0.1589171154 -0.1505333619 0.0822898033
165299010.0 -0.1622421101 0.0768720254 0.5260312572 -0.1657011615 0.5260001204 -0.1657209776 -0.1490281125 0.0836934104
170298980.0 -0.1614251173 0.0776210076 0.5240755352 -0.1720764433 0.5246938185 -0.1719110663 -0.1480791657 0.0845592812
175298950.0 -0.1607844292 0.0788384455 0.5232563328 -0.1781001053 0.5224887384 -0.1782143887 -0.1474052762 0.0859595331
180298920.0 -0.1600581131 0.0798837558 0.5208461556 -0.1842679089 0.5208688048 -0.184281253 -0.1462734012 0.0875139964
185298890.0 -0.1586726867 0.0809240989 0.5190044783 -0.1904929636 0.5191774626 -0.1906280134 -0.1454536187 0.0887084083
190298860.0 -0.1583235492 0.082280612 0.5171947664 -0.1971234082 0.5175382518 -0.1970036241 -0.1447821688 0.0899099196
195298830.0 -0.1575888388 0.0832659828 0.5149593403 -0.2028413658 0.515492172 -0.2027367573 -0.1433158611 0.09130348
200298800.0 -0.1568175804 0.0847473781 0.512984804 -0.2090652767 0.513381131 -0.2093518552 -0.1430733287 0.092418269
205298770.0 -0.1562508665 0.0859877049 0.510698532 -0.2154239666 0.5108157055 -0.2148322556 -0.1420960257 0.0930822449
210298740.0 -0.1553947501 0.087036722 0.5083951877 -0.2209372749 0.5086391869 -0.2205725044 -0.1408399508 0.095190114
215298710.0 -0.1550624719 0.0882909937 0.5065558012 -0.227033589 0.5064844581 -0.227467487 -0.1403243529 0.0966541993
220298680.0 -0.1540830261 0.0896253111 0.5035676497 -0.2328735365 0.5039674143 -0.2329750692 -0.1399897023 0.0975850245
225298650.0 -0.1535322032 0.0907916982 0.5011103275 -0.2390081465 0.5018144509 -0.2386758984 -0.1389525943 0.0991729952
230298620.0 -0.1525264208 0.0923136581 0.4989600243 -0.2444227392 0.4997200004 -0.2446562893 -0.138131119 0.1001974043
235298590.0 -0.1518055893 0.0937390851 0.4963821536 -0.2503271608 0.4963834119 -0.2497553829 -0.1370369742 0.1016136063
240298560.0 -0.1512445361 0.0948978888 0.4938216366 -0.2560033957 0.4935436699 -0.256105685 -0.1359323426 0.1034109323
245298530.0 -0.1505686245 0.0961402065 0.4914918502 -0.2617391986 0.4908444458 -0.2618055952 -0.1346293348 0.1039843973
250298500.0 -0.149410415 0.0976211632 0.4875146504 -0.2672177838 0.487446372 -0.266988428 -0.1341287627 0.1053532769
255298470.0 -0.1486497098 0.0984712689 0.484595763 -0.2725186635 0.4848242524 -0.2728929239 -0.1327097359 0.1069828133
260298440.0 -0.1479351667 0.1000481379 0.4818978386 -0.2787714093 0.482107259 -0.2783514232 -0.1316069938 0.1084232682
265298410.0 -0.1466761106 0.1016977196 0.4786532768 -0.284139732 0.4795338415 -0.2833306173 -0.1305446327 0.1097535631
270298380.0 -0.1459763645 0.1031205795 0.4760818761 -0.2890299961 0.4761197759 -0.2889855729 -0.12976077 0.1111074982
275298350.0 -0.1450466093 0.104285623 0.4726126312 -0.2946509482 0.4732710789 -0.2951248272 -0.1283638405 0.1126350084
280298320.0 -0.1437786489 0.1059181102 0.4696508361 -0.3003414153 0.4697039022 -0.300100897 -0.1269691862 0.1137294386
285298290.0 -0.1431587636 0.107112026 0.4668070324 -0.3052152379 0.4662575447 -0.3055750658 -0.1260027419 0.1147906616
290298260.0 -0.142039396 0.1084502653 0.462775357 -0.3103576719 0.463048575 -0.3109451153 -0.1245643409 0.1166731213
295298230.0 -0.1412782021 0.1094784231 0.4601115214 -0.3157663016 0.4599439553 -0.3159040989 -0.1228447593 0.1175418299
300298200.0 -0.1402914213 0.1109419935 0.4568105426 -0.3209100246 0.4570380955 -0.321514866 -0.1218462634 0.1190431766
305298170.0 -0.1389544748 0.1121870601 0.452552119 -0.3268543538 0.4527596069 -0.3263157747 -0.1198818863 0.1202157006
310298140.0 -0.1380488307 0.1135374928 0.4494702858 -0.3316678641 0.4497034981 -0.3313863432 -0.1187258553 0.1214101518
315298110.0 -0.13706863 0.1146629731 0.4455527548 -0.3366938339 0.4457015248 -0.3366364973 -0.1174516109 0.1225977824
320298080.0 -0.1359937525 0.1158649317 0.4409862164 -0.3419482341 0.4418857269 -0.3418385148 -0.1160273364 0.1239777295
325298050.0 -0.1351116692 0.1170914006 0.4381388817 -0.347249004 0.4380345959 -0.3469877803 -0.1152670557 0.1253019617
330298020.0 -0.1340004947 0.1182772415 0.4338823849 -0.3521788359 0.4342069243 -0.3519557222 -0.1139226003 0.1266865847
335297990.0 -0.1330457117 0.1194226642 0.4295739861 -0.3566474468 0.4300835859 -0.3567827906 -0.1135620451 0.1284405231
340297960.0 -0.1326039811 0.120833647 0.4254436194 -0.3608672877 0.4256197428 -0.3617857217 -0.1112777213 0.1294943043
345297930.0 -0.1314558885 0.1226523669 0.4216042951 -0.3662433184 0.4214770493 -0.3661355756 -0.1104722125 0.1308622712
350297900.0 -0.1304150436 0.1237700416 0.4170403713 -0.3712829268 0.4174184881 -0.3707406247 -0.1095329406 0.1328165463
355297870.0 -0.1291577468 0.1254331221 0.4131353886 -0.3755221474 0.4134261076 -0.375219966 -0.1078999523 0.1337322576
360297840.0 -0.1283304185 0.1267560689 0.4096843267 -0.3798387546 0.409668745 -0.3796538054 -0.1067894782 0.1355062769
365297810.0 -0.1273312146 0.1284925768 0.4052647515 -0.3845544447 0.4053069274 -0.3847777743 -0.1048581698 0.1366285005
370297780.0 -0.1258640077 0.1294416909 0.4008071229 -0.3890340596 0.4014518518 -0.3882788517 -0.1036601735 0.1383237185
375297750.0 -0.1243529937 0.1307270023 0.3963673553 -0.3935076221 0.3970287109 -0.3932956652 -0.1021276736 0.1392937104
380297720.0 -0.123737291 0.1322619064 0.3922477983 -0.3977803247 0.392472551 -0.3969561215 -0.1015819286 0.1403910819
385297690.0 -0.1226604091 0.1336423793 0.3877255414 -0.4018997998 0.3873348459 -0.4018301747 -0.0994698959 0.1418905683
390297660.0 -0.1211992675 0.1351781636 0.3835192991 -0.4059811595 0.3832168796 -0.4057964249 -0.0983518945 0.1432666291
395297630.0 -0.1199961152 0.1366644509 0.3790105011 -0.4108609444 0.3789804983 -0.4104181328 -0.0962467278 0.1447128085
400297600.0 -0.1184623048 0.1378200457 0.3740053114 -0.4150759479 0.3747110114 -0.4147956409 -0.095116114 0.1459100878
405297570.0 -0.1176697196 0.1389721244 0.369903491 -0.4184844036 0.3699082054 -0.4185275157 -0.0939584021 0.14703398
410297540.0 -0.1161231441 0.140099556 0.3655772454 -0.4224463639 0.3655842961 -0.4226610356 -0.0920480082 0.1485422704
415297510.0 -0.1144155606 0.1413799947 0.3602572913 -0.4270414539 0.3608873765 -0.4266821363 -0.0906457979 0.1494210262
420297480.0 -0.1132992407 0.1426051858 0.3553751916 -0.4303067396 0.3559135369 -0.430894567 -0.0893873316 0.1501396868
425297450.0 -0.1120048189 0.1437057759 0.3512468953 -0.4342690782 0.3518332429 -0.4343414075 -0.08789093 0.1517835863
430297420.0 -0.1107571556 0.1448079014 0.3464765456 -0.4377429888 0.3465646908 -0.4375463698 -0.0860202977 0.152312772
435297390.0 -0.1095909237 0.1460618823 0.3414255723 -0.4417719014 0.3412295294 -0.4422970465 -0.0837168611 0.1534534596
440297360.0 -0.1079644227 0.1475553595 0.3366266634 -0.4456531888 0.3370294112 -0.4457053818 -0.0827151906 0.154256325
445297330.0 -0.1065171634 0.1482495254 0.3319856838 -0.4491783563 0.3319681898 -0.4490513935 -0.0806527877 0.1550940501
450297300.0 -0.1049832655 0.1495865873 0.3270532277 -0.4527181795 0.3265830237 -0.4527598886 -0.0790383525 0.1560136488
455297270.0 -0.1038337204 0.1507835787 0.3218534908 -0.4564589632 0.3224123724 -0.4563596041 -0.0775846194 0.1570375545
460297240.0 -0.1024719584 0.1519685493 0.3165050563 -0.4598552822 0.317377039 -0.459806322 -0.0755679854 0.1582995724
465297210.0 -0.1004821838 0.1530632995 0.3118653004 -0.4630951058 0.3119807123 -0.4634482712 -0.0737507096 0.1588774655
470297180.0 -0.0992107336 0.1539986567 0.3065351135 -0.4664796656 0.3069015536 -0.4669173251 -0.0718189329 0.1601760886
475297150.0 -0.0978002844 0.1548420753 0.3015931434 -0.4693812698 0.3019044554 -0.4695975771 -0.0696131831 0.1603777032
480297120.0 -0.0965215368 0.1565717276 0.2963631054 -0.4731398445 0.2961977928 -0.4734555646 -0.067811517 0.1618460836
485297090.0 -0.0952002544 0.1573540636 0.2914027101 -0.4760485201 0.291497719 -0.476000991 -0.0661580547 0.16257985
490297060.0 -0.0937457271 0.1583130851 0.2869171434 -0.4797293146 0.2866826621 -0.4794077983 -0.0642712371 0.164032315
495297030.0 -0.0918056094 0.1593411303 0.2808817962 -0.48235786 0.2814580368 -0.4822280434 -0.0626938412 0.1646471737
500297000.0 -0.0903451701 0.1605343521 0.2755164426 -0.4848302163 0.2754028125 -0.48510652 -0.0603641983 0.1659131324
505296970.0 -0.088765391 0.161358324 0.2703359344 -0.4879086038 0.2701618301 -0.4886353712 -0.0589173338 0.1663371889
510296940.0 -0.0870992368 0.1625308933 0.2648839362 -0.4910832311 0.2646328652 -0.4915451476 -0.0568086891 0.1675509013
515296910.0 -0.0857046072 0.1636213107 0.2593116593 -0.4940486971 0.2593916556 -0.4939661355 -0.0549503108 0.1682152318
520296880.0 -0.0841241958 0.1643537792 0.2543350767 -0.4972966932 0.2540649507 -0.496738756 -0.0532670705 0.1687621007
525296850.0 -0.0825566215 0.1647518135 0.2486390312 -0.4998051388 0.2489247972 -0.4998257244 -0.051722824 0.1699185664
530296820.0 -0.0808695751 0.166291736 0.2432896177 -0.5026466095 0.2431279685 -0.5020198292 -0.0495624495 0.170709669
535296790.0 -0.0796988992 0.1672538814 0.2379563779 -0.5046847005 0.2377743611 -0.5044761972 -0.0477165449 0.1709495573
540296760.0 -0.0779327618 0.1682280929 0.2324074006 -0.5074114287 0.232394167 -0.5073645003 -0.0460117251 0.1723672272
545296730.0 -0.0761759923 0.1690118577 0.2265591365 -0.5096724823 0.2269763431 -0.5097663508 -0.0441879199 0.172787082
550296700.0 -0.0739887019 0.1698935908 0.2211215536 -0.5122825619 0.2212302169 -0.5128396264 -0.042484132 0.173671552
555296670.0 -0.0729129463 0.1707978546 0.2158238867 -0.5147873229 0.2161429694 -0.514328764 -0.0404932701 0.1745434674
560296640.0 -0.0711514419 0.1722298991 0.210027681 -0.5173365749 0.2100314024 -0.5167535073 -0.0384548388 0.1747005614
565296610.0 -0.0698728485 0.1724897993 0.2041921962 -0.5191368138 0.2046530346 -0.5193564389 -0.0370237608 0.1751221397
570296580.0 -0.0683199144 0.1733869309 0.1988432525 -0.5216877346 0.1984688281 -0.5211151607 -0.0352290924 0.1764805317
575296550.0 -0.0664202276 0.1743724517 0.1932228337 -0.5235855618 0.1930278729 -0.5237299769 -0.0329960804 0.1762818413
580296520.0 -0.0647249022 0.1749229073 0.1873065371 -0.5260040012 0.1875488282 -0.5256398177 -0.0309357726 0.1772024545
585296490.0 -0.0631209598 0.1753382829 0.1817825668 -0.5271910793 0.1817497976 -0.527472693 -0.0291845514 0.1773723689
590296460.0 -0.0608748448 0.1765121182 0.1758767156 -0.5286904045 0.1762064785 -0.5294599356 -0.0276153078 0.178111806
595296430.0 -0.0593047199 0.1773531954 0.1700272171 -0.5313129071 0.1701431972 -0.5310505422 -0.0253059406 0.1780253395
600296400.0 -0.0579583661 0.1779821509 0.1646908193 -0.5331987519 0.1644331625 -0.5327053514 -0.0233585757 0.1782167288
605296370.0 -0.0561100204 0.1786288441 0.1586622204 -0.5344883641 0.1588116367 -0.5346738781 -0.0214788807 0.1788242506
610296340.0 -0.0543055474 0.179178807 0.1524232262 -0.5361647772 0.1530247976 -0.5363848089 -0.019392519 0.1790971481
615296310.0 -0.0523626871 0.1796641042 0.1469925126 -0.537534486 0.1470848538 -0.5382334584 -0.0169646827 0.1795084575
620296280.0 -0.0508876768 0.1800486919 0.1411392261 -0.5392948187 0.1413764895 -0.539332026 -0.0153943146 0.1797899624
625296250.0 -0.0493571604 0.1804299425 0.1360794731 -0.5410103819 0.1356906588 -0.5411080518 -0.0125831298 0.1799667983
630296220.0 -0.0466844516 0.1812970075 0.1289517538 -0.5422290046 0.1291742062 -0.5421698965 -0.0112179318 0.1803162476
635296190.0 -0.0457017562 0.1819474258 0.1233716046 -0.543314863 0.1235810103 -0.5436699843 -0.0090226449 0.1804995847
640296160.0 -0.0440044816 0.1827477742 0.11792733 -0.5445031821 0.117921972 -0.5445717633 -0.0068036715 0.1807502555
645296130.0 -0.042113069 0.1834161486 0.1114706824 -0.5458061938 0.1120825477 -0.5463196747 -0.0049913031 0.1812360796
650296100.0 -0.0402658098 0.183881296 0.1057579302 -0.5469831679 0.1061153111 -0.5472772881 -0.0027708291 0.1808172355
655296070.0 -0.0387009461 0.184106855 0.1000575048 -0.5484529198 0.10004581 -0.5486151562 -0.0004458495 0.1812330392
660296040.0 -0.0374590692 0.1845654916 0.0941373781 -0.5493705191 0.0944943104 -0.5494741243 0.0019091008 0.1815649469
665296010.0 -0.035017194 0.1849465113 0.0879990366 -0.5499743613 0.0880946928 -0.550392102 0.003733879 0.1821525659
670295980.0 -0.0340484883 0.1857661849 0.0824477186 -0.5505657657 0.0823639941 -0.5509461535 0.0052853854 0.1820878461
675295950.0 -0.0317000698 0.1860971077 0.0762735677 -0.5517494451 0.0765698075 -0.5516852789 0.0071515863 0.1823791404
680295920.0 -0.0298503129 0.1865554428 0.0701607313 -0.5524882005 0.0699543053 -0.5530633807 0.0095534806 0.1831467183
685295890.0 -0.0277943961 0.1876795812 0.0642341998 -0.553200855 0.0639408618 -0.5534339895 0.0117658938 0.1830652632
690295860.0 -0.0258584549 0.1875482522 0.0583816786 -0.5534431465 0.0586235986 -0.5543665466 0.0133682017 0.1833304147
695295830.0 -0.0241363653 0.187755761 0.0528931338 -0.5538784128 0.0517805575 -0.5546011603 0.0156575503 0.1829076153
700295800.0 -0.0225043535 0.1883128697 0.0463633074 -0.5547893347 0.0461801349 -0.5550600502 0.0175625562 0.1833542501
705295770.0 -0.0209798892 0.189122092 0.0403248696 -0.5554263379 0.0406836773 -0.5554526206 0.0194522792 0.1833715854
710295740.0 -0.0188097087 0.1891882963 0.0345732412 -0.5563798684 0.0346032446 -0.5563404755 0.021413235 0.182846422
715295710.0 -0.0175834415 0.188988195 0.0290823056 -0.55603951 0.0279388765 -0.5560764508 0.0239159008 0.182839451
720295680.0 -0.0150807523 0.1898020046 0.0223618417 -0.5564790542 0.0224750685 -0.5562232734 0.025890058 0.1831422769
725295650.0 -0.0130175555 0.1899879647 0.0163074149 -0.5563140787 0.0167814279 -0.5568434019 0.0271306601 0.1832870938
730295620.0 -0.0112864823 0.1909704701 0.0103691931 -0.5564961295 0.0106521281 -0.5568850062 0.0292463901 0.1827411391
735295590.0 -0.0096558518 0.1907285727 0.0047315237 -0.5568695118 0.0045808843 -0.5571441209 0.0307439365 0.1824497599
740295560.0 -0.0081053629 0.191148826 -0.001159277 -0.5571709923 -0.0015961536 -0.5570924421 0.0337903086 0.1826806405
745295530.0 -0.0059213669 0.1912576218 -0.0076017927 -0.5561968813 -0.0075614139 -0.5565150999 0.0355272393 0.1816561178
750295500.0 -0.0039998143 0.1912571058 -0.0133368233 -0.556338889 -0.0133917849 -0.5567191734 0.0372952565 0.1816920344
755295470.0 -0.001986933 0.1914387765 -0.0194720225 -0.5562895298 -0.0196044896 -0.5565952194 0.039815158 0.1809401655
760295440.0 -0.000378749 0.1918845605 -0.0252796506 -0.5561647413 -0.0256009616 -0.5565332505 0.0414689226 0.1808667838
765295410.0 0.0015122802 0.191776722 -0.0317678843 -0.5556237494 -0.0321562892 -0.5562164113 0.0432682934 0.1809430019
770295380.0 0.0031891299 0.1917282069 -0.0376844602 -0.5551556122 -0.0378031954 -0.5550236642 0.0453256953 0.1800688081
775295350.0 0.0050305179 0.1914554814 -0.0436818452 -0.5542842428 -0.0433361456 -0.5549398927 0.046623672 0.1799874125
780295320.0 0.0070430516 0.1919261757 -0.0498906436 -0.5539902955 -0.0488357397 -0.5541819582 0.0486293992 0.1788011178
785295290.0 0.0086713217 0.191615872 -0.0557850826 -0.5530609305 -0.0553821365 -0.5538160994 0.0514265236 0.178653012
790295260.0 0.0109971955 0.1921886809 -0.060670617 -0.5531661089 -0.0604715827 -0.55288496 0.0531472769 0.1783445329
795295230.0 0.0123818976 0.1921008348 -0.067124524 -0.5521083978 -0.0664238653 -0.5525201018 0.0554442464 0.1778699878
800295200.0 0.0141530224 0.1921163055 -0.0736663683 -0.550900411 -0.0729384513 -0.5515097239 0.0576129539 0.177390449
805295170.0 0.0164621385 0.1920711151 -0.0792479069 -0.5504876241 -0.0792088931 -0.550732278 0.0593137211 0.1768269896
810295140.0 0.0179259993 0.1914725405 -0.0848158672 -0.5492616663 -0.0847227375 -0.5499435834 0.061788433 0.1766268816
815295110.0 0.0199186854 0.1915807583 -0.0905735752 -0.54821209 -0.0905416378 -0.5489566064 0.0635445879 0.1756372471
820295080.0 0.0214370096 0.1921608423 -0.09681863 -0.5471285301 -0.0962878843 -0.5476768279 0.0658331311 0.1755801353
825295050.0 0.0240592876 0.1916331313 -0.1020314674 -0.5460943197 -0.1027183332 -0.5465180526 0.0678848605 0.1747741392
830295020.0 0.0255836758 0.191768732 -0.1086915994 -0.5450268612 -0.1085884691 -0.5451566981 0.070372933 0.1745864143
