!Created with skrf (http://scikit-rf.org).
# Hz S RI R 50.0 
!freq ReS11 ImS11 ReS21 ImS21 ReS12 ImS12 ReS22 ImS22
300000.0 -0.0509093105 -0.0454356657 0.0003160354 0.001370391 0.0008983187 0.0015486848 -0.7718763894 -0.1408985251
5299970.0 -0.0496582064 0.0158190016 -4.36955e-05 0.0001122745 4.49891e-05 0.0001427016 -0.7839187053 -0.0076691037
10299940.0 -0.0440866581 0.0325889506 -3.86745e-05 8.15658e-05 -0.0001060361 0.0001040684 -0.7868458535 -0.0035925362
15299910.0 -0.0357941872 0.0471750184 -0.0001571465 0.000207344 2.15347e-05 -6.148e-06 -0.7922468087 -0.0018347027
20299880.0 -0.0260120592 0.0586122739 0.0001833269 0.0001566578 0.000115871 3.22275e-05 -0.7988794997 0.0024088326
25299850.0 -0.0152041703 0.0682855549 0.0002142575 -3.6473e-05 0.0001119075 -8.43086e-05 -0.805403034 0.0085282238
30299820.0 -0.0039516917 0.0749173219 -2.95559e-05 0.000310325 1.14034e-05 0.0002074426 -0.811823267 0.0165582999
35299790.0 0.0072379488 0.079902261 -2.74722e-05 -0.0002087926 9.02345e-05 4.01167e-05 -0.816339468 0.0255580102
40299760.0 0.0187287024 0.0829347227 -0.0001620793 2.59383e-05 6.274e-06 0.0001083272 -0.8207842276 0.0350564829
45299730.0 0.0296321865 0.0843199016 -6.74912e-05 1.03248e-05 5.9867e-05 1.27409e-05 -0.8246845238 0.0441130493
50299700.0 0.0391281629 0.0845590241 -2.74447e-05 0.0001849368 -1.10066e-05 -6.51333e-05 -0.8270008815 0.0540819636
55299670.0 0.0483043183 0.0835400173 -0.0001000457 2.44867e-05 2.2276e-06 -6.5304e-05 -0.8293795546 0.064679852
60299640.0 0.0571937812 0.0820717781 -4.55773e-05 -0.0001493275 -0.0002025654 -6.37375e-05 -0.8305546044 0.0742066519
65299610.0 0.0646648623 0.0795201672 -4.57703e-05 -0.0001081269 -3.50315e-05 0.0001252654 -0.8316322783 0.0842666614
70299580.0 0.0715903604 0.0771039674 3.45483e-05 4.8373e-06 7.14886e-05 -0.0001257038 -0.8318270548 0.0944684997
75299550.0 0.0778590795 0.0739395948 5.35005e-05 6.89156e-05 3.4871e-05 -3.83043e-05 -0.8323897911 0.1041071714
80299520.0 0.0837746889 0.0707890306 -7.81487e-05 5.49113e-05 -5.5475e-05 1.35748e-05 -0.832086463 0.1138014083
85299490.0 0.0886036987 0.0667663548 0.0001335842 -3.6297e-05 -0.0002021975 -4.92331e-05 -0.8318639744 0.1238468427
90299460.0 0.0932971662 0.063127635 -0.0002228374 6.30559e-05 4.0432e-06 9.39844e-05 -0.830452954 0.1335268189
95299430.0 0.0976304806 0.0592272947 3.68446e-05 0.000157375 2.05652e-05 9.07135e-05 -0.8292595575 0.1434270797
100299400.0 0.1011337785 0.0555973679 -1.13771e-05 0.0001285681 0.0001673579 -1.09044e-05 -0.8288551431 0.1525247256
105299370.0 0.1045787831 0.0518647824 -1.22601e-05 8.9855e-05 2.67728e-05 2.56232e-05 -0.8268857534 0.1612543779
110299340.0 0.1073729592 0.0475953427 2.8954e-05 2.71239e-05 0.0001086077 4.769e-05 -0.8252812073 0.1706489705
115299310.0 0.1103429735 0.0438480692 0.0002172959 -7.457e-05 8.79245e-05 0.0001923772 -0.823427803 0.1793768672
120299280.0 0.1123258707 0.0402636344 8.89942e-05 3.19073e-05 -8.52263e-05 0.0002506503 -0.8221303311 0.1889498165
125299250.0 0.1141239976 0.036401608 -8.00133e-05 -7.40967e-05 0.0001202345 -4.83359e-05 -0.8203488084 0.1979819858
130299220.0 0.1159910806 0.0329256108 -3.13817e-05 -7.07908e-05 0.0001359812 0.000202301 -0.8183860162 0.2066833678
135299190.0 0.1176403725 0.0295030217 0.0002301959 2.53262e-05 6.6899e-06 0.0002967121 -0.8159555658 0.2159965349
140299160.0 0.1186710153 0.0259970783 0.0001369157 -2.02814e-05 2.33466e-05 4.36278e-05 -0.8136968459 0.2249238297
145299130.0 0.1201649606 0.0224852379 0.0003316679 7.50067e-05 7.6337e-06 2.92914e-05 -0.8115807959 0.2341011704
150299100.0 0.1210658599 0.0190370206 -5.9877e-06 0.0002032185 0.000102168 -4.4888e-05 -0.8096049241 0.2429560197
155299070.0 0.1216749858 0.0158097297 -0.0001927238 3.75646e-05 -0.0001051518 5.15996e-05 -0.8068094376 0.2516974534
160299040.0 0.1221495854 0.0126628218 0.0001738263 0.0001483061 5.956e-07 7.93369e-05 -0.8042353956 0.260898109
165299010.0 0.1231410487 0.0096751645 0.0001728233 0.000267078 0.0002656695 1.3004e-06 -0.8016294959 0.2695363919
170298980.0 0.1233300127 0.0067860121 0.0001101301 0.0002385192 8.29491e-05 0.0001065756 -0.7987602312 0.2777315458
175298950.0 0.1236822813 0.0039052248 8.4363e-05 0.000120869 0.0002474537 4.41485e-05 -0.7960735719 0.2863847333
180298920.0 0.1237969636 0.0011590745 -0.0002070157 0.0001833868 0.0004548624 0.0002479541 -0.792593262 0.295528857
185298890.0 0.1241851803 -0.0021661087 0.0002743028 -7.87533e-05 -0.0001181963 -1.16546e-05 -0.7893027998 0.3035974798
190298860.0 0.1244428306 -0.0046602492 0.0001379299 -7.5909e-05 -2.29077e-05 -3.74584e-05 -0.7870437226 0.3121576543
195298830.0 0.1240372907 -0.0073715905 5.75144e-05 0.0002141306 0.0001372475 0.0001026778 -0.7837500384 0.3208975279
200298800.0 0.1240239807 -0.009711738 0.0001669414 -0.0001073397 8.58513e-05 -9.87535e-05 -0.7807213559 0.3294424007
205298770.0 0.1237747395 -0.0124418914 0.0001284835 0.0001528343 2.29816e-05 9.69647e-05 -0.7768987423 0.337767366
210298740.0 0.1234735745 -0.0149187725 5.74345e-05 -0.0001085845 0.0002126251 0.000142436 -0.7735631732 0.3458761454
215298710.0 0.1232192374 -0.0173116474 -1.96972e-05 4.21191e-05 -0.0001312502 0.00021242 -0.770836292 0.3542412372
220298680.0 0.1228246365 -0.019918361 0.0001972233 -1.80876e-05 9.51809e-05 7.00958e-05 -0.7670296388 0.3626227051
225298650.0 0.1222693553 -0.0221070764 8.38521e-05 0.0001679641 0.0001550647 0.0002031501 -0.7635339718 0.3704720691
230298620.0 0.1217493356 -0.0244777637 0.0001313557 0.0002094357 5.73032e-05 0.0001029358 -0.7598183464 0.3791427909
235298590.0 0.1215763238 -0.026538797 5.468e-07 0.000138157 9.09874e-05 -1.87118e-05 -0.7552510889 0.3871007758
240298560.0 0.1209666551 -0.0291213872 1.76311e-05 0.0001878019 -7.37614e-05 0.0002340367 -0.751511828 0.3956643912
245298530.0 0.1200240531 -0.0311673858 0.0001176051 0.0001861737 2.23958e-05 -5.44018e-05 -0.7477684243 0.4027403037
250298500.0 0.1197329555 -0.0334741577 7.12836e-05 5.54817e-05 -2.77149e-05 0.0001022474 -0.7437670998 0.410386551
255298470.0 0.118771729 -0.0355432719 6.51602e-05 0.0002859374 0.0001366775 -0.000110623 -0.7387226508 0.4180393596
260298440.0 0.1179239456 -0.0374315352 0.0002665066 3.73574e-05 0.0002758533 0.0002231689 -0.7345436476 0.4262736389
265298410.0 0.1175524776 -0.039103195 0.0002555883 0.0003125003 0.0001508025 -2.72845e-05 -0.729547543 0.4335211988
270298380.0 0.1164627475 -0.0412281397 0.0002368796 0.0002484174 0.0001017414 0.000131945 -0.7250279583 0.441202514
275298350.0 0.1160084404 -0.0431297763 8.14248e-05 1.60386e-05 0.0002823336 0.0001710734 -0.7201054837 0.448875834
280298320.0 0.1154189036 -0.0451712263 -5.7284e-06 0.0001249695 0.0002442707 0.0002733249 -0.7155053924 0.4561409183
285298290.0 0.1148002999 -0.0466526215 0.0002992703 0.0001398145 0.0001334278 0.0001427211 -0.7101354836 0.4634306594
290298260.0 0.1136800498 -0.0486797784 0.0001177341 5.11292e-05 -0.0001072352 0.0001262077 -0.7055965701 0.4707397539
295298230.0 0.1129659724 -0.0506323776 0.0001911867 0.000212193 7.87614e-05 0.0003450177 -0.7004722428 0.4778192735
300298200.0 0.1121871882 -0.0522845219 0.0001004652 0.0001086008 2.01182e-05 0.0002062336 -0.6955935476 0.484977606
305298170.0 0.1111674013 -0.0540726298 -0.0002291154 0.0003403382 1.21506e-05 2.42593e-05 -0.689408924 0.4926426745
310298140.0 0.1104228364 -0.0557090939 0.0002150677 0.0001701751 1.81791e-05 0.0002207285 -0.684939532 0.4996020499
315298110.0 0.1097399274 -0.0575769481 4.77e-06 0.0002252474 0.000407551 0.0001187985 -0.679142663 0.5064046259
320298080.0 0.1086325278 -0.0597253769 -1.75936e-05 -6.28703e-05 5.83623e-05 0.0003145871 -0.6738302409 0.5139426162
325298050.0 0.1075827435 -0.0613447968 0.0002365287 -0.0001525977 0.0001278164 2.576e-06 -0.6684009676 0.5207299634
330298020.0 0.1064335025 -0.0630746817 0.0003160189 0.0003209472 0.0002551534 4.90215e-05 -0.6624489435 0.5280131819
335297990.0 0.1052759481 -0.0646739079 7.11813e-05 2.17309e-05 0.0001249463 0.0002969429 -0.6573899298 0.5351393741
340297960.0 0.103858358 -0.0661463075 3.59655e-05 0.0003506991 0.0001889035 0.0001947257 -0.6515421231 0.5419977005
345297930.0 0.1023128372 -0.0671611951 0.0003162519 0.000104225 -5.327e-06 0.0001204171 -0.6458288623 0.5488332613
350297900.0 0.1015533594 -0.0686682511 0.0002142895 1.78664e-05 0.0002548893 7.01639e-05 -0.6406778377 0.5557117857
355297870.0 0.1002331378 -0.0700477087 0.0002134217 -0.0001495251 0.0003183331 0.0001806807 -0.6351214471 0.5617967323
360297840.0 0.099053472 -0.0711664834 8.76518e-05 0.000229553 0.0001255882 7.88241e-05 -0.629204438 0.5691266115
365297810.0 0.097464912 -0.0724181649 -1.50473e-05 0.0002357646 0.0001413092 0.0002195196 -0.6224958614 0.5755815595
370297780.0 0.0967611479 -0.0737526245 0.0002457319 -3.02716e-05 -4.10595e-05 5.92318e-05 -0.6169484883 0.5822708289
375297750.0 0.0955499111 -0.0747488169 0.000123745 0.0003375068 0.0002637712 0.0002647855 -0.6107280687 0.5877534088
380297720.0 0.0940526046 -0.0764415568 0.0001842616 3.08826e-05 0.0002901354 0.0002166722 -0.60508892 0.5940446717
385297690.0 0.0926525905 -0.0769289177 0.000103652 0.0001805842 0.0003373673 7.1152e-05 -0.5988130976 0.6011384205
390297660.0 0.0914866 -0.0783315114 0.0001327971 2.41938e-05 0.0001183052 0.0002386816 -0.5928865297 0.6074601539
395297630.0 0.0903037777 -0.0795519605 0.0002607438 -5.15086e-05 6.2664e-05 0.0003148034 -0.5863982031 0.6134535251
400297600.0 0.0891767625 -0.0807851643 0.0002420629 1.37314e-05 0.0001951518 5.21792e-05 -0.5802208234 0.6188539575
405297570.0 0.0878627279 -0.0813831396 0.0002973055 0.0003036868 0.0001181234 7.77053e-05 -0.5735590138 0.6248066082
410297540.0 0.086460446 -0.0827487561 0.0001868692 3.7319e-05 6.78023e-05 0.0001236395 -0.5672592905 0.6306793235
415297510.0 0.0852475911 -0.0839899866 0.0001828867 7.91395e-05 0.0003637664 -6.42545e-05 -0.5607752191 0.6365312962
420297480.0 0.0839036509 -0.0845555944 0.0001360381 5.12919e-05 0.0003292701 0.0002071491 -0.5542304302 0.6424486615
425297450.0 0.0827789767 -0.0856642033 0.0001391386 0.0002162508 0.000282598 6.87829e-05 -0.5475699915 0.6480065045
430297420.0 0.081579176 -0.0869217128 1.1271e-06 -3.84078e-05 0.0003244541 0.0002702248 -0.5408836286 0.6528342899
435297390.0 0.0801359413 -0.0874369508 0.0001959111 0.0001366623 0.0001533346 0.0002226662 -0.5335631757 0.6582810084
440297360.0 0.0786169246 -0.088877452 0.0001036085 1.39427e-05 0.0002250632 0.0001385222 -0.527124527 0.6634521184
445297330.0 0.077445279 -0.0896518298 0.0001979263 7.06659e-05 0.0002078564 6.34943e-05 -0.520099745 0.6684675503
450297300.0 0.0762647272 -0.0905615948 0.0002760809 0.0003068737 0.0002424887 0.0001508736 -0.5126947078 0.6735983363
455297270.0 0.0746646411 -0.091398346 -2.0264e-05 0.0001546173 0.0003000185 5.6636e-06 -0.5056538465 0.6782851944
460297240.0 0.0737532785 -0.0923552509 7.83888e-05 -4.2426e-06 0.0004270339 0.0001271635 -0.4989685886 0.683500019
465297210.0 0.0721630548 -0.0931131858 0.000213959 -2.50501e-05 0.0002242085 0.0001262348 -0.4914783717 0.6885054852
470297180.0 0.0707697207 -0.0938777737 0.0005606861 0.0002632356 0.0003650932 -5.8752e-06 -0.4841468535 0.6941014663
475297150.0 0.0693049503 -0.095002449 0.0001125195 0.0002454623 0.0001626738 0.0001089171 -0.4770470839 0.698148317
480297120.0 0.0679493704 -0.0955325389 0.0003815936 0.0002250722 0.0001787817 3.75004e-05 -0.4693999371 0.7031953895
485297090.0 0.0666833192 -0.0963668279 0.0005193853 0.0002829595 0.0004739212 0.0001052358 -0.4625110211 0.7076245959
490297060.0 0.0651501253 -0.0965693678 0.0002475564 0.0001989899 0.0002612417 0.0001442732 -0.4551207984 0.7122746238
495297030.0 0.0637364391 -0.0973939641 0.0002977748 3.11626e-05 6.90971e-05 5.03971e-05 -0.447836601 0.7173034251
500297000.0 0.0625425506 -0.0980471968 0.0002910296 6.23989e-05 0.0001639238 3.95979e-05 -0.4398413037 0.7221272528
505296970.0 0.0614139769 -0.0990032772 0.0002558631 0.0002806531 0.0001893792 0.0003089582 -0.43277472 0.7261320803
510296940.0 0.0598918267 -0.099543387 0.00012671 0.0002887722 0.0003632433 -0.0001404742 -0.4253739664 0.7306987432
515296910.0 0.0587418315 -0.1002113792 0.0002162147 3.48561e-05 0.0001753327 4.52026e-05 -0.4179742281 0.7347205317
520296880.0 0.0569300156 -0.1006378033 0.0003177345 0.0002664951 0.0003071513 -0.0001737538 -0.4102778474 0.7389974933
525296850.0 0.0556875628 -0.101499018 0.000354549 -1.18265e-05 0.0003859365 1.8862e-05 -0.4033204158 0.7431843425
530296820.0 0.0541875234 -0.1018633243 0.0004472488 9.87587e-05 9.3094e-05 -2.36643e-05 -0.3960713542 0.7476925997
535296790.0 0.0527338359 -0.1022244983 0.0004141523 0.0001108802 0.0003396855 7.52634e-05 -0.3888900365 0.751613471
540296760.0 0.0513324478 -0.1027948685 0.0002074515 4.45487e-05 0.0003939615 0.0001571138 -0.3804921264 0.7557265082
545296730.0 0.049739799 -0.1032202478 0.0004235708 0.0001383851 0.0002492696 0.0001171507 -0.3728903596 0.7594459486
550296700.0 0.0488746317 -0.1038493064 0.0002790258 6.10056e-05 0.0003899929 -8.311e-05 -0.3654254299 0.7623805025
555296670.0 0.0467412493 -0.1042616703 0.0002970643 8.93268e-05 0.0003807053 0.0001456099 -0.3573158145 0.7673423096
560296640.0 0.0458245444 -0.1045149432 0.0001041967 9.97069e-05 0.0002928063 -3.6787e-06 -0.3495087447 0.770842777
565296610.0 0.0439641282 -0.1050126733 -6.37947e-05 4.39321e-05 0.0003126396 5.01649e-05 -0.341910202 0.7741479258
570296580.0 0.0424523479 -0.105353182 0.0002083783 8.40038e-05 0.0004215064 2.51234e-05 -0.3348692609 0.7779594099
575296550.0 0.041227299 -0.1055459471 0.0001791266 0.0002074653 0.0005161334 -9.47584e-05 -0.3259599449 0.7811750851
580296520.0 0.0400533747 -0.1062455287 0.0005054764 2.65668e-05 0.0001695367 0.0001463385 -0.3177463308 0.7841270154
585296490.0 0.0380485263 -0.1063016219 0.0001614585 0.0001070041 0.0001507257 0.0001425298 -0.3098308785 0.7872973981
590296460.0 0.0371392453 -0.1063179841 0.0003997391 -4.67588e-05 0.00030775 3.96186e-05 -0.3021279925 0.7898603528
595296430.0 0.0355421649 -0.1067057413 0.0004010875 0.0001060365 0.0004232743 0.0001521232 -0.2946386383 0.7927667653
600296400.0 0.0338107322 -0.1074789217 0.0004801931 4.10356e-05 0.0003437332 0.0001149892 -0.2861350416 0.7955299099
605296370.0 0.0325226614 -0.1074557095 0.0005478811 -5.83432e-05 0.0001961129 0.0002376957 -0.2778498123 0.7980349122
610296340.0 0.0308291398 -0.1076613665 0.0006408127 0.0001015062 0.0003046274 -2.1006e-05 -0.2699906104 0.8007413824
615296310.0 0.0296387266 -0.1080300092 0.00051119 -9.8384e-06 0.0001692668 -5.6017e-05 -0.2614600334 0.8030633166
620296280.0 0.0278795988 -0.1080501535 0.0001771521 -8.29545e-05 0.0003347173 -9.48134e-05 -0.2543188577 0.8057677926
625296250.0 0.0265085019 -0.1085671886 0.0003941933 -0.0001049273 0.0002421817 -3.71059e-05 -0.2449674817 0.807547183
630296220.0 0.0256366541 -0.1088017112 0.0002500553 8.3981e-06 0.0001030021 4.80049e-05 -0.2367677604 0.8107597438
635296190.0 0.0237158471 -0.1082916181 0.0004470831 -2.94925e-05 0.0002361784 6.0263e-05 -0.2291608533 0.8120739104
640296160.0 0.0224105481 -0.108652553 0.0003915459 -0.0001538262 0.0003308764 8.55735e-05 -0.2206918059 0.8149219156
645296130.0 0.0207321409 -0.1088121332 0.0005853708 4.16239e-05 0.0002089297 0.0001551924 -0.2129135506 0.8167265097
650296100.0 0.0190688446 -0.1086928087 0.0004139888 -0.000155111 0.0003733735 8.83658e-05 -0.2040500172 0.8180556328
655296070.0 0.0178987598 -0.1090646933 0.0002693612 -2.13713e-05 0.0002323896 5.0958e-05 -0.1953243881 0.8202121453
660296040.0 0.0160940082 -0.1089811972 0.0003003134 5.86621e-05 0.0006028644 0.0001557755 -0.187005878 0.8224121999
665296010.0 0.0151713464 -0.1093503554 0.0003876561 0.0001920893 0.0002480244 0.000278059 -0.1786242267 0.8249292514
670295980.0 0.0133107253 -0.1090110771 0.0003371239 0.0002051767 0.0002634081 0.0003135971 -0.1707510209 0.8258645094
675295950.0 0.0120942601 -0.1087224181 0.0002885848 -0.0002215091 0.0006718834 5.504e-05 -0.1630476293 0.8277823161
680295920.0 0.010772929 -0.1089782443 0.0005398029 -0.0001980272 0.0002853796 -0.0001024901 -0.1537012335 0.8309650118
685295890.0 0.0095438138 -0.1086276008 0.000512478 -4.17644e-05 0.0003504717 3.62674e-05 -0.1453974334 0.8311367046
690295860.0 0.0079834451 -0.1086265746 0.0001904925 2.69792e-05 0.0002274018 -0.0001982066 -0.1372923993 0.8335051118
695295830.0 0.0061839119 -0.1084157083 0.0003174658 5.56304e-05 0.0003902521 -0.0002195267 -0.1281268478 0.8345990532
700295800.0 0.0047821685 -0.108330319 0.0004832852 -4.94946e-05 0.0004577067 -0.000159237 -0.1208802764 0.8356841795
705295770.0 0.0034015957 -0.107944412 0.0003448662 1.99085e-05 0.0002877231 7.79469e-05 -0.1121258684 0.8379906193
710295740.0 0.0022408166 -0.1080464715 0.0002476123 2.93026e-05 0.0002336404 -0.0003261128 -0.1045117778 0.8387646386
715295710.0 0.0004737512 -0.1082060802 0.0005899137 -0.0001033688 0.0003480956 -0.0003108228 -0.095476795 0.839725546
720295680.0 -0.0007203585 -0.1077178653 0.0005950723 -0.0002077549 0.0003114258 -0.0003642119 -0.0869946686 0.8405818377
725295650.0 -0.0021810706 -0.1070997365 0.0004136332 8.91445e-05 0.0002510911 0.0001907918 -0.0789908266 0.8417423669
730295620.0 -0.0034910789 -0.1068370566 0.0002928608 8.26295e-05 0.0003584868 6.6926e-06 -0.0712211197 0.841935836
735295590.0 -0.0049239637 -0.1066566056 0.0005588878 3.19432e-05 0.0003085531 7.30808e-05 -0.0624152559 0.8427868689
740295560.0 -0.0066629716 -0.1064138843 0.000413626 -0.0002118445 0.0003537944 -0.0001564909 -0.0536263723 0.8438723379
745295530.0 -0.0081114564 -0.1060440723 0.0004300842 -7.7793e-06 0.0005409013 -2.55979e-05 -0.0452503987 0.8440979031
750295500.0 -0.0092185029 -0.1057527721 0.000446576 -0.0001026133 0.0005076736 1.51475e-05 -0.037279831 0.8441005405
755295470.0 -0.0105193597 -0.105465236 0.0002809095 -0.0001186439 0.0002382916 1.2356e-06 -0.0283615882 0.8443680127
760295440.0 -0.0121599264 -0.1052072482 0.0004326829 4.76585e-05 0.0003297158 -0.0002629031 -0.0200680683 0.844342873
765295410.0 -0.013406562 -0.1046007083 0.0004538935 -0.0002336835 0.0004245469 -0.0002363246 -0.0121206852 0.8449029124
770295380.0 -0.0150119109 -0.1044205664 0.0003737388 0.000102114 0.0003696044 -0.0001269212 -0.0037966608 0.8444423743
775295350.0 -0.0165631694 -0.1040284937 0.0001600002 -5.5827e-06 0.0003570048 -5.92607e-05 0.0041761762 0.8434821477
780295320.0 -0.0177799388 -0.1035948295 0.0004455867 0.0001733859 0.0004849277 -0.0002578271 0.0127841185 0.8434949969
785295290.0 -0.0195130394 -0.1033628341 0.0003055609 -0.0002612372 0.0005480378 -0.0001113656 0.0216189116 0.84370998
790295260.0 -0.0201487253 -0.102450289 0.0004903835 2.41318e-05 0.0003211365 -0.0001190389 0.0305353026 0.8434504097
795295230.0 -0.0216967428 -0.1023499151 0.0005232442 -4.79522e-05 0.0002096018 -8.8036e-05 0.0394105455 0.8417324123
800295200.0 -0.0231252796 -0.1016488825 0.0003853902 -2.93726e-05 0.00046382 2.02552e-05 0.0477600421 0.8418558016
805295170.0 -0.0242644597 -0.101553144 0.0005946617 -0.0001191648 0.000250969 -0.0001117716 0.0552184947 0.841341208
810295140.0 -0.0254449747 -0.1009242728 0.0003452273 0.0001890422 0.0003319088 -2.78304e-05 0.0639965008 0.840513881
815295110.0 -0.0269164149 -0.1003066272 0.0006357513 -0.0002118404 0.000449591 -8.18405e-05 0.0722728234 0.8402044796
820295080.0 -0.0284447016 -0.09978476 0.0005104792 -8.58122e-05 0.0004964866 4.4674e-06 0.0805110213 0.840006583
825295050.0 -0.029535489 -0.0992573038 0.0005562081 -0.0001903657 0.000531941 7.55546e-05 0.0890015659 0.8382860271
830295020.0 -0.0307934172 -0.0984645199 0.0003903193 -0.0002252408 0.0003034806 -0.0002589111 0.0981673833 0.837637659
835294990.0 -0.032397938 -0.0979347821 0.0003673127 -0.0001327243 0.0003932059 -0.0001240962 0.1057955453 0.8370051896
840294960.0 -0.0331757361 -0.097498318 0.0007000497 -6.67277e-05 0.0005157728 -5.27352e-05 0.1141466051 0.8358395286
845294930.0 -0.0344828555 -0.096521853 0.0004495021 -8.99732e-05 0.0003107636 -0.0001320877 0.1222540449 0.8340282699
850294900.0 -0.035663667 -0.0959439976 0.0002876722 0.0001835681 0.0004363944 -0.0002462202 0.1307934274 0.832992955
