!Created with skrf (http://scikit-rf.org).
# Hz S RI R 50.0 
!freq ReS11 ImS11 ReS21 ImS21 ReS12 ImS12 ReS22 ImS22
300000.0 -0.0992949986 -0.0662327093 0.6308512167 0.0631101213 0.6242680373 0.0635681657 -0.1009813768 -0.0753415277
5299970.0 -0.1019850691 0.013428414 0.6304961078 0.0097867273 0.630356803 0.009949377 -0.1006394826 0.0131078198
10299940.0 -0.0970533315 0.0295369071 0.6337746839 0.0147664916 0.634269702 0.0155054536 -0.0956863848 0.0303498349
15299910.0 -0.090044028 0.042570037 0.6402436263 0.0200043998 0.6403645541 0.0203640161 -0.0885043195 0.0436868049
20299880.0 -0.0815274523 0.0529381238 0.6485851514 0.0243005529 0.6487677218 0.0232590044 -0.0793529224 0.0543409055
25299850.0 -0.0722889798 0.062336992 0.657544689 0.0250993591 0.6575736231 0.0250108391 -0.0694713986 0.0631789306
30299820.0 -0.0622696566 0.0686772777 0.6674807464 0.0242582345 0.6667735129 0.024702739 -0.0596301834 0.0700415089
35299790.0 -0.0525849253 0.0737846136 0.6775389503 0.0215045645 0.6769987319 0.0211477481 -0.0498408374 0.0750114769
40299760.0 -0.043163784 0.0772564902 0.6862743537 0.0169648096 0.6866918753 0.0172766426 -0.0401613376 0.077615583
45299730.0 -0.0338673797 0.0793635327 0.6949151862 0.0117536326 0.6954674693 0.0119878914 -0.0315096884 0.0797843258
50299700.0 -0.0255728484 0.0800541938 0.7038602198 0.0045218222 0.7034922261 0.0052140531 -0.0227497229 0.080800875
55299670.0 -0.0174377882 0.0802792093 0.7114565959 -0.0039106441 0.7104977363 -0.0032248505 -0.0146612772 0.0806180854
60299640.0 -0.0098683928 0.0798531845 0.7169245888 -0.0117917881 0.7176779782 -0.011470882 -0.0080046867 0.0796916326
65299610.0 -0.0040495971 0.0788785294 0.7234500007 -0.0203300902 0.7234521127 -0.02011631 -0.001064487 0.0787712556
70299580.0 0.0024733305 0.077401449 0.7284616709 -0.0293053923 0.7281387123 -0.0295121288 0.0045792999 0.076809068
75299550.0 0.0080534867 0.075925336 0.7328558423 -0.0389017468 0.7325642525 -0.0389610203 0.010261951 0.0746540412
80299520.0 0.0129650306 0.0734537375 0.737115959 -0.0492619384 0.7371397718 -0.0489684802 0.0148580345 0.0727285257
85299490.0 0.0176993443 0.0713789177 0.740439721 -0.0588184094 0.7400068963 -0.058887525 0.0195020583 0.0703293704
90299460.0 0.0216290033 0.0689857816 0.7421028657 -0.0694424124 0.7430950725 -0.0692503163 0.0234677181 0.0680019512
95299430.0 0.0258186021 0.0662964616 0.745307248 -0.0791146487 0.7457856496 -0.0791093999 0.0272487633 0.0654731261
100299400.0 0.0288029521 0.0645315769 0.7461619108 -0.0889525298 0.7469871908 -0.089407137 0.0309200228 0.0623841835
105299370.0 0.032217516 0.062162782 0.7483639598 -0.0995703335 0.7492992353 -0.0998414263 0.0339573617 0.0607476526
110299340.0 0.0350599514 0.0598457051 0.7499175614 -0.1095796348 0.74957576 -0.1088897947 0.035978437 0.0576527307
115299310.0 0.0373711733 0.0572797499 0.7505736469 -0.1197556134 0.7505971053 -0.1193056101 0.0390111848 0.0554449612
120299280.0 0.0397045247 0.0545141738 0.7509225397 -0.1295895289 0.7512767942 -0.1298286149 0.0413310347 0.0530142443
125299250.0 0.0418838334 0.0523569925 0.7516645066 -0.1391711278 0.7512289188 -0.1392894869 0.0429064368 0.0501972562
130299220.0 0.0435017635 0.0502930494 0.7512172866 -0.1498209378 0.751418425 -0.1495326917 0.0448375874 0.0479838955
135299190.0 0.0453570396 0.0482477795 0.75157026 -0.1591125052 0.7510828784 -0.1590920574 0.0469137999 0.0459066107
140299160.0 0.046712663 0.0462632493 0.7504466954 -0.169024613 0.7506729247 -0.169318068 0.0480719787 0.0443994121
145299130.0 0.0481770815 0.0437662857 0.750036436 -0.1789477189 0.7496753803 -0.1785836303 0.0494888593 0.0419120446
150299100.0 0.0498365527 0.0420354038 0.7486755648 -0.1876873476 0.7486882073 -0.188029993 0.0507592219 0.0400376111
155299070.0 0.0504010572 0.0397517436 0.7478788916 -0.1987210974 0.7476734263 -0.1982279652 0.0520314095 0.0382768978
160299040.0 0.0519091735 0.0378885137 0.7463933074 -0.2069408794 0.7457685737 -0.2079070832 0.0523621185 0.0360536492
165299010.0 0.052383425 0.0362147752 0.7442032406 -0.2170545038 0.7446464796 -0.2173801976 0.053839472 0.0348755242
170298980.0 0.053492991 0.0340653964 0.7426220717 -0.2267368957 0.7430857177 -0.2267371587 0.0543729908 0.0327800127
175298950.0 0.0535596834 0.0319920841 0.7414556685 -0.2357991054 0.7409075737 -0.2358180556 0.0549697927 0.03132085
180298920.0 0.0545773678 0.0304939625 0.7386640137 -0.2449709576 0.73875565 -0.2446940635 0.0556241529 0.0298688193
185298890.0 0.0554699632 0.0286274819 0.7367015522 -0.2543548619 0.7360276432 -0.2539296725 0.0559417615 0.0283326527
190298860.0 0.0554448494 0.0272914885 0.7343577151 -0.2632726749 0.7345654133 -0.2630894419 0.0564661319 0.0262996909
195298830.0 0.0559755615 0.0250859739 0.73120952 -0.2719172315 0.7315818563 -0.2720584723 0.0571849642 0.0251616834
200298800.0 0.0561072324 0.0237062942 0.7288570299 -0.2815493517 0.7286609257 -0.28110942 0.0567927346 0.0236441933
205298770.0 0.0569236743 0.0226840351 0.7256465958 -0.2900541823 0.7258079292 -0.2901809832 0.057510323 0.0214271449
210298740.0 0.0573287833 0.0209673312 0.7230354498 -0.2983608799 0.7229575407 -0.2980954791 0.0577161219 0.0212578134
215298710.0 0.056793436 0.0195542493 0.7201394679 -0.3079094394 0.7199042118 -0.3080270501 0.0578152757 0.0197461424
220298680.0 0.0575526562 0.0176791134 0.7161255671 -0.3161623464 0.7163316038 -0.3162552784 0.0576994187 0.0178720191
225298650.0 0.0577964118 0.0163081356 0.7136423634 -0.325040567 0.7135359964 -0.3245372428 0.0572704124 0.0163618995
230298620.0 0.0578518557 0.0155009832 0.7099708835 -0.3331932116 0.7103185168 -0.3334518216 0.0573187632 0.0151684995
235298590.0 0.057695927 0.0145624762 0.7067895995 -0.3415399673 0.706945249 -0.3413064702 0.0574734419 0.013828603
240298560.0 0.0579399837 0.0133901556 0.7033192866 -0.3505351785 0.702856989 -0.3501186916 0.0573543496 0.0128821728
245298530.0 0.0577973934 0.0118506709 0.6996755678 -0.358300033 0.6992318552 -0.3588099311 0.05834463 0.0110270658
250298500.0 0.0582285145 0.0110684633 0.6950544662 -0.3663049098 0.694949807 -0.3662239738 0.0576158413 0.0104259861
255298470.0 0.0583839608 0.0093387647 0.6910544222 -0.3741247311 0.6914176719 -0.3742958199 0.0582847165 0.0090532699
260298440.0 0.0578265279 0.0079619302 0.6878064365 -0.3832555603 0.6875428675 -0.3829046148 0.0584331075 0.0079100346
265298410.0 0.0588213334 0.0073590453 0.6835714205 -0.3916289138 0.6834609799 -0.3908418547 0.0579890912 0.0069708295
270298380.0 0.0583459412 0.0061120087 0.6792989626 -0.3985575714 0.6789694395 -0.3989181544 0.0576590109 0.0057229653
275298350.0 0.059040322 0.0050486375 0.6750574571 -0.4067181781 0.6750556762 -0.406888816 0.0581042292 0.0043060544
280298320.0 0.058820635 0.0043528954 0.6708471356 -0.4146204207 0.670738735 -0.4145469458 0.0585938715 0.00358511
285298290.0 0.0585611982 0.0030273409 0.6666431638 -0.4223890061 0.6661433235 -0.4228543027 0.0581676422 0.0023138551
290298260.0 0.0590194068 0.0019143061 0.6617091176 -0.4302095786 0.6612316556 -0.4306055965 0.0582658378 0.001593484
295298230.0 0.0586756991 0.0007724665 0.6576437377 -0.4374020045 0.6568509934 -0.4378246601 0.0590514274 0.000148587
300298200.0 0.0579461213 -0.0003825118 0.6526691236 -0.4453744208 0.6523917648 -0.4462882225 0.0588375581 -0.000893114
305298170.0 0.0586785653 -0.0013825669 0.6471147759 -0.4533376764 0.6471852988 -0.4532663846 0.059274545 -0.0021983353
310298140.0 0.0583155397 -0.0024963418 0.6427231287 -0.4611221966 0.6430519913 -0.4610740598 0.0591270982 -0.0032433499
315298110.0 0.0583186793 -0.0042758327 0.637994389 -0.4688916951 0.6379267294 -0.4688788249 0.0587632008 -0.0045237175
320298080.0 0.0586012613 -0.0051657758 0.6320211677 -0.4766929532 0.6323478508 -0.4761986457 0.0586787343 -0.0052510133
325298050.0 0.0580008107 -0.0063529935 0.6268435289 -0.4839538082 0.6266599076 -0.4834546535 0.0579584786 -0.0066180436
330298020.0 0.0573474286 -0.0075097991 0.6210881541 -0.4913243312 0.6214113118 -0.4914686489 0.0575255144 -0.0076963654
335297990.0 0.0571798783 -0.0087750445 0.6159184615 -0.4980943976 0.6150537754 -0.4984355322 0.0564421627 -0.0081343007
340297960.0 0.0561881271 -0.00933318 0.6096718133 -0.5050152486 0.6087661174 -0.5051428262 0.0569868097 -0.008609823
345297930.0 0.0557296731 -0.0095172311 0.6037562817 -0.5117506052 0.6036052685 -0.5122742792 0.0565037695 -0.0097970619
350297900.0 0.0549697526 -0.0111986292 0.597371389 -0.5187078609 0.597418761 -0.5190483211 0.0555184635 -0.0099362182
355297870.0 0.0548373718 -0.010736143 0.5916383326 -0.5251975554 0.5925673219 -0.5257656434 0.0553909608 -0.0109425128
360297840.0 0.0545950386 -0.0116589213 0.5868190649 -0.5320358126 0.587127648 -0.5317463678 0.0549496891 -0.0112495105
365297810.0 0.0537936895 -0.0125235222 0.5800354197 -0.538779869 0.5808080975 -0.5388512563 0.0548674553 -0.0118347922
370297780.0 0.0543052056 -0.0134483539 0.5741001185 -0.5447540739 0.5745481202 -0.5442112375 0.0542591302 -0.0123634898
375297750.0 0.0537574319 -0.0139502419 0.5683943834 -0.551229922 0.569186748 -0.5512048902 0.0543273599 -0.0132675427
380297720.0 0.0535742843 -0.0144336181 0.5623253035 -0.5582181039 0.5626980701 -0.5574343385 0.0534012232 -0.0138444302
385297690.0 0.052853277 -0.0153281444 0.5556890442 -0.5637687438 0.5558524635 -0.5637318546 0.0531866081 -0.0140506312
390297660.0 0.0525852991 -0.0154863994 0.5499419545 -0.5703599137 0.5496675942 -0.5699774634 0.0525259801 -0.0151043249
395297630.0 0.0520010739 -0.0161002761 0.5437876202 -0.5763021379 0.5435493347 -0.5765917934 0.0530780974 -0.0157089247
400297600.0 0.0518160106 -0.0170349593 0.5366704479 -0.5829617486 0.5374172156 -0.5823003585 0.0523899695 -0.0158938053
405297570.0 0.0512246738 -0.0175640784 0.5310143564 -0.5884903076 0.5309057389 -0.5879754885 0.0515866265 -0.016602182
410297540.0 0.0513204171 -0.0183868828 0.5244217506 -0.5942840466 0.5247357513 -0.5940412786 0.0511566007 -0.0170937181
415297510.0 0.0512807125 -0.0187940892 0.5179109056 -0.6005509163 0.518057178 -0.6003589577 0.0509315674 -0.0176319647
420297480.0 0.0507409244 -0.0192200514 0.5110855376 -0.6058437456 0.5112499743 -0.6067432067 0.0502606163 -0.0190261651
425297450.0 0.0499831389 -0.020471533 0.5044060904 -0.6117237097 0.5046607179 -0.6114106384 0.0493862202 -0.0188692549
430297420.0 0.0498968639 -0.0209562041 0.4973772415 -0.6164762813 0.4975455599 -0.6168367501 0.0491934847 -0.0202224975
435297390.0 0.0493736365 -0.0213311 0.4905248538 -0.6228639266 0.4905219465 -0.6225233068 0.0498276764 -0.0205116009
440297360.0 0.0491690588 -0.0219589913 0.4840405069 -0.627959322 0.4840882075 -0.628309516 0.0485046782 -0.0215965545
445297330.0 0.048619142 -0.0230610597 0.4772895646 -0.6333471567 0.4772158244 -0.6331974052 0.0485952371 -0.0222695139
450297300.0 0.0486915097 -0.0232426171 0.470134595 -0.638365248 0.4697756947 -0.6388377086 0.0480137481 -0.023139536
455297270.0 0.0481618938 -0.0236823773 0.4631863086 -0.6439592878 0.4633275601 -0.6436236271 0.0480431142 -0.023269938
460297240.0 0.0475326159 -0.0246471028 0.4559569335 -0.6492448658 0.4560794667 -0.649168486 0.0474319174 -0.0240865857
465297210.0 0.0473508634 -0.0250346666 0.4488717929 -0.6538527795 0.4485869977 -0.654400561 0.0474507342 -0.0247621644
470297180.0 0.0468445212 -0.0260109422 0.4414118436 -0.6587896473 0.4415757033 -0.6589220514 0.0471422269 -0.0250549959
475297150.0 0.04661894 -0.0266083251 0.4340052461 -0.6630482306 0.4347539686 -0.6633854897 0.0471923914 -0.0261395086
480297120.0 0.0460008161 -0.0262572988 0.4268109493 -0.6688178235 0.4264813833 -0.6690385098 0.0467626891 -0.0260469864
485297090.0 0.0453718412 -0.0269429611 0.4198280263 -0.6729196534 0.4199821108 -0.6731161189 0.0463275883 -0.026822048
490297060.0 0.0444346907 -0.0279489956 0.4124318027 -0.6782368397 0.4123550188 -0.6775010791 0.0457840069 -0.0269966514
495297030.0 0.0443971879 -0.028219355 0.4048179832 -0.6818993918 0.4052669032 -0.682034826 0.0448441264 -0.0277743489
500297000.0 0.0438706434 -0.0291623394 0.3970319972 -0.6865594011 0.3966760983 -0.6862480244 0.0450009711 -0.0274740727
505296970.0 0.0439107485 -0.0295289151 0.3895721309 -0.6909102625 0.3886970661 -0.6911051779 0.0441171675 -0.028200527
510296940.0 0.0428969367 -0.0297784564 0.3818681836 -0.6953377165 0.3816144376 -0.6952881976 0.0442545564 -0.0285449595
515296910.0 0.042482528 -0.0300093862 0.3741773162 -0.699502799 0.374089815 -0.6993514833 0.0438955682 -0.0289505504
520296880.0 0.0419521702 -0.0306702307 0.3671646089 -0.7045177934 0.3665556701 -0.7034075003 0.0431152264 -0.0297106963
525296850.0 0.0416668364 -0.0317740976 0.3589827204 -0.7072024548 0.3594115384 -0.7071156311 0.0424814112 -0.0297401176
530296820.0 0.0412518632 -0.031513669 0.3508096453 -0.7117197813 0.3512772983 -0.7116270668 0.0424165258 -0.0299079636
535296790.0 0.0403902095 -0.032090394 0.3435547879 -0.7153837999 0.3437235572 -0.7148099246 0.0418945393 -0.0312091537
540296760.0 0.0397680049 -0.0322477089 0.335608934 -0.7193936533 0.3352102263 -0.71918918 0.0408110776 -0.0303928035
545296730.0 0.0393993876 -0.0329308118 0.3270473538 -0.7229256813 0.3271881095 -0.7226019229 0.0404629768 -0.0313575745
550296700.0 0.0394805607 -0.0326130378 0.3191958896 -0.7260559918 0.3192353637 -0.7266198946 0.0395885404 -0.0312920418
555296670.0 0.0385919465 -0.0332334109 0.3119749108 -0.7293141266 0.3116267555 -0.7296040339 0.0394657817 -0.0318326951
560296640.0 0.0383644195 -0.0333494961 0.3034647713 -0.7330967791 0.3038780401 -0.7328943704 0.0386403768 -0.0323704378
565296610.0 0.0371961578 -0.0340769061 0.2952380441 -0.7364913456 0.2954664195 -0.7365138105 0.0379608133 -0.0327250315
570296580.0 0.0370193951 -0.0340992212 0.2873372889 -0.7403837998 0.2868397652 -0.7397164448 0.0376449916 -0.032475627
575296550.0 0.0361115877 -0.0344663102 0.2793043584 -0.7433072218 0.2791362749 -0.7426803721 0.0374944496 -0.033551278
580296520.0 0.0359236661 -0.0347022224 0.2710296799 -0.746101492 0.271402012 -0.7456204906 0.036480177 -0.0339777771
585296490.0 0.0354452717 -0.0359448935 0.2632139061 -0.7484854683 0.2632725164 -0.7484975549 0.0361324559 -0.034179034
590296460.0 0.0353854616 -0.0357269506 0.2552506621 -0.7509228428 0.2548193456 -0.7515294057 0.0347132416 -0.0343677598
595296430.0 0.0349017419 -0.0357758381 0.2463301085 -0.7543268722 0.2463451337 -0.7539587684 0.03461269 -0.0351104324
600296400.0 0.0337386257 -0.036328944 0.2383919413 -0.7564216245 0.2384729117 -0.7565766454 0.0340738756 -0.035437054
605296370.0 0.0332992519 -0.036704364 0.2301086608 -0.7592086743 0.2300600796 -0.759320954 0.0332961087 -0.0354552463
610296340.0 0.0329816112 -0.0372032655 0.2214638474 -0.7616454408 0.2221705265 -0.7621183804 0.0335848598 -0.0362642401
615296310.0 0.0328134956 -0.0379066003 0.2133248474 -0.7637238973 0.2130198144 -0.764865477 0.0329285148 -0.0363192542
620296280.0 0.0319191873 -0.0383030516 0.2053801469 -0.7664890843 0.204634907 -0.7661646263 0.0317741971 -0.0367402932
625296250.0 0.0310781778 -0.0388707248 0.197540349 -0.769052041 0.1969290156 -0.7689675138 0.0324532662 -0.037041749
630296220.0 0.0318506967 -0.0387188021 0.188071262 -0.7711867853 0.1877674935 -0.7705540685 0.0313533337 -0.0370278061
635296190.0 0.0293644898 -0.0394219311 0.1797803923 -0.7724146294 0.1801482307 -0.772753261 0.0309423827 -0.0374884932
640296160.0 0.0291845146 -0.0391875804 0.1715664604 -0.7741087787 0.1713898814 -0.7746372924 0.0302416841 -0.0381225877
645296130.0 0.0287660683 -0.0392793832 0.1625594847 -0.7764698644 0.1631258112 -0.7762523185 0.0298479011 -0.0380763121
650296100.0 0.0283690024 -0.0395698142 0.1542410846 -0.7782173342 0.1544960785 -0.7784839477 0.0298998748 -0.039222627
655296070.0 0.027185353 -0.0399290951 0.1462195672 -0.779901328 0.1462723649 -0.780109693 0.0294040155 -0.0385988259
660296040.0 0.026388997 -0.0407634133 0.1374325846 -0.7819637342 0.1374917506 -0.78141633 0.0286738482 -0.039010864
665296010.0 0.0268426569 -0.040658088 0.1287057353 -0.7827923568 0.129288122 -0.7829177921 0.0280685148 -0.0384112315
670295980.0 0.0245908101 -0.0406642389 0.1202274826 -0.7841438347 0.1203265763 -0.7839661061 0.0270131667 -0.0390308562
675295950.0 0.0246358796 -0.0405679776 0.1117904536 -0.7850152761 0.1120372125 -0.7847687852 0.0265148162 -0.0392247651
680295920.0 0.0237568108 -0.0411154419 0.1035846224 -0.7866203297 0.102351396 -0.7872655259 0.0260499952 -0.0388730181
685295890.0 0.023689371 -0.0403251038 0.0944369718 -0.7873176969 0.0942890331 -0.7875575136 0.02528916 -0.0388612008
690295860.0 0.0232242316 -0.0408017865 0.0861805155 -0.7880303725 0.0858056963 -0.7889262708 0.024537795 -0.0384844156
695295830.0 0.0226416105 -0.0413379854 0.0783617456 -0.7889981566 0.0774936896 -0.7890020303 0.0240381211 -0.0390415614
700295800.0 0.0220300913 -0.0419850223 0.068816215 -0.7897036619 0.068298016 -0.7895181794 0.0235874698 -0.0384257442
705295770.0 0.0212424372 -0.0405250677 0.0599550553 -0.7903076144 0.0605674202 -0.7908096603 0.02285919 -0.0390190523
710295740.0 0.0208699617 -0.0414638414 0.0518094332 -0.7924278039 0.0520434563 -0.7916234079 0.0230743053 -0.0399077879
715295710.0 0.019576309 -0.0419102502 0.0433807436 -0.7921876601 0.0427592858 -0.7920132436 0.0222094867 -0.0394654069
720295680.0 0.0197316483 -0.0419049857 0.0345471331 -0.7925201633 0.0345512368 -0.7926072142 0.0215647899 -0.0388856221
725295650.0 0.019214637 -0.0415027619 0.0258796807 -0.7925130973 0.0257888713 -0.7930206786 0.0201564059 -0.0392058058
730295620.0 0.0185648225 -0.0414889621 0.0171483379 -0.7926111193 0.016807462 -0.7926757835 0.0196323701 -0.0397046881
735295590.0 0.0178763493 -0.0417386907 0.008843485 -0.7935218723 0.0081993322 -0.7930382128 0.0189570209 -0.0400492565
740295560.0 0.0169107889 -0.041693367 -6.50724e-05 -0.7928283493 -5.83972e-05 -0.792984137 0.0186510539 -0.0395189579
745295530.0 0.0165429719 -0.0418341857 -0.0090052455 -0.7927279089 -0.0092540471 -0.7930089347 0.0182782971 -0.0401756882
750295500.0 0.0162463998 -0.042001935 -0.0174260514 -0.7923392017 -0.017491168 -0.7929605185 0.016926991 -0.0400943688
755295470.0 0.0154755851 -0.0423123823 -0.0259425075 -0.792510675 -0.0258691548 -0.7925283746 0.0172258686 -0.0406374621
760295440.0 0.0147439189 -0.0419833579 -0.034300484 -0.7925232619 -0.0346540191 -0.7927261564 0.016123581 -0.0404285368
765295410.0 0.0142243904 -0.0422332998 -0.0436442329 -0.7917593133 -0.0436515829 -0.7922992502 0.0157556607 -0.040284677
770295380.0 0.0130540751 -0.0424552622 -0.0520251296 -0.7916086722 -0.0520698754 -0.7915982046 0.0144956247 -0.0408289929
775295350.0 0.0125914461 -0.0428619218 -0.0608980672 -0.7904737444 -0.0607333456 -0.7905517957 0.0136047453 -0.0399251889
780295320.0 0.0123051268 -0.0424882843 -0.0687496491 -0.7899103907 -0.0681255692 -0.7897247818 0.0134085418 -0.0410349214
785295290.0 0.0112589591 -0.0431669918 -0.0780975947 -0.7886015877 -0.077417605 -0.7889349143 0.0134023865 -0.0403658399
790295260.0 0.0113108032 -0.0420299339 -0.085751519 -0.7883290285 -0.0852060607 -0.7880986787 0.0126692818 -0.0407037572
795295230.0 0.0103994873 -0.0426643586 -0.0944856124 -0.7870801037 -0.0939279667 -0.7871106154 0.0120284376 -0.0404382154
800295200.0 0.0093153092 -0.0419786803 -0.1042998554 -0.7859285039 -0.1033353461 -0.7858699295 0.0114528175 -0.0406678655
805295170.0 0.0087694424 -0.0425320002 -0.1120409533 -0.7844821998 -0.1123692429 -0.7848710479 0.0107998481 -0.0407076836
810295140.0 0.0076626591 -0.0427936825 -0.1203167967 -0.7832723194 -0.1205478213 -0.7840954688 0.0108144707 -0.0406023335
815295110.0 0.0077818067 -0.0429844181 -0.1285951164 -0.7816417864 -0.1292476608 -0.7822997183 0.0098714557 -0.0403678967
820295080.0 0.0063018054 -0.0421441374 -0.137126157 -0.7802311757 -0.137430104 -0.7803199862 0.0092599914 -0.0405139514
825295050.0 0.0066819225 -0.0423848708 -0.1451630834 -0.7787420101 -0.1458977941 -0.7791939325 0.0093732678 -0.0402888206
830295020.0 0.0057069537 -0.0419518602 -0.1540023706 -0.7768304401 -0.1544337714 -0.7767503562 0.0093769011 -0.0400971888
