!Created with skrf (http://scikit-rf.org).
# Hz S RI R 50.0 
!freq ReS11 ImS11 ReS21 ImS21 ReS12 ImS12 ReS22 ImS22
300000.0 -0.0483854738 -0.0468834424 -0.0010112656 0.0030125851 5.6235e-06 0.000475942 -0.7771792978 -0.1398294433
5299970.0 -0.05000661 0.0158239404 3.0156e-06 -8.6093e-06 4.0684e-05 -0.0002201245 -0.7843716516 -0.0071477796
10299940.0 -0.0441981594 0.032724555 -0.0002624514 -5.4629e-05 9.6438e-05 6.58784e-05 -0.7877566391 -0.0034732351
15299910.0 -0.0361297441 0.0472647394 0.00030891 0.0001897054 0.0002219776 -9.46731e-05 -0.7929615348 -0.0017638628
20299880.0 -0.0260510928 0.0588184104 0.0004194042 9.15019e-05 -9.33446e-05 -1.79962e-05 -0.7995350198 0.0024544417
25299850.0 -0.0153316365 0.0683350004 -0.0001559149 -2.12149e-05 -4.8542e-06 -0.0001397203 -0.8056444396 0.0084035538
30299820.0 -0.0042128758 0.0750542562 4.47197e-05 6.02426e-05 2.43655e-05 1.38778e-05 -0.8117928038 0.0164604144
35299790.0 0.0074805651 0.0798956242 -0.0001269637 1.17816e-05 0.0001457896 -4.22967e-05 -0.81717761 0.0253670468
40299760.0 0.0187388926 0.0830119637 -0.0001123362 -8.47324e-05 0.0001961111 0.0001426807 -0.8206855491 0.0347460981
45299730.0 0.0292943109 0.0843358186 6.19001e-05 1.869e-06 -9.0989e-06 1.69371e-05 -0.8254701602 0.0437539625
50299700.0 0.0392532732 0.0845237222 0.0001774519 -0.0001097895 0.0001152966 -2.21065e-05 -0.8273865584 0.0538091169
55299670.0 0.0484058274 0.0834292147 -5.86747e-05 0.0001772941 -0.0001717473 2.27024e-05 -0.8295654172 0.064793181
60299640.0 0.0571576461 0.081757146 6.72041e-05 0.0001430181 -7.66507e-05 -1.01923e-05 -0.8298734142 0.0741676296
65299610.0 0.0646683215 0.0796829985 -0.000121052 -6.13712e-05 0.0001172925 5.27996e-05 -0.8315149047 0.0840579427
70299580.0 0.0715871688 0.076994859 -0.0001867588 -5.18889e-05 -7.93003e-05 9.24364e-05 -0.832127276 0.0945219107
75299550.0 0.0780637864 0.0738902319 -0.0001205099 -0.000120466 7.59506e-05 0.0001665009 -0.8320083935 0.1043788562
80299520.0 0.0838575606 0.0705692382 1.49866e-05 -5.72639e-05 -0.0001497613 0.0001323633 -0.832020809 0.113641011
85299490.0 0.0886343591 0.0667239835 -5.3016e-05 0.0001824568 -0.0001201366 0.0001045347 -0.831697835 0.1234340442
90299460.0 0.0933980271 0.0631043143 -3.59183e-05 5.2618e-05 8.31408e-05 2.67588e-05 -0.8306657097 0.1334042953
95299430.0 0.0976870053 0.0590467981 0.0001029043 -2.5105e-05 0.0001223209 -3.7135e-06 -0.828966818 0.1430852987
100299400.0 0.1008868361 0.0558905009 -0.0001144229 -3.08697e-05 5.40766e-05 7.55585e-05 -0.8284911385 0.152387099
105299370.0 0.1044803759 0.0519470807 0.0002051927 -7.68647e-05 7.51448e-05 0.000124363 -0.8268488833 0.1613585997
110299340.0 0.1074126198 0.048055987 3.32891e-05 0.0001086632 0.0001023293 -0.0001353239 -0.8252503051 0.1709971857
115299310.0 0.1102670602 0.0439722961 -0.0001797515 3.77522e-05 -4.57285e-05 3.9452e-05 -0.8239297057 0.1799058475
120299280.0 0.1121871528 0.0400728859 0.0001472466 0.0002159969 0.0001146856 -7.28488e-05 -0.8221951411 0.1889835477
125299250.0 0.1139637283 0.0363816165 -7.9182e-06 0.000210173 -4.84161e-05 5.69437e-05 -0.8206202494 0.1976722463
130299220.0 0.115786381 0.0332521931 -8.53923e-05 0.0001353892 3.4334e-05 0.000131218 -0.818546287 0.207111223
135299190.0 0.1174884544 0.0297563956 -3.7153e-06 -0.0001262143 0.0001225479 4.86882e-05 -0.816478501 0.2160454724
140299160.0 0.118912309 0.0262372095 0.0001533265 8.63589e-05 -2.00858e-05 -3.78376e-05 -0.8137578355 0.2250422197
145299130.0 0.119970508 0.0223914307 -4.6794e-06 0.0001239758 -9.17575e-05 0.0002034271 -0.8118315992 0.2340162895
150299100.0 0.121086431 0.0192296806 -9.06751e-05 0.0002098401 -0.0001391679 -4.6281e-06 -0.8103770437 0.2424580699
155299070.0 0.121622638 0.0160709926 0.0001123061 -3.31013e-05 0.0002135915 0.0002661746 -0.8069034884 0.2516891342
160299040.0 0.1223702084 0.0131735708 5.9856e-06 -3.06644e-05 9.57177e-05 -3.15713e-05 -0.8048704792 0.2606409621
165299010.0 0.1230246968 0.0097106371 0.0002193646 8.81135e-05 0.000214205 0.0001295429 -0.8023011071 0.2695740413
170298980.0 0.1233084838 0.007062573 0.000117581 0.0002306723 -2.74981e-05 0.0001005614 -0.7992260056 0.2778318323
175298950.0 0.1237327509 0.0037760944 0.0001583314 9.43697e-05 0.0001242596 5.51963e-05 -0.7962547202 0.2864159047
180298920.0 0.1241093221 0.001259212 -5.28704e-05 5.51062e-05 0.0001247056 0.0001652733 -0.7937523882 0.2945182736
185298890.0 0.1240743246 -0.0018770312 0.0001675657 0.0001387822 0.0002714002 -1.1754e-06 -0.7897946141 0.3038906434
190298860.0 0.1240817967 -0.0045561171 -7.43168e-05 3.00057e-05 -0.0001768104 0.000140396 -0.7880299266 0.3119948312
195298830.0 0.1241853672 -0.0071090664 -0.0001643895 0.0001643658 0.000199237 -6.98712e-05 -0.7843930996 0.3210040654
200298800.0 0.1240787157 -0.0098454127 0.0002299058 0.0001923734 0.0002730246 0.0002043697 -0.7817146955 0.3292325493
205298770.0 0.1238211187 -0.0123777786 9.00255e-05 0.0001934043 -0.0001227007 0.0002673761 -0.7775012364 0.3375720674
210298740.0 0.1236187064 -0.0149677855 4.1723e-05 0.000130099 0.0002561634 0.0002650975 -0.7742301549 0.3458594575
215298710.0 0.1230903802 -0.0174335901 -6.43497e-05 3.90611e-05 -0.0001037581 0.0002379678 -0.7706563268 0.3546742383
220298680.0 0.1227675418 -0.0197243083 0.0002110187 0.0001251074 2.34487e-05 0.0001194122 -0.7672381407 0.3622459174
225298650.0 0.1223705857 -0.0221761522 4.54441e-05 0.0001821682 0.0002195013 0.0001700207 -0.763681433 0.3700114188
230298620.0 0.1217914851 -0.0242468923 0.0001817847 7.11689e-05 0.0002820261 0.0002182935 -0.7599439768 0.3785685957
235298590.0 0.1216073366 -0.0262352949 -8.33746e-05 0.0001382907 0.0001427626 0.0001782852 -0.755875121 0.386664535
240298560.0 0.1207578998 -0.0291329907 0.0001590696 0.0001868772 0.0002466049 0.0001725447 -0.7516948248 0.3950990198
245298530.0 0.1202058738 -0.031083007 0.0002242972 0.0001821776 5.34076e-05 0.00011195 -0.7477770081 0.4022655855
250298500.0 0.119554666 -0.0331454887 0.0002753567 -0.0001978347 0.000112608 0.000136387 -0.7434487435 0.4102068461
255298470.0 0.1188504126 -0.0352313738 -1.45113e-05 4.74113e-05 0.0001395497 0.0002567709 -0.7389631479 0.4184885869
260298440.0 0.1180724675 -0.037275479 9.86023e-05 0.0001701285 -1.02076e-05 0.0002322486 -0.7347511767 0.4260337506
265298410.0 0.1174112402 -0.0389425539 0.0001011937 0.0001616294 9.90329e-05 0.0001835855 -0.7301482611 0.4334637108
270298380.0 0.1166413304 -0.0408103389 0.0001885245 0.0001823907 6.2976e-06 7.24329e-05 -0.7253892236 0.4407419487
275298350.0 0.1161613976 -0.0429867181 0.0002942212 0.0001542029 4.42078e-05 0.0001603372 -0.7204508589 0.448618637
280298320.0 0.1154623459 -0.044957222 7.85139e-05 0.0001308496 0.000283421 0.0002816343 -0.7153664723 0.4556086315
285298290.0 0.1146037616 -0.0465217779 0.0001565059 0.0001044531 0.0001902761 0.0001850431 -0.7104525072 0.4635219128
290298260.0 0.1138431986 -0.0483381178 0.0001002225 -1.53183e-05 0.0001556514 0.0001702079 -0.7062053716 0.4709030532
295298230.0 0.1129074562 -0.0506242359 0.0001823579 -0.0002757928 0.0001407542 -3.87362e-05 -0.7009188366 0.4775787795
300298200.0 0.1123424602 -0.0522181601 0.0001238984 -7.90021e-05 0.000124102 4.34922e-05 -0.6960183948 0.4852757689
305298170.0 0.1115618198 -0.0539700284 0.0003962007 0.0002428259 0.0001932543 0.0001033795 -0.6897322238 0.4927447812
310298140.0 0.110536466 -0.0555962287 0.0001015987 -5.52081e-05 0.0003502131 0.0001232761 -0.6856282582 0.4998478426
315298110.0 0.1098953088 -0.0573677457 0.0002604197 0.0001366931 -4.2054e-05 0.0001225469 -0.6795979948 0.5064018033
320298080.0 0.1089382029 -0.0596199173 -0.0001000036 0.0001153003 0.0002296946 0.0001976087 -0.6745159159 0.5142251928
325298050.0 0.1076555341 -0.0611156457 0.0002700513 0.0002126806 0.0002334304 2.41633e-05 -0.6689031317 0.5207492787
330298020.0 0.1065485701 -0.0630425695 -1.30655e-05 -0.0001600134 0.000115675 0.0004041365 -0.6636218597 0.5278188432
335297990.0 0.1049731172 -0.0643950262 -2.06842e-05 1.68595e-05 0.0003083145 0.0001433716 -0.6580003297 0.5353326855
340297960.0 0.1036526584 -0.0657248247 8.67814e-05 0.0001639941 5.70984e-05 -3.51859e-05 -0.6523644007 0.5418325171
345297930.0 0.1024847613 -0.0672477783 6.43796e-05 0.0001929512 0.0001252623 0.0002725988 -0.6468293061 0.5483734499
350297900.0 0.1014584386 -0.0685404687 0.0001241248 0.0001096803 7.3892e-05 -0.0001069212 -0.6416337843 0.5554675271
355297870.0 0.1006007945 -0.0698243201 0.0001386762 3.98847e-05 0.0002102161 -5.32445e-05 -0.6353501579 0.5621920277
360297840.0 0.0988065453 -0.0710039344 0.0002436323 5.91355e-05 0.0003246772 4.84604e-05 -0.6297189911 0.5684555986
365297810.0 0.0975101996 -0.0722436387 1.88893e-05 7.3639e-05 9.23065e-05 9.99723e-05 -0.6234653087 0.5750572506
370297780.0 0.0966930204 -0.0736722556 3.55453e-05 0.0001670451 0.0001937472 0.0002542002 -0.617158336 0.5814846793
375297750.0 0.0956197443 -0.0746198148 0.0003220947 0.0003044779 0.0004151006 -9.76699e-05 -0.6118638707 0.5881043282
380297720.0 0.0941716433 -0.0761935929 0.0003911044 0.000216867 7.44662e-05 0.0001459795 -0.6053879082 0.5943184925
385297690.0 0.0927979051 -0.0769578466 0.0001342377 2.29837e-05 0.0002589645 1.50733e-05 -0.5986278034 0.6002361777
390297660.0 0.0914997424 -0.0779395726 1.05935e-05 6.68018e-05 0.0001697973 0.0002974502 -0.5932328896 0.6067545835
395297630.0 0.090436878 -0.0795234908 0.000189191 4.95254e-05 0.0001296501 0.0003224489 -0.58641844 0.6126493445
400297600.0 0.0893363813 -0.0800929763 3.51351e-05 9.11007e-05 5.2976e-05 -0.0001040266 -0.5807753857 0.6190349785
405297570.0 0.0877294541 -0.0815135055 4.90706e-05 0.0001473157 0.0001585103 0.0004232324 -0.5740305998 0.6246591759
410297540.0 0.0863962888 -0.0827850878 5.39863e-05 1.74573e-05 0.0001754353 1.31889e-05 -0.5672515859 0.6304494116
415297510.0 0.0855429461 -0.0840135087 2.617e-06 8.09584e-05 0.0001945907 0.0003173025 -0.5611619243 0.6363325851
420297480.0 0.0841356377 -0.0844633812 0.0004482397 9.2675e-05 0.0003616029 0.0001211962 -0.5539957808 0.6422372645
425297450.0 0.082828568 -0.0856564985 0.0005208186 6.33373e-05 0.0001202403 0.0001387788 -0.5477758151 0.6481912936
430297420.0 0.0815392054 -0.086678593 0.0002992889 -8.2121e-06 0.0002660564 0.0001618259 -0.5410314828 0.6523541787
435297390.0 0.0800682013 -0.0874390214 -4.0959e-06 0.0002687919 0.0002573175 0.0001864061 -0.5337850217 0.658374803
440297360.0 0.0789510726 -0.0885263649 0.0005044603 -3.68647e-05 0.000111843 7.59674e-05 -0.5273933641 0.6638333959
445297330.0 0.0772584135 -0.0895834411 6.374e-06 -1.92279e-05 0.0001369994 0.0002869225 -0.5202162417 0.6684240882
450297300.0 0.0763140592 -0.0903532244 0.0001854359 0.0002662007 4.90674e-05 0.0001698627 -0.5132623525 0.6739870924
455297270.0 0.0748106252 -0.0912170819 0.000224164 -0.0001854426 0.000279746 3.48324e-05 -0.5064346621 0.6782453093
460297240.0 0.0736479027 -0.0920812447 0.0002294638 0.0002175446 0.0001690651 4.79501e-05 -0.4995594795 0.6842191032
465297210.0 0.0722022491 -0.0928190914 0.0004241063 2.17258e-05 0.000235603 0.0002616473 -0.4921825378 0.6885011521
470297180.0 0.0710007314 -0.0938413668 0.0002084173 0.0002012136 0.0004134313 -3.77843e-05 -0.4845968524 0.6940663924
475297150.0 0.0693519702 -0.0946760009 0.0002426233 9.43845e-05 0.0001565099 0.0001450137 -0.4772735249 0.6981623011
480297120.0 0.0683338561 -0.0955412106 0.0003208019 -2.74429e-05 0.0002514645 0.0002929682 -0.4696369594 0.7032038139
485297090.0 0.0667211342 -0.0959810938 0.0001013912 0.0001013362 0.0001701825 -6.54139e-05 -0.4632714028 0.7081205009
490297060.0 0.0652875517 -0.0963113231 0.0003539035 0.0002000244 0.0002969704 5.71118e-05 -0.4557722666 0.7125184133
495297030.0 0.0639305219 -0.0973331041 0.0002754597 3.37991e-05 0.0002557769 -3.15e-07 -0.4481865255 0.7178717998
500297000.0 0.0624232017 -0.0979061372 0.0003258077 0.0004067011 0.0003437317 9.18613e-05 -0.4406540728 0.7221779483
505296970.0 0.061383828 -0.0988518498 0.0001725229 -5.41209e-05 0.0002259473 0.0001437177 -0.4334947706 0.7261521487
510296940.0 0.0599027188 -0.0993531609 0.0002190561 2.48525e-05 0.0001182799 8.29691e-05 -0.4259993017 0.7310865119
515296910.0 0.0587919826 -0.099916379 0.000214638 4.35882e-05 3.38935e-05 0.0002227705 -0.4188567762 0.7350180747
520296880.0 0.0569975842 -0.1004028314 0.0003999969 6.37285e-05 0.0003462051 0.0001057069 -0.4111036291 0.7388182308
525296850.0 0.055777976 -0.1012376309 0.0003062565 0.0002559239 0.0004264947 0.0002238574 -0.4037116185 0.7432789474
530296820.0 0.0543913778 -0.1017010115 0.0003320419 1.3256e-05 0.0003452109 8.99815e-05 -0.3954874842 0.7472437433
535296790.0 0.0527878346 -0.1020636422 0.0001937943 -4.1429e-05 0.0001548041 1.91817e-05 -0.3890379616 0.7519576079
540296760.0 0.0513923659 -0.1025325411 0.0001743808 -7.4822e-06 0.0003487264 0.0001217291 -0.3813608256 0.7555114995
545296730.0 0.0499062712 -0.1028616516 0.0004749441 0.0002272803 0.0003029951 1.66063e-05 -0.3735482985 0.7593179347
550296700.0 0.0488976701 -0.1035421227 0.0002512444 0.0002043314 0.0003130024 7.74904e-05 -0.3654048382 0.7628951379
555296670.0 0.0470567874 -0.1040778635 0.000406476 -4.43218e-05 0.0001891426 0.0003093083 -0.3576214479 0.7674938257
560296640.0 0.0458648544 -0.104375267 0.0004212105 -9.5596e-06 0.0002280217 9.11211e-05 -0.3505790736 0.7707977314
565296610.0 0.0443138553 -0.1047573721 0.000314699 8.93239e-05 0.0002982344 0.0001121798 -0.3424352998 0.7740629719
570296580.0 0.0427844306 -0.1053703101 0.0003863915 8.45989e-05 0.0003863938 -2.59172e-05 -0.334934823 0.7775775
575296550.0 0.0413485737 -0.1053050794 0.0003911406 -0.0001921771 0.0003554916 0.0002397285 -0.3267019153 0.7805539078
580296520.0 0.0402398724 -0.1060447789 0.00030452 0.0001040377 0.0004279106 -5.65728e-05 -0.318442435 0.7839848422
585296490.0 0.0383089147 -0.1061302887 0.0002305999 0.00020046 0.0001812837 0.0002746345 -0.3107390742 0.7874851337
590296460.0 0.0372992476 -0.1063495676 0.0003325013 -2.04857e-05 0.0001983814 -1.7802e-06 -0.3031024031 0.7900949333
595296430.0 0.0357402822 -0.1069499139 0.0004188618 0.00013638 0.0002790159 2.5255e-05 -0.2944368175 0.7921447299
600296400.0 0.0339773449 -0.1071161661 0.0002654256 -9.93319e-05 0.0003027559 -3.57401e-05 -0.286505456 0.7952759634
605296370.0 0.0329352908 -0.1071817499 0.0003331543 -1.1143e-06 0.0004221251 4.75569e-05 -0.2779438707 0.798598257
610296340.0 0.0311379984 -0.1075527243 0.0002843865 -5.65596e-05 0.0004884254 6.48562e-05 -0.27022316 0.8010039401
615296310.0 0.0295659934 -0.1076315459 0.0002841812 0.00015342 0.0002082584 -7.80334e-05 -0.2615115558 0.8030304129
620296280.0 0.0281110193 -0.108045222 0.0001732745 -0.0001583964 0.0002695469 0.0001569598 -0.2542810195 0.8063094504
625296250.0 0.0269270356 -0.1084154922 0.0005536231 6.62472e-05 0.0002121123 0.0001932806 -0.2453117086 0.8077478874
630296220.0 0.025590101 -0.1083842685 0.0004722258 0.0001083079 0.0002879258 0.0001244242 -0.2377722989 0.8107848342
635296190.0 0.0239986349 -0.1082115585 0.0003560895 8.33516e-05 0.0003880818 -7.95877e-05 -0.2293521268 0.8125014636
640296160.0 0.0224608054 -0.1084549906 0.0002386144 3.73117e-05 0.0002949961 1.83677e-05 -0.2212623648 0.8152532581
645296130.0 0.0209607416 -0.1085829073 7.44261e-05 -9.2596e-05 0.000298131 2.41492e-05 -0.2128993225 0.817247312
650296100.0 0.0195033264 -0.1085986797 0.0002899424 5.99586e-05 0.0004202303 0.0001164499 -0.2047325461 0.8185730057
655296070.0 0.0178818976 -0.1086501409 0.000246792 -7.50691e-05 0.0004146818 -9.83138e-05 -0.1961487018 0.8205706149
660296040.0 0.0165369936 -0.10879444 0.000319919 -0.0001177749 0.0003548799 4.23889e-05 -0.1876514207 0.8230956719
665296010.0 0.0154294486 -0.1089846237 0.000496099 0.0001297018 0.0003003794 -1.28023e-05 -0.1793382255 0.8250475417
670295980.0 0.0136601535 -0.1087447574 0.0003524736 -5.3106e-06 0.0005021695 9.6355e-05 -0.1717666667 0.8264883441
675295950.0 0.0120412117 -0.1085577548 0.0002603087 -2.67473e-05 0.0005176529 8.97044e-05 -0.1635220894 0.8284678408
680295920.0 0.011039183 -0.1084687334 0.0005240464 -4.54254e-05 0.0004498698 0.0001185473 -0.1547640773 0.8305654746
685295890.0 0.0095819186 -0.1085572587 0.0001646473 0.0001764566 0.0003687814 -1.34004e-05 -0.1466608728 0.8315967265
690295860.0 0.008190742 -0.1083718061 0.0003879836 -1.8483e-05 0.0002217657 3.23504e-05 -0.1384538106 0.833522588
695295830.0 0.0067820715 -0.1083090434 0.0001375771 7.33839e-05 0.0005827237 -4.05798e-05 -0.1288397141 0.8349181778
700295800.0 0.0051889704 -0.1082987406 0.0003955176 0.0002097063 0.0002783858 1.31348e-05 -0.1217097324 0.8361870842
705295770.0 0.0037800271 -0.1081572088 0.000471859 6.88641e-05 0.0004334635 -6.46378e-05 -0.1130001688 0.8377672981
710295740.0 0.0021917139 -0.107828947 0.0003068681 -0.0001748891 0.0002845191 3.58762e-05 -0.1048738435 0.8382798348
715295710.0 0.0008263073 -0.1079859686 0.0003293156 -4.24337e-05 0.0004759917 9.81357e-05 -0.0964978446 0.8400126323
720295680.0 -0.0005350392 -0.107415206 0.0003735481 7.45169e-05 0.0004751172 -1.67127e-05 -0.0882655815 0.8407842477
725295650.0 -0.0019195053 -0.1071826505 0.0004091267 -6.97415e-05 0.0002814629 7.58024e-05 -0.0798405235 0.8416347836
730295620.0 -0.0034177674 -0.1067960797 0.0002619747 -0.0001307329 0.0005873568 -3.25885e-05 -0.0720342197 0.8420274018
735295590.0 -0.0046317579 -0.1063557147 0.0005939648 4.61205e-05 0.0001881509 1.06072e-05 -0.0627662065 0.8423613145
740295560.0 -0.0063994535 -0.1060531991 0.0003817306 -2.54359e-05 0.0005227588 -0.0003068186 -0.054322217 0.843813651
745295530.0 -0.0080122991 -0.1059327851 0.0001407111 1.43244e-05 0.0004591393 -2.13277e-05 -0.0456027606 0.843329446
750295500.0 -0.0090147033 -0.1056051053 0.0004812508 -0.0002004463 0.0005123602 -0.0001412745 -0.0375130887 0.8446625728
755295470.0 -0.0105758841 -0.1054240152 0.0005075955 -6.45268e-05 0.0002246608 -0.000136987 -0.029303194 0.843865084
760295440.0 -0.011822351 -0.1050026223 0.000411601 -4.0682e-06 0.0003447841 -0.0001447771 -0.0212422359 0.8444383382
765295410.0 -0.0132007861 -0.1043438803 0.0002974089 -3.6296e-05 0.0003928186 7.45649e-05 -0.0124066946 0.8449936182
770295380.0 -0.0147441548 -0.1043314052 0.0003759482 -3.2304e-06 0.0003854454 -0.0001586908 -0.003960625 0.8445086484
775295350.0 -0.0161806124 -0.1039785722 0.0002196888 -0.0001521431 0.0002354713 -2.59067e-05 0.0037534292 0.8437870169
780295320.0 -0.0172994017 -0.1035581534 0.0006296559 -0.0001080381 0.0004035858 -3.18783e-05 0.0123323798 0.8440613788
785295290.0 -0.0189539729 -0.1035341532 0.0004718707 -0.0001249025 0.0006587116 -0.0002050891 0.0210114675 0.8435229638
790295260.0 -0.0200811229 -0.1024793369 0.0003314483 8.07894e-05 0.0003912436 -0.0002210759 0.0299150094 0.843683626
795295230.0 -0.0214713649 -0.1022326606 0.0004524468 -0.00015624 0.0003625243 -0.0001661663 0.0388012797 0.8427057317
800295200.0 -0.022926905 -0.1015802457 0.0005161871 0.0001469341 0.0004368288 1.45743e-05 0.0471230166 0.8426678349
805295170.0 -0.0240707586 -0.1012130537 0.0003172343 2.8056e-06 0.0005538335 7.39145e-05 0.0548385121 0.8421248887
810295140.0 -0.0254606552 -0.1009186154 0.0003154934 9.93568e-05 0.000371212 -0.0002984684 0.0632701318 0.8412393007
815295110.0 -0.0268580729 -0.100312785 0.0007113204 -0.0002682757 0.0004902396 -0.0001267414 0.0718670395 0.8406592664
820295080.0 -0.0279865952 -0.0993346793 0.0003842438 -0.0002027638 0.0003943065 -0.0001101742 0.0804504945 0.8401295309
825295050.0 -0.0292095894 -0.0991192533 0.0004692391 -0.0001854926 0.0005968477 -2.89541e-05 0.0879846214 0.8397313712
830295020.0 -0.0306321078 -0.0987717328 0.0005253623 -9.47812e-05 0.0004248754 -0.000103033 0.0976067482 0.8381272181
835294990.0 -0.0318143293 -0.0976604588 0.0003742899 7.41414e-05 0.0004283839 -0.0001650236 0.1052479429 0.8371328302
840294960.0 -0.0331473782 -0.0971361679 0.0005979686 -0.0001855616 0.0006561989 2.28311e-05 0.1141523515 0.8363328801
845294930.0 -0.0343544971 -0.0964646069 0.0004468525 -0.0001517801 0.0003762302 -0.0003522588 0.1215777648 0.834709811
850294900.0 -0.0352826333 -0.0959407315 0.0004054927 0.0001578083 0.0003458076 -0.0002384477 0.1299520862 0.8341404965
