!Created with skrf (http://scikit-rf.org).
# Hz S RI R 50.0 
!freq ReS11 ImS11 ReS21 ImS21 ReS12 ImS12 ReS22 ImS22
300000.0 -0.7706363359 -0.1401427944 -0.0019191669 0.0018553689 -0.0007034713 0.000771324 -0.7760878598 -0.1646712458
5299970.0 -0.7851564628 -0.0071949684 0.0001429292 -0.000108199 -1.92817e-05 -0.0001079932 -0.7845855186 -0.0084041451
10299940.0 -0.7879332158 -0.0041784583 -9.602e-06 7.20287e-05 1.0905e-05 -0.0001564105 -0.788392985 -0.0051654453
15299910.0 -0.7932674397 -0.0014617085 -3.78104e-05 -7.85324e-05 3.93715e-05 2.1846e-06 -0.793748584 -0.0031323148
20299880.0 -0.7994409352 0.0022532676 -0.0001051736 2.4365e-06 9.78181e-05 -3.69683e-05 -0.8001545048 0.0016792247
25299850.0 -0.8063828769 0.0079719382 -0.0001544774 -7.7557e-05 1.17842e-05 1.66428e-05 -0.8068806431 0.0072335787
30299820.0 -0.8118812542 0.0161416984 -0.0001286203 0.000205272 -4.85316e-05 -9.05353e-05 -0.8129427044 0.0146239784
35299790.0 -0.8168558826 0.0252298701 -7.09e-07 0.0001177494 2.36932e-05 -0.0001421872 -0.8179624952 0.0235722509
40299760.0 -0.8211780821 0.0341706474 3.16259e-05 3.9278e-06 0.0001167751 0.0001149757 -0.8219929614 0.0332478717
45299730.0 -0.8242578865 0.0440984625 -9.9309e-06 -8.29135e-05 2.8109e-06 -7.59982e-05 -0.8252306366 0.0420874864
50299700.0 -0.8268549527 0.0541839476 -8.90878e-05 9.54685e-05 0.0001356242 -2.2367e-05 -0.8280967382 0.0527985638
55299670.0 -0.8286058632 0.0644933694 2.59237e-05 0.0001182424 -0.0001214927 -0.0001179575 -0.8298898963 0.0627261748
60299640.0 -0.8296126082 0.0746013202 -0.0001198792 -0.0001643093 4.11074e-05 4.26514e-05 -0.8310562905 0.0730458102
65299610.0 -0.831003787 0.085014969 1.49114e-05 -1.18324e-05 0.0002639193 -3.75355e-05 -0.8314071513 0.0828965463
70299580.0 -0.8310652334 0.0948322401 -5.93131e-05 0.000205722 9.79371e-05 -0.0001821042 -0.8325616755 0.0929204168
75299550.0 -0.8313103177 0.1045466464 0.0001906436 -7.84145e-05 0.0001952427 -6.19747e-05 -0.8321543749 0.1024441724
80299520.0 -0.8312956669 0.114399302 1.32448e-05 5.75885e-05 4.50444e-05 -1.9015e-05 -0.8318373632 0.1120705756
85299490.0 -0.830484856 0.1239231173 5.76208e-05 -7.11941e-05 1.50192e-05 7.67746e-05 -0.8322230314 0.1213572692
90299460.0 -0.8296800482 0.1339520696 -0.0001620324 -2.82012e-05 -5.03391e-05 -0.0001515112 -0.8305937661 0.1311064679
95299430.0 -0.8282297201 0.1433340188 -9.68484e-05 0.0001091198 5.69413e-05 -0.0001026005 -0.8297556428 0.1410753265
100299400.0 -0.8277515461 0.1530306862 -0.0001117456 0.000151006 2.7661e-05 3.77478e-05 -0.8286540493 0.1494580204
105299370.0 -0.8266884343 0.1619490131 1.05095e-05 0.0001236822 -3.2883e-06 5.3151e-06 -0.8273843328 0.159006755
110299340.0 -0.8251610717 0.1709777726 8.30634e-05 2.41671e-05 -1.37145e-05 0.0001462846 -0.8266257985 0.1684937401
115299310.0 -0.8235727353 0.1806660955 -0.000139964 -3.36106e-05 5.84187e-05 -7.18811e-05 -0.824489675 0.1770384782
120299280.0 -0.8220323358 0.189453833 7.1493e-05 0.0001940747 -0.0001271775 -0.0002038309 -0.8233423393 0.1860375379
125299250.0 -0.8202850041 0.1982559874 -8.1157e-05 -0.0001169908 -1.64104e-05 -5.7941e-06 -0.8218799968 0.1953902424
130299220.0 -0.8181946847 0.2074832329 3.35741e-05 0.0001460836 -4.17772e-05 6.1637e-06 -0.8200356052 0.2042368509
135299190.0 -0.8171574644 0.2168635584 -4.52064e-05 -1.68882e-05 -0.0001277301 -6.8897e-05 -0.8176747285 0.2127462562
140299160.0 -0.8148796783 0.2258004971 -9.19435e-05 -5.02123e-05 -7.6852e-06 0.0001727345 -0.8161234081 0.2213714926
145299130.0 -0.8118986597 0.2340879052 6.1571e-06 -0.0002050017 -5.6421e-05 1.33916e-05 -0.8135535752 0.2297644942
150299100.0 -0.8098982522 0.2430259357 -0.0001384525 0.000113521 6.90235e-05 5.6591e-06 -0.8116887213 0.2383194752
155299070.0 -0.8074044276 0.2521090005 -3.08862e-05 -0.0001347608 -6.47597e-05 0.0001984783 -0.8097760891 0.2474017208
160299040.0 -0.804892277 0.2611793409 9.2863e-06 -0.0002526042 9.89914e-05 0.0002251338 -0.8072841195 0.2564053561
165299010.0 -0.8022329576 0.2697153228 -2.81237e-05 -0.0002741705 0.0001032352 1.50314e-05 -0.8045741195 0.2649894
170298980.0 -0.7989482539 0.2777885981 -0.0002401918 3.14239e-05 -0.000117729 0.0002253042 -0.8018489416 0.2730525278
175298950.0 -0.7966955275 0.2870244284 2.04112e-05 0.0001001717 -7.41259e-05 -5.24667e-05 -0.7993829019 0.2820152155
180298920.0 -0.7939820857 0.2948675484 -0.000330125 9.54664e-05 0.0001592677 0.0001252542 -0.7957507642 0.2904291378
185298890.0 -0.7901225898 0.3046743768 -8.06188e-05 4.30829e-05 0.0001494809 1.35136e-05 -0.7931990167 0.2985961548
190298860.0 -0.7871475119 0.3120028512 2.24106e-05 4.82274e-05 -9.54416e-05 -0.0001755802 -0.7899112261 0.307288713
195298830.0 -0.783624015 0.3209357822 -0.0001070669 6.2157e-06 0.0001364644 0.0002139735 -0.7871342394 0.3152463907
200298800.0 -0.7807058633 0.3293997836 0.0001981775 9.02113e-05 -0.0002004004 2.83172e-05 -0.7833862425 0.3238849138
205298770.0 -0.7770728922 0.3370115616 -2.4911e-06 5.1677e-06 9.096e-06 3.14102e-05 -0.7801190513 0.3322938697
210298740.0 -0.7737302685 0.3458655636 0.0001820159 4.90718e-05 1.77914e-05 -1.14254e-05 -0.7769349607 0.3402863896
215298710.0 -0.7701618672 0.3543414464 -0.0001766581 1.10649e-05 3.21557e-05 3.1418e-05 -0.774082174 0.3484611376
220298680.0 -0.7675253163 0.3619848825 -5.75958e-05 2.36808e-05 3.1678e-05 -2.36821e-05 -0.7695227305 0.356571094
225298650.0 -0.7630987801 0.3709115048 -0.0001807038 -4.73865e-05 1.20405e-05 -0.0001050632 -0.7660128042 0.3646913557
230298620.0 -0.7586657043 0.3785706755 1.87944e-05 -9.7813e-06 -0.0001693793 -0.0002069199 -0.7614839825 0.3725783992
235298590.0 -0.7549378794 0.3871657621 -0.0001637177 -0.0002020974 -8.08487e-05 7.08385e-05 -0.7582086141 0.3803724088
240298560.0 -0.7508239901 0.3955241113 -5.75962e-05 -5.84294e-05 0.000115631 3.4441e-05 -0.7546469746 0.3883058066
245298530.0 -0.7465084619 0.4028054341 0.0001387663 -0.0001745627 1.9988e-05 1.9941e-06 -0.7496963836 0.396622613
250298500.0 -0.7420693006 0.4105923001 9.50211e-05 -2.76922e-05 7.84884e-05 0.0001391415 -0.7461362908 0.4046017796
255298470.0 -0.7382201555 0.4190038601 0.0001146842 -1.13752e-05 1.97377e-05 0.0002030145 -0.7413391728 0.4125413791
260298440.0 -0.7339896524 0.4256801652 -4.28252e-05 0.0001182006 -2.35155e-05 0.000174817 -0.7366759549 0.4194165887
265298410.0 -0.7290994323 0.433824642 0.0001588777 0.0002802672 -8.05756e-05 -1.68623e-05 -0.7327873056 0.4273600474
270298380.0 -0.7242183238 0.4424153765 -0.000115605 1.66134e-05 6.52643e-05 4.54619e-05 -0.727408892 0.4353432909
275298350.0 -0.7195281211 0.4485854883 -9.02637e-05 5.82375e-05 0.0001219921 3.03993e-05 -0.7231143371 0.4429412066
280298320.0 -0.7153999829 0.456245675 -0.0001101597 -1.70819e-05 2.36313e-05 -7.37419e-05 -0.7190397463 0.4506113984
285298290.0 -0.7104958092 0.4643895341 4.72151e-05 0.0001404015 8.2211e-06 0.0001245087 -0.7133603838 0.4574526311
290298260.0 -0.7051668597 0.4715224991 -0.0001746734 0.0002257343 0.0001506144 2.29797e-05 -0.7090185743 0.4655639921
295298230.0 -0.7004582655 0.4795062447 -7.98661e-05 -0.0001055262 -5.5885e-06 -0.0001564106 -0.7036672492 0.4725216982
300298200.0 -0.6951463019 0.486405516 2.55282e-05 -8.96134e-05 4.19415e-05 0.0001559537 -0.6987631221 0.4800324012
305298170.0 -0.6899697148 0.4939692951 -9.8377e-06 2.72875e-05 6.8113e-06 -5.62745e-05 -0.6933442153 0.4871603207
310298140.0 -0.6847219604 0.5008676551 -0.0001400801 -1.10631e-05 4.18636e-05 0.0001052321 -0.6890118654 0.4951561127
315298110.0 -0.6795921649 0.5076465106 0.0001535175 -7.04994e-05 -5.30803e-05 -5.8478e-06 -0.6834389409 0.5021462718
320298080.0 -0.6741792878 0.5155688035 5.38491e-05 -8.23058e-05 -7.6416e-06 -4.06401e-05 -0.6779515317 0.5094344186
325298050.0 -0.6682089951 0.5222561966 7.26308e-05 -0.0001465298 -0.0002173592 -0.0001976516 -0.6724551833 0.5160569456
330298020.0 -0.6632266935 0.528841789 5.70165e-05 0.0001054539 0.0001509854 -0.0001459273 -0.6664564997 0.522765906
335297990.0 -0.6566995623 0.5366481293 -7.23659e-05 0.0002489808 -0.0001165945 0.0001193095 -0.6613235206 0.5299510868
340297960.0 -0.6522468307 0.5428365647 0.0002304629 -0.0001676215 2.2871e-06 -0.0002748864 -0.6555414642 0.537466586
345297930.0 -0.6462516119 0.5494159127 5.00256e-05 -0.0001811972 0.0001330383 6.13688e-05 -0.6503142877 0.5438583537
350297900.0 -0.640535094 0.5557210639 5.42111e-05 -3.639e-05 -3.13818e-05 0.0001096443 -0.6441540765 0.5507543436
355297870.0 -0.6346193007 0.562782038 0.0001230682 8.14308e-05 6.81981e-05 0.0001246685 -0.6386222741 0.5572014965
360297840.0 -0.6284011623 0.5687363864 0.0002522784 0.0001897868 0.0001621551 -0.000193849 -0.6324943925 0.563769197
365297810.0 -0.6221693598 0.5757515908 -0.0002344503 -7.21897e-05 3.49637e-05 -8.68542e-05 -0.6264698103 0.5704445713
370297780.0 -0.6160827582 0.5819441959 -2.28697e-05 0.0001085772 -0.0001409468 5.63856e-05 -0.6206861585 0.576272508
375297750.0 -0.6100192976 0.5880173096 0.0001143005 -0.0001079488 6.134e-06 -5.69054e-05 -0.6144320303 0.5832484684
380297720.0 -0.6043553608 0.5947980429 -1.9284e-06 -8.89478e-05 0.0002640813 -1.1245e-06 -0.6082106076 0.5902694308
385297690.0 -0.5976624448 0.6005814516 -4.30022e-05 5.81396e-05 -5.15033e-05 -4.11596e-05 -0.6022291234 0.5961082207
390297660.0 -0.5911453664 0.6068719654 -1.67543e-05 8.03444e-05 0.000103921 0.0002471358 -0.5957607981 0.6012521333
395297630.0 -0.5849980452 0.6130718784 -0.0001795587 -6.02554e-05 1.9829e-05 -4.19384e-05 -0.5892974135 0.6080890568
400297600.0 -0.5785195833 0.6191056591 -0.0001874959 -0.0001121013 0.0001470696 -0.0001232352 -0.5838426599 0.6141403987
405297570.0 -0.5732575653 0.624792352 7.28861e-05 -2.78464e-05 -1.40996e-05 8.34543e-05 -0.5771223103 0.6197050146
410297540.0 -0.5654286448 0.6303977597 -7.90351e-05 -0.0001235395 -3.31648e-05 0.000223171 -0.5703842997 0.6251684501
415297510.0 -0.5592477658 0.6360088791 0.0001058919 -6.60154e-05 3.324e-05 -0.0001811013 -0.5640402261 0.6316501064
420297480.0 -0.5520077769 0.6425952557 0.0002633667 -7.53444e-05 0.0001433493 0.0001132284 -0.5576504706 0.6367271242
425297450.0 -0.5459081157 0.648784017 2.79777e-05 -7.85299e-05 6.89142e-05 0.0001736903 -0.5503157873 0.6433889852
430297420.0 -0.5393799967 0.6531453741 5.69825e-05 -1.5969e-05 -0.0001009233 -8.933e-07 -0.5439883884 0.648630006
435297390.0 -0.5319491445 0.6591371768 -7.07343e-05 -0.0001495922 5.3211e-06 0.0001366628 -0.5372480625 0.6533062379
440297360.0 -0.5256749339 0.6642243858 -5.34386e-05 -0.0001064974 -7.35206e-05 -9.94e-06 -0.5309768225 0.6588565573
445297330.0 -0.5185946179 0.6694732315 6.08113e-05 -8.58883e-05 8.58996e-05 -8.07384e-05 -0.5237132829 0.6641862173
450297300.0 -0.51152958 0.6742303817 -2.24356e-05 7.24404e-05 -0.0001380372 -3.63475e-05 -0.517415611 0.6697726001
455297270.0 -0.503981119 0.6801422557 -0.000143436 -6.21236e-05 -1.65441e-05 -4.50722e-05 -0.5101985097 0.6744599706
460297240.0 -0.4975056388 0.6852248512 -1.79778e-05 -0.0001103598 7.59732e-05 8.5122e-06 -0.5030639102 0.6802672957
465297210.0 -0.4898011585 0.6907119958 -1.30736e-05 -0.0001272529 1.55741e-05 -8.5931e-05 -0.4968931539 0.6848559261
470297180.0 -0.4822906452 0.6942430546 -0.0002202741 6.82104e-05 0.0001735195 0.0001190303 -0.4898097713 0.6891291466
475297150.0 -0.4759365069 0.7001619242 -7.06613e-05 0.0002420322 0.000188858 2.74016e-05 -0.4823925505 0.6942394147
480297120.0 -0.4687864666 0.7045915335 -9.46917e-05 -2.54143e-05 -0.0001984578 0.0001564972 -0.4756459262 0.6997682989
485297090.0 -0.4613569591 0.7093666875 -0.0001367518 -3.25631e-05 -0.0001203903 -0.0001048003 -0.4683384521 0.704130899
490297060.0 -0.4544117893 0.7137897288 -6.41255e-05 2.14015e-05 7.64464e-05 7.55549e-05 -0.4609767951 0.7081727436
495297030.0 -0.4472535919 0.718752439 -4.28762e-05 0.0001331091 5.62917e-05 -9.89109e-05 -0.4538938483 0.712650911
500297000.0 -0.4383753585 0.7233646224 -4.43993e-05 -2.99206e-05 -4.26611e-05 0.0001235591 -0.4469479809 0.7172703037
505296970.0 -0.4316513221 0.7267918904 0.0001272442 -2.08721e-05 -9.14844e-05 -0.0002665082 -0.4402785266 0.7218207335
510296940.0 -0.4242754153 0.7317347144 -0.0001142325 6.8778e-06 -3.63515e-05 -8.953e-07 -0.4322922367 0.7261811217
515296910.0 -0.417458639 0.7361790563 -4.25716e-05 7.12318e-05 7.76415e-05 0.000151416 -0.4252499201 0.7304992705
520296880.0 -0.409478131 0.7401145172 -0.0001575822 3.3842e-05 -7.40355e-05 0.0001015963 -0.418066734 0.7348651111
525296850.0 -0.4019933908 0.7442220766 5.06931e-05 -3.41356e-05 -0.0001027921 1.26951e-05 -0.4100167097 0.7392418088
530296820.0 -0.3941180005 0.7481879439 8.64046e-05 2.5388e-05 5.69457e-05 0.0002011041 -0.4035126432 0.7425960666
535296790.0 -0.3858408773 0.7519492162 -4.33125e-05 -0.0001431615 -9.3571e-05 -8.54646e-05 -0.3961293471 0.7462391482
540296760.0 -0.3783963598 0.7561157428 0.0002239874 -6.83567e-05 -8.64387e-05 2.77375e-05 -0.3887753181 0.7507382593
545296730.0 -0.3709336817 0.7594550733 -6.5371e-06 -2.17841e-05 8.02673e-05 -0.000108724 -0.3808491412 0.754380426
550296700.0 -0.3632943186 0.7636079697 0.0003552223 0.00010535 -5.84856e-05 0.0002531134 -0.3730986497 0.7579689315
555296670.0 -0.354737755 0.7667511528 8.8231e-05 0.0001589119 -2.30309e-05 3.43783e-05 -0.3657465294 0.7617536779
560296640.0 -0.3470062055 0.7704160017 -5.22554e-05 0.0001245708 0.0001044003 0.000177209 -0.358076584 0.7655261842
565296610.0 -0.3401061511 0.7738149169 0.0001900514 -0.0002074248 -0.0001440643 -8.62121e-05 -0.3508136452 0.7688567852
570296580.0 -0.3317470748 0.7767867338 3.10083e-05 5.00223e-05 5.4136e-05 4.97815e-05 -0.3431895359 0.7727251444
575296550.0 -0.3240564656 0.7806760473 4.33323e-05 -0.0001846736 -7.06761e-05 -8.14752e-05 -0.3352122148 0.7758210021
580296520.0 -0.3154477424 0.7839106503 0.0001021913 -1.44897e-05 -6.36834e-05 -5.5869e-05 -0.32724311 0.7793317581
585296490.0 -0.307724795 0.7861222322 0.0002288518 -9.61382e-05 -0.0001028283 -0.0002472986 -0.3199397075 0.7815992447
590296460.0 -0.2997751579 0.7895584843 -7.96381e-05 4.58491e-05 -3.93216e-05 -0.0001722607 -0.3122665082 0.7849792492
595296430.0 -0.2911496897 0.7932415172 7.32877e-05 0.0003316083 -0.0001594143 -0.0001036714 -0.3041511634 0.787367228
600296400.0 -0.2843320682 0.7960865012 0.0002679061 -0.0002161215 4.20997e-05 -6.00447e-05 -0.2967297328 0.7912483763
605296370.0 -0.2755187699 0.7983978801 -0.0001045416 -0.0001359437 0.0002913303 0.0001158603 -0.2887387467 0.7944739276
610296340.0 -0.267505691 0.8008803227 0.0001116982 2.50231e-05 -0.0001650855 -5.9686e-05 -0.2805411772 0.7967988836
615296310.0 -0.2589324409 0.8042059776 -6.52419e-05 7.4758e-06 0.0001216846 0.0001174049 -0.2730846162 0.7994393149
620296280.0 -0.250984849 0.8062936702 6.0584e-05 0.0001467424 0.0001056838 9.07623e-05 -0.265240881 0.8017854742
625296250.0 -0.2428785283 0.8091447669 -0.0001613241 -3.19517e-05 -1.21115e-05 8.11369e-05 -0.2576112029 0.8046193616
630296220.0 -0.2342687131 0.8120062626 0.0001948576 -0.0001052372 -3.75668e-05 8.04159e-05 -0.2485527237 0.8074787575
635296190.0 -0.2268464754 0.8139290298 -7.6396e-06 -8.51095e-05 3.65294e-05 0.0001741121 -0.2413131861 0.8090261099
640296160.0 -0.2177515032 0.8152321148 0.0001137649 -0.000136686 5.91829e-05 -5.02565e-05 -0.2327673761 0.8117772054
645296130.0 -0.2103300729 0.817693213 5.30596e-05 -1.35985e-05 0.0001179651 7.21532e-05 -0.2250078733 0.8139027886
650296100.0 -0.2021035547 0.8203268739 -5.02938e-05 -7.26472e-05 4.76478e-05 -0.000219148 -0.217598988 0.8169383049
655296070.0 -0.1927758222 0.8218452458 -5.53938e-05 -2.21713e-05 -0.0001709624 9.33298e-05 -0.2086859967 0.8179036369
660296040.0 -0.1855084222 0.8245496934 -0.0001271486 -4.34795e-05 8.74728e-05 -0.0001534068 -0.2013124607 0.8197912636
665296010.0 -0.1774876626 0.8255494375 0.0001434286 0.0001375247 1.02216e-05 9.66665e-05 -0.19318623 0.8223289344
670295980.0 -0.1681616468 0.8273320925 0.0001618976 0.0002438352 -8.87662e-05 5.89017e-05 -0.1855483538 0.8239908376
675295950.0 -0.1601205525 0.8287994825 -9.50376e-05 0.0002554377 -0.0001353416 -6.42837e-05 -0.1767398319 0.8265456469
680295920.0 -0.1520530314 0.830457207 -8.17333e-05 9.09125e-05 -3.22787e-05 0.0001973563 -0.1681660543 0.8275221182
685295890.0 -0.1430740343 0.8319375287 -2.91726e-05 -0.0001666353 -3.59099e-05 -0.0001272432 -0.1599262091 0.8296304477
690295860.0 -0.1346711964 0.8337137489 -0.0001538367 -0.0001079766 -0.000171705 0.0001120759 -0.15219012 0.8304595571
695295830.0 -0.1263796595 0.8342316475 0.0001145062 0.0001948732 -0.0001014604 -4.01671e-05 -0.143941545 0.8324929803
700295800.0 -0.1181958215 0.8357673886 8.5418e-05 7.30191e-05 -0.0003153949 0.0002834508 -0.1352722751 0.8329714831
705295770.0 -0.1089841603 0.8373112261 -0.0001715054 0.0001068222 -5.09143e-05 0.000192603 -0.1275924146 0.8349184082
710295740.0 -0.1015790362 0.8378426687 0.0001207729 5.97538e-05 -5.07312e-05 5.04545e-05 -0.1195538672 0.83627745
715295710.0 -0.0934505035 0.8392312667 0.0001384244 5.12583e-05 0.0002369705 -6.9621e-05 -0.1113019251 0.8377146114
720295680.0 -0.084778652 0.8394621932 -4.48887e-05 5.34806e-05 -5.96418e-05 -5.24521e-05 -0.1025234328 0.8383918248
725295650.0 -0.0750579426 0.8406019076 0.0001966321 4.42807e-05 9.71692e-05 4.49067e-05 -0.0945030293 0.8394558962
730295620.0 -0.0674281495 0.8410631171 -7.07139e-05 -0.00012689 -0.0001266473 1.55083e-05 -0.0863003193 0.8404177893
735295590.0 -0.0585407893 0.8412756078 -0.000166016 -9.57952e-05 -2.18515e-05 0.0002015956 -0.0774276382 0.8410443304
740295560.0 -0.0501826659 0.842812964 -6.2161e-05 0.0001240641 -1.48088e-05 1.4834e-06 -0.0692320093 0.8413051504
745295530.0 -0.0420025534 0.842765688 1.11058e-05 -0.0001295056 4.34005e-05 1.14494e-05 -0.0617812832 0.842436822
750295500.0 -0.0339049016 0.8431845958 -5.81119e-05 0.0001620386 -9.93978e-05 -0.0001277527 -0.0527479627 0.8426992081
755295470.0 -0.0242836686 0.8430621514 0.0001240589 0.0001023397 -6.16336e-05 4.26104e-05 -0.0450101096 0.8433356558
760295440.0 -0.0164396427 0.8438273078 -0.0001327348 3.59225e-05 6.8919e-06 9.75227e-05 -0.0368365328 0.8442116875
765295410.0 -0.0080761569 0.8437535221 -0.0002357983 -1.77946e-05 0.0001069764 0.0001715679 -0.0275857272 0.8445444678
770295380.0 0.0003127442 0.8444921371 -0.0001848415 2.48138e-05 -3.81446e-05 -0.0001766796 -0.0193026583 0.8443503647
775295350.0 0.0089603703 0.8439345797 9.4106e-05 1.71376e-05 -0.0001450374 1.83348e-05 -0.0116527599 0.8444752497
780295320.0 0.0176669094 0.8429322749 0.0001879995 1.22541e-05 -2.60057e-05 7.63545e-05 -0.0030347552 0.8448136686
785295290.0 0.0257028831 0.8433448687 -6.68732e-05 -7.8459e-06 -2.73106e-05 -8.72026e-05 0.0048518441 0.8448222432
790295260.0 0.0342582069 0.8428734214 7.40495e-05 -3.96513e-05 -7.1974e-06 5.64637e-05 0.0141735929 0.8444920272
795295230.0 0.0424871131 0.8436002728 -2.22679e-05 -6.65548e-05 0.0001384482 0.0001333254 0.0221956508 0.8447530396
800295200.0 0.0516749504 0.842911163 -2.81582e-05 -1.56392e-05 0.0002433449 4.60425e-05 0.0301506885 0.8438765966
805295170.0 0.059495172 0.842184103 3.7543e-05 5.986e-06 -0.0001245305 -3.28545e-05 0.0379423373 0.8436671905
810295140.0 0.0678776581 0.8408651077 0.0001826732 -2.32269e-05 9.2234e-06 2.69244e-05 0.0464862499 0.8442189508
815295110.0 0.0766477514 0.8402002822 0.0002081094 -0.0001156494 -6.58566e-05 -2.40491e-05 0.0548603841 0.8433203663
820295080.0 0.0850374844 0.8386479345 -0.0002819569 9.5945e-06 -8.3044e-06 -2.85693e-05 0.0628355897 0.8422958259
825295050.0 0.0940740454 0.8383789894 8.08729e-05 3.58287e-05 0.00016236 -0.0002746792 0.0711768641 0.8415885291
830295020.0 0.1020180348 0.8379530164 -0.00021236 5.62778e-05 -0.0001739126 -4.10278e-05 0.0788980096 0.841144536
835294990.0 0.1101086593 0.8368802015 5.5955e-05 -0.0002301749 8.9298e-06 9.98888e-05 0.0880000682 0.8401818939
840294960.0 0.1183037514 0.8354576131 3.86019e-05 3.65716e-05 7.74822e-05 -0.0001552991 0.095731825 0.8394202268
845294930.0 0.1267758302 0.8347896296 0.0002627459 0.0002225847 -8.0487e-05 7.6004e-05 0.1042808637 0.8384406905
850294900.0 0.1351200588 0.8326784363 6.71344e-05 9.44377e-05 8.46718e-05 -0.0001401441 0.1122212867 0.837703095
