!Created with skrf (http://scikit-rf.org).
# Hz S RI R 50.0 
!freq ReS11 ImS11 ReS21 ImS21 ReS12 ImS12 ReS22 ImS22
300000.0 -0.2096937384 -0.0781769012 -0.0002988064 0.001210816 -0.0011574451 0.0018237032 -0.7731998022 -0.1645337891
5299970.0 -0.2142263344 0.0085603852 0.0002962681 0.0001624211 -1.18114e-05 2.34219e-05 -0.7843723034 -0.0087517674
10299940.0 -0.210315934 0.021400703 6.87065e-05 6.28546e-05 4.30723e-05 -6.47979e-05 -0.7880311092 -0.0049545741
15299910.0 -0.2052749243 0.0310994549 -0.000180707 0.0002323324 0.0001471909 0.0001987157 -0.793317491 -0.0030615546
20299880.0 -0.1994921096 0.0390581172 -4.4235e-05 0.000125638 8.88735e-05 -0.0001987946 -0.8003916142 0.0016618759
25299850.0 -0.1930903247 0.0454823844 -1.76239e-05 -3.03739e-05 -4.27327e-05 -7.72533e-05 -0.8064933446 0.0072993362
30299820.0 -0.1863240255 0.0504166022 -5.47011e-05 -0.0001954575 0.0001019666 -0.0001919629 -0.8123367428 0.0147807554
35299790.0 -0.17988129 0.0545147134 1.64627e-05 3.05347e-05 0.0001099173 -2.08723e-05 -0.8176632027 0.0241500004
40299760.0 -0.1739155078 0.0570602562 -9.69197e-05 1.01366e-05 -2.45009e-05 6.003e-06 -0.8218303335 0.0330560326
45299730.0 -0.1683630054 0.0595525265 -3.92687e-05 0.000215071 9.20741e-05 6.31686e-05 -0.8249366869 0.0423146659
50299700.0 -0.1628794518 0.0605482746 -0.0001807041 0.0002031954 -5.53621e-05 8.12265e-05 -0.8277439753 0.0526302765
55299670.0 -0.1584838987 0.0619808257 -6.31684e-05 -0.0003018736 -0.0002382147 -4.00892e-05 -0.8295405011 0.0635201567
60299640.0 -0.1538595649 0.0621619837 -7.88357e-05 0.000176829 -0.0001463558 0.0002076499 -0.8307078595 0.0734644164
65299610.0 -0.1499644409 0.0627322315 -8.77834e-05 -7.2437e-06 7.55257e-05 -1.4063e-06 -0.830909105 0.0828495577
70299580.0 -0.1463193691 0.0628244342 -5.46068e-05 0.0001780347 0.0001968473 0.0001143746 -0.8322493939 0.0929348244
75299550.0 -0.1432352852 0.0624503439 5.56432e-05 0.0001742366 7.89409e-05 -0.0001273435 -0.8320759607 0.10255953
80299520.0 -0.1405598373 0.0628095239 0.0001799889 0.0001019776 -4.81689e-05 -1.23092e-05 -0.831431166 0.1122100383
85299490.0 -0.137654704 0.0621886171 -7.66869e-05 2.78576e-05 0.0001074922 4.17902e-05 -0.8315189942 0.1219822817
90299460.0 -0.1355971283 0.0623615194 6.6982e-06 0.0002300908 4.08938e-05 -7.81373e-05 -0.8307974834 0.1315122841
95299430.0 -0.1332959359 0.0620086673 -7.05e-07 0.0002830506 -5.60276e-05 4.42491e-05 -0.8294109182 0.1415415792
100299400.0 -0.1317886744 0.0620590159 -0.0003923083 -2.8717e-05 -5.97463e-05 0.0002947392 -0.828632346 0.1499205702
105299370.0 -0.1297328583 0.0615498444 0.0002246021 1.47816e-05 0.0001831926 0.0001319972 -0.8274566312 0.158943571
110299340.0 -0.128438592 0.0613653324 -4.395e-07 0.0001337791 0.0001370053 7.33087e-05 -0.826456122 0.1682962492
115299310.0 -0.1266645908 0.0611248869 -0.0001592081 0.000240986 0.0001325251 -0.000140411 -0.8241038506 0.1775635645
120299280.0 -0.1257092316 0.0614087212 -7.84155e-05 7.67629e-05 5.46542e-05 0.0001701398 -0.823461291 0.1866129871
125299250.0 -0.1247603424 0.0609740049 0.0002508758 1.93966e-05 -0.0001719051 -4.45295e-05 -0.8213974018 0.1955006708
130299220.0 -0.1232364174 0.0612545166 0.0001929572 0.0001433491 -9.64694e-05 0.0001010832 -0.8203280301 0.2042665092
135299190.0 -0.1222330453 0.0612117904 0.0001578925 0.0003861339 2.2579e-06 0.0001477103 -0.8179193709 0.2124626528
140299160.0 -0.1215674896 0.0614433365 8.07998e-05 0.000117114 0.0001677857 6.58789e-05 -0.8158196338 0.2215596164
145299130.0 -0.1207789982 0.0613365158 0.0001539015 0.0001726803 0.0001074769 1.9071e-06 -0.8138021914 0.2300008852
150299100.0 -0.1199670367 0.0614400607 -8.98419e-05 5.08583e-05 3.82713e-05 0.0001087163 -0.8112839694 0.2385916448
155299070.0 -0.1191348519 0.0621950325 7.83121e-05 -3.75175e-05 7.4949e-06 0.0001620652 -0.8090967295 0.2474607621
160299040.0 -0.1186311362 0.0622170106 1.04576e-05 0.0001840874 -1.1963e-05 -0.0001585065 -0.8070404102 0.2566332227
165299010.0 -0.1181636611 0.0625567748 0.000153919 -3.89857e-05 1.92651e-05 -8.6604e-06 -0.8039066767 0.2648120128
170298980.0 -0.1176526488 0.0628667332 4.00399e-05 3.13253e-05 4.76971e-05 6.52368e-05 -0.8019730185 0.2735218034
175298950.0 -0.1167514376 0.0635837457 -3.04528e-05 3.86617e-05 -0.0001481647 0.0001079181 -0.7989172781 0.2823413025
180298920.0 -0.1163734157 0.0637550996 -6.63473e-05 0.0002118751 9.94166e-05 3.52777e-05 -0.7952978678 0.2907799877
185298890.0 -0.1158497607 0.0642367122 -0.00016989 0.0001258035 1.53897e-05 4.00083e-05 -0.7932890942 0.2982391405
190298860.0 -0.1152595424 0.0649309723 -1.69584e-05 0.0002174519 3.94543e-05 4.84488e-05 -0.7895206791 0.3073838931
195298830.0 -0.1144837492 0.0652134924 1.57472e-05 -6.82752e-05 1.39751e-05 0.0001106108 -0.7868164212 0.3158186366
200298800.0 -0.1141529499 0.06592021 0.0001516166 0.0001154284 0.0001425773 8.78847e-05 -0.7830817355 0.3240823516
205298770.0 -0.1138005242 0.0664968783 0.0001219087 0.0002679759 -0.0002178856 0.000153572 -0.7802705979 0.3319612333
210298740.0 -0.1130983185 0.0671204136 7.3356e-05 0.0002513514 6.52255e-05 0.0002236139 -0.7764700671 0.3406787047
215298710.0 -0.1129266476 0.0678320311 -0.0001885627 0.0001080493 0.000206636 -8.22714e-05 -0.7730579751 0.3484608357
220298680.0 -0.1125901165 0.0687314289 0.0001561289 -4.39643e-05 0.0001968555 0.0001831501 -0.769773257 0.3571560631
225298650.0 -0.1119454406 0.0692131448 -1.5063e-06 6.36419e-05 0.0001310264 0.0001422135 -0.7655051498 0.3647200622
230298620.0 -0.1115627912 0.0702333181 9.48936e-05 0.0002254416 6.9233e-06 -6.1264e-05 -0.7614865117 0.3726889827
235298590.0 -0.1111623452 0.0708216861 4.67136e-05 -0.000142583 -6.09924e-05 0.0001609201 -0.7577247314 0.3808953878
240298560.0 -0.1107447482 0.0718549878 0.000194823 -1.86954e-05 0.0001070925 5.11021e-05 -0.753859248 0.3883744141
245298530.0 -0.1101206689 0.0721025008 0.0001375694 -2.46601e-05 0.0001394443 0.0001956018 -0.7497037782 0.3965304893
250298500.0 -0.1097581002 0.0730975475 0.0001840098 0.0001825555 -0.0001327353 8.42931e-05 -0.7456759115 0.404679694
255298470.0 -0.109245462 0.0739336142 0.0001406352 1.99382e-05 -0.0001160923 -1.17362e-05 -0.7411394934 0.4125569648
260298440.0 -0.1084427944 0.0747672807 -0.0001853649 0.0001254077 0.0002806284 0.0001237189 -0.7365387142 0.4198393754
265298410.0 -0.1081894482 0.075699077 0.0001517237 -8.62333e-05 9.02655e-05 -6.71488e-05 -0.7327379585 0.4276337891
270298380.0 -0.1074202062 0.076702947 0.0002857984 -4.7465e-06 5.7845e-05 7.77079e-05 -0.7273866887 0.4353849887
275298350.0 -0.1071592886 0.0772699334 0.0001328646 0.0001327537 0.000183211 1.53307e-05 -0.7227382593 0.4431020986
280298320.0 -0.1066316973 0.078562894 0.0001930218 3.9928e-06 -9.65933e-05 0.000227586 -0.7184625943 0.450455636
285298290.0 -0.1060385938 0.0795833683 0.0001245434 1.94359e-05 1.70624e-05 0.0001583714 -0.7134621011 0.4577901298
290298260.0 -0.1054788428 0.080487883 4.0625e-06 0.0004609428 -5.486e-06 0.0003037163 -0.7087686248 0.4658408752
295298230.0 -0.1047434853 0.0813017982 0.0001840483 9.93164e-05 0.000149658 1.03369e-05 -0.7030624615 0.4731029349
300298200.0 -0.1042559915 0.0818395685 -2.13243e-05 0.0001524768 0.0001996877 0.0001009045 -0.6984394873 0.480374845
305298170.0 -0.1032289957 0.0830591156 -8.27999e-05 1.62833e-05 -0.0001404818 0.0001509233 -0.6932570806 0.4875163426
310298140.0 -0.1028385151 0.083536645 4.13999e-05 0.0001563007 7.36123e-05 0.0001418218 -0.6886778158 0.4951164921
315298110.0 -0.1025877687 0.0845414518 -8.04297e-05 -8.16119e-05 3.18179e-05 0.000172455 -0.6831597335 0.502437849
320298080.0 -0.1017283501 0.0853676008 0.0001598702 9.19247e-05 0.0001683693 0.000213803 -0.6777870885 0.509166507
325298050.0 -0.1013759079 0.0860400048 -0.0001208483 1.71684e-05 8.76656e-05 0.0002163594 -0.6717771499 0.5164200608
330298020.0 -0.1009787869 0.0872722812 0.0002232506 0.0001362195 0.0001462922 2.52572e-05 -0.6665606614 0.5233525323
335297990.0 -0.1003346387 0.0881988841 0.0001117026 -8.97997e-05 8.44998e-05 -6.00539e-05 -0.6611085747 0.5300842488
340297960.0 -0.0997736973 0.0890938808 0.0002467672 0.0001507906 0.0001427721 0.000213506 -0.6555967832 0.5368430854
345297930.0 -0.0994195202 0.0900590923 0.0001366069 0.0001834569 8.64186e-05 0.000127055 -0.6492231502 0.544230842
350297900.0 -0.0985565602 0.0911633507 0.0001472505 0.0002031283 0.0001313788 8.79261e-05 -0.6439004704 0.5508997668
355297870.0 -0.0980952453 0.0920590979 4.86886e-05 -4.30684e-05 0.0002397247 0.0001337472 -0.6382444519 0.5568870298
360297840.0 -0.0974617262 0.0929665864 0.0002062664 0.0001713507 9.85224e-05 6.81e-06 -0.6320166964 0.5636770457
365297810.0 -0.0964802675 0.0943251125 0.0001979248 0.0001837261 2.72166e-05 0.0001584288 -0.6259520559 0.5707520165
370297780.0 -0.0961025139 0.0950035421 3.35612e-05 8.91489e-05 4.57617e-05 0.0002012829 -0.6208971766 0.575986918
375297750.0 -0.095098373 0.096463222 0.0001669243 -0.0001612329 0.0002943951 7.65092e-05 -0.6139582482 0.5832690418
380297720.0 -0.0941471789 0.0974753439 7.03683e-05 -2.17478e-05 9.76753e-05 0.0002252797 -0.6082266774 0.5900385241
385297690.0 -0.0935418773 0.0983747419 7.38413e-05 -0.0001133485 9.0637e-06 2.84399e-05 -0.6017349876 0.5960370206
390297660.0 -0.0927583909 0.0993784819 0.0001672249 -5.6919e-05 5.08691e-05 -6.94807e-05 -0.595215575 0.6018085705
395297630.0 -0.091786846 0.1001038769 9.30041e-05 0.00011434 4.8217e-05 0.0002327577 -0.5887663777 0.6079676838
400297600.0 -0.0912140963 0.1012999751 0.0002347795 1.07185e-05 0.0001995677 5.05635e-05 -0.5831100684 0.614496721
405297570.0 -0.090382169 0.1023850138 0.0003309863 4.43905e-05 0.0002109455 -9.87355e-05 -0.5773325177 0.6199788266
410297540.0 -0.0892620155 0.1033087751 5.30815e-05 0.0001787628 -2.60615e-05 2.42862e-05 -0.5696364995 0.6256283005
415297510.0 -0.0885724442 0.1041994036 0.0002088258 0.0002153059 6.92064e-05 3.2866e-06 -0.5632753543 0.6323418381
420297480.0 -0.0877303718 0.1051319758 2.39691e-05 3.68673e-05 0.0001324556 0.0001406432 -0.5567343766 0.6367324302
425297450.0 -0.0869180956 0.1059802828 0.0001896101 0.000329854 0.0002416918 -9.8937e-06 -0.5496389544 0.6428654848
430297420.0 -0.0862867388 0.1070326344 -6.8584e-06 0.000333642 5.35533e-05 0.0001469105 -0.543790888 0.6486205068
435297390.0 -0.0851723107 0.1080997511 0.0002082838 0.0002277846 6.87239e-05 2.40395e-05 -0.536725769 0.6534721246
440297360.0 -0.0840876471 0.1090189791 0.0001866696 0.0001714865 0.0001259132 6.79938e-05 -0.5299578084 0.6594120947
445297330.0 -0.0831755818 0.1099393197 8.36863e-05 -0.0001188231 9.79479e-05 1.00474e-05 -0.5233454017 0.6643371478
450297300.0 -0.0822299382 0.1106328923 0.0001619923 8.66047e-05 0.0001776049 4.01472e-05 -0.5168692959 0.6700125605
455297270.0 -0.0814335262 0.111958806 0.0001812766 0.0001418829 2.66003e-05 8.87203e-05 -0.5095921199 0.6749165642
460297240.0 -0.0806806326 0.1128868408 2.7455e-05 -3.09173e-05 0.000104125 0.0001044537 -0.5022876133 0.680900236
465297210.0 -0.0793867767 0.1138246108 0.0001227404 -0.0001428794 0.0002285163 -0.0001203777 -0.4962568547 0.6849110193
470297180.0 -0.0783977986 0.1146751392 3.92966e-05 0.000127039 8.39562e-05 -6.7577e-05 -0.4892627409 0.6894854861
475297150.0 -0.0775548025 0.115693041 -0.0001202852 -5.9215e-06 0.0001058298 0.0001291722 -0.4817073781 0.6945102749
480297120.0 -0.076770245 0.1160946737 8.49533e-05 2.41156e-05 9.74033e-05 0.0001310063 -0.4750070727 0.6997758447
485297090.0 -0.0754616137 0.1170615348 0.0002033977 9.25228e-05 0.0002079537 1.46332e-05 -0.4682292211 0.7038886255
490297060.0 -0.0743430881 0.1181464478 0.0002727299 8.3375e-05 9.82104e-05 -4.79336e-05 -0.4607414753 0.7088921091
495297030.0 -0.0733989444 0.119102144 0.0001350073 0.0001160362 0.0002571356 0.0002014678 -0.4530260344 0.712808705
500297000.0 -0.0722340545 0.1196801918 0.0002205212 3.60341e-05 1.47259e-05 7.68469e-05 -0.4465364678 0.7174043053
505296970.0 -0.0713861934 0.1207415001 0.0004024018 5.68471e-05 2.20648e-05 0.0001311011 -0.4397714991 0.7218461493
510296940.0 -0.070188077 0.121572883 0.0001490043 5.82601e-05 0.0001088585 0.0001563038 -0.431609413 0.7263547655
515296910.0 -0.0694660544 0.1225512652 0.0002040364 -3.99781e-05 -3.1488e-06 0.000169403 -0.4245965071 0.7310200753
520296880.0 -0.0681184222 0.1232675177 0.0003660025 0.0001988625 0.0002461452 1.3647e-05 -0.4170274925 0.7347640426
525296850.0 -0.0670355633 0.1242209105 0.0001610374 -2.1682e-05 8.20318e-05 9.94725e-05 -0.4096393461 0.7392022043
530296820.0 -0.066041564 0.1248987417 0.0003523134 0.0002653101 0.000269886 0.0002407411 -0.4023981834 0.7426831398
535296790.0 -0.0646824385 0.1257804584 0.0001747405 4.38949e-05 6.92322e-05 0.0001415363 -0.3953482762 0.7463762839
540296760.0 -0.0638909785 0.1264029528 2.14806e-05 -0.0001929722 4.38746e-05 6.02621e-05 -0.3877774171 0.7509725298
545296730.0 -0.0626852897 0.1274780809 -0.000210343 1.58122e-05 9.5206e-05 3.98772e-05 -0.3804271967 0.7541639527
550296700.0 -0.0615162696 0.1282299917 0.0002551595 3.82608e-05 4.16e-06 0.0002559644 -0.3729005283 0.7580130146
555296670.0 -0.060164084 0.1290581473 0.0002452913 9.05832e-05 0.0002472268 0.0002229423 -0.3647985428 0.7616318812
560296640.0 -0.0590130124 0.1296722103 7.1367e-05 0.0001816237 9.5783e-05 1.86152e-05 -0.3575399095 0.7650727945
565296610.0 -0.0578544767 0.1304849208 0.0001897417 0.0001630716 6.43323e-05 0.0001281499 -0.3499205976 0.7687757876
570296580.0 -0.056713004 0.1311565297 0.0001067641 8.61371e-05 0.0003439978 -2.33315e-05 -0.3427926213 0.7727895727
575296550.0 -0.0553953396 0.1317780982 0.0001518476 -9.74573e-05 0.0001600688 -0.0002042559 -0.3346604906 0.7758639667
580296520.0 -0.0542439816 0.1326198259 0.0001483331 -5.80786e-05 0.0002005278 -0.0001049194 -0.3271533754 0.7786226072
585296490.0 -0.0530842161 0.1332601227 0.0001661553 4.43204e-05 6.67215e-05 7.7619e-05 -0.3192742404 0.7815745332
590296460.0 -0.0518601615 0.1339439548 0.0001977691 0.0001775557 0.0001458617 -1.31628e-05 -0.3111771181 0.7848253521
595296430.0 -0.0506812556 0.134919054 0.0002404748 -6.87299e-05 0.0002047351 0.0001021751 -0.3033907583 0.78734471
600296400.0 -0.0493714366 0.1354955191 0.0001945971 -0.0001662705 0.0002968557 -4.4482e-05 -0.2959771292 0.791051274
605296370.0 -0.0479911431 0.1361518381 0.0003903858 4.3104e-06 9.1435e-05 0.0001813982 -0.288016467 0.7941637174
610296340.0 -0.0468638051 0.1365495386 0.0001314743 -0.0001646549 0.0001904241 0.0001350671 -0.2800561967 0.7970396778
615296310.0 -0.0458398757 0.1374040133 0.0001735833 0.0001820488 0.0001081807 0.0001516916 -0.2721324034 0.7998856362
620296280.0 -0.0443628315 0.1379458399 0.0002428695 0.0001026142 0.0002095115 5.68941e-05 -0.2641692025 0.8017992842
625296250.0 -0.0428378778 0.1386428703 0.0002505238 0.0001073329 0.000154263 8.57551e-05 -0.2564314897 0.8047934051
630296220.0 -0.0418297152 0.1392659248 0.0001345019 -0.000130182 0.0002351379 4.17464e-05 -0.2481621667 0.8076016235
635296190.0 -0.0405840383 0.1397176554 0.0002907917 0.0001471419 5.98764e-05 8.68106e-05 -0.2406025867 0.8094107602
640296160.0 -0.0390139061 0.1403150063 0.0002560603 -2.15816e-05 0.0002535695 -0.0001273155 -0.2316819345 0.811999763
645296130.0 -0.0379376963 0.140948176 0.0001353955 0.0002537114 0.0002582582 1.10674e-05 -0.2246652418 0.8134540981
650296100.0 -0.0365976086 0.1415954659 0.0001557267 9.52523e-05 0.0001433955 -0.0001023084 -0.2159366454 0.8166177092
655296070.0 -0.0353529212 0.1419977031 9.27203e-05 1.64585e-05 -5.83365e-05 0.0001816718 -0.2080978894 0.8179974829
660296040.0 -0.0341364048 0.1426938503 0.0002486603 0.0001174148 0.0003073872 8.62367e-05 -0.2005588075 0.8200585037
665296010.0 -0.0326435191 0.1429507978 0.0003916505 2.41271e-05 0.0002063126 1.19122e-05 -0.1925889646 0.8222348298
670295980.0 -0.0310186515 0.1434873426 0.0003556296 -0.0001880102 5.11153e-05 5.48588e-05 -0.184480239 0.8236958238
675295950.0 -0.0297725322 0.1440667521 0.0002818063 -0.0001264455 0.0003517297 -1.1476e-05 -0.1758551643 0.8260698342
680295920.0 -0.0286791025 0.1447964115 0.0001606364 6.16863e-05 0.0001492671 -0.0002297393 -0.1676975925 0.8281660771
685295890.0 -0.0270635626 0.1451212447 0.0003029423 0.0001340851 0.0002297055 4.29066e-05 -0.1595086644 0.8293585286
690295860.0 -0.0254961204 0.1455211037 0.0002811076 0.0001140249 0.0002077238 3.01507e-05 -0.1509403375 0.8302505965
695295830.0 -0.0243445511 0.1456600224 0.0002074703 -0.0001726724 0.0002316845 -4.00504e-05 -0.143509349 0.8324783485
700295800.0 -0.0231749656 0.1463370322 0.0002525111 -6.50221e-05 0.0004819453 -7.50458e-05 -0.1344440137 0.8334752468
705295770.0 -0.0212999595 0.1469198632 0.0002212763 5.61308e-05 0.0003265832 -0.000218435 -0.127533906 0.8354089413
710295740.0 -0.0199554255 0.1471994854 0.0001728118 -4.29659e-05 0.0004478987 -0.0001247914 -0.1187897743 0.8364541288
715295710.0 -0.0190507449 0.1481075008 0.0002609643 -8.82178e-05 0.0002987469 -2.7591e-06 -0.1104499041 0.8372754217
720295680.0 -0.0173591772 0.1478291078 0.0001732555 0.0001118342 0.0001269488 -1.03959e-05 -0.1022863656 0.8385211349
725295650.0 -0.0158332808 0.1484777605 0.0003739391 -6.43049e-05 0.0002352149 7.96399e-05 -0.0936731323 0.8396938162
730295620.0 -0.0146773958 0.1486577017 0.0001292216 -3.2337e-06 0.0002408853 -0.0001321632 -0.0854813773 0.8397629544
735295590.0 -0.0127891167 0.1491321229 0.0003053323 0.0001092444 0.0003171464 -0.0002296805 -0.0767830398 0.8405201156
740295560.0 -0.0118182705 0.1498011287 0.0004949145 -3.2405e-06 0.0004026086 -0.0001083255 -0.0687900326 0.8406332185
745295530.0 -0.0102438433 0.1497470516 0.0003104011 -0.0002857458 0.0004365029 -8.06338e-05 -0.0599949965 0.8416854435
750295500.0 -0.0091172106 0.1499493747 0.0001989756 -3.9021e-05 0.0004024302 -4.97895e-05 -0.0520649819 0.8421194674
755295470.0 -0.0068217831 0.1503903278 9.88233e-05 -0.0002002042 0.0002998316 4.69523e-05 -0.0439607093 0.8431177675
760295440.0 -0.006055991 0.1507054115 0.000296373 7.1003e-06 1.8536e-06 -9.05518e-05 -0.0361266654 0.8435333397
765295410.0 -0.0044611771 0.1506560182 0.0003755565 6.7519e-06 0.0004092951 6.7772e-06 -0.0267344161 0.844132566
770295380.0 -0.003023712 0.1514529154 0.0003809954 0.0001009934 0.0001848267 4.85432e-05 -0.0185556479 0.8440720985
775295350.0 -0.0020433939 0.1516450885 0.0001806661 0.0002179848 0.0003509114 -6.5106e-06 -0.0105907777 0.8439516454
780295320.0 -0.0002858471 0.151444509 0.0001696785 -0.0001775165 0.0002968987 -2.25083e-05 -0.002007933 0.8447405351
785295290.0 0.0013217825 0.1521345154 9.81116e-05 -8.57747e-05 0.0002015877 -0.0001636035 0.0055957648 0.8443737238
790295260.0 0.0027749565 0.1519765602 0.0002054367 -0.0001102385 0.0002528662 -5.32857e-05 0.0151684691 0.8440765176
795295230.0 0.0041676284 0.1524403416 0.0003528089 3.8527e-06 3.4483e-05 0.0001164538 0.0225717254 0.8443967254
800295200.0 0.0058748864 0.1524754134 0.0002894445 6.48767e-05 0.0002054517 7.25047e-05 0.030666145 0.843506552
805295170.0 0.0071326118 0.1525181116 0.0001529944 1.87977e-05 0.0002761619 0.0001599775 0.0389553087 0.8431472538
810295140.0 0.0088851462 0.1527693824 0.0004472843 -2.66387e-05 0.0004417086 0.0001193311 0.0474601946 0.8434594539
815295110.0 0.0102956767 0.1529951298 0.0003519232 -7.05041e-05 0.0002276073 -0.0002707456 0.0558266879 0.8429883469
820295080.0 0.0117965848 0.1528332388 0.0003047621 -0.0001316296 0.0002194127 -0.0002489155 0.0639683854 0.8418932677
825295050.0 0.0131960279 0.1531290453 0.000312713 1.4989e-06 0.0002358026 -0.0002783304 0.0723967488 0.8411676829
830295020.0 0.0147987028 0.1534197299 0.0002216675 3.94457e-05 0.0001145836 -3.71365e-05 0.0797783123 0.8403153465
835294990.0 0.0158130819 0.153334282 6.10067e-05 7.5148e-06 0.0004490379 -0.0002477746 0.0888436007 0.8393224466
840294960.0 0.0176272239 0.1531784977 0.0001932147 -0.000256887 0.0001566358 -8.42978e-05 0.0971259725 0.8383705553
845294930.0 0.0190288623 0.1534381204 0.0003413036 -0.0001491295 0.0002601776 -0.0002607789 0.1046674804 0.8376661538
850294900.0 0.0206000686 0.1535774038 0.0003427764 -0.0001136122 0.0003891242 0.0001125327 0.1123756244 0.8368764768
