!Created with skrf (http://scikit-rf.org).
# Hz S RI R 50.0 
!freq ReS11 ImS11 ReS21 ImS21 ReS12 ImS12 ReS22 ImS22
300000.0 -0.2456614827 -0.089221649 0.4766651141 0.0591884406 0.4715580091 0.0551960589 -0.2408557413 -0.0967214196
5299970.0 -0.2449854662 0.0066538571 0.4748625954 0.0048576229 0.4747426768 0.0051143171 -0.2409074314 0.0075349291
10299940.0 -0.2416792538 0.0181218126 0.4769141238 0.0061195427 0.4766618546 0.00616272 -0.2375064667 0.0207108402
15299910.0 -0.2375118604 0.0269941772 0.4804496483 0.0075450322 0.4804641571 0.0073131283 -0.2332384929 0.0302436102
20299880.0 -0.2327095963 0.0340391242 0.4847175429 0.0082233179 0.4850286234 0.0078668394 -0.2276659173 0.0378556976
25299850.0 -0.2279097861 0.0404691041 0.489829049 0.0070718588 0.4897955218 0.0071001994 -0.2216621106 0.0447863661
30299820.0 -0.2222983444 0.0452410684 0.495426922 0.0048595439 0.495538581 0.0046295286 -0.2160019988 0.0502946941
35299790.0 -0.2173244816 0.049096033 0.5010322881 0.0013907965 0.5008866852 0.0013952327 -0.210724149 0.0544837735
40299760.0 -0.2126273702 0.0522935758 0.5058344072 -0.0025710523 0.5057856157 -0.0024775463 -0.2051417474 0.0574673925
45299730.0 -0.207861222 0.0549030909 0.5103365782 -0.0072774324 0.5105749235 -0.0070019823 -0.2004681977 0.060324432
50299700.0 -0.2038176842 0.056898088 0.5152547831 -0.0128680566 0.5148714817 -0.0125932883 -0.1954538221 0.0626530035
55299670.0 -0.1998377873 0.0582445855 0.5187922246 -0.0192314225 0.5182828157 -0.0185616069 -0.1913077903 0.0642542215
60299640.0 -0.1957483804 0.0599034915 0.5215977655 -0.0251347762 0.5222281626 -0.0247436434 -0.187473885 0.065512614
65299610.0 -0.1928296998 0.0611166424 0.5249692988 -0.0313204129 0.5248838287 -0.0312977745 -0.1840944378 0.0665440842
70299580.0 -0.1898139574 0.0621878091 0.5270142759 -0.0377605445 0.5269994892 -0.0378986864 -0.1808812707 0.0676942847
75299550.0 -0.1871547717 0.0629127122 0.5289689167 -0.0446402376 0.5291200337 -0.0447145705 -0.177959331 0.0684177524
80299520.0 -0.1848861594 0.063525944 0.5310708715 -0.0514457496 0.5308665334 -0.051598972 -0.1753039445 0.069043796
85299490.0 -0.1825798914 0.0638934145 0.5318248067 -0.0578973652 0.5321914261 -0.0583799158 -0.1729412581 0.0697174821
90299460.0 -0.1804305834 0.0647733453 0.5325872504 -0.0651648538 0.5333208632 -0.065424555 -0.1704094587 0.0704974205
95299430.0 -0.1782554644 0.0654533053 0.5342756705 -0.0720298723 0.5341026961 -0.0723542186 -0.1681259117 0.0715075311
100299400.0 -0.1768596502 0.0662655707 0.5341456782 -0.078981924 0.5339865443 -0.0790358519 -0.1659069541 0.0716024911
105299370.0 -0.1751999981 0.0667430102 0.5346747378 -0.0859940699 0.5349270497 -0.0861695967 -0.1640268909 0.0724668748
110299340.0 -0.1735820042 0.0674551661 0.5346944277 -0.0927615097 0.5347100422 -0.0927691563 -0.163036637 0.0729854512
115299310.0 -0.1718830448 0.0679860051 0.5349525303 -0.0997678684 0.5347939852 -0.0997221817 -0.161272835 0.0738431915
120299280.0 -0.1706813146 0.0684690517 0.534452796 -0.1066191373 0.5343285513 -0.1066410516 -0.1593102636 0.0745079688
125299250.0 -0.1695007226 0.0690317593 0.5338890519 -0.1128347779 0.534430372 -0.1130323419 -0.1585038358 0.0748769966
130299220.0 -0.1688706456 0.0703482364 0.5333166743 -0.1196622849 0.5330126702 -0.1195944874 -0.1571291165 0.0756852187
135299190.0 -0.1674825133 0.0708929073 0.5330899992 -0.1261902976 0.5327460823 -0.1263474127 -0.1558150191 0.0769025446
140299160.0 -0.1667321427 0.0720220503 0.5317588384 -0.1335598525 0.5319517701 -0.133198213 -0.1547199837 0.0781419823
145299130.0 -0.1655703114 0.0726231248 0.530856823 -0.1397661757 0.5309110612 -0.1395119541 -0.1534651851 0.0787788545
150299100.0 -0.1644653307 0.0738786088 0.5297091362 -0.1457887503 0.5298349281 -0.145844172 -0.1522467844 0.0805433094
155299070.0 -0.164012684 0.0747261471 0.5287887544 -0.1532981837 0.5283493215 -0.1525637598 -0.1512969841 0.0813327193
160299040.0 -0.1630272268 0.0759727573 0.5274913721 -0.1589800156 0.526798715 -0.159404956 -0.150668814 0.0822020696
165299010.0 -0.1621833879 0.0768834035 0.526104342 -0.166124658 0.5259490171 -0.1659573737 -0.1492984919 0.0838095777
170298980.0 -0.1614789092 0.0778315113 0.5242382809 -0.172110206 0.5242205415 -0.1718975862 -0.1483390252 0.0849296873
175298950.0 -0.1608511488 0.0789109107 0.5231631966 -0.1782110092 0.5226133392 -0.1782869001 -0.1476459516 0.0860628801
180298920.0 -0.1603722379 0.0800435375 0.5209934881 -0.1843415205 0.5211587835 -0.1842587778 -0.1467774606 0.0872018375
185298890.0 -0.1588733773 0.080761003 0.5190223451 -0.1905327696 0.5189446581 -0.1903718943 -0.1455247524 0.088695498
190298860.0 -0.1585679466 0.0822882983 0.5174052148 -0.1969198993 0.5179831852 -0.1966025369 -0.144775862 0.0897241115
195298830.0 -0.1576555112 0.0829968133 0.5154900885 -0.2028693767 0.5151779776 -0.202846042 -0.1435438987 0.0909498899
200298800.0 -0.1567107616 0.0845274553 0.512772937 -0.2093708223 0.5131189001 -0.2093995895 -0.1432918594 0.0924343466
205298770.0 -0.1560434536 0.0857738327 0.5108959421 -0.2153099213 0.5111587078 -0.2148286155 -0.142083512 0.0932381033
210298740.0 -0.1552723716 0.0867624045 0.5083119558 -0.2205490765 0.5085755001 -0.2207885267 -0.1407716922 0.0953244956
215298710.0 -0.154962881 0.088406038 0.5062660076 -0.2272121247 0.5062706687 -0.2271679328 -0.1404915015 0.0964680589
220298680.0 -0.1540893286 0.0892694583 0.5035825348 -0.2327426915 0.5037776009 -0.2329404236 -0.1398140626 0.0976834063
225298650.0 -0.1534387913 0.0905278758 0.501842595 -0.2386887445 0.501801957 -0.2387638443 -0.1389260479 0.0988473959
230298620.0 -0.1525195897 0.0924919204 0.499195044 -0.2444928725 0.4995598701 -0.2443785579 -0.1380472567 0.1003142389
235298590.0 -0.1517839886 0.0937592656 0.4964883563 -0.250325141 0.4961989102 -0.2497920695 -0.1367055429 0.1015712761
240298560.0 -0.1511173239 0.0950458184 0.4935300549 -0.2562068947 0.4936866183 -0.2558554883 -0.1358083901 0.1030848607
245298530.0 -0.150345123 0.0962833312 0.4911726267 -0.2620462702 0.4909154501 -0.2619629374 -0.1347992107 0.1038661207
250298500.0 -0.1493508894 0.0977859811 0.4874468236 -0.2677025725 0.4876920156 -0.2669096983 -0.1340033822 0.1057112708
255298470.0 -0.1487120778 0.0987735271 0.4844655418 -0.2727217039 0.4849310688 -0.2727635338 -0.1328194172 0.1070236389
260298440.0 -0.1479162166 0.0996858907 0.4822102454 -0.2784204346 0.4820575289 -0.2783005597 -0.1315287366 0.1081450202
265298410.0 -0.1464240041 0.1018046394 0.4791400558 -0.2841660565 0.4790457964 -0.2839623843 -0.1302394747 0.1098963974
270298380.0 -0.1460585697 0.1028599182 0.4766121915 -0.2892818017 0.4760760262 -0.2891060258 -0.1298604901 0.1108823742
275298350.0 -0.1448296008 0.104278314 0.4727350493 -0.2948814293 0.4729458722 -0.2952685271 -0.1283357497 0.1124277397
280298320.0 -0.1439472238 0.1057941607 0.4699043849 -0.3002825695 0.4695387761 -0.3000844788 -0.1266495735 0.1138551885
285298290.0 -0.1430734448 0.1072900988 0.4662861192 -0.3056569598 0.4661486838 -0.3056162714 -0.1258463664 0.1148881619
290298260.0 -0.142036865 0.1085766094 0.4631926831 -0.3109870563 0.4630100163 -0.3107924943 -0.1245437795 0.1167078936
295298230.0 -0.1409806434 0.1095799449 0.459742712 -0.3158920686 0.4598488598 -0.3158785051 -0.1229757377 0.1175720997
300298200.0 -0.1399584871 0.1109334499 0.4566656935 -0.3208423995 0.4564621583 -0.3216701427 -0.1218159382 0.1189683677
305298170.0 -0.1390201266 0.1120688453 0.4524116354 -0.326755952 0.452914956 -0.3263005671 -0.1198691491 0.1198864735
310298140.0 -0.1382645692 0.1136073117 0.4492922689 -0.3316354028 0.4496672991 -0.3312315481 -0.1189208 0.1214032397
315298110.0 -0.1372293567 0.1146466855 0.4457722951 -0.3364542626 0.4455575234 -0.3364524847 -0.1178991232 0.1225740766
320298080.0 -0.1355812284 0.116043776 0.4414900717 -0.3419608437 0.4421320543 -0.3419183933 -0.1162288988 0.124307626
325298050.0 -0.1351195481 0.1172312019 0.4380415223 -0.3472076923 0.438114995 -0.3469084792 -0.1155728789 0.1251124999
330298020.0 -0.1340416379 0.118200624 0.4338640983 -0.3519833155 0.4341707895 -0.3519122623 -0.1142262901 0.126540181
335297990.0 -0.1331548169 0.1194284168 0.4299999448 -0.3564207837 0.4300991659 -0.3564694966 -0.1136208181 0.1284328712
340297960.0 -0.1326909797 0.1210171247 0.4257376637 -0.3615693742 0.4254057865 -0.3617657752 -0.1112737971 0.1296758795
345297930.0 -0.1315768884 0.1228533674 0.421620082 -0.3666965797 0.4215060033 -0.3658687841 -0.110726817 0.1307516712
350297900.0 -0.1303268947 0.1234100674 0.4171420081 -0.3708737179 0.4175407475 -0.3710505655 -0.1095393665 0.132610868
355297870.0 -0.1293098108 0.1255893823 0.4134263554 -0.3756463242 0.413227675 -0.3753462013 -0.1079885179 0.1335304337
360297840.0 -0.1281613614 0.1267004184 0.409895805 -0.3797163359 0.4096624177 -0.3798293396 -0.1068683878 0.1354809737
365297810.0 -0.1272698876 0.1283218527 0.4049896709 -0.3846775184 0.4053024771 -0.3846915172 -0.1053005837 0.136602507
370297780.0 -0.1254928134 0.1293293138 0.4001154853 -0.3884977132 0.400930778 -0.3886827595 -0.1040085652 0.1380976921
375297750.0 -0.1246061159 0.1309903404 0.3965540263 -0.393496288 0.3969668076 -0.3934219479 -0.1025444666 0.139072815
380297720.0 -0.1232255878 0.1319855971 0.3919056405 -0.3978903967 0.3927050555 -0.3969228532 -0.1015134487 0.1406280099
385297690.0 -0.1226056894 0.1335328962 0.3877492169 -0.4018714546 0.3875833241 -0.4017012691 -0.0999069799 0.1420000768
390297660.0 -0.1212481219 0.1347783905 0.3831788203 -0.4064594769 0.383143407 -0.4058470866 -0.0983846423 0.1433018655
395297630.0 -0.1198407503 0.1360094234 0.3793463585 -0.4101573721 0.3791394101 -0.4103457906 -0.0963414845 0.1442497466
400297600.0 -0.1186792662 0.1376017685 0.3742983482 -0.4146150669 0.3744692608 -0.4143044206 -0.0948984545 0.1456351329
405297570.0 -0.1175837895 0.1388796932 0.3701420291 -0.4180398914 0.3697783959 -0.418090684 -0.0939820766 0.1466229722
410297540.0 -0.116026474 0.139799797 0.364969603 -0.4227679701 0.3655990081 -0.4226387033 -0.0920507122 0.1482325067
415297510.0 -0.1143396737 0.1409758658 0.3602610227 -0.4265333768 0.3608384892 -0.4268906593 -0.0904704203 0.1493364454
420297480.0 -0.1135432127 0.1427424514 0.3558467283 -0.4304476426 0.3560331739 -0.430622806 -0.0893118822 0.1499667723
425297450.0 -0.1120358786 0.1435854518 0.351201577 -0.434441537 0.3514722079 -0.4343478731 -0.0876376135 0.1515042542
430297420.0 -0.110725443 0.1446575433 0.3464524895 -0.4376847476 0.3463320339 -0.4378700855 -0.0860144894 0.1522553129
435297390.0 -0.1092683572 0.1460792058 0.3414130336 -0.4420634454 0.3409972704 -0.4417990945 -0.0836360469 0.1535471889
440297360.0 -0.1079572339 0.1473371267 0.336692486 -0.4455398231 0.3368305863 -0.4452905174 -0.0823685234 0.1541148248
445297330.0 -0.1066991106 0.1484052447 0.331738132 -0.4491200526 0.3321633741 -0.4490759253 -0.0805133896 0.1550117869
450297300.0 -0.1048274543 0.1493847385 0.3268272867 -0.4529908543 0.3267759333 -0.4530606052 -0.0789311141 0.155914266
455297270.0 -0.1037341347 0.1504762407 0.3219128146 -0.4564789159 0.3222038327 -0.4563659201 -0.0772654883 0.1568655037
460297240.0 -0.1025058243 0.151787328 0.3170368052 -0.4595767359 0.3167348493 -0.4597115063 -0.07540653 0.1584147642
465297210.0 -0.100778151 0.1531851197 0.3119760688 -0.4633969746 0.3116236045 -0.4639205328 -0.0738682717 0.158824537
470297180.0 -0.0993217324 0.1538064588 0.3067807305 -0.4665687617 0.3067454876 -0.4667869017 -0.0718964612 0.1604599115
475297150.0 -0.0980011336 0.1548219263 0.3016727366 -0.4690262589 0.301867902 -0.4695989616 -0.069836497 0.1606677872
480297120.0 -0.096326573 0.1562525094 0.2962341924 -0.4728614584 0.2962502368 -0.4735600568 -0.0679664255 0.1620905109
485297090.0 -0.0950436626 0.1573410703 0.2916927323 -0.4760965521 0.2914617249 -0.4759245773 -0.0663825856 0.1627579354
490297060.0 -0.0938300933 0.1583930253 0.2863949605 -0.4798663887 0.2864153887 -0.4793062124 -0.064279167 0.1641674352
495297030.0 -0.0919294605 0.1594439244 0.2807079272 -0.482593877 0.281226953 -0.4824270493 -0.0628418238 0.1648417838
500297000.0 -0.0903319018 0.1602359217 0.2757702477 -0.4849317563 0.2751855869 -0.4850700577 -0.0608461252 0.1660053511
505296970.0 -0.0885989677 0.1612211779 0.2700133084 -0.4883133048 0.27017403 -0.4883133182 -0.0589743251 0.1666487469
510296940.0 -0.0872866733 0.162351209 0.2647644815 -0.4914029387 0.2648269696 -0.4916016539 -0.0572026899 0.167557642
515296910.0 -0.0856895176 0.1633260313 0.2593632835 -0.4938426452 0.259457184 -0.4941579724 -0.0551060817 0.1682451925
520296880.0 -0.08429831 0.1641249747 0.2540081634 -0.4970408936 0.2542074658 -0.4968677765 -0.0535302718 0.1692311758
525296850.0 -0.0823933087 0.1647207401 0.2482637492 -0.4993265877 0.2490415876 -0.4993277019 -0.0515862557 0.1699886147
530296820.0 -0.0809168431 0.1661764299 0.2434463708 -0.5023845853 0.2432818936 -0.5020991155 -0.0497330402 0.1707693945
535296790.0 -0.0797539588 0.1670660221 0.2379694417 -0.5046188417 0.2381275558 -0.5044285483 -0.0480735014 0.1708734508
540296760.0 -0.0780898882 0.1681601325 0.2321761454 -0.5075510966 0.2322233539 -0.5077405783 -0.0463029677 0.1723302064
545296730.0 -0.0764891779 0.1687253726 0.2263147817 -0.5095021804 0.2262823458 -0.5096769143 -0.0441284633 0.1724912972
550296700.0 -0.0743777465 0.1698171953 0.2210916259 -0.5120352362 0.2212900342 -0.512765995 -0.0426065853 0.1738081622
555296670.0 -0.0729629135 0.1703373276 0.215748425 -0.5146210445 0.2161223566 -0.5146992903 -0.0406597689 0.1746318302
560296640.0 -0.0709738255 0.1717546573 0.2098933424 -0.5171665661 0.2102009103 -0.5166700652 -0.0385146245 0.1750694717
565296610.0 -0.0696675803 0.1723122106 0.2041712689 -0.5193327482 0.2046377183 -0.519181189 -0.0372265622 0.1750028223
570296580.0 -0.0683060181 0.1731531045 0.198897408 -0.5216494418 0.1982967605 -0.5213746981 -0.0347878412 0.1762916172
575296550.0 -0.0666566344 0.1742619107 0.193574466 -0.5237440827 0.1929242192 -0.523533086 -0.0328708037 0.1763518692
580296520.0 -0.0645610061 0.1749540212 0.1872098803 -0.5262796936 0.1874602131 -0.5257998208 -0.0309762119 0.1770857042
585296490.0 -0.0628049654 0.1753440795 0.182097194 -0.5273600876 0.1821333865 -0.5275281467 -0.0292304326 0.1773686281
590296460.0 -0.0612285597 0.1763878001 0.1762552153 -0.5289559328 0.1761424872 -0.529166101 -0.0275641691 0.1779935579
595296430.0 -0.0595020853 0.1772354044 0.169974656 -0.5313018482 0.1701052054 -0.5312532301 -0.0253787266 0.1777895076
600296400.0 -0.0582555196 0.1775941996 0.1645935603 -0.5328070428 0.1645001858 -0.5330170942 -0.0237181452 0.1786014772
605296370.0 -0.0561950635 0.1785430329 0.1582246495 -0.5343119381 0.1586401941 -0.5345260421 -0.0211475956 0.1790214764
610296340.0 -0.0543794203 0.1791127919 0.1524952732 -0.536137668 0.1527594462 -0.5362395885 -0.0193092256 0.1790868587
615296310.0 -0.0525038114 0.1793682052 0.1466942052 -0.5374729347 0.1466114587 -0.5381439014 -0.016877718 0.1795575927
620296280.0 -0.0507918426 0.1797711448 0.1413513143 -0.5392730814 0.141154112 -0.5390354839 -0.0155601405 0.1800136286
625296250.0 -0.0492629078 0.1804561101 0.1357638997 -0.5408393622 0.1354243832 -0.5412787335 -0.0128528404 0.180109555
630296220.0 -0.0468367003 0.1811580935 0.1288041012 -0.5421789865 0.1289683627 -0.5422025274 -0.0111788431 0.1802318369
635296190.0 -0.0459365005 0.1819326861 0.1234008006 -0.5434935392 0.123556031 -0.5436895726 -0.0090245527 0.1806451696
640296160.0 -0.0440949025 0.1825438493 0.1175860572 -0.5445556042 0.1182229669 -0.5451539884 -0.0068314805 0.1808667791
645296130.0 -0.042026386 0.1830525906 0.1117452527 -0.5456733942 0.1121601637 -0.5460036096 -0.0048517679 0.1814083872
650296100.0 -0.0400356014 0.1836265834 0.1056747356 -0.5467533266 0.1061188566 -0.5473417754 -0.0023607992 0.1810385699
655296070.0 -0.0388990251 0.1839659682 0.099867269 -0.5480714626 0.099829766 -0.5483257313 -0.0007195952 0.1812775786
660296040.0 -0.0373215449 0.184392186 0.0943922546 -0.5493319061 0.0940596743 -0.5492737112 0.0016334248 0.1815574008
665296010.0 -0.0349053752 0.1848766534 0.0880252133 -0.5501922784 0.0881221365 -0.5499027194 0.0034820302 0.1823715525
670295980.0 -0.033883996 0.1856323114 0.0820024866 -0.5509386625 0.0825562982 -0.5509334848 0.0052059641 0.1822267205
675295950.0 -0.0317389959 0.1861961614 0.0762675438 -0.5519852985 0.076560694 -0.5511063274 0.0069358196 0.1823683738
680295920.0 -0.0296611147 0.1863433226 0.0703141633 -0.5523214575 0.0700358473 -0.5532014037 0.0095814323 0.182779001
685295890.0 -0.0279499315 0.1874276001 0.064395159 -0.5535614149 0.0640588263 -0.5533696045 0.0115050494 0.1825360056
690295860.0 -0.0259408968 0.1873270972 0.0585215806 -0.5533095775 0.0582233997 -0.5544851405 0.0134067209 0.1832811491
695295830.0 -0.0242051803 0.1876248194 0.0525678076 -0.554350791 0.052266349 -0.5544261879 0.015503743 0.1827500051
700295800.0 -0.0224239648 0.1880137187 0.0460440954 -0.5547765368 0.0461647828 -0.5546560994 0.0170060868 0.1833366781
705295770.0 -0.02096095 0.1890413752 0.0401994176 -0.5557462637 0.0404789086 -0.555453757 0.0193976416 0.1833262396
710295740.0 -0.0187146074 0.1888883321 0.0345547123 -0.5562075533 0.0346270717 -0.5560973846 0.0217624368 0.1826015587
715295710.0 -0.0174763829 0.1889808342 0.0288262967 -0.5563021897 0.0283387434 -0.5562106714 0.023331682 0.182852809
720295680.0 -0.015407231 0.1895278153 0.0225756129 -0.5564472741 0.0224989976 -0.5565201634 0.025592615 0.1830893744
725295650.0 -0.0134491514 0.1899855864 0.0165853543 -0.5566821734 0.0164925814 -0.5568236781 0.0271513213 0.1832660808
730295620.0 -0.011235102 0.1902792993 0.0101252752 -0.556501738 0.0106449501 -0.5568265364 0.0290813354 0.1826397038
735295590.0 -0.009515329 0.190460818 0.0045009432 -0.5570689524 0.004298276 -0.5570267909 0.030918049 0.1823485402
740295560.0 -0.0079359608 0.1908523827 -0.0015987293 -0.5565721416 -0.0015570793 -0.5568705064 0.0336220081 0.1823506379
745295530.0 -0.0058581502 0.1912710479 -0.0075332976 -0.5564393466 -0.0078544597 -0.5566924151 0.0352386293 0.181556109
750295500.0 -0.0039900791 0.1913268185 -0.01347562 -0.5561036403 -0.0135589221 -0.55671224 0.0373360173 0.181554075
755295470.0 -0.0021764442 0.1911923311 -0.0190836482 -0.5561325224 -0.0195089526 -0.5565012419 0.0395893024 0.1806197455
760295440.0 -0.0002217077 0.1913198564 -0.0254112801 -0.5559946022 -0.0256644885 -0.5562607564 0.0414014014 0.1808228496
765295410.0 0.0013830881 0.1915685482 -0.0315692149 -0.5558003329 -0.0319683416 -0.5561993942 0.0435354378 0.1808662085
770295380.0 0.0028261691 0.1917358132 -0.0375962226 -0.5555566055 -0.0379488786 -0.5552222583 0.0452363944 0.1798605797
775295350.0 0.0048366466 0.1913432558 -0.0436556051 -0.5546210091 -0.0433717186 -0.5545557901 0.0469199043 0.1799846708
780295320.0 0.0069762541 0.1917180731 -0.0495231065 -0.5537623604 -0.0493044195 -0.5539472992 0.0489885997 0.1790484234
785295290.0 0.0085345701 0.1915029884 -0.0557727345 -0.5534414435 -0.05550698 -0.553535326 0.0515327149 0.1789274404
790295260.0 0.0112461419 0.1920855811 -0.0612180174 -0.5528645943 -0.0603957393 -0.5527244684 0.0534297449 0.1784076139
795295230.0 0.0125557064 0.1917375078 -0.0673239191 -0.5520548386 -0.066845039 -0.5522538789 0.055726139 0.1781001795
800295200.0 0.0141614073 0.1920998792 -0.0734857798 -0.5511367065 -0.0733440343 -0.5513577307 0.0574320409 0.1772224659
805295170.0 0.016021228 0.1917900131 -0.0790989689 -0.5503672938 -0.078972895 -0.550937333 0.0592461785 0.1770580863
810295140.0 0.0179123463 0.1912844215 -0.0849114477 -0.5490230735 -0.0850784015 -0.549541908 0.0621084282 0.1768424178
815295110.0 0.0198449982 0.1911775063 -0.0907685739 -0.5484214048 -0.0908009858 -0.5483696228 0.0633117397 0.1758437496
820295080.0 0.0213039665 0.1917772287 -0.0967375172 -0.5471605353 -0.096541593 -0.547455154 0.0650884588 0.1756275331
825295050.0 0.0242011623 0.1916131491 -0.1025325044 -0.5463688487 -0.1026094087 -0.5464820968 0.06768278 0.1749765354
830295020.0 0.0254416976 0.1916996394 -0.1088292684 -0.5449006818 -0.1084551855 -0.5455280383 0.0703259434 0.1745496761
