!Created with skrf (http://scikit-rf.org).
# Hz S RI R 50.0 
!freq ReS11 ImS11 ReS21 ImS21 ReS12 ImS12 ReS22 ImS22
300000.0 -0.0499455871 -0.0464137362 0.0017781264 -0.0002648497 0.0009079396 0.0011889133 -0.7740974105 -0.1431802736
5299970.0 -0.0497271187 0.0159234365 -0.0001263776 7.00686e-05 0.0001497013 -2.7678e-05 -0.7842662711 -0.0073855893
10299940.0 -0.0441541563 0.0326195676 -4.6289e-06 7.62752e-05 -0.0001526226 -0.0001431207 -0.787541265 -0.00360895
15299910.0 -0.0358144504 0.046960058 -2.9854e-05 -1.16177e-05 -0.0001688202 -2.75946e-05 -0.7927257584 -0.0015424404
20299880.0 -0.0260769466 0.058581766 -2.75442e-05 -9.60801e-05 -9.937e-05 -5.36313e-05 -0.7994849319 0.0020010683
25299850.0 -0.0152175562 0.0681096135 0.0001172755 4.0622e-06 0.0002086246 6.91684e-05 -0.8056563876 0.0084329797
30299820.0 -0.004019107 0.0749884161 -8.22303e-05 -6.48315e-05 1.4885e-06 -0.0001285063 -0.8114995405 0.0163482887
35299790.0 0.0073760977 0.0797283903 8.27703e-05 -8.21632e-05 0.0001587374 -3.28902e-05 -0.8165525254 0.0254760844
40299760.0 0.0186453643 0.0827582293 1.25169e-05 -3.1207e-05 0.0001010844 0.0001041255 -0.8210133966 0.0345602657
45299730.0 0.0294162101 0.0842090817 -7.63331e-05 0.0002631788 -0.0001168429 3.16143e-05 -0.8250914155 0.0439934517
50299700.0 0.0391922014 0.0845184157 5.88856e-05 4.06247e-05 -6.603e-06 -4.66378e-05 -0.8271983402 0.0542043867
55299670.0 0.0484332961 0.0835194025 7.44704e-05 0.0001989279 6.88101e-05 -2.32366e-05 -0.8293571469 0.0645207146
60299640.0 0.0566026069 0.0823121133 7.84997e-05 -0.0001288817 -3.96534e-05 9.3371e-06 -0.8303937536 0.0743362832
65299610.0 0.0648042868 0.0795159661 0.0001722842 -5.12077e-05 -9.3228e-06 -0.0002199989 -0.8320717016 0.0846177884
70299580.0 0.0715409914 0.0769500385 0.0001148591 0.0002181359 -1.79282e-05 -0.000118959 -0.8316996685 0.0945103982
75299550.0 0.0778699862 0.0738331046 8.67609e-05 4.77631e-05 -0.0002354294 0.000140284 -0.8321813644 0.1037892296
80299520.0 0.083720561 0.0706708376 -9.05871e-05 0.0001947496 7.907e-06 -6.70524e-05 -0.8320836706 0.1141178116
85299490.0 0.0885935512 0.066670946 -1.3221e-06 3.24698e-05 3.40887e-05 0.0001409393 -0.8321052528 0.1237536933
90299460.0 0.0929713437 0.0631757819 -7.34201e-05 9.53893e-05 8.9946e-05 7.1792e-06 -0.8305857802 0.1335389339
95299430.0 0.0976232865 0.0590866702 0.0001355538 -4.24725e-05 -3.60172e-05 0.0001034476 -0.8284593677 0.1429466374
100299400.0 0.1009354951 0.0555375512 4.49581e-05 -5.1833e-06 4.8383e-06 8.17703e-05 -0.8285857623 0.1523994039
105299370.0 0.1045142216 0.0518012373 -6.03521e-05 4.86629e-05 1.38744e-05 -5.3126e-05 -0.8268530048 0.1608405041
110299340.0 0.1075764069 0.0479113322 -2.7e-05 -0.0001356231 -2.2647e-06 2.31356e-05 -0.8252709156 0.1702136842
115299310.0 0.1104716434 0.044142466 0.000469877 0.0001492589 -5.08725e-05 1.65785e-05 -0.8246529597 0.1799626886
120299280.0 0.1124122862 0.0401022489 -1.91918e-05 -4.36871e-05 -0.0002412415 -1.43406e-05 -0.8219046048 0.1891603843
125299250.0 0.1141050575 0.0364750689 0.0001897469 6.76303e-05 0.0001782111 0.0002222744 -0.8207319707 0.1979220342
130299220.0 0.1157973814 0.0329834677 -0.000132587 8.4342e-05 0.000157765 1.38965e-05 -0.8184476917 0.2064362684
135299190.0 0.1176117488 0.0297255275 0.0001958281 5.9582e-06 1.73072e-05 0.0002747859 -0.8166075922 0.2154978486
140299160.0 0.1186515488 0.0259341974 -4.63436e-05 6.57123e-05 -9.7799e-05 7.97833e-05 -0.8141714272 0.2246426124
145299130.0 0.1199971492 0.0226598532 0.0001357978 0.0001470073 0.0001314567 5.34977e-05 -0.8117083225 0.233609845
150299100.0 0.1211855672 0.0191507628 -8.79046e-05 -4.41083e-05 -4.2958e-06 9.58657e-05 -0.8099602733 0.2432014718
155299070.0 0.1215965114 0.0159589812 -3.22904e-05 0.0002847573 -4.52507e-05 0.0002138191 -0.8066655352 0.2520463924
160299040.0 0.122365228 0.0130127997 0.0002308705 1.3659e-05 0.0001317007 0.0001443819 -0.8050977638 0.2605034356
165299010.0 0.123142229 0.0097707993 9.85321e-05 5.50078e-05 6.72646e-05 0.0001765243 -0.8019291479 0.2690411438
170298980.0 0.1232018946 0.0071440686 -4.41898e-05 0.0002026901 0.0001798848 -6.48325e-05 -0.7986956877 0.2781801469
175298950.0 0.1235875395 0.0038570681 0.0001416942 3.78578e-05 8.07628e-05 0.0001878524 -0.7963552306 0.2863329739
180298920.0 0.1239844439 0.0011057034 -0.0001127712 0.0002749361 2.0746e-05 5.34651e-05 -0.7930590245 0.2950290134
185298890.0 0.1241372376 -0.0019549682 4.1602e-06 0.0001318369 0.000163497 -3.53952e-05 -0.7895840237 0.30442601
190298860.0 0.1243868989 -0.0045035618 0.000161726 0.000189614 0.0001800485 0.0003526051 -0.7873395307 0.3121542189
195298830.0 0.1240036217 -0.0073828137 0.0002862754 0.0001711411 0.0001002309 4.4187e-06 -0.7845104517 0.3211877687
200298800.0 0.1238454473 -0.0095640223 -8.52575e-05 0.0002069922 0.0002146718 0.0001754212 -0.7810845469 0.3290270411
205298770.0 0.1238257224 -0.01231837 0.0001026593 0.0002191197 7.81349e-05 -2.82847e-05 -0.7774074749 0.3377791585
210298740.0 0.1235263124 -0.0150186076 -5.63027e-05 0.0001545246 -0.0001604154 7.80265e-05 -0.7741630826 0.3463182319
215298710.0 0.1230559695 -0.0172932119 0.0001292898 0.0002598591 2.78902e-05 0.000136502 -0.7708299772 0.3544813289
220298680.0 0.1227110862 -0.0197119962 -6.78273e-05 -4.47506e-05 0.0001342949 7.4323e-05 -0.7673481214 0.3620039259
225298650.0 0.1221468094 -0.0220750579 5.25347e-05 0.0002284834 0.0001744126 8.63319e-05 -0.7637511313 0.3701646034
230298620.0 0.1218761763 -0.0245321463 0.000363867 0.0001179251 -2.01108e-05 0.0002160873 -0.7597750631 0.3786517542
235298590.0 0.1215460745 -0.0266140719 3.86048e-05 0.0002164989 0.0001392247 0.0001306744 -0.755728339 0.3869877014
240298560.0 0.1207429021 -0.0291963344 0.00015674 0.000183588 7.82166e-05 0.0002167131 -0.7516376511 0.3955864897
245298530.0 0.1201870172 -0.0310474312 0.0001121488 0.0001060723 2.25298e-05 -7.24051e-05 -0.7480752784 0.4025502774
250298500.0 0.1196721717 -0.0333112561 0.0001315662 1.53729e-05 1.50757e-05 6.24013e-05 -0.7434755452 0.4103296071
255298470.0 0.1186517021 -0.0353970705 -2.01896e-05 0.0002708808 2.52047e-05 8.701e-06 -0.7387696928 0.4177131236
260298440.0 0.1180141425 -0.0373190148 4.00279e-05 9.00327e-05 8.82446e-05 0.0001960987 -0.7346062021 0.4264801404
265298410.0 0.1176128195 -0.039001141 3.19943e-05 0.0001626614 0.0001597091 0.0002155221 -0.729908186 0.4337236027
270298380.0 0.1167420802 -0.0411151512 0.0002007433 0.0001967832 7.01786e-05 0.0002322502 -0.7250560926 0.4407700164
275298350.0 0.1159631155 -0.0430873122 -6.27273e-05 0.0001644175 1.21616e-05 0.0001843391 -0.7206166189 0.4488175783
280298320.0 0.1153503145 -0.0447911427 0.000128914 -7.43955e-05 0.0002720201 0.0002176835 -0.715335019 0.456083066
285298290.0 0.1145621803 -0.0466376152 -2.22747e-05 1.3207e-05 0.000145684 0.0002031657 -0.7107910488 0.4635232199
290298260.0 0.1139273113 -0.0485747507 0.0001716985 4.5729e-06 6.60246e-05 1.15896e-05 -0.7056803011 0.470956671
295298230.0 0.1129359905 -0.0507010795 7.15676e-05 0.0001073128 0.0003984668 -0.0001265532 -0.7008383998 0.4776812302
300298200.0 0.1122495862 -0.0521215157 4.3513e-05 0.0002347117 0.0002462604 0.0002876586 -0.6953098887 0.4851577631
305298170.0 0.1114192975 -0.0540815901 3.71468e-05 2.51578e-05 0.0001320473 0.0001775197 -0.6897187489 0.4926617668
310298140.0 0.110450987 -0.0555754595 0.0002562239 0.0001115701 0.0001206932 0.0002672201 -0.6854963186 0.4993634693
315298110.0 0.109633308 -0.0574356467 0.0001216718 6.38357e-05 0.0001434505 -7.42429e-05 -0.679228953 0.5064821743
320298080.0 0.10879448 -0.059567865 0.0002319875 0.0001766817 0.0001584593 -2.2781e-06 -0.674135329 0.5139820149
325298050.0 0.1076714228 -0.0612571187 0.0002627471 0.0001827079 -4.02405e-05 1.68045e-05 -0.6687619209 0.5211420694
330298020.0 0.1063329294 -0.0630840148 0.0001861027 4.06427e-05 0.0002173563 0.0002038272 -0.6634087565 0.5284212441
335297990.0 0.1047283136 -0.0645250593 -6.27501e-05 3.9934e-05 0.000113912 0.00018607 -0.6581834342 0.5350538414
340297960.0 0.1038396628 -0.0659235739 0.0002002537 0.0001585234 0.0001574866 8.1345e-05 -0.6517839733 0.5420470495
345297930.0 0.1023592477 -0.0674032426 0.0003721419 4.88483e-05 -3.79223e-05 9.20277e-05 -0.646651692 0.5482917604
350297900.0 0.1010884485 -0.0686291476 0.0001769696 8.90301e-05 6.79763e-05 -0.0001100222 -0.6408026702 0.5549476939
355297870.0 0.1004588522 -0.06988367 0.0001386866 0.0001864851 -3.45738e-05 0.0003047262 -0.6354376965 0.5619861556
360297840.0 0.0989034088 -0.0711675919 0.0003133895 -2.68378e-05 0.0003525038 0.0003887822 -0.6290374265 0.568882329
365297810.0 0.0976826432 -0.0722434869 0.0003971333 0.0002957763 9.88725e-05 6.09454e-05 -0.6220714289 0.5752996966
370297780.0 0.0964197075 -0.0738999096 0.0001012978 3.01002e-05 0.0001741744 6.10945e-05 -0.6171803216 0.581478838
375297750.0 0.0952516306 -0.0747995327 0.0001437666 0.000215223 0.0002415008 0.000123942 -0.6112222091 0.587462168
380297720.0 0.0940997476 -0.0761734325 0.0003073204 0.0003154241 3.40432e-05 -9.1018e-06 -0.6052503223 0.594490069
385297690.0 0.0929118506 -0.0772634737 0.0002939315 0.0002772152 0.0001059601 0.0001684228 -0.5987533079 0.6007705934
390297660.0 0.0913528759 -0.0782166747 0.0003582582 0.0002437165 0.0002415164 2.71333e-05 -0.592903524 0.6069651329
395297630.0 0.0905227295 -0.079373799 0.0001258613 0.0002662787 0.0002267476 8.83261e-05 -0.5858585884 0.6136818012
400297600.0 0.0892397883 -0.0804701693 0.0001638662 0.0001456549 0.0002126632 8.6477e-05 -0.5802828193 0.6190720223
405297570.0 0.0877565556 -0.0813766783 0.0001120745 0.0001305509 0.0001482796 0.0002203793 -0.57405001 0.6249564463
410297540.0 0.0865614873 -0.0827858499 0.0002210696 0.0001244255 0.0002129423 0.0002583411 -0.5668910688 0.6313557081
415297510.0 0.0856033073 -0.0840121406 0.0003356665 0.0002336348 0.0002889767 0.0002051061 -0.5610154227 0.6367049177
420297480.0 0.0839607489 -0.0846074044 0.0003828352 0.0001375129 0.0003091431 0.0001418937 -0.5539543534 0.6423565238
425297450.0 0.0825958443 -0.085810789 0.0002907939 0.0002586959 -4.67184e-05 1.06552e-05 -0.5479214119 0.6481767038
430297420.0 0.0814357866 -0.0867395314 8.6744e-06 0.0002185329 0.00021986 0.0001888892 -0.5408542354 0.6530078331
435297390.0 0.0800941529 -0.0876042453 0.0002390081 0.000205971 0.0002113871 6.31515e-05 -0.5337251498 0.6587344294
440297360.0 0.0786624092 -0.0888155337 0.0002362025 0.0003457485 0.0003681768 0.0001483422 -0.5273893281 0.6634927588
445297330.0 0.0773394225 -0.0897010637 0.0005256351 -6.2441e-06 0.0001641833 0.0001163542 -0.5202215919 0.6688532253
450297300.0 0.0761651921 -0.090718546 0.0003558478 -5.7035e-05 0.0004302069 0.0002367092 -0.5128306326 0.6743275245
455297270.0 0.0745945765 -0.0915709449 0.0001308922 -3.46478e-05 0.0002818807 0.0001149704 -0.5058700501 0.6783630526
460297240.0 0.0732336116 -0.0921305858 0.0002581223 9.25081e-05 0.0001267376 0.0001300011 -0.4993217213 0.6839922722
465297210.0 0.0721576255 -0.0928945003 8.16903e-05 0.0001528931 0.0002432278 2.60515e-05 -0.4917952933 0.6884945005
470297180.0 0.0709517639 -0.0938316552 0.0002712491 0.0001855515 0.0002371191 0.000293439 -0.4849301594 0.6944050357
475297150.0 0.0693726087 -0.0949059859 8.39776e-05 0.0001473362 0.0002242784 0.0001705207 -0.4772198761 0.6980084314
480297120.0 0.0680916004 -0.0953685057 0.0002813911 1.55246e-05 0.000188107 0.0002950288 -0.4697740564 0.703365602
485297090.0 0.0667091777 -0.0961511766 0.0001825654 0.0002078522 0.0002364111 2.54452e-05 -0.4625051698 0.7081498913
490297060.0 0.065287276 -0.0965509159 0.0001807693 -0.0001630531 0.0003410318 0.0002549701 -0.4556302391 0.7123772515
495297030.0 0.0638256806 -0.0976506229 0.0004537299 2.55043e-05 0.000196124 0.0002139909 -0.4480074831 0.7171839052
500297000.0 0.0623806121 -0.0981275127 0.0002039082 6.09424e-05 -2.01e-06 5.7719e-06 -0.4406288904 0.722429778
505296970.0 0.0615521923 -0.0988274036 0.0003906413 1.96038e-05 0.0004408731 0.0002559064 -0.4329857997 0.7260811749
510296940.0 0.0598065671 -0.0995453909 0.0003640502 0.0003652467 0.000410184 0.000141009 -0.4254896853 0.7307570412
515296910.0 0.0586796693 -0.1002864897 0.0002843312 6.3571e-06 5.46672e-05 0.0001599027 -0.4179577214 0.7351021825
520296880.0 0.0569232897 -0.1008022761 0.0001073766 0.0001551799 0.000114908 -0.0001344218 -0.4100071231 0.7390095837
525296850.0 0.0557204165 -0.1015243825 0.0002102066 0.0001846499 0.0003678719 4.35284e-05 -0.4037354286 0.7434146948
530296820.0 0.0542258052 -0.1017942235 0.0002331648 0.0002301475 0.0002630263 0.0001146941 -0.3960534366 0.7477173948
535296790.0 0.0529455381 -0.1021429217 0.0001258833 7.66707e-05 0.0001740192 0.0002809805 -0.388877149 0.7512842421
540296760.0 0.0512814621 -0.1027853748 0.0002760457 -3.10785e-05 0.000266872 8.53674e-05 -0.3806019558 0.7557158309
545296730.0 0.0496744842 -0.1032035054 0.0001961326 6.08532e-05 0.000422927 0.0001379873 -0.3734907842 0.759477086
550296700.0 0.0487904639 -0.1034699483 0.0002630166 -7.88046e-05 0.0002554854 -8.88987e-05 -0.3653077399 0.7632518934
555296670.0 0.0469459648 -0.1043484152 0.0002562329 -4.0375e-05 0.0003119864 7.57003e-05 -0.3573999073 0.7675166323
560296640.0 0.0460017544 -0.1043880532 0.0003093458 1.40951e-05 0.0001325062 3.92114e-05 -0.3496377347 0.7709899501
565296610.0 0.0442770058 -0.1048877415 0.0001665715 -0.0001115487 0.0002433488 -1.24665e-05 -0.3419999966 0.7741439484
570296580.0 0.0425730991 -0.1052285132 0.0004171156 -0.0001595576 0.0004051646 3.88629e-05 -0.3343892382 0.7780312555
575296550.0 0.0413097988 -0.1057267091 0.0003722987 0.0001497788 0.0002032836 -1.06775e-05 -0.3265418347 0.781058472
580296520.0 0.0401401893 -0.1060321894 -6.26231e-05 0.0001441897 0.0003780029 0.0001251477 -0.3180668928 0.784187549
585296490.0 0.0381773154 -0.1065169935 0.0003273302 -3.8436e-06 0.0003510774 7.93042e-05 -0.3102299461 0.7872289081
590296460.0 0.0370588226 -0.1064887436 0.0001090639 -2.8047e-05 0.0002861273 -4.66487e-05 -0.3025664992 0.7902774077
595296430.0 0.0354604344 -0.1069067993 0.000352327 4.46688e-05 0.0003092062 -1.64084e-05 -0.2947612351 0.7920977973
600296400.0 0.0338605962 -0.1073747329 0.000287758 3.837e-07 0.0003561692 0.0001926656 -0.2864304697 0.795305386
605296370.0 0.0324114963 -0.1073200202 0.0003296944 0.0001781552 0.0005148873 0.0002169969 -0.2775259943 0.7989050782
610296340.0 0.0308438 -0.1076486422 9.45327e-05 -6.09891e-05 0.0004533279 -5.25922e-05 -0.2699651448 0.8009382882
615296310.0 0.0296715087 -0.1079613896 0.0003380858 -0.0001263981 0.0003050768 0.0001970349 -0.2615801986 0.8030448873
620296280.0 0.0280580221 -0.1083581565 0.0004929067 4.87611e-05 0.0005000445 1.41887e-05 -0.2540803379 0.8061683952
625296250.0 0.02667364 -0.1082139801 0.0002120594 -2.75459e-05 0.0006296732 0.0001925431 -0.2453334003 0.8073235081
630296220.0 0.0256412562 -0.1086317804 0.0003467468 6.22363e-05 0.0005063042 1.38656e-05 -0.2371169248 0.8105232538
635296190.0 0.0235745266 -0.1085651443 0.0002822438 1.6954e-05 0.0006335572 -6.32708e-05 -0.2289950165 0.8122935762
640296160.0 0.0222172552 -0.1087357308 0.000399867 8.84741e-05 0.0003106958 0.0001780629 -0.2207976779 0.8154307856
645296130.0 0.0208528242 -0.1086465958 0.0003283989 -0.0001130026 0.0003663148 -9.9922e-06 -0.2127694776 0.8174661704
650296100.0 0.0192844782 -0.1086752649 0.0001831491 -0.0001950759 0.0003196438 7.41499e-05 -0.2045515785 0.818849144
655296070.0 0.0177176926 -0.1088022814 2.83157e-05 0.0001513353 0.000146774 0.0001812932 -0.196291095 0.8202929578
660296040.0 0.0161932087 -0.1087980101 0.0005268114 8.1504e-05 0.0002444576 0.0001754455 -0.1872510979 0.8227673738
665296010.0 0.0153125497 -0.1089870013 0.0004214978 -0.0002091668 0.0004584517 -0.0001354424 -0.1788264009 0.8248916758
670295980.0 0.0134814483 -0.1086250896 0.0005780497 0.0003019583 0.0002480158 0.0001556729 -0.1710609607 0.8261012511
675295950.0 0.012216094 -0.1088712852 0.0003243271 -0.0002300815 0.0004303047 -7.1341e-05 -0.1635819692 0.8284853832
680295920.0 0.0107291173 -0.1086722277 0.0005629188 0.0002400238 0.0005470481 -8.06105e-05 -0.1542664517 0.8308006903
685295890.0 0.0093628471 -0.1085394103 0.0002399486 5.19534e-05 0.0001440993 2.69073e-05 -0.1460514547 0.8319527095
690295860.0 0.0081147437 -0.1085941766 0.0002697769 7.13082e-05 0.0004677934 -4.74558e-05 -0.1378246339 0.8338929081
695295830.0 0.0064140285 -0.1084894543 0.0007074899 7.66783e-05 0.0005848816 0.0001675471 -0.1289510768 0.8349749505
700295800.0 0.0049190887 -0.1084191107 0.0002369813 -2.4981e-06 0.0003002211 -7.72246e-05 -0.121435101 0.8360477653
705295770.0 0.0032650308 -0.1080098964 0.0001494342 -0.0001505632 0.0005493234 -3.18906e-05 -0.1128695028 0.8379492249
710295740.0 0.0020450653 -0.1078192164 0.0004474234 7.05743e-05 0.000494204 3.0465e-06 -0.1046660762 0.8378427641
715295710.0 0.000392337 -0.1080683397 0.0004708527 -0.0001827198 0.0003175367 8.10589e-05 -0.0960057692 0.8395491681
720295680.0 -0.000577886 -0.107672035 0.0004877152 0.0002575076 0.000196075 0.0001248705 -0.0872390659 0.8403800954
725295650.0 -0.0023084721 -0.1070440273 0.0003133166 0.000212533 0.0002710585 -0.0001122301 -0.0793457348 0.841750703
730295620.0 -0.0037472769 -0.1071426494 0.000295283 -0.0002910981 0.0004655633 -7.63153e-05 -0.0717658008 0.8423207557
735295590.0 -0.0049733482 -0.1066190424 0.0004698997 -8.28179e-05 0.0002099085 -7.037e-05 -0.0632561724 0.8426339019
740295560.0 -0.0063999465 -0.1064175932 0.0002775548 -0.0001514586 0.0004733399 -2.73876e-05 -0.0535565256 0.8434345753
745295530.0 -0.0080902803 -0.1061952347 0.0001937087 -3.86137e-05 0.0005297914 1.9403e-06 -0.0452844616 0.8433900901
750295500.0 -0.009059072 -0.1059216591 0.0003226578 9.9052e-05 0.0003347651 -6.60526e-05 -0.0377096765 0.8439889664
755295470.0 -0.0106274291 -0.1056781066 0.0002684392 -0.0002201997 0.0004820029 -8.99685e-05 -0.0292192358 0.8440331289
760295440.0 -0.0120651717 -0.1049427256 0.0004634061 3.98253e-05 0.0005596093 7.99503e-05 -0.0203963973 0.8439105473
765295410.0 -0.0132613969 -0.1047922809 0.00030048 3.40329e-05 0.0004880818 -0.0001346573 -0.0120879698 0.8453620385
770295380.0 -0.0148851536 -0.1045369698 0.0005061634 -4.20823e-05 0.0004798274 4.68124e-05 -0.0038521368 0.8444911805
775295350.0 -0.0164206927 -0.1041423777 0.0004854385 -1.20553e-05 0.0002922499 1.42648e-05 0.0040740334 0.8443108396
780295320.0 -0.0178218094 -0.1034829747 0.0004150676 -3.63491e-05 0.0003887169 -3.0714e-05 0.0125304727 0.8441719987
785295290.0 -0.0191720129 -0.1033419087 0.0003086477 -1.45994e-05 0.0004455822 -8.61809e-05 0.021361253 0.8434241669
790295260.0 -0.0200985016 -0.1025814995 0.0004731136 -0.0003174861 0.0002358381 7.3318e-06 0.0304958111 0.8438681779
795295230.0 -0.0216557643 -0.1022604853 0.0004760364 0.0001241499 0.0004131688 -0.0001459827 0.0388660566 0.8423019557
800295200.0 -0.0231317229 -0.1020202541 0.0004425681 -0.0001757647 0.0005456133 -9.37187e-05 0.0473652048 0.8421104121
805295170.0 -0.0245035322 -0.1012765884 0.0002314863 3.75188e-05 0.0005973426 -0.0002208617 0.0552609899 0.8420643406
810295140.0 -0.0256107779 -0.1008150798 0.0001403238 -0.0001074292 0.0004873969 -5.61832e-05 0.0640245822 0.8408615668
815295110.0 -0.0271393348 -0.1004963163 0.0005159608 -2.72763e-05 0.0005376412 0.000151419 0.0725893639 0.840648895
820295080.0 -0.0283483013 -0.0994885765 0.0005221814 -0.00054518 0.0003939855 -0.0002224143 0.080819786 0.8398125101
825295050.0 -0.0295135489 -0.0993012309 0.0004040137 1.50276e-05 0.0004369791 -0.0001743443 0.0892935595 0.8389963172
830295020.0 -0.030788594 -0.0988741869 0.0004130995 -7.95143e-05 0.0002651249 -1.61127e-05 0.097968536 0.8379421275
835294990.0 -0.0322532398 -0.0977655013 0.0005073317 -0.0001674113 0.0004417595 1.05714e-05 0.1054165219 0.8368754173
840294960.0 -0.0332756935 -0.0975287516 0.0006440083 -0.0001098225 0.0002587796 -0.0001849579 0.1138057566 0.8357847549
845294930.0 -0.0344055904 -0.0965207752 0.0002678377 -0.000100458 0.0002836149 -0.0002363447 0.1222553123 0.8348455258
850294900.0 -0.0356761868 -0.0960673284 0.0003421623 -0.0004492615 0.0005356358 -0.0001648255 0.1303167371 0.8338022291
