!Created with skrf (http://scikit-rf.org).
# Hz S RI R 50.0 
!freq ReS11 ImS11 ReS21 ImS21 ReS12 ImS12 ReS22 ImS22
300000.0 -0.7696346287 -0.1749112682 0.0012735147 0.0022455923 -0.0009605807 0.0016865568 -0.0449581205 -0.0799239535
5299970.0 -0.7861944837 -0.0097705072 -0.0001123994 0.0001726082 -0.000136353 -2.25298e-05 -0.0489151243 0.0141342099
10299940.0 -0.7893832915 -0.0056971575 -8.52256e-05 5.09193e-05 0.000148594 7.66615e-05 -0.0433193152 0.0321359635
15299910.0 -0.7941265489 -0.0035435401 -0.0001278001 8.49609e-05 4.51061e-05 0.0001011467 -0.0346151138 0.0468168471
20299880.0 -0.8007910678 0.0007869204 9.57563e-05 -0.0002458205 -5.7418e-06 9.87809e-05 -0.0251480484 0.0583854664
25299850.0 -0.8076176886 0.0062601492 0.0001208214 -0.0001491726 -0.0002904866 1.24496e-05 -0.0144325784 0.0677319197
30299820.0 -0.8136541504 0.0140214609 -5.924e-06 -0.0001109072 -0.0001240838 -0.0001411289 -0.0028223029 0.0747076941
35299790.0 -0.8185116799 0.0229204235 -2.40981e-05 0.0001052628 -0.0001689991 0.0001338699 0.008447693 0.079803249
40299760.0 -0.8236733579 0.0319425663 -6.87358e-05 6.2918e-06 0.000135981 5.08216e-05 0.0194017186 0.0827882531
45299730.0 -0.8268400397 0.0418079155 4.30881e-05 0.0001681667 -0.0001430146 0.0001152307 0.0299722552 0.0840892215
50299700.0 -0.8293163212 0.0515946318 0.0001356382 -9.64056e-05 -8.5757e-06 3.07e-08 0.040373924 0.0844998862
55299670.0 -0.8313208642 0.0611082337 5.26726e-05 0.0002592185 -2.7881e-05 -6.29346e-05 0.0494702556 0.0833895176
60299640.0 -0.8329848384 0.0718816241 -2.76509e-05 -8.63506e-05 5.11736e-05 0.0001417546 0.0579322874 0.0814366684
65299610.0 -0.8335549557 0.0819341797 -5.36366e-05 -1.74903e-05 -9.5182e-06 0.0002308162 0.0655033253 0.0795196475
70299580.0 -0.8341794889 0.0913634317 8.83764e-05 0.0001447549 5.65978e-05 3.83362e-05 0.0724388912 0.0767598048
75299550.0 -0.833777093 0.101478993 -0.0001784793 -2.11993e-05 1.76908e-05 6.172e-05 0.079350032 0.0737935801
80299520.0 -0.8337990342 0.1120522086 0.0001283299 4.21735e-05 4.20058e-05 0.0001719033 0.0848390394 0.0701832951
85299490.0 -0.8327963348 0.1208313644 -3.65617e-05 0.0001308922 0.0001391082 6.72463e-05 0.0898206373 0.0666368808
90299460.0 -0.8318438614 0.1312402158 -0.0002447761 0.0002256958 0.0001251584 0.0001086184 0.094171228 0.0628265988
95299430.0 -0.8318969643 0.1405875428 -4.1173e-06 -0.0001288098 1.05777e-05 -8.94915e-05 0.0985666266 0.059242944
100299400.0 -0.8304794175 0.1498833715 -5.86213e-05 0.0001145975 -7.42614e-05 -8.955e-07 0.1022771838 0.0555603011
105299370.0 -0.8286612331 0.1590763929 4.98689e-05 1.08677e-05 5.43508e-05 -4.20298e-05 0.105528966 0.0514875664
110299340.0 -0.8277203117 0.1680311635 -2.81215e-05 -0.0001423448 -0.000181688 -0.0001159788 0.1084365253 0.0475689349
115299310.0 -0.8261301582 0.1771191635 -0.0001148967 -4.1837e-06 0.00015324 -0.0002420712 0.1109053394 0.044243341
120299280.0 -0.8248162772 0.1868421811 0.0001272175 -0.0001964249 7.90395e-05 0.0001201076 0.1133621026 0.0398705479
125299250.0 -0.8227658864 0.1957863317 -3.30263e-05 -0.0001139767 0.0001055744 0.000372038 0.1153323479 0.0365372362
130299220.0 -0.8210623165 0.2051682781 -5.55258e-05 0.000139273 -0.0001062465 -0.0001667997 0.1170175455 0.0326945309
135299190.0 -0.8187600622 0.2141199658 -0.0001218367 -0.0001164391 -0.0001577715 0.0002267903 0.118689979 0.0288237125
140299160.0 -0.8174040289 0.2236092193 -0.000159408 0.0001259265 -3.94725e-05 5.14063e-05 0.1196230437 0.0256921073
145299130.0 -0.8152934547 0.231915035 3.2323e-05 5.88394e-05 -6.84464e-05 0.0002505529 0.1210643755 0.0225501991
150299100.0 -0.8121145075 0.2404958267 -0.0001107634 0.0001099452 -0.0001058301 0.0002153342 0.1218197146 0.0191096514
155299070.0 -0.8097124152 0.2501565999 -4.7781e-06 0.0002805295 7.317e-05 0.0001218504 0.1225955189 0.0157119001
160299040.0 -0.807455375 0.2586929781 -2.74902e-05 0.0001024976 -6.02727e-05 4.72219e-05 0.1233344662 0.0126259529
165299010.0 -0.8048657714 0.2673934855 0.0001759536 3.73255e-05 0.0001318886 -7.1916e-06 0.1239725859 0.0095683094
170298980.0 -0.8019600437 0.2761824327 -0.0001203996 5.40857e-05 -0.0001851276 0.0001105438 0.124231467 0.0066502696
175298950.0 -0.7992128916 0.2847021183 7.24658e-05 5.91831e-05 9.45185e-05 0.0002138213 0.1246032142 0.0039937069
180298920.0 -0.7957337421 0.2932858593 -6.3105e-06 0.0002706322 -7.17032e-05 0.0001656148 0.1249830969 0.0005516734
185298890.0 -0.7930311942 0.3022967596 8.29056e-05 0.0004109498 -3.13312e-05 0.0001945185 0.1253793659 -0.0024629467
190298860.0 -0.7894477364 0.3108497343 -0.0001905625 3.98175e-05 4.11202e-05 0.0001568503 0.1252704508 -0.0049984693
195298830.0 -0.7864545312 0.3190606084 6.63895e-05 0.0002296628 0.0002888648 5.78021e-05 0.1248274806 -0.0075147412
200298800.0 -0.7831584388 0.3278726948 0.0002106304 8.88712e-05 5.5655e-05 0.0001035853 0.1247879199 -0.0101961474
205298770.0 -0.779297796 0.336498941 0.0001246356 9.36337e-05 -1.20385e-05 8.52385e-05 0.124655044 -0.0130358309
210298740.0 -0.7763021295 0.3449170997 0.0001274718 0.0002054319 0.0001637018 0.0001374868 0.1242405179 -0.0154146597
215298710.0 -0.7725318486 0.3531308084 0.0002651154 0.0001001639 3.98664e-05 6.74257e-05 0.1241744091 -0.0181392557
220298680.0 -0.7691961075 0.3606536032 0.0001511728 0.0001352204 0.0002698641 0.0001406178 0.1238318603 -0.0199374808
225298650.0 -0.7648875409 0.3693290385 0.0002969939 0.0002423399 7.31299e-05 5.4863e-06 0.1231575485 -0.0228011604
230298620.0 -0.7612033389 0.3776849835 3.43291e-05 0.0001369616 0.0001029542 0.0003397504 0.1230473463 -0.0249098365
235298590.0 -0.7571871473 0.385741661 0.0001989826 0.0001118619 0.0002313896 7.48202e-05 0.122486908 -0.026992483
240298560.0 -0.7525229832 0.3934306049 0.0003976402 2.49706e-05 0.0001232138 2.72388e-05 0.1220720639 -0.0293916065
245298530.0 -0.7493278655 0.4017591745 -1.8756e-06 0.0003150725 0.0002287187 9.1992e-05 0.1214500197 -0.0316049904
250298500.0 -0.7445959512 0.4096578388 0.0002296667 7.08792e-05 0.0001248557 0.0002388339 0.1205858221 -0.0336889953
255298470.0 -0.7407448267 0.4174587062 0.0001268303 7.00402e-05 3.6806e-06 0.0001248522 0.1200937873 -0.0357033511
260298440.0 -0.7369977519 0.4254152753 7.6015e-06 -1.31968e-05 0.0001831343 0.0002308344 0.1190217744 -0.0377583241
265298410.0 -0.7320857164 0.4326177978 4.20079e-05 0.0001391135 0.0001097184 6.2185e-05 0.1190552118 -0.0398937371
270298380.0 -0.7271756479 0.4403732913 0.0002179725 0.0002470813 0.0001490342 0.0001068664 0.1179936075 -0.0419267207
275298350.0 -0.7235672574 0.4481262277 0.0001339541 9.47038e-05 -3.04828e-05 0.0002856762 0.1173064807 -0.0436891264
280298320.0 -0.718173572 0.4558151119 0.0001661263 0.0002167253 0.0001124494 0.0001001366 0.1164480053 -0.0455203023
285298290.0 -0.7137069215 0.4634484684 0.000199203 0.0001433971 0.000159527 0.0002718842 0.1157845088 -0.0471932838
290298260.0 -0.7087596722 0.4707318889 9.67965e-05 0.0002539753 0.0001098977 0.0001131885 0.1146931926 -0.0492608784
295298230.0 -0.7039594878 0.4787238661 0.0001807646 8.17007e-05 0.0001333759 0.0002898351 0.1139857673 -0.0508392309
300298200.0 -0.6995375973 0.4858831808 6.11948e-05 0.0001971348 5.14088e-05 0.0001687176 0.1135409276 -0.052624345
305298170.0 -0.6945315445 0.4926974793 -1.98763e-05 0.0002025277 9.50631e-05 0.0001837139 0.1125884711 -0.0545993722
310298140.0 -0.6892185835 0.49980575 3.05667e-05 0.0001482522 0.0001976467 0.0001522598 0.1116834049 -0.0561395087
315298110.0 -0.6846272494 0.5071653369 0.0002729742 -6.98729e-05 0.0003260498 -1.57107e-05 0.110619539 -0.0579980364
320298080.0 -0.6789427066 0.5141402654 0.0004208661 0.000175087 0.0001126689 0.0001314442 0.109498606 -0.059597975
325298050.0 -0.6735679962 0.5208532679 0.0001375293 0.0002702999 0.0001899789 0.000100482 0.1089030395 -0.0617192066
330298020.0 -0.6687904066 0.5278323474 4.78823e-05 -0.0001790366 0.0001987985 3.62058e-05 0.1072110118 -0.0637277712
335297990.0 -0.6632336602 0.5342883659 0.0001742716 -0.0001047731 0.0003705472 0.0001702264 0.1063255707 -0.0651874024
340297960.0 -0.6579518503 0.5418211647 0.0001592017 5.79123e-05 0.0001420354 -5.91592e-05 0.1052086209 -0.0662229188
345297930.0 -0.6522088725 0.5483683873 4.70198e-05 8.17274e-05 0.0002162271 0.0001050677 0.1036989221 -0.067916326
350297900.0 -0.6462959861 0.5544981585 0.0002457055 0.0001414082 0.0001952209 6.94595e-05 0.102349929 -0.0694069792
355297870.0 -0.6409666827 0.5613779679 6.37736e-05 0.0001849646 0.0001643243 6.41714e-05 0.1011344319 -0.0705043957
360297840.0 -0.6351741948 0.5683039097 0.0003440967 9.1789e-06 0.0002551057 0.000163752 0.1000712229 -0.0717186164
365297810.0 -0.6296029532 0.574722712 0.0001017652 -8.80101e-05 0.0001391677 5.0402e-05 0.0985534192 -0.0731287186
370297780.0 -0.6236897469 0.5801638562 5.23091e-05 1.53628e-05 0.0001716588 0.000102463 0.097339318 -0.0744390234
375297750.0 -0.617890401 0.5866102193 8.11539e-05 0.0003820534 7.37731e-05 7.33856e-05 0.0962057615 -0.0755051585
380297720.0 -0.6121772753 0.5940193755 0.0002647439 -2.97668e-05 0.0002677959 0.0001590877 0.0953870149 -0.0765565307
385297690.0 -0.6064986462 0.5992119274 0.0001194543 0.000200858 0.0002758281 0.0001893005 0.0940227534 -0.0778670813
390297660.0 -0.5988236115 0.6055088078 0.0002395121 -3.22917e-05 0.0001307798 0.0002200784 0.092548074 -0.0790151421
395297630.0 -0.5933681083 0.6116557213 0.0003090745 8.29726e-05 0.0001728619 0.0001321196 0.0913809794 -0.0804064031
400297600.0 -0.5869406405 0.6181323311 -8.8496e-05 7.56744e-05 0.000467028 0.0004545799 0.0903175213 -0.0811431877
405297570.0 -0.5804344233 0.6229524947 0.0003210075 0.0001737477 0.0001721659 0.0001388636 0.0893699438 -0.0826288829
410297540.0 -0.5737867479 0.6300995269 0.0003258788 0.000118021 0.0002520357 0.0001020599 0.0875056192 -0.0832657526
415297510.0 -0.5680312568 0.6355123704 0.0001365434 0.0001383843 7.89132e-05 8.75583e-05 0.0865007542 -0.0846082317
420297480.0 -0.5609104247 0.6414868863 0.0002122614 0.0001586291 0.0001465317 0.0001364244 0.0854258495 -0.0853878944
425297450.0 -0.5552383926 0.6459459612 0.0002661267 4.92875e-05 0.0001367758 4.84382e-05 0.0838231271 -0.0868800696
430297420.0 -0.5481566124 0.6519895984 1.74637e-05 -5.33796e-05 0.0001741238 0.000137238 0.0826115617 -0.087631985
435297390.0 -0.5413922925 0.6574615342 0.0002923126 1.17368e-05 0.000128321 0.0001835654 0.0811425175 -0.0884895669
440297360.0 -0.5343856924 0.6623984406 0.0004782592 -7.08049e-05 0.0002815432 0.0002431811 0.0799563607 -0.0892283574
445297330.0 -0.5273869753 0.6682284337 0.0003887252 6.63218e-05 0.0002064087 0.0001660159 0.0789010007 -0.0900723304
450297300.0 -0.5202823548 0.6738141821 0.0001081604 3.63592e-05 0.00048067 0.0001022639 0.0775265596 -0.0910878772
455297270.0 -0.5136780317 0.6785000808 0.0003549997 0.0002735306 0.00030997 0.0002385529 0.0762192822 -0.0922460638
460297240.0 -0.5059420359 0.6841415908 0.0001437662 0.0002172622 0.0001432878 0.0003643476 0.074784483 -0.093074344
465297210.0 -0.4993837938 0.6889774402 0.0002409055 0.0002376234 3.60474e-05 4.67134e-05 0.0734448286 -0.0937401868
470297180.0 -0.4922034158 0.6940776879 0.0002254428 0.0002286888 0.0003212787 0.0001292934 0.0717974956 -0.0946293842
475297150.0 -0.4850231345 0.6987866449 0.0002113704 5.59764e-05 0.0002768365 9.94241e-05 0.0707262974 -0.0953835653
480297120.0 -0.4774730155 0.7039177969 0.0001155031 0.0001870253 0.0004772668 1.18023e-05 0.0691078353 -0.0959909676
485297090.0 -0.470236196 0.7084305226 0.0001204431 8.47747e-05 0.0002034158 0.0002964795 0.0679799047 -0.0968035801
490297060.0 -0.462296693 0.7138262163 0.0002515669 0.0002928422 9.89031e-05 -4.18824e-05 0.0665306178 -0.09765662
495297030.0 -0.4551266831 0.7183861145 0.0001793575 0.0001653752 0.0002532955 0.0001894 0.0652255788 -0.0981877489
500297000.0 -0.4475336782 0.7224089278 0.000380634 0.0002054768 0.0002124113 0.0002404793 0.0639289767 -0.099133372
505296970.0 -0.4393927928 0.7272690332 0.0002505553 0.0001290027 0.0003815788 0.0002495626 0.0621922457 -0.0997807896
510296940.0 -0.4322672474 0.7312436595 0.0002608958 0.0003627061 0.0003787484 0.0001060741 0.0611201268 -0.1001501658
515296910.0 -0.4249332455 0.7356689271 0.0005281185 1.5085e-06 0.0001327461 4.6418e-05 0.059685729 -0.1009782624
520296880.0 -0.416351008 0.7397930317 0.0001973986 0.0002778629 0.0003203255 0.0003041759 0.0585998722 -0.1015821202
525296850.0 -0.4087096592 0.7441127913 0.0001473148 -0.0001725824 0.0003986843 0.000156455 0.0567828036 -0.1022072304
530296820.0 -0.401446916 0.7478217952 0.0003248938 0.000228689 0.0002885769 0.0003086614 0.0553881792 -0.1025886414
535296790.0 -0.3927263929 0.7520189742 0.000218755 -0.0002195754 0.0003434584 5.97378e-05 0.0543851307 -0.1031167665
540296760.0 -0.3850783208 0.756015091 0.00022788 -7.02937e-05 0.0002641784 8.57736e-05 0.0523568447 -0.1039221522
545296730.0 -0.3776788996 0.7599596849 0.0002296595 8.39429e-05 0.0003600073 3.62791e-05 0.0511477598 -0.1040500997
550296700.0 -0.3694053266 0.7636765045 0.0004203813 0.000245893 0.0002985601 0.0002038619 0.0498344014 -0.1047960419
555296670.0 -0.3619526579 0.7674981921 0.0001521566 0.0001902157 0.0003949964 3.0763e-06 0.0479883333 -0.1055353355
560296640.0 -0.3535706809 0.7705876049 0.0004868714 -2.34036e-05 0.0001375556 -6.735e-07 0.0466515594 -0.1056502465
565296610.0 -0.3460089166 0.7741940518 0.0003728421 9.02503e-05 0.0002666144 -0.0001463263 0.0453791973 -0.1058533918
570296580.0 -0.3372658646 0.7777652774 0.000342757 7.24211e-05 0.0001965498 0.0001016958 0.0440566365 -0.1063973984
575296550.0 -0.328252327 0.7814347439 0.000101095 0.0001370661 0.0003270526 0.0001360087 0.0426538261 -0.1068525041
580296520.0 -0.3214746723 0.7844117636 0.0003479896 0.0001665216 0.0003637404 -7.68588e-05 0.0410244052 -0.1072067181
585296490.0 -0.3123476391 0.7878891002 0.0003342935 0.0002048295 0.0004307068 6.74727e-05 0.0398800581 -0.1071870973
590296460.0 -0.3042100638 0.7910356018 0.0003866688 -7.25171e-05 0.0004063772 -5.63218e-05 0.0380073669 -0.1076993338
595296430.0 -0.2963620453 0.7938381587 0.0003650362 -2.87247e-05 0.0004196574 0.0001148365 0.0366695778 -0.1082035908
600296400.0 -0.2880967318 0.7963851441 0.0004273072 0.0001509288 0.0004109631 0.0003559666 0.0352785844 -0.1081475032
605296370.0 -0.2802217139 0.7995238105 0.0004109658 -4.12511e-05 0.0002852662 0.0001306421 0.0341468314 -0.108521354
610296340.0 -0.2715511555 0.8030402879 0.0005869135 -2.02894e-05 0.0003609629 0.0001840022 0.0322023692 -0.1085130509
615296310.0 -0.2627772371 0.8055647483 0.0004230656 0.0001187942 0.0003232649 -3.0851e-06 0.0309447947 -0.1087949772
620296280.0 -0.2553841066 0.8086519081 0.0004045839 -3.6433e-06 0.0004421755 8.79027e-05 0.029483493 -0.1089746151
625296250.0 -0.2474551896 0.8101407657 0.000384069 -0.0001262931 0.0001992063 -0.0001634222 0.0279274062 -0.1091091861
630296220.0 -0.2388190772 0.8128387826 0.0002396617 -9.0857e-05 0.0003666757 0.0001565811 0.0265737197 -0.1093995069
635296190.0 -0.2306034057 0.8159585037 0.0003768223 -9.01371e-05 0.0001045061 -7.91649e-05 0.0249601911 -0.1093756709
640296160.0 -0.2217716545 0.8176601663 0.000522147 0.000381823 0.0005486013 -0.0001187403 0.0234325261 -0.1096860759
645296130.0 -0.2141330073 0.8207847579 0.0004948846 -0.0002618314 0.0004875559 -0.0001073541 0.0219635846 -0.1099244735
650296100.0 -0.2057884174 0.8226147353 0.0003104377 -1.94157e-05 0.0003199852 -0.0002597819 0.0206676816 -0.1098910311
655296070.0 -0.1978021096 0.8244847485 0.000373324 -3.04319e-05 0.000166164 -7.3743e-06 0.0188009754 -0.1097510727
660296040.0 -0.1890730273 0.8262220213 0.0004518267 -0.0001812273 0.0003647956 -3.913e-07 0.0178598439 -0.1099136124
665296010.0 -0.180641737 0.8283883683 0.0002147652 1.88899e-05 0.0002554721 7.23847e-05 0.0164523441 -0.1099921319
670295980.0 -0.1724812253 0.8309963947 0.0002943995 8.89567e-05 0.0002826219 1.72929e-05 0.0146432261 -0.1099216973
675295950.0 -0.1640851683 0.8321270282 0.000392498 -0.0001801287 0.0001496755 1.4907e-06 0.013394005 -0.1099290233
680295920.0 -0.1567864262 0.8336628747 0.0005217152 0.0001684747 0.0001312147 -4.71628e-05 0.0118144261 -0.1100276806
685295890.0 -0.1478661125 0.8361137276 0.0003427704 -3.18388e-05 0.0002727931 -0.0002774836 0.0107235775 -0.1095051406
690295860.0 -0.1390427765 0.8368622788 0.0005574507 0.0002434228 0.0003216019 3.48761e-05 0.0092301771 -0.1095563246
695295830.0 -0.1309011047 0.838553107 0.0004721068 -8.37406e-05 0.0005147936 -5.22423e-05 0.0075892519 -0.1095234966
700295800.0 -0.1230366344 0.8399955899 0.0002346968 -0.0002090557 0.0003409691 3.35553e-05 0.0062953834 -0.1095269814
705295770.0 -0.1149883163 0.8414211607 0.0004591298 -0.0001587685 0.0002747243 0.0001409701 0.0046053729 -0.1090985574
710295740.0 -0.1070011605 0.8423069758 0.0001867539 -0.0001771295 0.0004892138 -0.000139026 0.0037643808 -0.1089565247
715295710.0 -0.0978439131 0.843902121 0.0003911825 2.4841e-06 0.0005925798 -8.7116e-05 0.0021871731 -0.1091519721
720295680.0 -0.0892620671 0.844486199 0.0002729119 -0.0003476492 0.0003739362 -0.0001277137 0.0004684184 -0.108991589
725295650.0 -0.081562276 0.8460018692 0.0004411425 0.000187918 0.0003586199 -0.0001503186 -0.0008046875 -0.1083623824
730295620.0 -0.0736894419 0.8470975252 0.0004427976 4.25625e-05 0.0003262443 9.70807e-05 -0.0024513351 -0.1080666358
735295590.0 -0.0658519553 0.8476208161 0.0004414188 7.02089e-05 0.0004203515 3.9033e-06 -0.0035044407 -0.108233417
740295560.0 -0.0577413854 0.8479477735 0.0004154567 -0.0001196696 0.0003638895 -0.000181394 -0.0048301157 -0.1076010357
745295530.0 -0.0488212507 0.8487916272 0.0002771973 -5.8009e-06 0.0002140754 1.46089e-05 -0.0064127937 -0.1073511738
750295500.0 -0.0405430307 0.8493818517 0.0005038547 -5.70152e-05 0.0004636334 -0.0001394409 -0.007907814 -0.1071503903
755295470.0 -0.0328453565 0.8495764658 0.0006653659 -7.34841e-05 0.0003993911 4.002e-05 -0.0092933681 -0.106551055
760295440.0 -0.0241504128 0.8511443015 0.0002438907 -0.0001134171 0.0003048966 -4.34201e-05 -0.0104703546 -0.106581088
765295410.0 -0.0164471789 0.8509186055 0.000234954 -4.41149e-05 0.0002748142 -0.0002072787 -0.0118021197 -0.1061056029
770295380.0 -0.0086199205 0.8513628618 0.0002955854 -0.0002209354 0.0004444857 -3.99801e-05 -0.0135144768 -0.105812326
775295350.0 -5.4447e-05 0.8512791317 0.000525121 7.93129e-05 0.0005219891 -7.37389e-05 -0.0146957772 -0.1055570318
780295320.0 0.0086450692 0.8513521632 0.0002911072 -0.0001439734 0.0003900872 -9.47193e-05 -0.0160417522 -0.1049678107
785295290.0 0.0163154033 0.8509387224 0.0002708216 -0.0001984304 0.0004872162 -5.36531e-05 -0.0176350375 -0.1044617541
790295260.0 0.0248285721 0.8507839043 0.0003152471 -6.36243e-05 0.0004854683 1.15531e-05 -0.0187143859 -0.1039261937
795295230.0 0.0326950691 0.8508524154 0.0003740878 -9.1841e-05 0.0003535462 -0.0002790195 -0.0201668742 -0.1040882353
800295200.0 0.040882871 0.8505981175 0.0004688795 -5.23437e-05 0.0004513972 4.37745e-05 -0.0215659084 -0.1030632616
805295170.0 0.0488782658 0.8507649345 0.0004879982 -0.0001380285 0.000367277 -3.96132e-05 -0.0226954231 -0.1029578269
810295140.0 0.0577785431 0.8510960969 0.0003641274 -0.0002761261 0.0005346473 -6.19731e-05 -0.0240500385 -0.1021148584
815295110.0 0.0653731748 0.8497724053 0.0005006403 -3.47103e-05 0.0003725192 -0.0001779258 -0.0256113417 -0.1016178124
820295080.0 0.0736680317 0.8492792977 0.0003871668 -9.36606e-05 0.000388098 3.67583e-05 -0.0271426833 -0.100954755
825295050.0 0.0814028323 0.8485340424 0.0004463971 5.9557e-06 0.0003331336 -0.0001147415 -0.027689763 -0.1005279763
830295020.0 0.0907059874 0.8481235363 0.0002953225 -1.08911e-05 0.0003476896 -0.0002833862 -0.0292599623 -0.1000267548
835294990.0 0.0978368676 0.8469785401 0.0003174332 -0.0001703663 0.0005049255 -9.3691e-06 -0.0308240314 -0.0993004178
840294960.0 0.1067276773 0.8452475133 0.0005412521 -0.0002189879 0.0005831712 -0.0001982614 -0.0316313247 -0.0988183923
845294930.0 0.1146466023 0.8443544803 0.0006136827 -4.29374e-05 0.0003449078 -5.04844e-05 -0.0332604907 -0.0979628135
