!Created with skrf (http://scikit-rf.org).
# Hz S RI R 50.0 
!freq ReS11 ImS11 ReS21 ImS21 ReS12 ImS12 ReS22 ImS22
300000.0 0.8601007337 -0.0008611032 -0.0008902106 0.0008035925 -9.17916e-05 0.0007661159 -0.7662734188 -0.1934451792
5299970.0 0.8596100349 -0.0099622552 -0.0001631956 -5.07613e-05 0.0002613691 -0.000168457 -0.7853464199 -0.0096643988
10299940.0 0.8579569424 -0.0191058038 0.0002441393 0.0002017158 0.000119453 -5.97927e-05 -0.7874447515 -0.0055036966
15299910.0 0.8576916643 -0.0275236023 -0.0003080523 -0.0001373934 -4.60679e-05 8.09289e-05 -0.7931220323 -0.0023385521
20299880.0 0.8570212775 -0.035807833 0.0001590673 0.0001018216 9.90829e-05 0.0001841605 -0.7995445275 0.0017508035
25299850.0 0.8558216947 -0.0439355732 -7.7742e-05 -4.2123e-06 0.0001986984 -4.5251e-05 -0.8061336283 0.0077309426
30299820.0 0.8556689775 -0.0519198234 4.79773e-05 -3.55384e-05 0.0002322008 -4.76609e-05 -0.8118421567 0.0157947776
35299790.0 0.854837121 -0.0600786702 -0.0001260673 0.0001822904 -8.85815e-05 0.0001873809 -0.8169902402 0.0248109317
40299760.0 0.8543489915 -0.0682168729 -9.375e-05 1.2661e-06 -0.0001295072 -0.0001020887 -0.8211980187 0.0339295243
45299730.0 0.8534191715 -0.0765322813 -3.60879e-05 0.000117404 -0.0001148681 1.59888e-05 -0.824232128 0.0435039167
50299700.0 0.8525313584 -0.0842319268 0.0001007348 -0.0001893017 0.0001246754 4.79145e-05 -0.8266266975 0.0543254868
55299670.0 0.8521667587 -0.0929533533 6.15526e-05 0.00013013 -7.24971e-05 1.49387e-05 -0.8286976856 0.0631701993
60299640.0 0.8506637913 -0.1015161385 0.0001485842 0.0001211091 5.27766e-05 -1.4035e-06 -0.8298909513 0.0738933886
65299610.0 0.8497754989 -0.1093679074 -0.0002321571 -8.0321e-06 -3.83275e-05 -1.66973e-05 -0.8303181946 0.083735053
70299580.0 0.8488327889 -0.1173946275 -0.0001019328 1.897e-07 -0.0001008105 5.82066e-05 -0.8305884699 0.09365364
75299550.0 0.8478227566 -0.1254055004 -6.82528e-05 -3.09589e-05 -0.000300369 -1.78952e-05 -0.8309611159 0.1038674561
80299520.0 0.8461313558 -0.1333407167 0.0001109277 2.884e-05 9.36407e-05 -0.0001854052 -0.8309640224 0.1131847207
85299490.0 0.8447906976 -0.1415117701 -7.9267e-06 -8.64885e-05 5.34818e-05 -0.0001593942 -0.8300335356 0.1232382499
90299460.0 0.8441287064 -0.1499920249 -9.42044e-05 5.39546e-05 7.01462e-05 -8.67544e-05 -0.8288798283 0.1327494893
95299430.0 0.8424972115 -0.1582487745 0.0001272798 0.0001135191 -0.0001175119 0.0001099794 -0.8279717406 0.1427490242
100299400.0 0.840419853 -0.1667699429 -2.74329e-05 -0.0001319663 0.0003143104 -9.4151e-06 -0.8275314428 0.151807439
105299370.0 0.8388860592 -0.1746758958 0.0001536898 -0.0002218452 2.27958e-05 -0.0001025481 -0.8258113465 0.1609577817
110299340.0 0.8371906339 -0.1828227077 -0.0001891668 -0.0001143002 2.1918e-06 -0.0001786988 -0.8244466419 0.1699246023
115299310.0 0.8354614473 -0.1906150316 -6.94755e-05 2.45343e-05 0.0001986415 -1.98258e-05 -0.8236307838 0.1793055985
120299280.0 0.8337407892 -0.1987913023 -0.0001162311 7.75334e-05 -0.0002117976 -1.19186e-05 -0.8210674906 0.1876820326
125299250.0 0.8318168221 -0.2065140716 -0.0002218954 0.0001126541 -0.0001244831 -6.61514e-05 -0.8195164372 0.1970994705
130299220.0 0.8295946657 -0.2146269474 -1.60798e-05 0.0001993019 -0.0001181524 5.55479e-05 -0.8177541782 0.2056385565
135299190.0 0.8279203933 -0.2232861824 1.0516e-05 -4.31903e-05 6.89466e-05 6.60031e-05 -0.8158379167 0.214842032
140299160.0 0.8257519545 -0.229933144 0.0001145373 -9.35342e-05 6.93206e-05 7.01911e-05 -0.8141498485 0.2236651384
145299130.0 0.8233667768 -0.2384492412 -7.56356e-05 -0.0001308395 -0.0001903991 2.54529e-05 -0.8120965 0.2327581915
150299100.0 0.8207446668 -0.2458417278 0.0001248875 5.853e-07 8.5634e-05 4.88272e-05 -0.809526828 0.2411693119
155299070.0 0.8184959955 -0.2541621946 8.27574e-05 -8.78602e-05 0.0001211587 1.43063e-05 -0.8068646182 0.2505101333
160299040.0 0.8157164069 -0.2618938067 -0.0002005396 8.68141e-05 -0.0002267352 5.6358e-05 -0.8043995194 0.2585878738
165299010.0 0.8135667254 -0.2694723241 0.0002606081 -4.47309e-05 -0.0001514788 3.33114e-05 -0.8019372839 0.2668327844
170298980.0 0.8114853602 -0.2778724612 1.01478e-05 -0.0002306544 0.0002128348 1.96174e-05 -0.799984331 0.275778214
175298950.0 0.8082333921 -0.285401398 -0.0002387478 0.0001138806 -2.78363e-05 0.0001125809 -0.7969625521 0.2849962531
180298920.0 0.8058363618 -0.2927441634 6.20092e-05 -2.98352e-05 0.0001093314 1.25246e-05 -0.7930981904 0.2931500237
185298890.0 0.802662352 -0.3009580959 6.43628e-05 0.000152219 0.0001840601 6.81682e-05 -0.7902105851 0.3017027174
190298860.0 0.7992636756 -0.3088635165 2.49559e-05 0.0002432806 0.0001256295 -1.72707e-05 -0.7875300107 0.3100084294
195298830.0 0.7974230262 -0.3160025808 0.0001587368 -0.0002267775 3.73261e-05 -5.61129e-05 -0.7841719746 0.3179966904
200298800.0 0.7933988345 -0.3233107134 9.80203e-05 0.0002324739 -1.86088e-05 6.72301e-05 -0.7806118596 0.3262150495
205298770.0 0.7906077937 -0.3316186884 0.0001531578 0.0001320051 0.0001293882 3.24816e-05 -0.7774842864 0.3348735212
210298740.0 0.7878111474 -0.3387711529 5.45545e-05 0.0001537375 0.0001117438 -8.80841e-05 -0.7743248998 0.3431151979
215298710.0 0.7844173813 -0.3469375291 0.0001229055 -0.0001294921 -4.81649e-05 -6.93873e-05 -0.7704344611 0.3508682798
220298680.0 0.781350973 -0.3535662085 0.0002316933 -0.0002829288 9.6387e-06 -2.16386e-05 -0.766585743 0.3596876418
225298650.0 0.7772610367 -0.3615511625 5.76824e-05 -0.0001675292 -0.0001058878 -6.72262e-05 -0.7635881729 0.3682073216
230298620.0 0.7736056902 -0.3687028247 0.0001935729 0.0001901693 -7.16979e-05 -0.0001231879 -0.7592196554 0.3752069173
235298590.0 0.7704083576 -0.3766437527 -0.0001887997 0.0001423935 9.54853e-05 -0.0001695914 -0.755219625 0.3830146652
240298560.0 0.7663657731 -0.3838646118 -5.66727e-05 0.0002000587 4.62685e-05 1.72656e-05 -0.7509545844 0.390480893
245298530.0 0.7627443619 -0.3910576105 -0.0001213074 0.0002227258 0.0001132979 9.2354e-06 -0.7470446805 0.399321677
250298500.0 0.7589852731 -0.3985988958 1.54516e-05 -0.0001500035 -0.0001032714 5.42213e-05 -0.7426242578 0.4069231931
255298470.0 0.7547830961 -0.4049906055 -0.0002855864 7.91e-08 -6.85381e-05 -4.5048e-05 -0.7385442232 0.4144981764
260298440.0 0.7511741518 -0.413084828 -0.0001229128 9.13912e-05 0.0002174454 -1.10469e-05 -0.7343637996 0.4223755557
265298410.0 0.7463665279 -0.4204926292 -5.40332e-05 -7.1769e-05 -5.25812e-05 -0.0001948023 -0.7304081048 0.4301236078
270298380.0 0.7438792363 -0.4266140929 -0.0001065012 2.94499e-05 -0.0001366251 -8.76296e-05 -0.725440451 0.4376869432
275298350.0 0.738657738 -0.4335789249 -0.0002788877 -3.86094e-05 -0.0001948738 -5.14987e-05 -0.7208717217 0.4454089428
280298320.0 0.7344612848 -0.4412639929 0.0001552253 7.98116e-05 1.2305e-05 3.80697e-05 -0.7164227856 0.4528338201
285298290.0 0.730719438 -0.4484791584 0.0001956591 -0.0002839042 -5.89064e-05 -0.0001384905 -0.7115647872 0.4609498215
290298260.0 0.7259950125 -0.4554892806 0.0001850671 7.97203e-05 0.0001889857 1.43033e-05 -0.7061853644 0.467197464
295298230.0 0.7220669349 -0.4619189887 2.34513e-05 -0.0001892838 -4.18738e-05 7.2655e-06 -0.7016094265 0.4750353158
300298200.0 0.7180298173 -0.4692000913 0.0001315669 -0.0001317875 -3.0966e-05 -9.8e-09 -0.6965968787 0.4820764725
305298170.0 0.7137031289 -0.4773961822 -0.0001378697 4.78514e-05 0.0001542063 -0.0001111924 -0.6916272057 0.489089124
310298140.0 0.70914996 -0.484835043 -1.7813e-06 -0.0002845985 9.45997e-05 -7.33625e-05 -0.6866206175 0.497593918
315298110.0 0.7040831709 -0.4917416765 1.29739e-05 1.8132e-06 -1.65525e-05 -7.42074e-05 -0.6812073871 0.5038057722
320298080.0 0.6981065609 -0.4994582811 -0.0002064058 -6.8156e-06 -6.02658e-05 0.0001342091 -0.6761788378 0.5108264427
325298050.0 0.6927873927 -0.5063000059 -0.0001730447 -3.9803e-06 -3.62371e-05 1.44802e-05 -0.6701532383 0.5174361875
330298020.0 0.6869334543 -0.5130524489 5.74934e-05 1.27463e-05 4.92914e-05 -5.99702e-05 -0.6644578116 0.5243165922
335297990.0 0.680643482 -0.5186972038 5.72953e-05 -0.0001149559 0.0002281645 -9.17379e-05 -0.6595219837 0.5319852823
340297960.0 0.6753176943 -0.5253981437 -4.76991e-05 -1.14607e-05 0.0001683231 0.0001812827 -0.654176648 0.5382478766
345297930.0 0.6705643302 -0.5322374044 2.68291e-05 0.000110863 9.98643e-05 -0.0001466966 -0.6490821681 0.5448154014
350297900.0 0.66506043 -0.5378671732 -0.0001090859 4.17965e-05 -3.72147e-05 8.85127e-05 -0.6433221765 0.5513651401
355297870.0 0.6599756153 -0.5446320141 -2.05196e-05 -1.65062e-05 -5.66948e-05 6.23056e-05 -0.6369845761 0.5590024498
360297840.0 0.6539728944 -0.5510070497 -5.57846e-05 -8.5951e-06 0.0001123621 1.1907e-05 -0.6304396525 0.565203431
365297810.0 0.6485621974 -0.5568940427 8.8884e-06 7.47964e-05 -5.93804e-05 5.59713e-05 -0.6255947358 0.5708033345
370297780.0 0.6432211137 -0.5632882932 9.16572e-05 -4.0911e-05 -0.0001740098 0.000255265 -0.619875962 0.5779122419
375297750.0 0.6381153363 -0.5687650484 1.4277e-06 -0.0001362984 -6.38226e-05 5.05896e-05 -0.6131444012 0.5838871228
380297720.0 0.6314354247 -0.574525348 -7.24426e-05 2.30725e-05 5.83518e-05 8.22489e-05 -0.6067909711 0.5903248267
385297690.0 0.6267923954 -0.5808719256 0.0001160925 1.11139e-05 -1.21114e-05 -4.15435e-05 -0.60149648 0.596601071
390297660.0 0.6211003147 -0.5875471852 -1.35616e-05 7.66431e-05 6.8724e-06 -2.44931e-05 -0.5946778543 0.602172396
395297630.0 0.614901792 -0.5921863013 1.45199e-05 0.0001014163 6.5704e-05 1.97422e-05 -0.5878193568 0.6073917515
400297600.0 0.6084097732 -0.5984472615 7.45306e-05 0.0001441969 -0.0001525524 -1.31253e-05 -0.5827035254 0.6144220081
405297570.0 0.603490496 -0.6046065327 -3.0724e-06 0.0001274148 0.0001409363 0.000148567 -0.5756052003 0.6196206415
410297540.0 0.5979991768 -0.6098182122 -1.67206e-05 2.45645e-05 9.30409e-05 6.92004e-05 -0.5696326302 0.6258763408
415297510.0 0.5914592786 -0.6158253282 -0.0001439515 -1.05896e-05 -8.60214e-05 -6.1412e-06 -0.5631572071 0.6314336413
420297480.0 0.5856538981 -0.6219963306 -2.64628e-05 0.0001749245 -0.0001170684 0.0001008959 -0.5558203147 0.6376585291
425297450.0 0.5795793827 -0.627323463 0.0001223998 -7.9327e-06 0.0002537275 -3.05069e-05 -0.5497454324 0.6422973152
430297420.0 0.573360204 -0.6329179591 -0.0001316093 -0.0002428363 -6.15016e-05 9.5009e-06 -0.5430052332 0.6484371612
435297390.0 0.5671068759 -0.6384636282 5.26504e-05 0.0001241809 -5.63057e-05 -5.65974e-05 -0.5366465814 0.6540010197
440297360.0 0.5609799083 -0.6435977493 0.0001188495 -6.4631e-05 0.0001243487 -0.0001013672 -0.5299991523 0.6596777697
445297330.0 0.5550697254 -0.648883804 9.38804e-05 6.96435e-05 0.0002344498 2.6223e-06 -0.5228411704 0.6649713488
450297300.0 0.5490985826 -0.65502529 7.65856e-05 -8.04583e-05 -4.29544e-05 0.0001318875 -0.5160056495 0.6696465815
455297270.0 0.5424066521 -0.6596685787 -0.0001729964 5.57209e-05 0.0002134777 0.0001299642 -0.5088995099 0.6753630215
460297240.0 0.5357522776 -0.6648681843 0.0002848337 -0.0001540401 -0.0001797118 -0.0001270097 -0.5021300846 0.6799964746
465297210.0 0.5292061569 -0.6693681764 -0.0001007901 -0.0001199877 0.0001402208 2.64539e-05 -0.4951173509 0.6860426953
470297180.0 0.5231945456 -0.6755158309 -4.2693e-05 9.04974e-05 4.24359e-05 8.73925e-05 -0.4880853188 0.6902831737
475297150.0 0.5160448099 -0.6803590462 0.0001201591 -1.88212e-05 -2.90978e-05 5.96866e-05 -0.4808058276 0.6953355813
480297120.0 0.5097919715 -0.6848003915 8.85237e-05 0.000109253 -2.21758e-05 4.70351e-05 -0.474410685 0.6997729714
485297090.0 0.5032895603 -0.6900401358 0.0001795329 -0.0001428587 6.00553e-05 0.000157194 -0.4673772702 0.7045248862
490297060.0 0.4970506385 -0.6946771856 -0.0001457291 2.0967e-06 -0.000137805 -0.000145026 -0.4593553303 0.7088568939
495297030.0 0.4899796711 -0.6996843433 2.53551e-05 1.17153e-05 2.65695e-05 3.21847e-05 -0.4523550759 0.7133620666
500297000.0 0.4835247148 -0.7046179954 5.6536e-06 0.0001205078 4.4376e-05 -4.7508e-06 -0.4453832788 0.7187671064
505296970.0 0.4764389094 -0.7090405281 4.86567e-05 -0.0002151301 -4.31503e-05 1.33623e-05 -0.4378027446 0.7222660774
510296940.0 0.469685333 -0.7136805001 -0.0001394187 8.43048e-05 0.000107239 5.64479e-05 -0.4299621706 0.7273769454
515296910.0 0.4618356338 -0.7177361065 2.80529e-05 -4.28729e-05 -9.5119e-06 -6.50525e-05 -0.4227976474 0.73084977
520296880.0 0.4562865766 -0.7227857466 -2.98735e-05 -0.0001384192 0.0001414582 -0.0001634069 -0.4154146011 0.7360976131
525296850.0 0.449284457 -0.7268224634 7.14755e-05 -2.4876e-06 4.68464e-05 5.61136e-05 -0.408354772 0.7399162667
530296820.0 0.4417376044 -0.7318672002 8.02414e-05 3.96436e-05 4.97722e-05 6.53871e-05 -0.4005678026 0.743531829
535296790.0 0.4349941529 -0.7348105876 -4.78676e-05 0.0001003078 -0.0001476791 0.0001068017 -0.3933140687 0.7479689429
540296760.0 0.4284590474 -0.7391608793 2.37454e-05 0.0001241018 -0.0001346749 8.90101e-05 -0.3850634699 0.7515453008
545296730.0 0.4202895471 -0.7436171063 -6.79144e-05 9.6458e-05 -9.11603e-05 2.3712e-06 -0.3773944424 0.7555834854
550296700.0 0.4132526403 -0.7475646214 -5.57339e-05 2.24966e-05 -0.0001222334 -7.57765e-05 -0.3697500432 0.7589846168
555296670.0 0.4059037102 -0.7513231066 0.0001348023 0.0001045244 -3.8321e-05 -9.13258e-05 -0.3624838754 0.7625262856
560296640.0 0.3992064941 -0.7546028127 5.76351e-05 -6.02843e-05 -9.85625e-05 9.94348e-05 -0.3543944989 0.7666603548
565296610.0 0.3913379772 -0.7592151389 -7.08735e-05 0.000219979 0.0001164259 -8.56025e-05 -0.346829514 0.7702278858
570296580.0 0.3839733279 -0.7624046235 -5.3112e-05 0.0001154812 -0.0002081497 0.0001090204 -0.3391136885 0.7728430435
575296550.0 0.377084865 -0.7662774999 0.0001076194 -0.0001394651 0.0001784089 -5.5433e-06 -0.3308899895 0.7762235966
580296520.0 0.3692904689 -0.7695748775 -1.91765e-05 -0.0001937675 -0.0001357929 6.64368e-05 -0.3236422711 0.7795833687
585296490.0 0.3620363687 -0.7728610567 2.793e-06 -7.41952e-05 -0.0001188677 8.55946e-05 -0.3156366819 0.7834270291
590296460.0 0.3544446883 -0.7757414227 1.51471e-05 -5.11157e-05 2.38083e-05 0.0001921382 -0.3080109772 0.7860519229
595296430.0 0.346660193 -0.7800169205 9.02273e-05 4.3054e-05 0.0001275416 -0.0001743435 -0.2998264121 0.7888404257
600296400.0 0.3386793493 -0.783494459 -0.0001027946 -6.99205e-05 0.0002311106 6.93614e-05 -0.2921358527 0.7921905208
605296370.0 0.3307194314 -0.7867896089 -0.0001753848 3.73619e-05 -8.00354e-05 5.02858e-05 -0.2837766576 0.7952718472
610296340.0 0.3234334179 -0.7897817172 3.14375e-05 0.00011546 0.0001340689 -2.36616e-05 -0.27557204 0.798272247
615296310.0 0.3158837957 -0.7922415418 -8.34368e-05 1.5116e-06 -0.0002199393 2.6682e-06 -0.2672699342 0.8005870817
620296280.0 0.3081531234 -0.7948110261 -0.0001278964 5.5883e-05 0.0002103847 -1.84744e-05 -0.2599411562 0.8030118887
625296250.0 0.2993788551 -0.7974910639 9.34582e-05 3.37418e-05 4.35894e-05 -0.0003074531 -0.251447038 0.8053413061
630296220.0 0.2917228193 -0.8006330923 0.0001854761 5.9884e-06 -8.66601e-05 -0.0001057724 -0.2435098354 0.8082424993
635296190.0 0.2836133082 -0.8032862171 2.5388e-05 -4.91073e-05 -1.39283e-05 0.0001176303 -0.2357837504 0.8099924937
640296160.0 0.2760364978 -0.8058008256 -3.44278e-05 2.38335e-05 2.81919e-05 -9.69081e-05 -0.2270110445 0.812941483
645296130.0 0.2687802558 -0.8083285568 -8.11817e-05 -3.36961e-05 5.00668e-05 0.0001170306 -0.2188191295 0.8143495224
650296100.0 0.2603699638 -0.8104261605 3.83194e-05 -0.0001572068 -6.19856e-05 -0.0001633819 -0.2106321487 0.8165039572
655296070.0 0.2523839604 -0.8128832543 2.292e-06 -0.0001004873 -5.0899e-05 -3.19816e-05 -0.2027534232 0.8190589744
660296040.0 0.2437184461 -0.8148418346 3.4757e-05 1.69466e-05 7.11767e-05 2.69758e-05 -0.194178085 0.8210802083
665296010.0 0.2359822035 -0.8174945112 0.0001162504 6.42343e-05 -0.0001188382 -0.0001092316 -0.1864452677 0.8223674157
670295980.0 0.228033237 -0.8190597277 1.69462e-05 8.8671e-05 -0.000125173 -1.04025e-05 -0.1784242668 0.8241200385
675295950.0 0.2195375153 -0.8216062993 -0.0001596024 -0.0001371963 -4.06537e-05 7.82225e-05 -0.1695761231 0.8264004425
680295920.0 0.211232592 -0.8230541169 4.4875e-06 8.29792e-05 6.714e-06 -0.0001776843 -0.1610100229 0.8279187608
685295890.0 0.2035020958 -0.8248086522 -2.58572e-05 -3.77544e-05 0.0001823711 0.0001148314 -0.1533066472 0.8297899225
690295860.0 0.1949199583 -0.8267111937 3.42868e-05 0.0001180216 4.03246e-05 0.0001414717 -0.1452224891 0.8309678541
695295830.0 0.1867291929 -0.8283735342 9.77508e-05 -0.0001314186 3.18735e-05 7.96986e-05 -0.1366759264 0.8329280708
700295800.0 0.178023684 -0.8300042389 6.4354e-06 -5.72466e-05 -1.79603e-05 -0.0001254165 -0.1285349166 0.8334949619
705295770.0 0.1700933011 -0.8311085236 6.4008e-05 9.6386e-06 0.0001134819 -4.50612e-05 -0.1202737557 0.8357238577
710295740.0 0.1615181152 -0.8320639858 3.44947e-05 7.6894e-05 6.3895e-05 -0.0001394128 -0.111607664 0.8361401102
715295710.0 0.1536966144 -0.833150042 0.000147142 5.30385e-05 -6.23261e-05 1.98072e-05 -0.1032331686 0.8364930962
720295680.0 0.1453200832 -0.8346964452 -0.0001759038 2.21434e-05 -0.0001166212 6.2221e-06 -0.094312894 0.8378110574
725295650.0 0.1365330306 -0.8362038809 -4.87868e-05 1.77825e-05 -0.0001051799 -3.67413e-05 -0.0872401639 0.839154291
730295620.0 0.127970879 -0.8374926215 0.0001269527 -0.0002961271 -3.078e-06 -3.243e-06 -0.0786218795 0.8402454205
735295590.0 0.1198650886 -0.8384233433 -2.25216e-05 8.00789e-05 -4.17279e-05 6.52613e-05 -0.0695691521 0.8405243393
740295560.0 0.1116017905 -0.8396321068 -4.09617e-05 -0.0001683748 -2.02464e-05 -5.2202e-05 -0.0615003673 0.8416026962
745295530.0 0.1031495371 -0.8399657624 -3.96531e-05 6.51047e-05 7.31883e-05 -0.0001092729 -0.0534354786 0.8414032127
750295500.0 0.0943826109 -0.8408032841 -4.5975e-06 -3.1286e-05 4.62391e-05 -1.57181e-05 -0.044616927 0.8419796503
755295470.0 0.0866402678 -0.8407888754 -2.41164e-05 -1.01058e-05 1.95087e-05 1.49281e-05 -0.0362935651 0.8428643948
760295440.0 0.0784958925 -0.8411739517 -1.92512e-05 0.0001111695 1.9605e-05 1.02722e-05 -0.027985639 0.842706549
765295410.0 0.0701791212 -0.8419501123 -1.48212e-05 -5.35497e-05 0.0001334695 6.03446e-05 -0.0196104496 0.8431993098
770295380.0 0.0615457103 -0.8419526098 -0.0001066844 0.0001035958 2.11886e-05 -0.0002656463 -0.0114999811 0.8431693286
775295350.0 0.0529981106 -0.8422421503 -0.0001185084 4.99725e-05 4.68857e-05 -6.47349e-05 -0.0031728233 0.8428928752
780295320.0 0.0441084152 -0.8425005229 -0.0001739325 -5.12206e-05 3.06291e-05 -2.45599e-05 0.0060877024 0.8435398678
785295290.0 0.0362902875 -0.8431176469 6.72437e-05 -8.89901e-05 -6.85991e-05 4.56773e-05 0.0134888859 0.8433369282
790295260.0 0.0279421053 -0.843468492 0.0001600836 9.0298e-05 -6.13314e-05 -7.11145e-05 0.0219373123 0.843219023
795295230.0 0.0198285987 -0.8436602497 0.0001436842 1.8097e-06 1.37921e-05 6.69069e-05 0.0299878774 0.842388741
800295200.0 0.0111547059 -0.8433241997 -8.84682e-05 -0.0001887484 -0.0001576182 0.0002357864 0.0385354344 0.8422996924
805295170.0 0.0023934296 -0.8433405446 -0.0001650848 0.0001756622 -0.0001958529 -9.71207e-05 0.0477673225 0.8422305873
810295140.0 -0.0055852213 -0.8422609183 -9.5808e-05 -0.0002886538 -5.56561e-05 5.0354e-05 0.0558853345 0.8412902622
815295110.0 -0.0139537314 -0.8426363759 -0.000252347 6.198e-06 1.40026e-05 0.0001142867 0.0632293508 0.841281748
820295080.0 -0.022264467 -0.8425287935 -0.0001009906 0.0001712255 -4.7728e-05 0.0001162174 0.0716946386 0.8404864674
825295050.0 -0.031983165 -0.8419020015 0.0001850663 -0.0002402811 -4.04563e-05 -2.99737e-05 0.0804009038 0.8396031428
830295020.0 -0.0394577984 -0.8414278363 -4.17572e-05 4.569e-07 7.0867e-05 3.51672e-05 0.0881858408 0.8381129069
835294990.0 -0.0472673493 -0.8405759462 -0.0003080288 9.6775e-06 -4.64131e-05 6.0636e-05 0.0965243292 0.8384512955
840294960.0 -0.0553499419 -0.8400480432 0.0001100845 -2.41922e-05 -7.78261e-05 3.04202e-05 0.1056413482 0.8365337685
845294930.0 -0.0645311982 -0.838901204 0.0001471887 -7.81179e-05 4.59082e-05 1.77565e-05 0.1135383349 0.83534578
850294900.0 -0.0718731472 -0.8386465122 -0.0002726896 0.0001707225 -5.49494e-05 -5.15827e-05 0.1215873148 0.8346314357
