!Created with skrf (http://scikit-rf.org).
# Hz S RI R 50.0 
!freq ReS11 ImS11 ReS21 ImS21 ReS12 ImS12 ReS22 ImS22
300000.0 -0.7736598351 -0.1036655965 -0.0003148305 0.0009467186 0.0005801998 -0.0001802922 -0.0491062401 -0.0646070226
5299970.0 -0.7852530552 -0.0055590717 -7.74356e-05 6.91284e-05 -5.71669e-05 0.0002497805 -0.0497308379 0.0153503145
10299940.0 -0.7877928935 -0.0036084539 -5.56615e-05 -0.0001263801 7.6473e-05 -9.11733e-05 -0.0440690965 0.033648658
15299910.0 -0.7933655611 -0.0020593751 2.2518e-06 0.0001875297 -3.65823e-05 7.76771e-05 -0.0356893278 0.0481384717
20299880.0 -0.8001821761 0.0020931963 -2.77249e-05 0.0001765596 3.50723e-05 0.0002738186 -0.0251353133 0.0602499979
25299850.0 -0.8066229218 0.0079138361 -2.25864e-05 -2.80917e-05 -1.68348e-05 -0.000122573 -0.0141199099 0.0694779962
30299820.0 -0.8122412926 0.0153453896 0.0001237506 0.0002295317 1.44431e-05 2.5024e-05 -0.0021189579 0.0760929943
35299790.0 -0.8171083273 0.0243680458 -8.62581e-05 -2.5902e-06 -0.0001240533 0.0001789954 0.0093806131 0.0811444036
40299760.0 -0.821412374 0.034032085 5.59151e-05 0.0002016097 -5.2476e-06 -3.5926e-06 0.0206901034 0.0835314466
45299730.0 -0.8249284279 0.0429556722 0.0001597119 0.0001220503 -3.95007e-05 -9.06343e-05 0.0314375758 0.0850524668
50299700.0 -0.827283242 0.0535458707 1.14954e-05 -5.9113e-06 4.86864e-05 -6.26123e-05 0.0415059673 0.0846099966
55299670.0 -0.8298149083 0.063071372 -3.64136e-05 -0.0001794879 0.0001670784 -2.57412e-05 0.0509160931 0.0836099594
60299640.0 -0.8303211709 0.0735183939 -0.0001089024 4.84593e-05 -0.0002790615 -1.11967e-05 0.0594992349 0.0817866914
65299610.0 -0.8315557693 0.083275113 -6.23974e-05 -4.49965e-05 3.43698e-05 -9.14114e-05 0.0668873067 0.0787969834
70299580.0 -0.831688886 0.0931384211 0.0002785566 9.11547e-05 8.20395e-05 0.0001864266 0.0739399603 0.075928864
75299550.0 -0.8316101811 0.1039621528 0.0002118871 2.92013e-05 -0.0001452809 -5.64538e-05 0.0803770182 0.0721509359
80299520.0 -0.8320792809 0.11334595 -0.0002228503 8.13144e-05 -9.55986e-05 2.094e-05 0.0861199642 0.0689615364
85299490.0 -0.8313025161 0.122581388 -7.75582e-05 0.0001707666 -8.48326e-05 -0.000139328 0.0908926497 0.0649755668
90299460.0 -0.8302510233 0.1326784694 0.0001474158 -0.0001751031 -9.13654e-05 -0.0001639678 0.0954383072 0.0609907888
95299430.0 -0.8293027346 0.1419370511 -1.32982e-05 -0.0002165404 -4.18397e-05 -2.49325e-05 0.0996797025 0.0569982565
100299400.0 -0.8286906067 0.1510993281 0.0001366267 8.13779e-05 0.0003784017 -1.86288e-05 0.1036310451 0.0527656139
105299370.0 -0.8268452706 0.1605781427 0.0001092996 -4.83147e-05 0.0001391276 3.4334e-06 0.106907494 0.0486052698
110299340.0 -0.8255398087 0.1693136741 5.45656e-05 -9.47519e-05 -6.56389e-05 -8.48037e-05 0.1093977511 0.0444572636
115299310.0 -0.8241142977 0.1784789615 0.0002036962 2.26059e-05 0.0001681203 0.0002206442 0.1122093611 0.040500112
120299280.0 -0.8219394573 0.18751022 -0.0001363516 6.4339e-06 4.87253e-05 1.23689e-05 0.1143260584 0.0366731362
125299250.0 -0.8201541264 0.1959698024 0.0001590275 0.0001537602 0.0002814536 9.8712e-06 0.1164047033 0.032324371
130299220.0 -0.8188391559 0.2055926997 -9.69193e-05 -0.0001062649 9.78472e-05 0.0001150894 0.1182007825 0.0288440684
135299190.0 -0.8172150618 0.2141598487 0.0001516593 5.5371e-06 7.27213e-05 0.0001921333 0.1196961947 0.0251106635
140299160.0 -0.8150687402 0.2233613985 3.44486e-05 8.61501e-05 7.83957e-05 -1.82629e-05 0.1210025753 0.0214590932
145299130.0 -0.8127532948 0.2320794943 -2.512e-07 0.0001099334 7.13621e-05 -8.56635e-05 0.1218031626 0.0177926068
150299100.0 -0.8099174624 0.240766378 -2.92673e-05 0.0001272097 -3.06014e-05 -7.56765e-05 0.1230470913 0.0148455994
155299070.0 -0.8077122548 0.2497229383 -6.46313e-05 -1.01459e-05 -0.0002300645 -9.5444e-06 0.1237737078 0.011321216
160299040.0 -0.8050115752 0.2581003992 -0.0001027197 -0.0001223484 0.0001224526 6.74782e-05 0.1242114907 0.0080972096
165299010.0 -0.803051509 0.2668456259 -6.99522e-05 -0.0001223068 -4.94342e-05 -0.0002084101 0.124915853 0.0049198555
170298980.0 -0.7997659614 0.2754026775 0.0001586166 0.0002320405 -0.0001523359 -3.94698e-05 0.1250746278 0.0015224608
175298950.0 -0.7971353847 0.284225752 0.0001086738 7.52166e-05 2.81e-08 -0.0001534445 0.125045959 -0.0013332445
180298920.0 -0.79461945 0.2929939504 -0.0002639146 0.0002018782 7.62286e-05 7.7301e-05 0.1252764356 -0.004307187
185298890.0 -0.7908451585 0.3011376515 -3.43331e-05 0.000208986 0.0002261442 0.0001080621 0.1255378119 -0.0074890104
190298860.0 -0.7883947421 0.309595149 -1.04627e-05 -0.000128343 -7.43467e-05 -6.76837e-05 0.1253323403 -0.0098098451
195298830.0 -0.7852124841 0.3178600799 1.86134e-05 0.0001920227 5.61384e-05 -4.24063e-05 0.1251984655 -0.0127913884
200298800.0 -0.7815064783 0.3261279203 -0.0001323923 5.71029e-05 0.0001272926 3.46242e-05 0.1248069514 -0.0157856634
205298770.0 -0.778406024 0.3341916773 -2.04006e-05 -9.26642e-05 -0.0001418348 8.94128e-05 0.1243508145 -0.0188372784
210298740.0 -0.7748781135 0.3425958677 2.4854e-06 0.000180814 -2.85088e-05 1.62623e-05 0.124304167 -0.020832523
215298710.0 -0.7714580682 0.3508596167 3.5143e-06 -8.81187e-05 9.92239e-05 -2.4264e-06 0.1239031117 -0.023684898
220298680.0 -0.7675583077 0.3587623738 0.0001114089 0.0001742334 -9.25039e-05 9.59591e-05 0.1227893903 -0.02629005
225298650.0 -0.7645704053 0.3668029321 -7.5605e-06 -0.0001554636 -0.0001016306 -3.44215e-05 0.1219858902 -0.0287283876
230298620.0 -0.7600700328 0.3752837841 0.0001362098 0.0001343211 0.0001771028 -0.0001332691 0.1218088396 -0.0313864813
235298590.0 -0.7563953756 0.383670161 -7.63794e-05 2.65983e-05 0.0001238699 4.99038e-05 0.1210489811 -0.0334759159
240298560.0 -0.7522218188 0.3910428371 0.0001278595 -9.01243e-05 9.3338e-05 7.07358e-05 0.1203159695 -0.0360531443
245298530.0 -0.7488782171 0.3984170995 1.10334e-05 -5.0872e-06 0.0001300342 0.0001721008 0.1194075016 -0.0384249424
250298500.0 -0.7437460218 0.4069991406 7.83783e-05 0.0001275611 0.0001982082 -3.44696e-05 0.1186140087 -0.0408385434
255298470.0 -0.7396056106 0.4146482508 -4.99277e-05 2.27696e-05 0.0001140961 0.0001560117 0.1178669986 -0.0434351384
260298440.0 -0.7358639771 0.421813269 4.37958e-05 -0.0001543342 -0.0002448013 -5.75007e-05 0.117237806 -0.0453874865
265298410.0 -0.731093645 0.4301527404 0.0001094957 2.42385e-05 0.0002146913 0.0001266878 0.1164306064 -0.0472560692
270298380.0 -0.7269553132 0.4373313669 5.44315e-05 -1.15671e-05 -8.4344e-06 0.0001628462 0.1154058026 -0.0496959963
275298350.0 -0.7222846488 0.4451681481 0.0001588066 0.0002819071 0.0001683735 5.87959e-05 0.1147754387 -0.0515369265
280298320.0 -0.7170163308 0.4523832384 0.0001399463 0.0001836873 0.0002885572 8.69035e-05 0.1139182252 -0.0538114221
285298290.0 -0.7127941165 0.4599387063 1.6962e-06 0.0001478453 0.0001309776 8.21553e-05 0.1129423886 -0.0555795685
290298260.0 -0.7080943893 0.4680064516 0.0001094512 9.07515e-05 0.000218854 2.34459e-05 0.1121639064 -0.0575625969
295298230.0 -0.7024186232 0.4746019612 -7.79922e-05 7.96287e-05 0.0001835488 -1.49958e-05 0.1115412646 -0.0597971205
300298200.0 -0.6974887386 0.4818297697 5.17944e-05 0.0001081526 0.0001264615 0.0001213007 0.1103584719 -0.0612176834
305298170.0 -0.692201274 0.4882077815 6.52217e-05 5.54782e-05 0.0001621948 3.64287e-05 0.10961103 -0.0641507263
310298140.0 -0.6876487131 0.4960327293 0.0001426793 5.1123e-06 0.0001585671 0.0001859148 0.1079365089 -0.0655136727
315298110.0 -0.682643257 0.502988454 0.0001734069 -0.0001296256 -6.7638e-05 0.0002464365 0.1071833033 -0.067120057
320298080.0 -0.6771744918 0.5102265061 0.0002978786 1.9053e-05 2.00698e-05 -2.70285e-05 0.1060108098 -0.0692678893
325298050.0 -0.6717120454 0.5175252821 -7.02324e-05 5.85383e-05 0.0002298357 8.37665e-05 0.1042776046 -0.0711917315
330298020.0 -0.6663176258 0.52399199 0.0001291787 0.000179771 -7.51407e-05 0.0001722607 0.1026622016 -0.0725646287
335297990.0 -0.6608487164 0.5307804848 -0.0001561284 9.62123e-05 2.49762e-05 -6.85899e-05 0.1013388483 -0.0738025335
340297960.0 -0.6559747706 0.5376369623 1.3468e-06 5.35416e-05 2.34331e-05 -4.41698e-05 0.1005013364 -0.0751176095
345297930.0 -0.6500794056 0.5442920593 9.59251e-05 3.10557e-05 -9.39529e-05 -0.0001374536 0.0986963709 -0.076791535
350297900.0 -0.6444368241 0.550627494 7.748e-05 1.67179e-05 -6.1256e-05 -0.0001633557 0.0972863587 -0.0777162412
355297870.0 -0.6379770082 0.5582468239 0.0001272584 0.0001388199 2.70542e-05 -0.000137814 0.0958820729 -0.079246334
360297840.0 -0.6325392052 0.5641774966 0.0004161115 0.0002375719 9.17326e-05 -0.0001559728 0.0945935888 -0.080736703
365297810.0 -0.6268294161 0.5703223709 0.0001438973 -9.12741e-05 1.67854e-05 -2.9135e-06 0.0929967154 -0.0821619605
370297780.0 -0.6207112741 0.5770704811 7.27725e-05 2.68435e-05 0.0001115728 -5.35823e-05 0.0918318145 -0.0829871313
375297750.0 -0.6143245145 0.583674214 -6.58256e-05 7.21322e-05 0.000152443 9.35401e-05 0.0904913325 -0.0846700265
380297720.0 -0.608843619 0.5888079046 0.0001495304 0.0001647694 1.94529e-05 -4.3449e-05 0.0883547972 -0.0854671957
385297690.0 -0.603270355 0.595458688 8.00714e-05 -6.28028e-05 -9.0963e-05 7.00955e-05 0.087399444 -0.0869752616
390297660.0 -0.5965890603 0.6017344755 0.0001275619 0.0001927647 9.95454e-05 -7.98189e-05 0.0854825011 -0.0879598672
395297630.0 -0.5898809769 0.6079134439 6.56968e-05 6.97799e-05 0.0001442402 0.0002241479 0.0842928733 -0.0890128558
400297600.0 -0.5828497622 0.6146345107 0.0002657353 -0.000115229 0.0002039723 7.76708e-05 0.0830089769 -0.0903253505
405297570.0 -0.5777962944 0.6197378599 -0.000190414 0.0002439397 4.85809e-05 1.05804e-05 0.0812963642 -0.0914545269
410297540.0 -0.5709028754 0.6253644617 0.0003298432 0.0001461137 -8.957e-07 8.7279e-05 0.0797876681 -0.092523272
415297510.0 -0.5643989451 0.6311585369 0.0001218894 -9.54038e-05 0.0002423255 0.0001393769 0.0780045898 -0.0938962859
420297480.0 -0.5590945 0.6371209332 -7.963e-06 -4.8569e-05 0.0002525743 -6.77134e-05 0.0767548129 -0.0948171585
425297450.0 -0.5514846673 0.6430125054 0.0003695242 3.49423e-05 0.0003142208 2.20124e-05 0.0754521607 -0.0958642954
430297420.0 -0.5451172258 0.6482418631 0.000171075 6.69392e-05 -1.70318e-05 0.0001726247 0.0736728671 -0.0970136727
435297390.0 -0.5387303598 0.6534757799 0.0001496306 0.000135752 1.28438e-05 0.0001130702 0.0722073477 -0.0981092457
440297360.0 -0.5320875187 0.6587957024 0.0001169443 -0.0001275091 9.30205e-05 -0.0001498132 0.0706723676 -0.0992128527
445297330.0 -0.524714513 0.6647133351 -4.10055e-05 0.0001559758 7.50048e-05 0.0001022743 0.0690634614 -0.100684778
450297300.0 -0.5183014686 0.6697468264 0.0001202793 -0.000123299 -0.0001343401 0.0001745822 0.0675003818 -0.1012465412
455297270.0 -0.5115579681 0.6745150781 2.48826e-05 7.31994e-05 0.0001733615 5.06147e-05 0.0658766368 -0.1023138905
460297240.0 -0.5053671336 0.6793423092 0.0001580142 0.0003106617 5.35903e-05 0.0002090201 0.0645939647 -0.1025990485
465297210.0 -0.4977777304 0.6850867091 0.0003129063 0.0001371365 0.0001540235 0.0001447875 0.0629081094 -0.1037529308
470297180.0 -0.4903821397 0.6898900404 0.0001448074 -3.17834e-05 0.0001659376 3.67421e-05 0.0616744469 -0.1044699388
475297150.0 -0.4830140245 0.6944060995 1.13375e-05 0.0001135819 0.0001349434 0.0001063652 0.0598528975 -0.1054887496
480297120.0 -0.4766041263 0.6995036297 -7.77586e-05 -0.0001731732 0.0002611845 6.93931e-05 0.0584763309 -0.1061977651
485297090.0 -0.4688694509 0.7040900947 -5.3229e-06 0.0001199515 0.0001958844 0.0001305933 0.0571154712 -0.1065376342
490297060.0 -0.4622783982 0.7088129967 -3.372e-05 -6.97018e-05 0.0001017379 4.18561e-05 0.0552838589 -0.1076458751
495297030.0 -0.4549289372 0.713097777 5.23016e-05 -1.40301e-05 0.0002381491 0.0001964542 0.0539791673 -0.1081260723
500297000.0 -0.4475991476 0.7182573879 6.37238e-05 2.54603e-05 -8.60247e-05 0.0001498059 0.0522453338 -0.1084948728
505296970.0 -0.4403453897 0.7225942561 0.000118454 6.44753e-05 8.27244e-05 -7.56087e-05 0.0505277632 -0.1094998489
510296940.0 -0.4327412263 0.7265957595 8.72281e-05 0.0001414128 0.0001479923 9.04454e-05 0.0490538964 -0.1100102214
515296910.0 -0.4246304455 0.7306422492 0.0001761831 -8.45444e-05 -6.51551e-05 0.0001023461 0.0474147179 -0.1105151803
520296880.0 -0.418086666 0.7357631594 3.82585e-05 -2.16008e-05 0.0001288927 4.02315e-05 0.0454684297 -0.1109143282
525296850.0 -0.4101883781 0.7389654839 7.73054e-05 -0.0001343483 0.0001478974 0.0001654527 0.0439421763 -0.1108649946
530296820.0 -0.4023887647 0.7436702878 0.0002821267 0.0002579932 0.0001879765 0.0001087892 0.0424625077 -0.1116371132
535296790.0 -0.3958759933 0.7472740674 7.38087e-05 9.94116e-05 9.59292e-05 3.96621e-05 0.0404866121 -0.1123854674
540296760.0 -0.3880910622 0.7515702009 -3.47595e-05 -5.60293e-05 0.0002055325 1.21925e-05 0.0388448691 -0.1125375149
545296730.0 -0.3803486235 0.7554605085 -4.36563e-05 8.66731e-05 0.0001438749 -9.20942e-05 0.0370298536 -0.1132019398
550296700.0 -0.3730669897 0.7587142602 9.52621e-05 0.0002453388 0.0001606466 3.46657e-05 0.0352061692 -0.1133521356
555296670.0 -0.3651297587 0.7619518592 -2.63069e-05 -8.7689e-06 0.0001768271 -2.0216e-06 0.0336310953 -0.1134862729
560296640.0 -0.3578826159 0.7659444004 0.0005202175 0.0003171744 0.000229503 3.64053e-05 0.0319979733 -0.1139252872
565296610.0 -0.3495069223 0.7698383998 0.0003516756 0.0001781632 0.0001498137 -4.9746e-06 0.0303754429 -0.1142666866
570296580.0 -0.3419891598 0.7727886797 -0.0001906673 0.000172227 0.0001747053 0.0001361056 0.0284066042 -0.1148587461
575296550.0 -0.3342179623 0.777304078 2.1974e-05 0.0001590663 -6.04007e-05 -4.53365e-05 0.0268687373 -0.1147592779
580296520.0 -0.3255480911 0.7796104356 1.00135e-05 -4.841e-07 -0.0001702141 -0.0001201638 0.0248222645 -0.1151845738
585296490.0 -0.318402267 0.7829805498 0.000198062 8.65546e-05 3.98363e-05 -4.22176e-05 0.023405243 -0.1155080619
590296460.0 -0.3103800871 0.7861479641 0.0002308036 -6.26575e-05 -3.59649e-05 1.65247e-05 0.0215512556 -0.1154882566
595296430.0 -0.3030840246 0.7884576512 -6.83847e-05 0.0001099054 1.0053e-06 -0.0002321459 0.0198873402 -0.1160298253
600296400.0 -0.2947357898 0.7922088788 0.0001375793 9.34372e-05 0.0001418637 -0.0001956563 0.0182590026 -0.1164512561
605296370.0 -0.2875226112 0.7945098767 0.0002236617 0.0001191471 4.54239e-05 4.12436e-05 0.0163482381 -0.1165236252
610296340.0 -0.2785121043 0.7973366568 5.88336e-05 -0.0001129044 0.0001779582 0.000181129 0.0147559727 -0.1167009791
615296310.0 -0.2706097387 0.7993182694 0.0001361421 -0.0001117135 7.19952e-05 0.0001022406 0.0131807731 -0.1170146425
620296280.0 -0.2624036353 0.8017023853 0.0001365241 -3.2473e-06 0.0001846547 0.0001459049 0.0114480954 -0.1170774065
625296250.0 -0.254412464 0.8055955608 2.62891e-05 9.8012e-06 8.75468e-05 6.09403e-05 0.0102324739 -0.1171766342
630296220.0 -0.2460521597 0.8076814232 0.0001192342 0.0001931479 0.0001900455 -8.874e-06 0.0080193301 -0.1170710032
635296190.0 -0.2383850518 0.8105701203 0.0001980368 9.62955e-05 0.0001591461 5.14809e-05 0.006922561 -0.1170816707
640296160.0 -0.2306505905 0.8124022785 8.83185e-05 -0.0001045407 0.0002248389 6.5004e-06 0.0050345495 -0.1169964678
645296130.0 -0.2223841045 0.8151389517 -5.37598e-05 0.000140281 1.69948e-05 -2.87054e-05 0.003610561 -0.1168928699
650296100.0 -0.214388076 0.8162345014 7.7911e-06 -0.0001097449 7.93679e-05 -0.0001322147 0.0019962493 -0.1170832375
655296070.0 -0.2061078954 0.8186546333 2.82804e-05 -3.30515e-05 -8.42686e-05 -0.0002027275 0.0003608748 -0.1168165018
660296040.0 -0.1977971892 0.8207899863 0.0003346446 -0.0001062489 8.17142e-05 -8.33932e-05 -0.0011264736 -0.1167884301
665296010.0 -0.1894759234 0.8223962461 0.0003001263 -0.000170264 0.0002501402 -0.0002289851 -0.0032189653 -0.1163937581
670295980.0 -0.1819961183 0.8240343767 0.0002294433 -8.6367e-06 0.000417101 6.34447e-05 -0.0044827856 -0.1159320572
675295950.0 -0.1733297011 0.8254384295 0.000105427 1.5321e-05 0.0003163921 9.54859e-05 -0.0063583984 -0.1157247771
680295920.0 -0.1647741935 0.8282554581 0.0001767117 9.77786e-05 0.0001928862 -5.80705e-05 -0.0077979325 -0.1151900312
685295890.0 -0.1563265545 0.8300933084 -8.83306e-05 -3.23424e-05 0.0002556755 -5.85263e-05 -0.0095119772 -0.1152884394
690295860.0 -0.1487048435 0.8304830896 5.7228e-06 -2.98036e-05 0.0001012488 -6.7688e-06 -0.0111105382 -0.1145496698
695295830.0 -0.1402435342 0.8322762916 0.0002119568 -0.0001952758 7.67077e-05 -8.664e-07 -0.0129973876 -0.1143028624
700295800.0 -0.131797628 0.8340555677 0.0002875613 0.0001427645 0.0001659824 2.34774e-05 -0.0147225194 -0.1141313311
705295770.0 -0.1233532355 0.8352364178 0.0002470769 -2.0108e-05 0.000270344 -0.0001498593 -0.0163849968 -0.1131693394
710295740.0 -0.1151786185 0.8363767917 0.0002299853 -0.0003346398 0.0001826005 -5.87232e-05 -0.0181483636 -0.1130735087
715295710.0 -0.1071365667 0.8372456171 0.0001966629 -0.0002262127 -1.70588e-05 0.0002859602 -0.0196443278 -0.1128897328
720295680.0 -0.0989497024 0.8384390328 0.0002769597 -0.0001473969 0.0001223641 -0.0001814882 -0.0213651342 -0.1123803831
725295650.0 -0.0902061757 0.8394768504 -6.40741e-05 -0.0001932255 -2.82511e-05 3.8847e-06 -0.0232120447 -0.1116416799
730295620.0 -0.0816695221 0.8409080453 0.0002533722 -1.52168e-05 0.0001451209 -0.000215876 -0.0248270321 -0.111266783
735295590.0 -0.0739557375 0.84117772 0.0002817714 -0.0001124738 0.0001174747 -0.0001688387 -0.0265830026 -0.111319004
740295560.0 -0.0658122453 0.8425633942 1.19747e-05 -4.46252e-05 0.0002001589 -4.8336e-05 -0.0278379126 -0.1102248871
745295530.0 -0.0568878774 0.8423972354 3.71089e-05 4.48224e-05 7.80778e-05 0.0001317264 -0.0298941743 -0.110023279
750295500.0 -0.0487771089 0.8431498028 -0.0002218177 0.0001239721 0.0002083129 0.000113725 -0.031195015 -0.1095780489
755295470.0 -0.0408147771 0.8429064691 -1.17861e-05 3.75917e-05 0.0003305839 3.11685e-05 -0.0330024774 -0.1093634173
760295440.0 -0.032212032 0.8431121879 5.02296e-05 6.65626e-05 0.0001482439 1.22418e-05 -0.0346496998 -0.1086732945
765295410.0 -0.024179283 0.8440759894 0.0002346922 0.0001085713 -2.41327e-05 0.0001753354 -0.0361277176 -0.1078251924
770295380.0 -0.0157617713 0.8438592583 0.0002498554 3.09441e-05 0.0001546727 -1.0386e-05 -0.037948685 -0.107757036
775295350.0 -0.0075909456 0.8449195486 0.0001010763 -0.0001023435 5.27053e-05 8.748e-05 -0.0395993031 -0.1064867968
780295320.0 0.0018076667 0.8442461887 0.0001703288 -9.85346e-05 0.0002095345 6.2408e-06 -0.0407035329 -0.1063540445
785295290.0 0.0097607581 0.843185467 -3.21353e-05 0.0001905549 0.000153401 -8.93102e-05 -0.0422294564 -0.1057331053
790295260.0 0.018156508 0.8442947031 8.36631e-05 2.57617e-05 -5.77379e-05 0.0002317672 -0.0434237724 -0.105086914
795295230.0 0.0263122456 0.8431977847 0.000144898 -0.0001145184 0.0001556342 4.57628e-05 -0.0450213179 -0.1044631501
800295200.0 0.0344017403 0.8434142913 0.0001613001 -8.83747e-05 9.9065e-05 -0.0001914082 -0.0463720569 -0.1034157415
805295170.0 0.0432359658 0.8424034211 0.0002398802 -5.18523e-05 0.0001088022 -6.71499e-05 -0.0482286469 -0.1027936235
810295140.0 0.0513177344 0.8425614473 0.0001048272 -6.01484e-05 -0.0001596342 0.0001942635 -0.0492458684 -0.102314149
815295110.0 0.0597672418 0.8415245163 0.0002373577 -8.96583e-05 0.0001069289 -2.0946e-05 -0.0509314645 -0.1012850367
820295080.0 0.0676537099 0.8411394405 -1.92988e-05 -8.61288e-05 0.0003669054 -8.67821e-05 -0.0523740474 -0.1005987162
825295050.0 0.0771515426 0.8400811282 0.000174781 -3.28628e-05 0.0001506843 -6.48336e-05 -0.0535500724 -0.0995947444
830295020.0 0.0845080361 0.8397572124 0.000200061 -0.0002858931 0.0002050675 -0.0001451757 -0.0545004808 -0.0985119059
835294990.0 0.092565979 0.8386676485 0.0002892382 -2.29204e-05 0.0001769179 -0.0001955963 -0.0563974974 -0.0975388533
840294960.0 0.1006204954 0.8384725806 0.0004496938 -7.84097e-05 0.0003392616 -5.43278e-05 -0.057346189 -0.0968350233
845294930.0 0.1090845456 0.8368012819 9.81e-06 2.69108e-05 0.0002147678 -6.77902e-05 -0.058941844 -0.0958886906
850294900.0 0.1174777304 0.8357649115 0.0004318651 7.50952e-05 -2.46373e-05 -0.0003869424 -0.0605722706 -0.0948287184
