!Created with skrf (http://scikit-rf.org).
# Hz S RI R 50.0 
!freq ReS11 ImS11 ReS21 ImS21 ReS12 ImS12 ReS22 ImS22
300000.0 -0.2410522546 -0.0922005464 0.4716298773 0.0631412405 0.4687090758 0.0586083319 -0.2381127194 -0.1006332889
5299970.0 -0.2449850564 0.0063333603 0.4751119732 0.0049337975 0.4745924313 0.0052843348 -0.2412099542 0.0071840713
10299940.0 -0.2418044781 0.0177106711 0.4768241953 0.0060318578 0.4769428313 0.0063790252 -0.2375800681 0.0203608841
15299910.0 -0.2373611666 0.0269993137 0.4803590453 0.0072117061 0.4803912445 0.0075472068 -0.2332423477 0.0301763801
20299880.0 -0.2329633819 0.0340244377 0.4849586614 0.0082342149 0.4851571384 0.007916336 -0.2277705369 0.037915021
25299850.0 -0.2277584522 0.0401381975 0.4901716578 0.0068866251 0.489987756 0.0072840217 -0.221877459 0.0447966596
30299820.0 -0.222650967 0.0452538572 0.4955736624 0.0049749397 0.4954211914 0.0049434713 -0.2161828325 0.0501609768
35299790.0 -0.2175596623 0.0491885367 0.5012350708 0.0012611449 0.5011140405 0.0015078613 -0.2107663546 0.0545538976
40299760.0 -0.2127488544 0.0524846194 0.505940628 -0.0020153777 0.5060126506 -0.0024901436 -0.2049247117 0.057402097
45299730.0 -0.2078303475 0.0546993524 0.510249034 -0.0069491152 0.5107744308 -0.0069786003 -0.2003099814 0.0605151823
50299700.0 -0.2039143285 0.0569003736 0.5146774894 -0.0124304377 0.5150035189 -0.0122576733 -0.1952630892 0.0627481634
55299670.0 -0.1998849086 0.0584084158 0.5187586935 -0.0190255971 0.5187701756 -0.0186662567 -0.1913817258 0.0643945431
60299640.0 -0.195844988 0.0598911651 0.5216374172 -0.0253214187 0.5222080467 -0.0245762331 -0.1876849605 0.0654236184
65299610.0 -0.1927173081 0.0609483515 0.5246676086 -0.0308552268 0.5249220132 -0.03123147 -0.1840932895 0.0665246027
70299580.0 -0.1898282476 0.0621291538 0.5272596806 -0.0380656352 0.5269016694 -0.0371173962 -0.1807154123 0.0674940996
75299550.0 -0.1871367731 0.0629586434 0.5288787287 -0.0447199724 0.5288456819 -0.0443461499 -0.1779030716 0.06813135
80299520.0 -0.184688108 0.0637933574 0.5309506751 -0.0518283873 0.5309509889 -0.0515291768 -0.1753492164 0.0690632882
85299490.0 -0.1825650943 0.0642506692 0.5318114489 -0.0579945594 0.5323305792 -0.0579660045 -0.1731449761 0.0696323048
90299460.0 -0.1804327609 0.064955681 0.5325736403 -0.0651595906 0.5332968358 -0.0650774776 -0.1703696477 0.0704877495
95299430.0 -0.1778897596 0.0653620798 0.5339225805 -0.0721344958 0.5338384568 -0.0723142746 -0.1681827439 0.071337725
100299400.0 -0.176722625 0.0660648306 0.5339788663 -0.0788019813 0.5340082883 -0.0788666131 -0.1662009346 0.0714881848
105299370.0 -0.1749436761 0.0667204872 0.5344957725 -0.0861030573 0.5349059925 -0.0860856572 -0.1639050738 0.0726191856
110299340.0 -0.1734192936 0.0678042391 0.5349905842 -0.092669601 0.534546307 -0.0922690763 -0.1629901858 0.0730231835
115299310.0 -0.1718287882 0.0680443389 0.5346148479 -0.0996596095 0.5347032143 -0.0995739727 -0.1610616132 0.0738500529
120299280.0 -0.1707427305 0.0684819075 0.5339896829 -0.1061552198 0.5345435682 -0.1062523763 -0.1593981142 0.0745072982
125299250.0 -0.1693542304 0.0690931592 0.5341224643 -0.1125793457 0.5343084781 -0.112746335 -0.158469922 0.0749963099
130299220.0 -0.1684546643 0.0702793293 0.5331619316 -0.1200728534 0.533271565 -0.1198961217 -0.1569610411 0.0756380422
135299190.0 -0.1675464479 0.0712723852 0.5330444608 -0.1265818577 0.5328459159 -0.1261406796 -0.1555533038 0.0769058583
140299160.0 -0.1667439963 0.0720512169 0.5323303167 -0.1331061988 0.5320569765 -0.1328997305 -0.1543613194 0.078264364
145299130.0 -0.1655744663 0.0728093333 0.5312890803 -0.1396804709 0.5308812237 -0.139471614 -0.1535549621 0.0791564179
150299100.0 -0.1644667742 0.0740677021 0.5297869498 -0.1455404687 0.5299340586 -0.14573822 -0.1525673874 0.080238146
155299070.0 -0.1640336218 0.0746396171 0.5291068946 -0.1528945775 0.5285575106 -0.1526004694 -0.1510376392 0.0813339334
160299040.0 -0.1628439184 0.0760547978 0.5273988627 -0.1593868564 0.5270313243 -0.1589136932 -0.1507237436 0.0823873618
165299010.0 -0.1618436932 0.0768959142 0.525884538 -0.1657628662 0.5259179675 -0.1656063979 -0.1490000682 0.0838420497
170298980.0 -0.1613576214 0.077820061 0.5245806523 -0.1720061558 0.524496989 -0.1714993791 -0.148396266 0.0850103184
175298950.0 -0.1606318242 0.0787983977 0.5231572547 -0.1778177462 0.5229752169 -0.1780215724 -0.1475238447 0.0862547162
180298920.0 -0.1599494697 0.0802539176 0.5212276518 -0.1846734615 0.52118294 -0.1839346838 -0.1465078679 0.0874688345
185298890.0 -0.1590503523 0.0810975951 0.5192702096 -0.1904545022 0.5191318364 -0.1900725379 -0.1457174659 0.0888925277
190298860.0 -0.1583696701 0.0824824969 0.5174585889 -0.1969974907 0.5178884328 -0.1968868647 -0.1446131377 0.08965116
195298830.0 -0.1577779742 0.0831853193 0.5151692426 -0.2025180066 0.5154413272 -0.2022501849 -0.143513415 0.0909965139
200298800.0 -0.1568753044 0.0847257643 0.5129317344 -0.2092515262 0.5134096204 -0.2091321554 -0.1432132059 0.092559491
205298770.0 -0.1560877198 0.085911386 0.5110539183 -0.2151597791 0.5111338681 -0.2146993658 -0.1422613833 0.0933048136
210298740.0 -0.1555684831 0.0869990272 0.5089474028 -0.2207152886 0.5086907995 -0.2204093605 -0.140989528 0.0951287278
215298710.0 -0.1551854967 0.0883917469 0.5065176201 -0.2266327563 0.5064630169 -0.2271927775 -0.1402941998 0.0965619107
220298680.0 -0.1537957508 0.0893617502 0.50346543 -0.2326835054 0.5039564659 -0.2324774347 -0.1397774395 0.0974504644
225298650.0 -0.1533755682 0.0907511929 0.501454233 -0.2389700029 0.501808749 -0.2386361136 -0.1388907903 0.0989980502
230298620.0 -0.1527015545 0.092204305 0.4993651269 -0.2442783033 0.4993754828 -0.2443758592 -0.1376724764 0.0998667181
235298590.0 -0.1518322232 0.093728501 0.496400902 -0.2501191483 0.496389775 -0.2495789099 -0.1365822201 0.1016989851
240298560.0 -0.1511223294 0.095125821 0.4940924032 -0.2560971985 0.4935505983 -0.2558738904 -0.1359744352 0.1033570005
245298530.0 -0.1503950675 0.0963339241 0.4912685058 -0.2617909531 0.4909911633 -0.2619545674 -0.1347839167 0.10411362
250298500.0 -0.1488947119 0.0979565887 0.4876447596 -0.2673038091 0.4877693666 -0.2667676831 -0.1344068636 0.1056379281
255298470.0 -0.1484058614 0.0986763392 0.4844044411 -0.2724327493 0.48519571 -0.2724888385 -0.1327303668 0.106848574
260298440.0 -0.1479258099 0.1000623084 0.4821303039 -0.2783151795 0.4821757208 -0.2779077898 -0.1314878764 0.1082787786
265298410.0 -0.1466849514 0.1017585322 0.4789551231 -0.2836356767 0.4794668512 -0.2835378296 -0.1304245845 0.1099739741
270298380.0 -0.1459981601 0.1028087907 0.4762743365 -0.2891214217 0.4761346945 -0.2889912871 -0.1294243056 0.1110444343
275298350.0 -0.1448435264 0.1045577115 0.4729119205 -0.2947276137 0.472961002 -0.2943595893 -0.12805853 0.1121598705
280298320.0 -0.1439276453 0.106135469 0.4696939959 -0.3002537107 0.4699638336 -0.2995215465 -0.12693183 0.1137100112
285298290.0 -0.1431687068 0.1070133276 0.4668922788 -0.3056310055 0.4665050325 -0.3051631825 -0.1255718245 0.1149065402
290298260.0 -0.1417277057 0.1084641128 0.46313677 -0.310330354 0.4631171124 -0.3105241335 -0.1243710323 0.1166136893
295298230.0 -0.1408016346 0.1093647178 0.4599225021 -0.3155996336 0.4598038517 -0.3156983659 -0.1228215014 0.1175937069
300298200.0 -0.1401619133 0.1111583477 0.4566981879 -0.3205808052 0.4570079027 -0.3211246749 -0.121640831 0.1191432732
305298170.0 -0.1389113681 0.1122466076 0.4523020406 -0.3262970362 0.4529242712 -0.3260390485 -0.1199302552 0.120003008
310298140.0 -0.1378898632 0.1136501918 0.4495701717 -0.3314038659 0.4496612536 -0.3313881227 -0.1188086771 0.1216993001
315298110.0 -0.137020995 0.1145928547 0.4461439531 -0.3365712562 0.4462484102 -0.3363701541 -0.117584199 0.1225484682
320298080.0 -0.1357843021 0.1160348434 0.4416248171 -0.3420704329 0.4419267828 -0.3418885013 -0.1163574011 0.1244098983
325298050.0 -0.1349509893 0.1171885299 0.4382518851 -0.3470072595 0.4380997919 -0.3471339568 -0.1153505648 0.1254028372
330298020.0 -0.1340584724 0.1180695421 0.4339195527 -0.3516718832 0.4345656748 -0.3516558777 -0.114407895 0.1266155386
335297990.0 -0.1331433131 0.1196030667 0.4303377743 -0.3563775069 0.429944618 -0.356472123 -0.1134267811 0.1284575783
340297960.0 -0.1323688514 0.1210600047 0.4257209234 -0.3615868398 0.4256055561 -0.3614788806 -0.1112472848 0.129896118
345297930.0 -0.1315804404 0.1226647338 0.4215970847 -0.3663530055 0.4217705215 -0.3660310249 -0.1104199999 0.1309015198
350297900.0 -0.1304481995 0.1238661508 0.4174070067 -0.3708793011 0.4174609703 -0.3707178348 -0.1095393727 0.1326671915
355297870.0 -0.1290658914 0.125877722 0.4132837943 -0.3751881431 0.4140543163 -0.375420566 -0.1080272688 0.134158308
360297840.0 -0.1279900421 0.1268639143 0.4098465869 -0.3793477128 0.4101971186 -0.3793115919 -0.1066833341 0.1352743892
365297810.0 -0.1272901672 0.1283937995 0.4048296585 -0.3845391767 0.4058135987 -0.3844479983 -0.1052059512 0.1367363496
370297780.0 -0.1258888422 0.1293019289 0.4009736625 -0.3885233248 0.4012988897 -0.3884390438 -0.1038878348 0.1381472155
375297750.0 -0.1246320062 0.1310540559 0.3966789847 -0.3930590497 0.3975204982 -0.3929996123 -0.1024348968 0.1395342404
380297720.0 -0.1234863777 0.1320977496 0.3923024676 -0.3976645066 0.3926395255 -0.3967995966 -0.1013700348 0.1405161571
385297690.0 -0.1224270471 0.1333708364 0.3880550639 -0.4015942089 0.3879176189 -0.4013407536 -0.099418416 0.1421364472
390297660.0 -0.1211682291 0.1352264894 0.3834944186 -0.4062118598 0.3833561935 -0.4057136168 -0.0985358197 0.1429927972
395297630.0 -0.1199064274 0.1364405962 0.3792291668 -0.410042404 0.379112518 -0.4100519994 -0.0964238828 0.1445644666
400297600.0 -0.1188265648 0.1376674012 0.3741666088 -0.4147524352 0.3744958688 -0.4142230105 -0.0948751268 0.1456651243
405297570.0 -0.1175824507 0.1387191176 0.370099806 -0.4181660426 0.370295496 -0.4176986228 -0.0938977473 0.1467314539
410297540.0 -0.115815909 0.1401108485 0.3653451507 -0.4224301334 0.3660013582 -0.4225095342 -0.0925689696 0.1483570471
415297510.0 -0.1145362881 0.1410222153 0.3604249354 -0.4265447489 0.3610428967 -0.4260783227 -0.0904298217 0.1490123968
420297480.0 -0.1135437361 0.1428126472 0.3559519481 -0.4306750185 0.3557037443 -0.4306061692 -0.0890306719 0.1502740628
425297450.0 -0.1121260995 0.1433747581 0.3515464836 -0.4342744747 0.3516334383 -0.4342361279 -0.0877533235 0.1515853704
430297420.0 -0.1107610384 0.1448942003 0.3465736226 -0.4378218778 0.3463034042 -0.4375626398 -0.085971697 0.1525111056
435297390.0 -0.1096589247 0.1461243337 0.3417622228 -0.4417380626 0.3415544484 -0.4417342695 -0.0837162523 0.1535529456
440297360.0 -0.1081631271 0.1475802623 0.3367360141 -0.4450503627 0.3370646477 -0.4452585987 -0.0826779702 0.154224136
445297330.0 -0.1068012737 0.1481766328 0.3322588945 -0.44872222 0.3320623919 -0.4484849131 -0.0805204011 0.1551538457
450297300.0 -0.1050008704 0.1494913658 0.3272379849 -0.4526859578 0.3270831531 -0.4530980913 -0.0791391238 0.1561860243
455297270.0 -0.103488444 0.1509259958 0.3217378966 -0.4559447285 0.3225982251 -0.4564299581 -0.0773081502 0.1571427237
460297240.0 -0.1025691959 0.1518432969 0.3170550528 -0.4592102618 0.3173451097 -0.4596715121 -0.075409819 0.1583900168
465297210.0 -0.1005971101 0.1530031518 0.3125001596 -0.4634767509 0.3121115229 -0.4633793587 -0.0737311982 0.1590772796
470297180.0 -0.0992009851 0.1539183448 0.3070985164 -0.4665249759 0.3069560553 -0.4662016848 -0.0721463812 0.1603812816
475297150.0 -0.0977350213 0.1549038516 0.3014434094 -0.4691610708 0.3022226584 -0.4693531452 -0.069625727 0.1607309618
480297120.0 -0.0963211725 0.1564298386 0.2969539822 -0.47291676 0.296434114 -0.473095381 -0.0676945856 0.1624323711
485297090.0 -0.0949666335 0.1572832191 0.2918078711 -0.4761038907 0.2916231569 -0.4757054709 -0.06595577 0.1628951082
490297060.0 -0.0940369419 0.1581875847 0.2870281982 -0.4792601979 0.2867503106 -0.4789067085 -0.0643525229 0.1639761707
495297030.0 -0.0921022107 0.1594510122 0.2808741169 -0.482495515 0.2815929819 -0.4824307928 -0.0625612518 0.1648950508
500297000.0 -0.0902636762 0.160574105 0.2757630916 -0.4850663945 0.2759489979 -0.4846827803 -0.0607736908 0.1663385593
505296970.0 -0.0887990733 0.1611455252 0.2706276953 -0.4878175133 0.2705339436 -0.4882055948 -0.0589492967 0.1666502491
510296940.0 -0.0873316096 0.1625116375 0.2651159054 -0.4912060268 0.2649293553 -0.4911170173 -0.0569492187 0.1674826017
515296910.0 -0.0857969336 0.1636119644 0.2597617111 -0.4943530251 0.2599917296 -0.4937545329 -0.0551326495 0.1684746157
520296880.0 -0.0843639072 0.1647334731 0.254622211 -0.4976638917 0.2547143226 -0.496567927 -0.0532821839 0.1692517596
525296850.0 -0.0822288437 0.1650250765 0.2487266284 -0.4995123164 0.2496289376 -0.4996497545 -0.05167253 0.169903931
530296820.0 -0.0809354529 0.166279756 0.2430851128 -0.5024919782 0.243774453 -0.5021791269 -0.0494790606 0.1707247771
535296790.0 -0.0795330017 0.1673487299 0.2384359668 -0.5045519456 0.2383956865 -0.5043034439 -0.0479795446 0.1710114386
540296760.0 -0.077862853 0.1682161931 0.2328579175 -0.507728696 0.2325905594 -0.5075052939 -0.0464946628 0.1722374821
545296730.0 -0.0764094735 0.1690320383 0.2268329111 -0.5094420964 0.2271103116 -0.5097470488 -0.0447215749 0.1727947646
550296700.0 -0.0741971695 0.1701592024 0.2215714007 -0.5122683512 0.2217918579 -0.5120312194 -0.0424554096 0.1736823771
555296670.0 -0.0728856133 0.1706094641 0.216126979 -0.5143469582 0.216315797 -0.5143970175 -0.0404849383 0.1742389403
560296640.0 -0.0710125205 0.1721167119 0.2104558771 -0.5171162039 0.2106099178 -0.5167107378 -0.0384051582 0.1746036351
565296610.0 -0.0697318634 0.1724930345 0.2044470006 -0.5191680723 0.2048935011 -0.5190733413 -0.0368656106 0.1749627945
570296580.0 -0.0681382837 0.1732483654 0.1991244895 -0.5214407496 0.1984264512 -0.5211716169 -0.0348738202 0.176108854
575296550.0 -0.066431462 0.1745050543 0.1934941028 -0.5233815282 0.1934734449 -0.5234268663 -0.0330368589 0.1763614909
580296520.0 -0.0646106208 0.175106152 0.1876478186 -0.5259316791 0.1877693045 -0.5255736803 -0.0311412412 0.1768831846
585296490.0 -0.0629221096 0.1755371647 0.1822498526 -0.5273207176 0.1822326474 -0.5273716525 -0.029172183 0.1774033279
590296460.0 -0.060853191 0.1762670936 0.1766827452 -0.5285901067 0.1765160141 -0.5289856362 -0.0273803235 0.177859514
595296430.0 -0.0593848974 0.177402187 0.1701539679 -0.5313311074 0.1704883726 -0.5312118137 -0.0252245546 0.1778088032
600296400.0 -0.0581663967 0.1778310785 0.1646158796 -0.5331873906 0.1651859838 -0.5327003648 -0.0235708063 0.1784806137
605296370.0 -0.0562578097 0.1788492921 0.1586916777 -0.5348163201 0.1591199792 -0.5345787035 -0.0214850565 0.1788392436
610296340.0 -0.0541259285 0.179373673 0.1525438668 -0.5361878474 0.1533024479 -0.5361077928 -0.0193161558 0.1793368903
615296310.0 -0.0523288474 0.1795993194 0.1472348022 -0.5373619738 0.1471139127 -0.5379957922 -0.0172599252 0.1794427441
620296280.0 -0.0509589769 0.180100763 0.1415689964 -0.5388688418 0.1419005113 -0.5390360813 -0.0155040661 0.179742862
625296250.0 -0.0492492509 0.1805911799 0.136104752 -0.541134632 0.1355979931 -0.5409176043 -0.0127439438 0.1801109888
630296220.0 -0.0467906502 0.1814144227 0.1295934476 -0.5420266559 0.1295408139 -0.5421813985 -0.0113076564 0.1805076598
635296190.0 -0.0459556485 0.1820358808 0.1239746938 -0.5435413641 0.1237884507 -0.5435176326 -0.0087625857 0.1810225499
640296160.0 -0.0439081096 0.1826917311 0.1181080946 -0.5447881417 0.1183012654 -0.5448511567 -0.006755947 0.1808466298
645296130.0 -0.0422346571 0.1835165458 0.1120754458 -0.5454395594 0.1128134503 -0.5461349133 -0.0048494501 0.1811087341
650296100.0 -0.0403673031 0.1837387677 0.1060444225 -0.5467402107 0.1064020537 -0.5469446608 -0.0026750026 0.180871221
655296070.0 -0.0388210024 0.184338264 0.1006285931 -0.5483953231 0.1005358361 -0.5482227336 -0.000699706 0.1815058273
660296040.0 -0.0371629853 0.1844956557 0.0948775335 -0.5494166989 0.0946416837 -0.5493303243 0.0016701815 0.1816393103
665296010.0 -0.0348982164 0.1850143561 0.0881817469 -0.5498168924 0.0886262478 -0.5503640064 0.0037991096 0.1821819659
670295980.0 -0.0337672443 0.1857722333 0.0826327199 -0.5507507639 0.0826728873 -0.5509924176 0.0053426175 0.1819338708
675295950.0 -0.0318086629 0.1864053518 0.0766954071 -0.5512585157 0.0768954638 -0.5514930454 0.0070608491 0.182414502
680295920.0 -0.0299551182 0.1865705259 0.0705486487 -0.5524334674 0.0702384142 -0.5532326546 0.0097786915 0.1827903123
685295890.0 -0.0277898673 0.1876385777 0.0645943734 -0.5534559932 0.0646146075 -0.5532465243 0.0116055833 0.1828529077
690295860.0 -0.0259508892 0.1878390619 0.0585857621 -0.5534255107 0.0586683657 -0.5540694668 0.0134017892 0.1831000259
695295830.0 -0.0244913989 0.1880527542 0.0535148188 -0.5543400861 0.0526082286 -0.5545747941 0.015470184 0.1829962413
700295800.0 -0.0223472686 0.1881465752 0.0466106272 -0.5545848735 0.0465124309 -0.5547539831 0.0172466868 0.1835030173
705295770.0 -0.020812826 0.1893191247 0.040292462 -0.5554706166 0.0412458355 -0.5559441044 0.0194003267 0.1834662769
710295740.0 -0.0186246399 0.189246683 0.0347626707 -0.5562517592 0.0348017499 -0.5561467351 0.0213699675 0.1827549771
715295710.0 -0.0172253191 0.1893374903 0.0289973968 -0.5563764708 0.0286291767 -0.5560345688 0.023525154 0.1828551625
720295680.0 -0.0152945754 0.1897460906 0.0229641317 -0.5564440618 0.0232866349 -0.5564151042 0.0254904574 0.1831435094
725295650.0 -0.0135648702 0.1901520961 0.0168334998 -0.5569578882 0.0168841385 -0.5569404061 0.0273349867 0.1830627192
730295620.0 -0.011039591 0.1905893917 0.0105780936 -0.5565106337 0.0110950789 -0.5568497932 0.02900825 0.1822233523
735295590.0 -0.0097652243 0.1909637264 0.0047171708 -0.5565806365 0.0047324493 -0.5564610172 0.0308971043 0.1820751123
740295560.0 -0.0079548903 0.1911968484 -0.0011981482 -0.55667283 -0.0011567529 -0.5569563851 0.0334756507 0.1822924724
745295530.0 -0.0060915815 0.1915588615 -0.007031308 -0.5565305234 -0.0071969425 -0.5565931872 0.0354332266 0.1815867042
750295500.0 -0.0039620231 0.1914873226 -0.0130539197 -0.5563721313 -0.0131865871 -0.556570803 0.0371376386 0.1814612347
755295470.0 -0.002081037 0.1915903964 -0.018703083 -0.5564328371 -0.0190422721 -0.5562088243 0.0395989039 0.1806745402
760295440.0 -0.0005755406 0.1918954385 -0.0252356957 -0.5566163566 -0.0249723351 -0.5564114743 0.0411694905 0.1809453659
765295410.0 0.0014863135 0.1918189469 -0.0314192157 -0.5559440223 -0.0311353379 -0.5561547895 0.0436662344 0.1805015931
770295380.0 0.0031040544 0.191892591 -0.0374322731 -0.5551973885 -0.0370919564 -0.555224722 0.045483573 0.1800100669
775295350.0 0.0046837595 0.1916736764 -0.0434551586 -0.5546322367 -0.0426937729 -0.5547155766 0.0467783432 0.1799880237
780295320.0 0.0068613646 0.1920965516 -0.0490619689 -0.5544087388 -0.0481426704 -0.5542075799 0.0489478922 0.1789189345
785295290.0 0.0082935008 0.1916845728 -0.0550590206 -0.553102628 -0.0545099189 -0.5537591736 0.0516960681 0.1790280639
790295260.0 0.0111345895 0.1922918593 -0.0607360532 -0.5532859703 -0.0604017904 -0.5531552729 0.0535172579 0.1782657637
795295230.0 0.0126933168 0.1920427304 -0.0668016279 -0.5522054025 -0.0662770793 -0.5523062725 0.0555522189 0.17837463
800295200.0 0.0142893825 0.1924369997 -0.0731947361 -0.5513603759 -0.0725496977 -0.5515396889 0.0574524795 0.17736762
805295170.0 0.0166444187 0.1921982574 -0.0789032147 -0.5502303533 -0.0788125852 -0.5511161946 0.0594258547 0.1771871263
810295140.0 0.0180725294 0.19170749 -0.0844310712 -0.5496019148 -0.0847029762 -0.5498322604 0.0620392996 0.1768882944
815295110.0 0.0199168893 0.1914947349 -0.0905418508 -0.5483518035 -0.0902504485 -0.5486813115 0.0633998732 0.1760521648
820295080.0 0.0214335751 0.1920696988 -0.0964385966 -0.5477808049 -0.0957745407 -0.547530043 0.0655406021 0.1756600588
825295050.0 0.0240729727 0.1917542124 -0.1021444449 -0.5463617441 -0.102257432 -0.5468719193 0.0677494822 0.1748828529
830295020.0 0.0257795509 0.1918262005 -0.10825744 -0.5450133587 -0.1080646963 -0.5450215801 0.0701148949 0.1743891352
