!Created with skrf (http://scikit-rf.org).
# Hz S RI R 50.0 
!freq ReS11 ImS11 ReS21 ImS21 ReS12 ImS12 ReS22 ImS22
300000.0 0.859818354 -0.0020504669 0.0001766076 -0.0004260665 -0.0005932584 8.49745e-05 -0.7744004313 -0.1194588157
5299970.0 0.858535853 -0.0097012828 5.62141e-05 -0.0001199147 -8.725e-05 0.0002032636 -0.7851941931 -0.0066790591
10299940.0 0.8578871413 -0.0185170254 1.92702e-05 -8.76436e-05 -0.0001307847 4.26122e-05 -0.78837596 -0.0035739153
15299910.0 0.8567681562 -0.0270245362 -4.00012e-05 -4.5546e-05 -0.000178687 -2.87201e-05 -0.7936572884 -0.0014808696
20299880.0 0.8565114355 -0.0352966405 -0.0001256493 2.68035e-05 -4.7636e-05 -0.0001833904 -0.8003207705 0.0022201089
25299850.0 0.8555353638 -0.0436046237 -0.0002192298 0.0001059442 -0.0001547403 3.07067e-05 -0.8065244092 0.008207336
30299820.0 0.8544356643 -0.0519571631 -6.8236e-06 -5.65201e-05 1.2498e-06 -0.0001389288 -0.8129539876 0.0160550955
35299790.0 0.8541835938 -0.0601390073 0.0001398126 0.0001876874 8.2187e-06 4.19204e-05 -0.8170387968 0.0251115673
40299760.0 0.853131832 -0.0691391249 -0.0001182238 -0.0002830714 -0.0001327978 0.0001421254 -0.8215839912 0.034033206
45299730.0 0.8529428313 -0.0774268969 -1.13565e-05 -0.0001404349 -0.0001714399 -8.74698e-05 -0.8253013259 0.0438414593
50299700.0 0.8522712316 -0.0846449771 0.0001294484 -0.0001489827 -0.0002298712 -7.34647e-05 -0.827319835 0.0538022499
55299670.0 0.851059767 -0.0932884267 -9.5201e-06 -0.0001093003 -2.82711e-05 3.4093e-06 -0.8299757607 0.0641967261
60299640.0 0.849259491 -0.1008434642 -0.0001179211 -3.0564e-06 -5.04792e-05 -3.42557e-05 -0.8302689883 0.0737345426
65299610.0 0.8485471682 -0.1099991763 3.40447e-05 -5.88293e-05 9.15404e-05 0.0001170505 -0.8320470862 0.0838962103
70299580.0 0.8478590199 -0.1185663071 -0.000248075 -0.0001498877 -1.63936e-05 0.0001796579 -0.8319120967 0.0941374787
75299550.0 0.8461967566 -0.1263077848 2.9565e-05 -3.81342e-05 8.667e-05 -0.0001122891 -0.8318924516 0.103938117
80299520.0 0.8445508291 -0.1346714532 -8.0673e-06 -8.98314e-05 -0.0001409753 -4.96439e-05 -0.8321552496 0.1134785906
85299490.0 0.8431590802 -0.1427192176 0.000110786 -9.49195e-05 -2.65457e-05 8.0279e-06 -0.8316474586 0.1235916434
90299460.0 0.8415298514 -0.1509053758 0.0001979077 -0.0001642641 5.20379e-05 8.85858e-05 -0.8303203456 0.1326934318
95299430.0 0.8397080507 -0.1596381762 -4.88164e-05 -7.54134e-05 0.0001485406 -6.27588e-05 -0.8294112411 0.1428346934
100299400.0 0.838411388 -0.1672619263 2.98326e-05 6.84697e-05 -0.0001866455 -1.43489e-05 -0.8285362154 0.1518527359
105299370.0 0.8372888509 -0.1759471988 -0.0001233127 -4.61211e-05 6.71947e-05 8.24102e-05 -0.8275244252 0.1608890063
110299340.0 0.8352700837 -0.1840736873 9.2066e-05 -0.0001447769 -3.97653e-05 -0.0001519478 -0.8260562821 0.170788117
115299310.0 0.8333593685 -0.191748863 6.11994e-05 0.0001299167 -3.37171e-05 7.73758e-05 -0.8239923043 0.1797627332
120299280.0 0.8315503957 -0.1996336344 -5.78925e-05 5.56347e-05 0.0001175638 -2.08412e-05 -0.8223712199 0.1889140294
125299250.0 0.8294629395 -0.2081427836 7.86217e-05 6.414e-07 -6.92975e-05 -3.30842e-05 -0.820993018 0.1979903622
130299220.0 0.8275342016 -0.2169236763 -8.2061e-05 -6.15914e-05 -0.0001804624 -8.55936e-05 -0.819236498 0.2069159366
135299190.0 0.8253975511 -0.2238828319 -0.0001708181 -0.0001001879 -3.23183e-05 -0.0002010783 -0.817224733 0.216116472
140299160.0 0.8229277396 -0.2321803917 0.0001663482 1.60054e-05 -5.86445e-05 3.04367e-05 -0.8152036712 0.2248593028
145299130.0 0.8205275825 -0.2400960687 0.0001287655 3.81277e-05 3.5258e-05 -5.84781e-05 -0.8129656188 0.2342242952
150299100.0 0.8181209067 -0.2482394501 -1.66457e-05 -5.12646e-05 -1.6188e-05 1.56865e-05 -0.8113643087 0.242940873
155299070.0 0.8153642017 -0.2563084446 -0.0002636716 -0.0001121234 -4.85755e-05 -7.63515e-05 -0.8080003162 0.2519404667
160299040.0 0.8131314233 -0.2643946627 0.0001322186 -1.39209e-05 -1.88787e-05 0.0001054612 -0.805778086 0.2611467979
165299010.0 0.8104760891 -0.2719143273 5.32221e-05 6.9937e-06 -5.44604e-05 -3.83045e-05 -0.8030199817 0.2696281692
170298980.0 0.8078529004 -0.2794430929 0.0001201689 -5.365e-06 6.5601e-05 -1.22465e-05 -0.7999295515 0.2783419596
175298950.0 0.8049607498 -0.2880270149 8.9382e-05 6.63222e-05 -0.0002507656 -5.6957e-05 -0.7975504193 0.2866827191
180298920.0 0.8024220005 -0.2958086733 0.0002257051 4.5513e-06 -0.0001027233 3.44729e-05 -0.7943452396 0.294859954
185298890.0 0.7986234627 -0.3033823814 3.64491e-05 -8.87878e-05 7.99513e-05 4.03698e-05 -0.7909570362 0.303931764
190298860.0 0.7959971776 -0.3114396597 9.29754e-05 0.0002245681 3.02952e-05 -3.05253e-05 -0.7889187974 0.3118742712
195298830.0 0.7929524534 -0.3189699805 9.90649e-05 -5.68723e-05 0.0002745963 0.0001476874 -0.7848770745 0.3205625739
200298800.0 0.7891065937 -0.326410513 -0.00012403 4.61209e-05 1.23829e-05 3.0519e-06 -0.7820137198 0.3290869863
205298770.0 0.7863806315 -0.3338801396 -6.1614e-05 0.0001967221 1.98e-05 -2.31566e-05 -0.7779264258 0.3377523246
210298740.0 0.7825730308 -0.3420604984 -0.0001185267 -4.53733e-05 -6.33059e-05 -1.11272e-05 -0.7746745403 0.3451395638
215298710.0 0.7788069676 -0.3499504442 4.40387e-05 -6.77859e-05 5.18463e-05 -0.0001713869 -0.7715965001 0.3536345481
220298680.0 0.7755825862 -0.3569979652 0.0001020142 -0.0001106408 -0.0002185765 1.73437e-05 -0.7677593909 0.3617488191
225298650.0 0.7722458654 -0.3654362279 -0.0001966891 -9.98222e-05 -6.88417e-05 -0.000221234 -0.7639742111 0.3691114452
230298620.0 0.768438946 -0.3725568097 0.0001589691 0.0001349299 -2.40717e-05 3.98579e-05 -0.759603717 0.3781310692
235298590.0 0.7649291421 -0.3799594179 -5.91621e-05 -0.000108242 4.35212e-05 6.34483e-05 -0.7559068336 0.3867325242
240298560.0 0.7614001174 -0.3870105807 -0.0002118664 6.72317e-05 -0.0001760918 8.30704e-05 -0.7513709796 0.3949315413
245298530.0 0.7576473194 -0.3945466244 -0.0001675826 0.0001929565 -2.11234e-05 -0.0001819593 -0.7476877638 0.4020727412
250298500.0 0.7539006146 -0.4020994696 -0.0001694262 -8.74873e-05 3.23163e-05 -9.49653e-05 -0.7430263358 0.4096688296
255298470.0 0.7488978109 -0.4097215247 -9.24241e-05 -0.0001472596 -0.000107239 -6.55802e-05 -0.7392647654 0.4178141088
260298440.0 0.7450913386 -0.4163907089 0.000159452 8.70632e-05 -3.13938e-05 6.28369e-05 -0.735118844 0.4262626752
265298410.0 0.7412812497 -0.4241282603 0.0001792552 -0.0001291303 0.0002136492 2.17861e-05 -0.7301186809 0.433513719
270298380.0 0.7366250459 -0.4314507065 2.2104e-05 -0.0002623357 0.0002159794 0.000140052 -0.7253802248 0.4407743857
275298350.0 0.732972147 -0.4383748754 -5.43908e-05 -0.000119652 -0.0001151721 0.0002376413 -0.7209483537 0.4484795492
280298320.0 0.7284288246 -0.4454855218 3.12936e-05 8.16054e-05 6.61598e-05 -0.0001282212 -0.7162079313 0.4559229499
285298290.0 0.7242944411 -0.4530200987 5.33908e-05 0.0003396618 -0.0001484456 -9.76174e-05 -0.7109865535 0.4638623052
290298260.0 0.7196053211 -0.4595628456 0.0002361085 1.95553e-05 -2.3318e-06 -8.68511e-05 -0.7065825075 0.4709605281
295298230.0 0.7153987234 -0.4664660362 -9.96787e-05 3.0044e-06 -0.0002011636 -5.61868e-05 -0.7012453782 0.4778744937
300298200.0 0.7116573372 -0.4745154254 -3.555e-06 2.63696e-05 3.88222e-05 -2.40599e-05 -0.6966483362 0.4857581459
305298170.0 0.7071279443 -0.4810782622 -0.0002485754 0.0003941855 -0.0001626739 7.38288e-05 -0.6908390114 0.4934260656
310298140.0 0.7025123977 -0.4883995029 -1.19968e-05 2.69269e-05 1.2615e-05 0.0001941798 -0.686691184 0.4999145287
315298110.0 0.6979318656 -0.4957993813 -1.63409e-05 -0.0002167644 0.0002288011 -8.8622e-06 -0.6808193663 0.5073643
320298080.0 0.6934706029 -0.5036283626 4.51885e-05 -9.99595e-05 0.0001329918 3.89371e-05 -0.6756175676 0.5144383673
325298050.0 0.6879763763 -0.5102616244 0.0002430735 0.0001047612 -2.5615e-05 0.0001714961 -0.6698518036 0.5215579371
330298020.0 0.6817055836 -0.5179928014 6.12151e-05 -4.8259e-05 -6.11512e-05 -0.0002059856 -0.6646532955 0.5288689089
335297990.0 0.6755433219 -0.5244436599 -0.0001279261 -0.0001262442 0.0001509516 5.19323e-05 -0.6593342416 0.5356508065
340297960.0 0.6696768586 -0.5315613006 -0.0002122116 4.10577e-05 5.97504e-05 -0.0001248293 -0.653388129 0.5423949213
345297930.0 0.6636323015 -0.5373003188 0.0002791891 -9.11095e-05 -0.0001068416 -1.6633e-05 -0.6474841922 0.5486928085
350297900.0 0.6579179321 -0.5433614767 -4.5623e-06 4.3916e-06 0.0001116187 -0.0001171678 -0.6416745111 0.5555817797
355297870.0 0.6528308383 -0.5493886806 0.0001310464 -0.0001151776 6.3987e-06 -6.84291e-05 -0.6363229697 0.5619499555
360297840.0 0.6476275266 -0.5560854162 -0.0001237572 -8.19108e-05 7.77994e-05 -7.32696e-05 -0.6303435881 0.5688002783
365297810.0 0.6408630124 -0.5623091886 -0.0001480203 7.3519e-05 -3.63773e-05 -4.73025e-05 -0.6234147947 0.5753575137
370297780.0 0.6361361863 -0.5684807156 8.6589e-06 -8.6855e-06 -9.2468e-06 -0.0001866417 -0.6176676543 0.5818976551
375297750.0 0.6295944725 -0.5739882769 7.8428e-06 -0.0002169832 -9.901e-07 5.96728e-05 -0.6121293582 0.5876735183
380297720.0 0.62412767 -0.5804152625 1.91317e-05 0.0001504785 0.0003074268 0.0001012803 -0.606037077 0.5942189232
385297690.0 0.6181747885 -0.5864482721 0.0002675235 -2.53404e-05 -0.0002137243 -0.0001123929 -0.5998144278 0.6007804144
390297660.0 0.6126546563 -0.5920016366 3.14043e-05 -0.000104889 0.0001700056 0.0001185291 -0.5937596226 0.6067022863
395297630.0 0.6069031102 -0.5977873641 -2.23934e-05 -1.58655e-05 -5.6173e-06 0.0001326175 -0.5868605358 0.6133807258
400297600.0 0.6012896619 -0.6040542707 9.82883e-05 1.87299e-05 -8.70409e-05 0.000180105 -0.5809645174 0.6186340964
405297570.0 0.5947619027 -0.6097347966 -1.72207e-05 0.0001169152 -0.0001251663 0.0001512343 -0.5740511065 0.6245062261
410297540.0 0.5890886198 -0.6156158356 -0.000148356 0.0001359112 7.59035e-05 -0.000117717 -0.5675894305 0.630574177
415297510.0 0.5823123757 -0.6209944487 -0.0001281016 -3.65182e-05 -2.62123e-05 -7.9397e-05 -0.5614031238 0.6361115876
420297480.0 0.5765015604 -0.6267209713 3.0685e-05 -3.92636e-05 1.7556e-06 -8.5478e-05 -0.554926993 0.6422167856
425297450.0 0.5698929064 -0.6321953193 -1.32532e-05 1.3485e-06 -3.2695e-05 -0.0001514461 -0.548235645 0.6479464367
430297420.0 0.5637515868 -0.6374142974 -3.9512e-06 0.00011153 -9.01919e-05 -0.0001467587 -0.5415125892 0.6528293877
435297390.0 0.5574975146 -0.6428505551 9.71731e-05 2.9233e-05 -0.0001066707 -6.17853e-05 -0.5337469974 0.6587552211
440297360.0 0.5506761286 -0.6485982875 0.0001258246 0.0002785784 -3.32305e-05 -4.3873e-05 -0.5271244311 0.6638930979
445297330.0 0.5445181847 -0.6537991127 -2.20362e-05 -5.3052e-05 -5.51258e-05 6.54901e-05 -0.5204099305 0.6686192919
450297300.0 0.5377678524 -0.6587119029 -9.29239e-05 -7.999e-05 -0.0001112703 -0.0001644591 -0.5139640693 0.6741233933
455297270.0 0.5312311262 -0.6641288455 0.0001641359 0.0002011835 -4.49284e-05 -0.0002116715 -0.5065407922 0.67883988
460297240.0 0.5248753013 -0.6692377679 -8.945e-06 -7.51977e-05 5.75433e-05 1.1535e-05 -0.499819563 0.6847131806
465297210.0 0.5182017647 -0.6741540807 -0.0001328738 7.75427e-05 0.0001015983 1.1277e-06 -0.4922565041 0.6894364922
470297180.0 0.5110022632 -0.6790449231 3.27556e-05 -0.0001186864 0.0001141752 -2.20022e-05 -0.4850934985 0.6948190162
475297150.0 0.5045607767 -0.6840637535 3.96122e-05 7.24517e-05 -2.36127e-05 0.0001498313 -0.4783524939 0.6994454614
480297120.0 0.4972223606 -0.6890205086 -5.01369e-05 -0.0002005802 -0.0001036144 -7.19684e-05 -0.4703976939 0.7040196817
485297090.0 0.4908027521 -0.6935227491 0.0001101122 0.0001328136 7.84274e-05 0.0001540031 -0.4638299381 0.7089784543
490297060.0 0.4832040782 -0.6987514862 2.64675e-05 0.0001350399 0.0001022437 5.95765e-05 -0.4564501405 0.7131368141
495297030.0 0.4769033478 -0.7031092411 9.36482e-05 2.81051e-05 -8.43289e-05 -4.44491e-05 -0.448985845 0.7184286168
500297000.0 0.4691386978 -0.707629527 2.465e-05 -0.0001488939 -0.0001392164 0.0001245264 -0.4416397001 0.7226970493
505296970.0 0.4631418927 -0.7124096809 -5.87681e-05 -3.64297e-05 0.0001696764 0.0001339184 -0.434335917 0.726871722
510296940.0 0.4554793985 -0.7168712639 -3.82434e-05 2.20897e-05 -0.0001212752 -3.2432e-05 -0.4269667959 0.7313683545
515296910.0 0.4487926308 -0.7210630119 -0.0001150409 0.0001128563 -0.0002498046 3.94644e-05 -0.419073322 0.7355053592
520296880.0 0.4413284748 -0.725403651 -9.5311e-05 -0.0001246195 0.0001858957 -6.11171e-05 -0.4117973404 0.7391963811
525296850.0 0.4341417673 -0.7302510949 -0.000105104 -0.0001170413 8.9668e-05 -1.12984e-05 -0.404582208 0.7436383469
530296820.0 0.4270407658 -0.7335299717 -7.71586e-05 1.32922e-05 1.04256e-05 8.71741e-05 -0.3968479488 0.7473794438
535296790.0 0.419654785 -0.7382717526 6.08862e-05 -0.0001186004 -0.0001831244 -0.0001731839 -0.3896753158 0.7519687493
540296760.0 0.4124041533 -0.741942575 -0.000207515 2.17271e-05 -0.0002394619 -0.0001005284 -0.3813515572 0.7558211383
545296730.0 0.404791127 -0.7462078684 3.22232e-05 -6.88912e-05 5.3506e-05 -8.49146e-05 -0.373875523 0.7593997851
550296700.0 0.3972853098 -0.7490523338 0.0001550345 2.89782e-05 -3.62014e-05 0.0002250622 -0.3659121621 0.7634509551
555296670.0 0.3896215023 -0.7535481943 2.52557e-05 4e-08 3.41839e-05 -8.52862e-05 -0.3585250054 0.766932858
560296640.0 0.3824979608 -0.7570940501 0.000129873 -8.291e-06 -6.52969e-05 4.05198e-05 -0.3505282587 0.7704621384
565296610.0 0.374984832 -0.7605287942 -0.0001761963 -0.000111505 -0.0001332926 1.67867e-05 -0.3425102231 0.7735155944
570296580.0 0.3670333655 -0.7636206986 2.68945e-05 5.93198e-05 9.2757e-05 -0.0001659661 -0.3352819416 0.777631974
575296550.0 0.3594216726 -0.7674459843 0.0001367418 3.87782e-05 0.000128309 0.0001229367 -0.3265600349 0.7803708863
580296520.0 0.3521614368 -0.7713921819 -0.000180255 -0.0001068608 1.20198e-05 4.42204e-05 -0.3184911011 0.7837806251
585296490.0 0.3438372089 -0.7744651591 6.76586e-05 8.74548e-05 -2e-08 6.80951e-05 -0.3106068055 0.7869979299
590296460.0 0.3370287207 -0.7774469689 1.74613e-05 -2.29359e-05 0.0001363126 3.16757e-05 -0.3030095775 0.7901630282
595296430.0 0.3283627218 -0.7811927613 -0.0002132478 0.000151273 9.56556e-05 -1.46555e-05 -0.2947640488 0.7923357547
600296400.0 0.3203799413 -0.7839000653 -0.0001841528 -0.0001712331 6.01294e-05 7.09526e-05 -0.2872070476 0.7955047424
605296370.0 0.312449062 -0.7872717697 0.0003027991 0.0001267766 -2.76131e-05 6.6397e-05 -0.2783227914 0.7984631067
610296340.0 0.3052405193 -0.7901962482 0.0001172 -2.64536e-05 7.2368e-05 -8.4323e-06 -0.2706101761 0.8013010756
615296310.0 0.2975492321 -0.7935103082 0.0002977963 2.95397e-05 -5.34811e-05 6.33042e-05 -0.2618474303 0.8036849605
620296280.0 0.288794066 -0.7955937411 9.22482e-05 -9.61001e-05 -2.45191e-05 9.54995e-05 -0.2549135554 0.8066473366
625296250.0 0.2817734643 -0.798406726 3.90192e-05 -0.0002528201 0.000175202 2.8125e-05 -0.2457203945 0.8083386333
630296220.0 0.2732821101 -0.8010977313 3.95657e-05 -0.0001241163 5.70082e-05 9.5717e-05 -0.2381203817 0.8113512587
635296190.0 0.2655985525 -0.8038786283 -7.28305e-05 -0.0002031766 -9.45047e-05 7.23943e-05 -0.2297943669 0.8138058567
640296160.0 0.2574133891 -0.8062098235 -0.000344525 0.0002373692 4.3393e-05 -7.28443e-05 -0.2213723362 0.8158577897
645296130.0 0.2496354459 -0.8084031115 -0.000216945 -1.89615e-05 0.0001101743 -1.90453e-05 -0.2133444345 0.8182864583
650296100.0 0.2411951282 -0.8107467921 2.87293e-05 0.000217034 7.32219e-05 -0.0001689864 -0.2049554558 0.8191885141
655296070.0 0.2331047686 -0.8131130123 -7.41269e-05 4.45626e-05 -1.02144e-05 0.0001631098 -0.196886832 0.8214668797
660296040.0 0.2255871492 -0.8156726807 -5.22035e-05 -0.0001342147 0.000123417 0.0002107542 -0.1879528317 0.8233598084
665296010.0 0.2176893717 -0.8170842428 9.4404e-06 9.65246e-05 1.55891e-05 -5.1793e-06 -0.1797671418 0.8261455132
670295980.0 0.2087694919 -0.8197658722 -2.68011e-05 -0.0001663458 -2.17574e-05 -4.81738e-05 -0.1725887104 0.8273619712
675295950.0 0.2008295975 -0.821207143 8.41523e-05 -7.3577e-06 -0.0001126378 0.0001024013 -0.1643730147 0.8292140329
680295920.0 0.1927663282 -0.8228842527 -3.56362e-05 8.4893e-05 9.09952e-05 -5.08485e-05 -0.1552899723 0.8315823486
685295890.0 0.184708114 -0.8238715272 -4.01008e-05 2.8681e-06 -3.93591e-05 -2.06965e-05 -0.1465340112 0.8318623262
690295860.0 0.1756809342 -0.8261987305 -0.0001984656 -0.0001276956 5.2e-06 -8.06856e-05 -0.1387879773 0.8335829571
695295830.0 0.1679431878 -0.8278784365 0.0001259282 0.0002116445 -4.64721e-05 -0.0001322592 -0.1301224691 0.8352477294
700295800.0 0.1597680467 -0.8291881055 9.83198e-05 0.0001973622 -4.61457e-05 0.0001038133 -0.1227056201 0.8359925335
705295770.0 0.1511937038 -0.8308585231 -2.3222e-06 -0.0001255731 0.0001150077 -1.16738e-05 -0.1141245062 0.8380219609
710295740.0 0.1424212638 -0.8319222444 0.0001627582 -5.35718e-05 -7.11788e-05 1.0353e-06 -0.1055391643 0.8386758387
715295710.0 0.1338740711 -0.8340371046 -5.06351e-05 -0.0001211391 2.03119e-05 -0.0002032006 -0.096655494 0.839714356
720295680.0 0.126373951 -0.8349435466 9.11487e-05 0.0001329062 -0.000190681 4.39816e-05 -0.0884701529 0.8408567872
725295650.0 0.1174697681 -0.8346078981 9.85528e-05 -0.0003876329 0.0001053268 -4.28597e-05 -0.0805355253 0.8421388125
730295620.0 0.1090650819 -0.8361026413 -0.0001107994 6.2327e-05 0.0001196432 7.96344e-05 -0.0724578516 0.84215538
735295590.0 0.1006636397 -0.836589551 0.0002055762 7.5592e-06 8.80948e-05 -0.0001040941 -0.0632671081 0.8422644941
740295560.0 0.0926546716 -0.8375866818 -5.87982e-05 -3.994e-06 4.02003e-05 -6.644e-06 -0.0547228691 0.8432231847
745295530.0 0.0842772079 -0.8388828306 0.0002014496 0.0002002322 -1.0062e-06 -0.000126251 -0.0461874856 0.8439042728
750295500.0 0.0760123976 -0.8393009921 -7.08893e-05 -0.0001361991 8.75173e-05 -8.63349e-05 -0.0379970222 0.8445762045
755295470.0 0.0670900721 -0.8401062998 -1.28047e-05 1.798e-06 -7.66471e-05 2.339e-06 -0.0296450604 0.8443050169
760295440.0 0.0590844928 -0.8402212131 -7.49321e-05 -0.0001149846 0.0001033598 0.0001827121 -0.0208141656 0.8448446445
765295410.0 0.0511284576 -0.8409612998 0.0001548164 -9.50365e-05 0.000125202 -0.0001408138 -0.0126346608 0.8452053773
770295380.0 0.042028555 -0.8411714552 -2.84705e-05 5.09952e-05 -0.0001183868 -0.0001339761 -0.0043923299 0.8451253884
775295350.0 0.0332883252 -0.841392456 -0.0002863397 -1.82689e-05 -3.15674e-05 0.0001244527 0.0034749215 0.8447823653
780295320.0 0.0253431861 -0.8414380566 -0.000131427 -0.0001537834 -0.0001113364 -1.12371e-05 0.012132568 0.8443461161
785295290.0 0.016942676 -0.8416631991 1.89589e-05 6.60292e-05 -0.0001110248 -9.87935e-05 0.0211733227 0.8447032987
790295260.0 0.0086992519 -0.8413200243 -0.0004444064 7.7835e-05 -0.0001367967 -3.40654e-05 0.0298528722 0.8440363288
795295230.0 0.000420878 -0.8415141464 6.97806e-05 -0.0001029212 0.0001425552 1.83911e-05 0.0386099428 0.8433016142
800295200.0 -0.0087265737 -0.841178312 -1.8918e-05 6.98313e-05 -0.0001769877 -0.0001608662 0.0467930979 0.8436396817
805295170.0 -0.0167449448 -0.8409255259 8.61047e-05 -6.33635e-05 3.52965e-05 7.72084e-05 0.0541838458 0.8432610184
810295140.0 -0.02466037 -0.8407392315 -5.06799e-05 -0.0002644113 0.000159368 -9.12569e-05 0.063581443 0.8422961877
815295110.0 -0.0334242161 -0.8403429372 8.98114e-05 -0.0001300432 -0.0001120793 0.0002133488 0.0716945776 0.8415930468
820295080.0 -0.0416426743 -0.8395109574 -0.0002222692 -8.48247e-05 -0.0001229878 -4.32529e-05 0.079613318 0.8407696181
825295050.0 -0.0500076541 -0.8390450088 -0.0002763934 6.23812e-05 -3.90456e-05 2.36037e-05 0.0880458828 0.8403845654
830295020.0 -0.0584508685 -0.8384227862 -0.0001819425 -1.8635e-05 -1.50028e-05 8.84549e-05 0.0973251168 0.8389346177
835294990.0 -0.0668220683 -0.8374020522 0.000175425 -5.8131e-05 -3.65879e-05 -7.69285e-05 0.1049388917 0.8384413409
840294960.0 -0.0745535495 -0.8369024927 9.83929e-05 0.0001269228 0.0001815336 -0.0001198395 0.1130140511 0.8370863838
845294930.0 -0.0833501472 -0.8354201141 -0.0002741955 -0.000109098 -0.0001252831 0.0001354145 0.1216717735 0.8353452187
850294900.0 -0.0909759117 -0.8347946206 -0.0001423076 -6.98308e-05 0.0001785056 -1.19805e-05 0.1300267936 0.8345126805
