!Created with skrf (http://scikit-rf.org).
# Hz S RI R 50.0 
!freq ReS11 ImS11 ReS21 ImS21 ReS12 ImS12 ReS22 ImS22
300000.0 -0.7738427998 -0.1553762406 0.000459079 0.0005850677 -0.0003075572 0.0011279134 -0.2082518001 -0.0928507268
5299970.0 -0.7853788866 -0.0075256213 0.0002759516 0.0001480086 -0.000224981 5.04478e-05 -0.2162109377 0.0066377
10299940.0 -0.7872715924 -0.0042392301 -3.17774e-05 -9.71027e-05 -0.0001523045 -8.17535e-05 -0.2131080628 0.0189502729
15299910.0 -0.7936176914 -0.0014133216 0.0001024053 -0.0001909349 3.6293e-05 -0.0002343114 -0.2080093309 0.0276800754
20299880.0 -0.7995250302 0.0022213416 -2.85126e-05 0.0001535131 -4.46906e-05 8.93615e-05 -0.2033042027 0.0357201122
25299850.0 -0.8063927706 0.0084789989 3.81274e-05 1.76301e-05 -2.34072e-05 -8.3309e-06 -0.1973790652 0.0414736302
30299820.0 -0.8121356446 0.0162675895 -0.000204962 7.88668e-05 -0.0001110616 4.67493e-05 -0.1918323494 0.0462157952
35299790.0 -0.8171477891 0.0254290056 1.39932e-05 0.0001152391 -0.0001666552 -4.53356e-05 -0.1859112124 0.050167651
40299760.0 -0.8214809346 0.0342143963 0.0001232598 9.38996e-05 -0.0001964764 -0.0001379586 -0.1805466257 0.0527879562
45299730.0 -0.8247731834 0.0442739047 7.5067e-06 0.0002476332 -0.0001437344 -6.47566e-05 -0.1756280676 0.0550619878
50299700.0 -0.8261916544 0.0539693739 -9.59138e-05 7.30661e-05 4.95775e-05 8.15584e-05 -0.1701947023 0.0566987033
55299670.0 -0.8288583971 0.0641388055 -5.9769e-05 3.39697e-05 -0.0001717662 -7.51359e-05 -0.1665308556 0.0578783702
60299640.0 -0.82965957 0.0743154836 4.40835e-05 7.22037e-05 -7.90018e-05 6.88085e-05 -0.162419114 0.0585497891
65299610.0 -0.8303452871 0.0848152349 -0.0001179432 -3.53612e-05 -1.38619e-05 5.37732e-05 -0.1587235941 0.0590393845
70299580.0 -0.8312122976 0.0944497242 0.0001363843 2.40983e-05 7.64689e-05 5.87874e-05 -0.1553095495 0.0594021119
75299550.0 -0.8313640662 0.1046673742 -8.67168e-05 0.0001175819 -6.8536e-06 2.27153e-05 -0.152516567 0.059618169
80299520.0 -0.8312715256 0.1142767085 -3.6917e-05 1.9454e-06 -0.0001407048 -2.2877e-06 -0.1503142855 0.059634769
85299490.0 -0.8310377715 0.1240114163 -7.96773e-05 5.36645e-05 -0.0001451249 -7.80238e-05 -0.147768056 0.0596253656
90299460.0 -0.8294960056 0.1339521931 0.0001259098 -0.0001036192 4.34221e-05 0.0002345043 -0.1455152294 0.0595132365
95299430.0 -0.8287501256 0.1435064295 0.0002082343 0.0002331378 -1.0817e-05 8.9996e-05 -0.1434283531 0.0597745764
100299400.0 -0.8275278208 0.1528629192 -2.89089e-05 9.50889e-05 1.38598e-05 -7.69776e-05 -0.1420245847 0.05972588
105299370.0 -0.8261611251 0.1620165486 4.81918e-05 -2.8498e-05 7.13966e-05 0.0002160897 -0.1398832216 0.0589098831
110299340.0 -0.8250128563 0.1708766635 7.19535e-05 4.72901e-05 7.78595e-05 0.0001183673 -0.1389687737 0.0596223656
115299310.0 -0.8233227235 0.1803908438 -0.0001177455 8.81292e-05 8.00566e-05 0.0002630812 -0.1373070907 0.0594517342
120299280.0 -0.8216882807 0.1897907518 -0.0001002603 -5.98168e-05 0.0001502262 -3.39361e-05 -0.1359466856 0.0594182604
125299250.0 -0.820695298 0.1983547985 -5.21729e-05 0.0002747204 8.91334e-05 -4.06287e-05 -0.1349200338 0.0595817038
130299220.0 -0.8181114774 0.2081132443 2.86242e-05 8.08039e-05 8.63105e-05 3.97099e-05 -0.134438576 0.0598740214
135299190.0 -0.8164242437 0.2165597817 0.0001681352 0.0003451164 -7.04736e-05 -5.23482e-05 -0.1331236175 0.0598266106
140299160.0 -0.8144303173 0.2252965571 0.0001562798 0.000171927 4.12301e-05 -7.35492e-05 -0.1321522417 0.0598178723
145299130.0 -0.8124663451 0.2342306794 -0.0001247035 5.048e-06 -1.6297e-06 7.23327e-05 -0.1318268263 0.060429817
150299100.0 -0.8103037553 0.2430767471 -5.80184e-05 5.28134e-05 -0.0001080747 0.0001145971 -0.1308221538 0.0602726471
155299070.0 -0.8073649321 0.2521356049 1.88604e-05 -6.77526e-05 -1.46523e-05 -2.44544e-05 -0.1303289547 0.0608159598
160299040.0 -0.8045558726 0.2610007118 -4.30403e-05 -7.59171e-05 0.0003390903 0.00018377 -0.1296214581 0.0615358738
165299010.0 -0.8021522606 0.2691867277 -0.0001048193 0.0001356963 0.0001352926 0.0001259411 -0.128990925 0.0613927898
170298980.0 -0.7997382399 0.2779533162 6.66227e-05 0.0001623908 0.0001228715 0.0002222467 -0.1284037458 0.0622331468
175298950.0 -0.7968691313 0.2874176265 5.33781e-05 4.3163e-05 0.0001308389 0.0001779715 -0.1278929549 0.0627106299
180298920.0 -0.7934590623 0.2952178883 4.16481e-05 -2.33575e-05 4.55932e-05 -9.47381e-05 -0.126859696 0.0630867546
185298890.0 -0.7907954856 0.3043317529 0.0001594644 1.33716e-05 6.59576e-05 4.44393e-05 -0.126990409 0.0636789104
190298860.0 -0.7869848519 0.3124684022 3.19095e-05 0.0001029582 -5.8082e-06 9.01118e-05 -0.1261183709 0.0644080363
195298830.0 -0.7842138812 0.3213975198 -6.77001e-05 5.36297e-05 4.21726e-05 0.0001247976 -0.1255756702 0.065098416
200298800.0 -0.7807912306 0.3294781945 4.34894e-05 -6.88953e-05 4.61774e-05 -5.6269e-05 -0.1249274837 0.0656653984
205298770.0 -0.7771874721 0.3376284385 5.42909e-05 9.75058e-05 1.66192e-05 0.0002005742 -0.1247424444 0.0666631891
210298740.0 -0.7740638153 0.3455720307 3.88349e-05 0.0002523568 2.5679e-05 0.0001607615 -0.1240212627 0.0673244924
215298710.0 -0.7705027251 0.3540333501 0.0001009284 4.1019e-06 1.63202e-05 -0.0001715299 -0.1240150542 0.0680568096
220298680.0 -0.7669879573 0.3620949781 -0.0001075667 0.0001285656 0.0001542772 3.01271e-05 -0.1231270306 0.0690906653
225298650.0 -0.7625341264 0.3711702382 0.0001138326 0.0002231465 0.000125047 -2.673e-07 -0.1229070839 0.0695756038
230298620.0 -0.7587410533 0.3784834804 7.98359e-05 -1.6379e-06 0.0001949051 6.68273e-05 -0.1221190262 0.070251381
235298590.0 -0.7544150297 0.3867552878 -0.0001109843 9.43552e-05 0.0001538265 0.0002217887 -0.1214547779 0.0710580384
240298560.0 -0.7509176996 0.3949417881 7.10539e-05 3.4231e-06 -8.41343e-05 -1.43716e-05 -0.1212430314 0.0723725136
245298530.0 -0.7464967422 0.4029244188 -1.29811e-05 0.0001382817 0.000261929 0.0001729222 -0.1206205649 0.073139603
250298500.0 -0.7425648607 0.4101460663 6.08149e-05 0.0002004755 -0.0001736547 -5.15037e-05 -0.1196842638 0.0743902182
255298470.0 -0.7376877107 0.4190178674 7.48036e-05 9.2116e-05 0.0001434169 -9.01116e-05 -0.1195012571 0.0749924337
260298440.0 -0.7334790086 0.4258804972 0.0001071544 -4.67463e-05 -0.0001353983 -3.03304e-05 -0.118935686 0.0760091111
265298410.0 -0.7291182679 0.4342370889 0.0001131693 0.0001431038 -2.1262e-06 0.0001414088 -0.1185775951 0.0766230546
270298380.0 -0.724140891 0.4412984705 2.8405e-05 0.0001323342 9.60448e-05 1.19975e-05 -0.1175351797 0.0773660372
275298350.0 -0.7194531164 0.4493358472 0.000413336 0.0002087315 8.9852e-06 3.6525e-05 -0.1171046828 0.0790108735
280298320.0 -0.7147915823 0.4567516654 0.0002517379 5.63416e-05 4.92159e-05 -6.99735e-05 -0.1165974207 0.079940726
285298290.0 -0.7106557275 0.4645623801 0.0001096296 0.000169203 0.0001261805 2.5502e-06 -0.1158731924 0.0809366544
290298260.0 -0.7056572218 0.4719053598 0.0002171363 0.0001230076 0.0001569105 0.0001778637 -0.1151915584 0.0822042594
295298230.0 -0.7007992437 0.479025335 5.7935e-05 0.0002386213 -9.53464e-05 0.0001547405 -0.1146282915 0.0830011594
300298200.0 -0.6946583708 0.4863475238 0.0001871162 0.0001341698 6.69262e-05 -5.76202e-05 -0.1140562244 0.0841469543
305298170.0 -0.6901360256 0.4940508811 0.000209958 -3.3542e-06 0.0002511759 1.17417e-05 -0.1131484236 0.0853578932
310298140.0 -0.6847788116 0.500915439 0.0001404544 7.93432e-05 0.0001722715 0.0002323781 -0.1126507943 0.086426853
315298110.0 -0.6789159856 0.5081333379 0.0002470825 5.58195e-05 1.25271e-05 0.0001071956 -0.1114910403 0.0873715708
320298080.0 -0.6741181242 0.5153988145 -0.0001735737 0.00012692 0.0001230784 0.0002268966 -0.1109468186 0.0881189946
325298050.0 -0.66821035 0.5221137896 0.0002145106 0.0002947643 2.0836e-06 -5.17145e-05 -0.1103313988 0.0894724566
330298020.0 -0.6633574452 0.5291038658 8.27939e-05 0.0001238358 -5.6297e-06 0.0002002975 -0.1098288134 0.0902355211
335297990.0 -0.6567680666 0.5359906338 0.0001337328 0.0001252735 -5.3863e-05 0.0002600536 -0.1092451878 0.0915705631
340297960.0 -0.6524051034 0.5423424799 7.15125e-05 0.0001584486 0.0002076153 9.62813e-05 -0.1085061118 0.0925075536
345297930.0 -0.6464487241 0.5493014852 8.13716e-05 0.0001787004 0.0001850667 0.0003194429 -0.1081511871 0.0935253783
350297900.0 -0.639889459 0.5562840841 0.0004048323 0.0001071827 -1.03274e-05 0.0001458694 -0.1071682168 0.0946668146
355297870.0 -0.6347317408 0.562682607 -0.0001498509 0.0002816817 0.0002354874 0.0002505092 -0.1066877757 0.0960266578
360297840.0 -0.6282663431 0.5692395863 0.0001587175 0.0002011537 0.0001894704 7.12994e-05 -0.1057075404 0.0972910353
365297810.0 -0.6223043307 0.5760728823 8.7195e-06 0.0001601882 2.6672e-05 4.85573e-05 -0.1050571242 0.098292578
370297780.0 -0.6161940979 0.5814647044 0.0001603387 7.8164e-05 5.39499e-05 0.000207858 -0.1045146968 0.0996190791
375297750.0 -0.6100822038 0.5880080712 0.0001014524 4.87063e-05 0.0001157745 0.0001766732 -0.103383656 0.1008588348
380297720.0 -0.6035061795 0.5950590895 0.0001511443 -0.0001070467 0.0001524213 0.0003019857 -0.1026997684 0.1022177386
385297690.0 -0.5975816272 0.6007153527 -1.0482e-06 -7.7433e-05 0.0001653259 -1.4828e-06 -0.101866403 0.1034320947
390297660.0 -0.5916544853 0.6071324225 0.0002390229 -0.0001275281 -5.0199e-05 -4.5997e-06 -0.1010153184 0.1042957749
395297630.0 -0.5850673638 0.6130304655 0.0002094967 0.0001538605 4.2868e-06 7.2094e-05 -0.1002715246 0.1054192082
400297600.0 -0.5787443917 0.6192274953 0.000112689 0.0003236617 0.0002018033 0.0002314574 -0.0996181478 0.1063421639
405297570.0 -0.5722394557 0.6248213362 0.0001910383 0.0002101621 0.000160838 2.01176e-05 -0.0989180572 0.1077781818
410297540.0 -0.5654980269 0.6305683307 0.0002161974 0.0002498176 0.0003225832 0.0001925942 -0.0977515706 0.1090452848
415297510.0 -0.5591142441 0.6365026126 0.000122685 6.95747e-05 -0.0001209069 3.31862e-05 -0.0971580585 0.1102818225
420297480.0 -0.5518686833 0.6426364687 0.0001760127 3.77193e-05 0.0001575205 9.21983e-05 -0.0961555741 0.111117384
425297450.0 -0.5458489943 0.6477420047 0.0002576792 0.0001699456 9.45406e-05 0.0003089243 -0.0949953104 0.1124087681
430297420.0 -0.5393971333 0.6532423044 3.88138e-05 0.0001104581 5.76588e-05 9.68314e-05 -0.0942078582 0.113622856
435297390.0 -0.5316919594 0.6589891311 0.0003130915 -0.0001593024 0.0001947799 0.0001649722 -0.0931021989 0.1146264443
440297360.0 -0.5253241729 0.6642252235 4.51957e-05 0.0001366215 0.0001672369 0.0001856995 -0.0924764775 0.1155871037
445297330.0 -0.5182535533 0.6698509893 0.0001442667 0.0002430679 0.0001710823 8.24116e-05 -0.0911470816 0.1167970743
450297300.0 -0.5111021969 0.6744967472 0.0001803103 -1.23764e-05 0.0001006514 -0.0001479715 -0.0907683005 0.1178420531
455297270.0 -0.5041010656 0.6797948028 1.55012e-05 -6.85458e-05 0.0002072224 -2.61572e-05 -0.0895331646 0.1187379601
460297240.0 -0.4973257896 0.6855255216 4.92622e-05 0.0001604891 0.0001546777 8.61314e-05 -0.0882713344 0.1201062642
465297210.0 -0.4900479105 0.6901747663 0.0002462925 9.55057e-05 5.4268e-05 0.000105688 -0.0877901169 0.1208986561
470297180.0 -0.4829182847 0.6944952023 0.0001366756 -2.43659e-05 9.58507e-05 7.36878e-05 -0.0866834827 0.1220976267
475297150.0 -0.4754815237 0.7006983798 0.0002567083 0.0003098771 0.0001975681 -6.94442e-05 -0.0854312774 0.1230257857
480297120.0 -0.4691519504 0.7045683406 3.04653e-05 4.05686e-05 0.0001612446 3.62626e-05 -0.0848186528 0.1242927984
485297090.0 -0.4616706222 0.7096505969 0.0002942156 8.85505e-05 0.0002081003 -3.44858e-05 -0.0837702236 0.1251469109
490297060.0 -0.4539179185 0.7139382343 0.0002688161 0.0002555263 0.0002203499 0.0001356807 -0.0827020502 0.1261917233
495297030.0 -0.4469365307 0.7186451748 0.0001734704 -2.12974e-05 0.0001030851 0.0002031616 -0.0813877946 0.1268432306
500297000.0 -0.4387297325 0.7233317323 0.0003660709 7.98602e-05 0.0002806794 9.16597e-05 -0.0805128903 0.1280014609
505296970.0 -0.4313043084 0.7267490163 0.0001587061 0.0001826808 9.72735e-05 7.88562e-05 -0.0797310324 0.1292306382
510296940.0 -0.4243461333 0.7318234446 6.143e-06 9.61197e-05 0.0001113841 7.92608e-05 -0.0785249398 0.1303509604
515296910.0 -0.4170023767 0.7363907601 7.98277e-05 5.85066e-05 0.0002227811 0.0001082307 -0.077017728 0.1310969944
520296880.0 -0.4091276877 0.740254291 0.0002656796 8.56383e-05 6.63171e-05 -3.64598e-05 -0.0759639857 0.1319052478
525296850.0 -0.4019507473 0.7440945753 0.0001566682 0.0002330847 0.000170304 -4.96927e-05 -0.0747615748 0.1328587383
530296820.0 -0.3941302399 0.7483514967 6.27324e-05 -2.98724e-05 6.34362e-05 -7.1584e-06 -0.0741775021 0.1335074093
535296790.0 -0.3862407177 0.7521093455 0.0002161916 4.80094e-05 0.0002662026 0.0001488001 -0.0728940783 0.1345287702
540296760.0 -0.3785842128 0.7562518454 -7.3768e-06 -1.9003e-06 0.000142009 -5.36092e-05 -0.0718616843 0.1355576478
545296730.0 -0.3710415417 0.7595534712 0.0001714097 0.0002334947 0.0002009732 0.0001360615 -0.070771119 0.1360953996
550296700.0 -0.3630711375 0.7635766006 0.0003118303 0.0002426208 -3.99123e-05 0.0002165899 -0.0695123836 0.1371470492
555296670.0 -0.354644018 0.7671216729 0.0002120799 4.21692e-05 4.26563e-05 8.96177e-05 -0.0683349181 0.1381500643
560296640.0 -0.3471079895 0.7707477957 6.84027e-05 0.0002651478 0.0001329586 5.34176e-05 -0.0671392378 0.1390392805
565296610.0 -0.3393589839 0.7737629183 7.90254e-05 4.16021e-05 0.0002621224 -0.0001356106 -0.0656208316 0.1398159621
570296580.0 -0.3315706869 0.7771405664 9.08934e-05 6.88492e-05 0.0001736615 0.0001642499 -0.0646751608 0.1407594182
575296550.0 -0.3240327098 0.7805385712 -6.23634e-05 1.41113e-05 0.0003033021 7.09316e-05 -0.0633298438 0.1414032444
580296520.0 -0.3159652651 0.7841609539 0.000307523 -0.0001356024 0.0004373599 0.0001989058 -0.0621716966 0.14240662
585296490.0 -0.3079618567 0.7864741841 0.0002829791 1.57178e-05 9.3914e-06 -0.0001538435 -0.0612695534 0.1426260621
590296460.0 -0.3001152256 0.7894153824 0.0003309371 3.01806e-05 0.0004334129 0.0001392765 -0.0597175887 0.1436771533
595296430.0 -0.2914062367 0.7934359026 -1.51919e-05 -0.0002871776 2.97894e-05 -9.9876e-05 -0.0584109196 0.144355967
600296400.0 -0.2835004468 0.7960650604 0.0001373656 0.0001190997 0.0001547924 0.0001264764 -0.0570575888 0.1451650807
605296370.0 -0.275354875 0.7989534866 0.000178609 -7.32314e-05 6.87783e-05 -0.0001480131 -0.0558994739 0.1461672868
610296340.0 -0.2673682808 0.801787157 0.0001782364 -4.9511e-06 0.0002083676 9.66669e-05 -0.054765546 0.1466377226
615296310.0 -0.2592066365 0.8042958735 0.0002299448 -0.0001170171 2.08212e-05 0.0001652261 -0.0533601295 0.1475018261
620296280.0 -0.2507138613 0.8065603965 0.0003499997 -3.57234e-05 0.0001734953 -0.0001497693 -0.0524436304 0.1480002571
625296250.0 -0.2430286664 0.8092532679 0.0001896963 -0.0001028947 0.0001205006 4.24533e-05 -0.0508065207 0.148666735
630296220.0 -0.2341725442 0.8114933625 0.0001650458 0.0001671707 0.000186924 -3.69805e-05 -0.049561262 0.1499580538
635296190.0 -0.226854794 0.8139369849 -0.0001002081 -0.0001894927 0.0001245087 -5.62312e-05 -0.0486350781 0.1503689085
640296160.0 -0.2185628606 0.8149464354 0.000104619 0.0001860424 0.0001636923 8.44653e-05 -0.0469576885 0.1507664389
645296130.0 -0.2095314058 0.8180671688 0.0005271096 -3.97848e-05 0.0001226314 0.0001296035 -0.0455226908 0.1515491201
650296100.0 -0.2018979042 0.8210661588 0.0002605722 -8.93588e-05 0.0001888223 8.1084e-06 -0.0442748092 0.1526049592
655296070.0 -0.1927864504 0.8219903685 0.0003711737 -2.2192e-06 0.0001326834 1.83565e-05 -0.042526673 0.1530485803
660296040.0 -0.1851098247 0.8239698368 8.58296e-05 -0.0001490392 6.52806e-05 8.38524e-05 -0.0416500952 0.153250729
665296010.0 -0.1768085835 0.8256799329 0.0002972986 -0.000149552 0.0003761745 -7.15141e-05 -0.0399535902 0.1540120099
670295980.0 -0.1675795365 0.8273679614 0.0001938617 0.0001348897 0.0001630959 -0.0001777355 -0.0390171723 0.1548462615
675295950.0 -0.1605485995 0.828472708 0.0003256719 -3.92723e-05 0.0003154855 0.0001269695 -0.0372723794 0.1553837208
680295920.0 -0.151770005 0.8306366062 0.0003107243 4.88844e-05 0.0003136432 0.0001546219 -0.0360569621 0.1558336552
685295890.0 -0.1431283655 0.8319208778 0.0001601005 1.10083e-05 9.95862e-05 -6.69418e-05 -0.034522493 0.1560925455
690295860.0 -0.1344979227 0.8336573317 0.0002154502 3.80429e-05 0.0002623806 -0.0001610207 -0.0329476656 0.1566777436
695295830.0 -0.1267192535 0.8340721144 0.0002812464 -0.0002343843 9.87451e-05 3.17166e-05 -0.0319604093 0.1575598731
700295800.0 -0.1181604366 0.8356427433 0.0003522303 0.0001360306 9.35025e-05 -0.0003568523 -0.0302977454 0.1577241432
705295770.0 -0.1087161065 0.8377422343 0.000428759 0.0001504906 0.0001509102 0.0001666217 -0.0286846665 0.1584532438
710295740.0 -0.1013362219 0.8380298652 0.0004073389 0.0001677626 0.0004362768 -6.97892e-05 -0.0277625451 0.1590801672
715295710.0 -0.0929249007 0.8387600853 0.0002503182 3.67817e-05 0.0001224671 0.0001609605 -0.0261337899 0.1592604475
720295680.0 -0.08443507 0.8397288613 0.0003850721 -0.0001536116 0.0001623761 -0.0001400889 -0.0246272259 0.1598031458
725295650.0 -0.0752291865 0.8410403136 0.0005296302 1.6031e-05 0.0003605895 1.58455e-05 -0.0230944184 0.1602744584
730295620.0 -0.0678432153 0.8414899142 4.44946e-05 -7.24946e-05 0.000413713 -0.0001950761 -0.0216376656 0.1605074705
735295590.0 -0.0581844776 0.8420311162 0.0003353804 -0.0001329092 0.0002442392 7.94171e-05 -0.0202783215 0.1611298271
740295560.0 -0.0501415719 0.842489442 0.0003240799 2.8309e-06 0.0002575082 3.50073e-05 -0.0186910927 0.1614123004
745295530.0 -0.0421157667 0.842388749 0.0001484062 -8.02118e-05 0.0002942401 -9.98838e-05 -0.0173402432 0.1619179002
750295500.0 -0.0340170425 0.8428122331 0.0002864638 -5.09046e-05 0.0003232184 -1.5356e-05 -0.0158293341 0.1619033781
755295470.0 -0.024571198 0.8437648114 0.0001512672 6.35493e-05 5.3101e-05 -3.72457e-05 -0.0145180324 0.1627484679
760295440.0 -0.0163385722 0.8434880216 0.0002620555 8.57546e-05 -1.38973e-05 -0.0001370738 -0.0132285492 0.1629880356
765295410.0 -0.0081533544 0.8440032781 0.0001697658 3.091e-07 0.0002450444 -4.55095e-05 -0.011295382 0.1635086221
770295380.0 0.0004564313 0.8438862113 0.0002270353 0.0001840776 1.81971e-05 0.0001057055 -0.0096158541 0.1636788372
775295350.0 0.0086676246 0.8445618765 0.0001066606 -0.0001149819 0.0003168887 -4.7663e-06 -0.0087134386 0.1635116352
780295320.0 0.0177938822 0.8433096046 0.0002768657 -0.0001477144 -1.66355e-05 -1.72521e-05 -0.0073095384 0.1643379784
785295290.0 0.0255182913 0.843833134 0.0001631197 -2.1239e-06 0.0003089609 -0.0001430605 -0.005734632 0.1646130316
790295260.0 0.0343659713 0.8426581002 0.0002130768 -0.0001690669 0.000320326 9.92939e-05 -0.0038736166 0.1645655714
795295230.0 0.042921336 0.8432390767 0.0003124837 0.0001087045 8.30544e-05 -9.05693e-05 -0.0022105389 0.1651929059
800295200.0 0.0510735862 0.8424944121 0.0004344871 -0.0002251034 0.0003542589 -5.10631e-05 -0.0009527515 0.165310732
805295170.0 0.0597252113 0.8419126954 0.0002447997 -0.0001303293 9.61278e-05 1.98567e-05 0.0004076721 0.16544058
810295140.0 0.0681446312 0.8409108221 0.0003549829 -0.0001465026 0.0004068628 -0.0002573607 0.0023286242 0.1655735808
815295110.0 0.0767253568 0.8402418801 0.0003428336 -0.0002868559 0.0003893887 -4.01148e-05 0.0033667223 0.1661211837
820295080.0 0.0846962237 0.8389943437 0.0002657535 -0.0001790688 0.0003065544 -0.0001762815 0.0051270053 0.1660131447
825295050.0 0.0937117838 0.8386276686 0.000476534 -0.0001511241 0.0001261432 -7.0199e-06 0.0066556985 0.1661628183
830295020.0 0.1016999477 0.8373443813 0.000462831 -7.3907e-06 0.0001981433 0.0001732107 0.0079854876 0.1662715023
835294990.0 0.1100610468 0.8368993883 0.0005231659 -6.54889e-05 0.0001524601 -5.68756e-05 0.0099116207 0.1663938146
840294960.0 0.1185354362 0.8350915917 0.0002211193 -0.0003051957 0.0002609899 -0.0001117049 0.011262503 0.1670112172
845294930.0 0.1272051607 0.8344664216 0.000390676 -0.0003290144 0.0002642867 -0.0001439366 0.0127643749 0.1666510817
850294900.0 0.1351633502 0.832826426 0.0004743405 -5.41502e-05 0.0003778648 -0.0001411023 0.0144030132 0.1671487957
