!Created with skrf (http://scikit-rf.org).
# Hz S RI R 50.0 
!freq ReS11 ImS11 ReS21 ImS21 ReS12 ImS12 ReS22 ImS22
300000.0 -0.2421442085 -0.0716834483 0.4738776999 0.0484716727 0.4678600178 0.0460744762 -0.2448759355 -0.0834330339
5299970.0 -0.244376555 0.0075210531 0.4734402817 0.0048305661 0.4736874087 0.0048968103 -0.2446046339 0.0074315045
10299940.0 -0.2412082613 0.0189924145 0.4757437163 0.0059968789 0.4756097979 0.0063027688 -0.2412175769 0.0205605398
15299910.0 -0.2368671834 0.028091342 0.4793151411 0.0076787577 0.4795356152 0.0078959519 -0.2369107047 0.0296975843
20299880.0 -0.2321317836 0.0354760168 0.483942071 0.0089229048 0.4838911379 0.0086220186 -0.23145121 0.0372662912
25299850.0 -0.2272857699 0.0421150795 0.4893005578 0.0076601858 0.4890075984 0.0076260544 -0.2252641126 0.0434922836
30299820.0 -0.2213697552 0.0471706026 0.4945117222 0.0054633763 0.4944438889 0.0051885391 -0.2194012163 0.0488830854
35299790.0 -0.216483667 0.0514099204 0.4999371666 0.0017840649 0.5001134337 0.0019739781 -0.2137174661 0.0530871881
40299760.0 -0.2116155188 0.0548273537 0.5051474478 -0.001594705 0.5051846899 -0.0016888761 -0.2083495707 0.0557529889
45299730.0 -0.2064415164 0.0576467403 0.5096952365 -0.0067246799 0.509881826 -0.0063113229 -0.2034379503 0.0586740241
50299700.0 -0.2025883316 0.0597251612 0.5143655155 -0.0120174001 0.5142358463 -0.0115013688 -0.1988361497 0.060201118
55299670.0 -0.1983505667 0.0617627749 0.5184865516 -0.0185913893 0.5178737258 -0.0176077331 -0.1943538876 0.061767733
60299640.0 -0.194056389 0.0633767058 0.5209892897 -0.0245690549 0.5215677744 -0.0238791388 -0.1903887133 0.0627982501
65299610.0 -0.1910023919 0.0647080484 0.5239796344 -0.0305826893 0.5241767119 -0.0304730098 -0.1870955772 0.063800986
70299580.0 -0.1880143516 0.0662596034 0.5265751492 -0.0369907176 0.5269720418 -0.0371285339 -0.1838731643 0.0647240426
75299550.0 -0.1851543237 0.0670989528 0.5284329187 -0.0438389083 0.5284205901 -0.043897131 -0.1806779004 0.0651931442
80299520.0 -0.1826021162 0.0680574451 0.5308525123 -0.0511232118 0.5307025004 -0.0507469367 -0.1781155863 0.0659787274
85299490.0 -0.179986586 0.0688797646 0.5315474024 -0.0575805256 0.5315168025 -0.0573221756 -0.1756971809 0.0660069971
90299460.0 -0.1777631327 0.0695646951 0.5323127004 -0.0648755076 0.5329935215 -0.064646795 -0.1734703748 0.0668562075
95299430.0 -0.1756974139 0.0705354502 0.5340290038 -0.0711912271 0.5336115222 -0.0720588844 -0.1711227845 0.0674078845
100299400.0 -0.1737762694 0.0713401978 0.5336985096 -0.0781804242 0.533530854 -0.0782678143 -0.1691113757 0.0672785793
105299370.0 -0.1720449961 0.0721757737 0.5342874777 -0.0854781296 0.5345753814 -0.0853865022 -0.1675098039 0.0681646308
110299340.0 -0.170304424 0.0728838569 0.5346843559 -0.091519166 0.5343303526 -0.0919971496 -0.1663527701 0.0686798874
115299310.0 -0.1686448104 0.0741802647 0.5344535647 -0.099084706 0.5344660704 -0.0989978811 -0.1647197643 0.0692752618
120299280.0 -0.1673927448 0.0744685941 0.5340174237 -0.1057184803 0.5346051809 -0.1056817131 -0.163084744 0.0698404152
125299250.0 -0.1660735393 0.075326968 0.5343091258 -0.1123044614 0.5344366047 -0.1120419138 -0.1625032326 0.0697558265
130299220.0 -0.1651481048 0.0766577493 0.5333069533 -0.1194747242 0.5333856023 -0.1188428021 -0.1610535523 0.0705007677
135299190.0 -0.1639782358 0.0780307311 0.5329820619 -0.1258747291 0.5328449538 -0.1255602241 -0.1600853046 0.0715676233
140299160.0 -0.1629514947 0.0788058956 0.5323812081 -0.1328547536 0.5322320034 -0.1326452972 -0.1588551165 0.0726025076
145299130.0 -0.1615789308 0.0798083775 0.5313249052 -0.1390237488 0.5311009031 -0.1389791227 -0.1580915466 0.0731351092
150299100.0 -0.1601143712 0.08120165 0.5296742237 -0.1452713736 0.5301684005 -0.1449521261 -0.1575176064 0.0741027726
155299070.0 -0.1596915219 0.0820607647 0.5294120619 -0.1529550525 0.5285588503 -0.152039661 -0.1563736511 0.0750068464
160299040.0 -0.1583869293 0.0837109602 0.5273991832 -0.1589701502 0.5272606521 -0.1584547342 -0.156018081 0.075867135
165299010.0 -0.1576310462 0.084609563 0.5263585212 -0.1654616762 0.5256953442 -0.1654269229 -0.1548881607 0.0767139305
170298980.0 -0.1566669344 0.0857080713 0.5244369167 -0.1714995514 0.5246093273 -0.1714136596 -0.1539161445 0.0777891119
175298950.0 -0.1557598032 0.0868466684 0.5231895592 -0.1777392274 0.5226699824 -0.1776546205 -0.1533584375 0.0786926512
180298920.0 -0.1549456316 0.0885865044 0.5208613063 -0.1842190209 0.5211911036 -0.1836935678 -0.1525812597 0.0798637622
185298890.0 -0.1533610848 0.0894580459 0.51927463 -0.190207744 0.5188094937 -0.1901226558 -0.1516644654 0.0810715467
190298860.0 -0.1528173517 0.0911938035 0.5174735444 -0.1966568837 0.5177018271 -0.1964886963 -0.1511485237 0.0814016152
195298830.0 -0.1517439385 0.0921970606 0.5152035427 -0.2024362033 0.5154313687 -0.2027466533 -0.1498577801 0.0830196556
200298800.0 -0.1507465578 0.0938651748 0.5132153524 -0.2089223622 0.5131599103 -0.2092597407 -0.1498484017 0.0838693441
205298770.0 -0.1497571496 0.0951490442 0.5106491402 -0.2148250735 0.511218976 -0.2148697699 -0.1485406487 0.0845156151
210298740.0 -0.1490441537 0.0962447872 0.5085156176 -0.2204522003 0.5086988174 -0.2205504971 -0.1480056221 0.0863871427
215298710.0 -0.1484704916 0.097950054 0.5067377601 -0.226690105 0.5066318852 -0.2267352946 -0.1476050876 0.0873641602
220298680.0 -0.1466826296 0.0987936154 0.5034545447 -0.232602414 0.504077464 -0.2324465851 -0.1467438196 0.0883020277
225298650.0 -0.1460674826 0.1003993795 0.5011835871 -0.2384888585 0.5017268508 -0.2384498837 -0.1463688968 0.0894956187
230298620.0 -0.1449303149 0.102088895 0.4987697689 -0.2442076533 0.4995298529 -0.2443603929 -0.1453681824 0.0907469612
235298590.0 -0.1438427228 0.1037131225 0.4961657136 -0.2500183479 0.4965714086 -0.2495762391 -0.144503136 0.0918309666
240298560.0 -0.1430104534 0.1049349157 0.4938182849 -0.255810226 0.4938843611 -0.2558829807 -0.1440842631 0.0936168848
245298530.0 -0.1422681818 0.1062663394 0.4911593189 -0.2613377945 0.4911069918 -0.2615941906 -0.1428051849 0.0940856106
250298500.0 -0.1407872022 0.1078558655 0.4878806773 -0.2672370419 0.4877439558 -0.266875431 -0.1425480269 0.0954845113
255298470.0 -0.1400966592 0.1090085563 0.4846523962 -0.2721196657 0.4852868356 -0.2723700742 -0.1415479688 0.0964790116
260298440.0 -0.1392860868 0.1107020638 0.4822178659 -0.2785235863 0.4823915545 -0.2779116367 -0.1402093039 0.0980827715
265298410.0 -0.137726886 0.1124467093 0.4791748367 -0.2841377951 0.4793882018 -0.283701888 -0.1395734489 0.0997901725
270298380.0 -0.1366541528 0.1136476575 0.4764297219 -0.2887048452 0.4763711676 -0.2889470688 -0.1388307149 0.1009447613
275298350.0 -0.1353689896 0.1151474222 0.4729450043 -0.2947116514 0.4732988549 -0.2944959375 -0.1376630091 0.1019944832
280298320.0 -0.1340787908 0.1168752171 0.4700404621 -0.3002319474 0.4699221968 -0.3000037369 -0.1367566608 0.1033557041
285298290.0 -0.1330172887 0.118380294 0.4667102916 -0.3050672382 0.4665268786 -0.3050872035 -0.1359767933 0.1044353982
290298260.0 -0.1314992225 0.1197842752 0.4630392348 -0.3100786181 0.4631465043 -0.3105649393 -0.1349572987 0.106266106
295298230.0 -0.1301077376 0.1209560052 0.4599909987 -0.315369993 0.4600006424 -0.3156167594 -0.1334062359 0.106963728
300298200.0 -0.1294014564 0.1221748217 0.4566131586 -0.3207491041 0.4570369617 -0.3210588293 -0.1328177915 0.1083594991
305298170.0 -0.1278379162 0.1238131192 0.4525407565 -0.3266732535 0.4529552636 -0.3262709707 -0.1314005072 0.1095347377
310298140.0 -0.1267090184 0.1252074591 0.4493859605 -0.3316633426 0.4495579847 -0.3313572408 -0.1309790433 0.1106065438
315298110.0 -0.1255711784 0.126078815 0.4462675399 -0.336595151 0.4457412818 -0.3368619724 -0.1299188632 0.1117611725
320298080.0 -0.1239148113 0.1274674504 0.441511311 -0.3417666918 0.4418461267 -0.3416995379 -0.128967534 0.1130100989
325298050.0 -0.1228379728 0.1289059367 0.4381918455 -0.347227938 0.4384714577 -0.3469163424 -0.1284608443 0.1142701879
330298020.0 -0.1216229181 0.1302165483 0.4336665512 -0.3521055795 0.4342466485 -0.3519873273 -0.1272664493 0.1155782831
335297990.0 -0.1200540002 0.1314679819 0.4296150478 -0.3564553941 0.430119598 -0.35687809 -0.1270540725 0.1171246569
340297960.0 -0.1194021759 0.1331556249 0.4261210087 -0.3613935857 0.4255705604 -0.3617927746 -0.1251821699 0.118351596
345297930.0 -0.1179113428 0.1345619285 0.4218055796 -0.3663347474 0.4215648841 -0.3664573962 -0.1246125628 0.1193619573
350297900.0 -0.1166393059 0.1358005267 0.4170378561 -0.3707963295 0.4173912302 -0.3708540625 -0.1238095463 0.1210237217
355297870.0 -0.1150658933 0.1379802348 0.4133683653 -0.3752939912 0.4137200552 -0.3755740493 -0.1229759011 0.1224565225
360297840.0 -0.1136249118 0.1388011422 0.4097448626 -0.3796790378 0.4098769957 -0.3795539281 -0.1219270498 0.1235224431
365297810.0 -0.1123744184 0.1404373467 0.4048892354 -0.3849676515 0.4054264851 -0.3844752634 -0.1206014401 0.1247555746
370297780.0 -0.1105870664 0.1414404476 0.4008181783 -0.3886569868 0.4012777084 -0.3886721489 -0.119339058 0.1263673078
375297750.0 -0.1089306702 0.1426018749 0.3962192868 -0.3931932913 0.3967615596 -0.3933569858 -0.1181926244 0.1269852624
380297720.0 -0.1080094045 0.1442217842 0.3922206619 -0.3974739794 0.3925479733 -0.3970479229 -0.117311455 0.1282953863
385297690.0 -0.106402497 0.1453880329 0.3878494585 -0.4017259862 0.3875980167 -0.4015245677 -0.1158501674 0.1296938677
390297660.0 -0.1047702731 0.1470209879 0.3834099055 -0.4063592712 0.3835489357 -0.405888532 -0.1151776692 0.1309027877
395297630.0 -0.1031170882 0.1482353326 0.3792361715 -0.4104600085 0.3791080133 -0.4104717547 -0.1132667987 0.1324425559
400297600.0 -0.1016234096 0.1498170033 0.3739625971 -0.415056912 0.374309341 -0.4141370125 -0.1119705715 0.1335905637
405297570.0 -0.1004352846 0.150536467 0.3695708779 -0.4181784825 0.3699270206 -0.4183242874 -0.1110547307 0.1347688222
410297540.0 -0.0983167442 0.1519768359 0.3650842445 -0.4225196893 0.3653791775 -0.4226834598 -0.1098664714 0.13631316
415297510.0 -0.0964232799 0.1530525271 0.3601662644 -0.4270029533 0.3607353265 -0.4266241696 -0.1084958225 0.1374988514
420297480.0 -0.0952159926 0.1543656555 0.355963315 -0.4307058703 0.355807757 -0.4302671267 -0.1073602676 0.1382992835
425297450.0 -0.093672958 0.1552634334 0.3510715815 -0.433838537 0.3511909648 -0.4343344695 -0.1062444973 0.1398916953
430297420.0 -0.0919716174 0.1565952419 0.3465532284 -0.4379783993 0.3466342552 -0.4377132691 -0.1049553175 0.1407418363
435297390.0 -0.0903781878 0.1579204372 0.3412763531 -0.4421519758 0.3413802951 -0.4417349334 -0.1030147399 0.1419002849
440297360.0 -0.0881905481 0.1591099228 0.3366205098 -0.4455036519 0.3369504647 -0.4455079319 -0.1022489762 0.1432112658
445297330.0 -0.0866917476 0.1599368823 0.3319381188 -0.4492038353 0.3319974457 -0.4487800424 -0.1006242636 0.1438443684
450297300.0 -0.0849212076 0.1607805451 0.3268891088 -0.4530261994 0.3267152476 -0.4527510701 -0.099331718 0.1452276842
455297270.0 -0.0831646614 0.1621054057 0.3214163522 -0.4560033917 0.321904436 -0.4564570393 -0.0978086422 0.1461036762
460297240.0 -0.0816696207 0.1630782504 0.3166606857 -0.4594744775 0.3170330724 -0.4599099019 -0.0968123688 0.1477761247
465297210.0 -0.0796028605 0.1644006606 0.3118706751 -0.4631444613 0.3117883322 -0.4637882399 -0.0949552582 0.1484018906
470297180.0 -0.0778661995 0.1652559968 0.3064489072 -0.4664521241 0.3069559287 -0.4669250907 -0.0935139295 0.1496641287
475297150.0 -0.0763449908 0.1660526161 0.3014644791 -0.4690595308 0.3021083799 -0.4698013149 -0.0920886891 0.1503322126
480297120.0 -0.0742353665 0.167453829 0.2965186828 -0.4736546335 0.2963958383 -0.4732502347 -0.0906716979 0.151661706
485297090.0 -0.0725669847 0.1683168546 0.2909853936 -0.4758744932 0.2912612815 -0.4761681366 -0.0891242416 0.1526073708
490297060.0 -0.070785133 0.1694022736 0.2862787398 -0.4794157514 0.2864066437 -0.4794417539 -0.08794909 0.1540260698
495297030.0 -0.0690252235 0.1701193582 0.2805238582 -0.4824019272 0.2810120776 -0.4822618052 -0.0865760384 0.1549104686
500297000.0 -0.0665994893 0.1709483836 0.2752632112 -0.4853167054 0.2755092937 -0.4849150116 -0.0850167257 0.1561116207
505296970.0 -0.0649332501 0.1717456086 0.2699680377 -0.4884919984 0.2698160158 -0.4885236802 -0.0838405245 0.1568386431
510296940.0 -0.0630475683 0.1726307816 0.2644560141 -0.4915913291 0.2647930128 -0.491325062 -0.0818473322 0.1578934307
515296910.0 -0.0613142384 0.1736770408 0.2597083728 -0.4940809113 0.2596139294 -0.4942837326 -0.0803648959 0.1586545421
520296880.0 -0.0596407742 0.174428269 0.2541000124 -0.4976312332 0.2539755366 -0.4965711411 -0.0790409736 0.1592339741
525296850.0 -0.0570412273 0.1746979486 0.2482020537 -0.4994435007 0.248944256 -0.4997233728 -0.0773424967 0.160494925
530296820.0 -0.0552545442 0.1757538465 0.2433304087 -0.502463489 0.2431348198 -0.5023017629 -0.0760159594 0.1613782893
535296790.0 -0.0538425076 0.176533326 0.2379959683 -0.5047480619 0.2374781907 -0.5041901592 -0.0744230574 0.1617378485
540296760.0 -0.0520014372 0.177482417 0.2320184538 -0.5078396763 0.2320785427 -0.5071815634 -0.0733019471 0.1629707501
545296730.0 -0.0501183247 0.1781483285 0.2263533249 -0.5098672506 0.2266844125 -0.5100043936 -0.0714039605 0.1638679648
550296700.0 -0.0476352204 0.1787854884 0.220852123 -0.512476864 0.2211984878 -0.5126528482 -0.0698493845 0.1648828432
555296670.0 -0.0460600913 0.1792741702 0.2157028633 -0.5145758994 0.2159114191 -0.5145912904 -0.0683746674 0.165841793
560296640.0 -0.0434645324 0.1801922993 0.2095499823 -0.5171238865 0.2102141035 -0.5170410903 -0.0666972473 0.1661287114
565296610.0 -0.0421738407 0.1802561896 0.2042878362 -0.5191971278 0.2042197701 -0.5191830891 -0.0650931148 0.1667949623
570296580.0 -0.0400876411 0.1811821685 0.1986159591 -0.5217688564 0.1983741399 -0.5213853177 -0.0634569595 0.1681507791
575296550.0 -0.0383933367 0.1823330838 0.1930087792 -0.5234285144 0.1931996166 -0.5234345575 -0.0619459173 0.1684613018
580296520.0 -0.0360544189 0.1826446231 0.1871071107 -0.5256081876 0.1870372314 -0.5256443271 -0.0599229317 0.1692757311
585296490.0 -0.0340972756 0.1825997968 0.1818904596 -0.5271433099 0.1817375355 -0.5273335291 -0.0584416884 0.1700932184
590296460.0 -0.0316959148 0.1835964632 0.1760455872 -0.528917208 0.1760252691 -0.5295552926 -0.0573542822 0.1708737407
595296430.0 -0.0296150666 0.1838768606 0.1698127409 -0.5312918309 0.1698750905 -0.5309501222 -0.0552205014 0.1713877328
600296400.0 -0.0280359862 0.1845565277 0.1643150163 -0.53333159 0.164547924 -0.532812112 -0.053662212 0.1720507876
605296370.0 -0.0259717697 0.1850140189 0.1583098404 -0.5345064115 0.1587198936 -0.5347729164 -0.0518216883 0.1730542126
610296340.0 -0.0237574124 0.1851780376 0.1521713338 -0.5363828066 0.1527927023 -0.5362919538 -0.0497857149 0.173529922
615296310.0 -0.0215096578 0.1856702406 0.1468925194 -0.5376496791 0.1468701291 -0.5381803344 -0.0481022623 0.1744701731
620296280.0 -0.0193437798 0.185780068 0.1409968514 -0.5393066946 0.1410857251 -0.5393449978 -0.0471457977 0.1751851273
625296250.0 -0.017827122 0.1859251356 0.1357129213 -0.5408520015 0.1351816556 -0.5411407512 -0.0444206231 0.1753755931
630296220.0 -0.014830238 0.1864885918 0.128433174 -0.5426907688 0.1288361861 -0.5423081322 -0.0432367312 0.1762704736
635296190.0 -0.0137834651 0.1867585333 0.1234041352 -0.5433683598 0.1236868744 -0.5436275484 -0.0411619093 0.1766953075
640296160.0 -0.0115900864 0.1872734992 0.1175073685 -0.544720439 0.1178760708 -0.5446494722 -0.0397935575 0.1773070399
645296130.0 -0.0094072154 0.1877709602 0.1113093758 -0.5460833837 0.1117873371 -0.5460972359 -0.0379986592 0.1779742302
650296100.0 -0.0071575819 0.1877639816 0.1054930556 -0.5472111599 0.1057413606 -0.5470093636 -0.0360427676 0.1778990395
655296070.0 -0.0055913477 0.1880075615 0.0999015532 -0.5483693474 0.099928401 -0.5481938788 -0.0344353726 0.1786384599
660296040.0 -0.0038066308 0.1877298453 0.0941160986 -0.5491512629 0.0939153898 -0.5493179006 -0.032585922 0.1794715497
665296010.0 -0.0011291695 0.1881875743 0.0875565506 -0.5503442106 0.0880675842 -0.5501540673 -0.030891125 0.1801715222
670295980.0 8.0485e-05 0.1887140044 0.0822472743 -0.5511164077 0.0822924196 -0.550999699 -0.0296934027 0.1804242581
675295950.0 0.0027472071 0.1887106711 0.0760577002 -0.5515494324 0.0765404407 -0.5514643524 -0.028021359 0.180813674
680295920.0 0.0045734249 0.188556844 0.0697233767 -0.5523627685 0.0697954566 -0.5532656788 -0.0259561616 0.1814925337
685295890.0 0.0068341226 0.189146574 0.0638465138 -0.5534346104 0.0638213008 -0.5534490154 -0.0242759674 0.1818802541
690295860.0 0.0092308662 0.1889839247 0.0580388414 -0.5536908145 0.058240658 -0.5543036064 -0.0226894165 0.1826301613
695295830.0 0.0111809492 0.1888878826 0.0521025128 -0.5543580403 0.0518928199 -0.5544250473 -0.0207996609 0.1827025153
700295800.0 0.0132331053 0.1887066661 0.0458695508 -0.5546670302 0.0458534756 -0.5548263565 -0.0194373275 0.1834400882
705295770.0 0.0150197757 0.1891950573 0.0401877867 -0.5554060593 0.0404007709 -0.5553359364 -0.0174173094 0.1835730754
710295740.0 0.0172257373 0.1890171119 0.0343034465 -0.5563697446 0.0344494446 -0.5560093856 -0.0154894159 0.1833412773
715295710.0 0.0189354963 0.1885619112 0.0285651261 -0.5559827614 0.0280996815 -0.5562079509 -0.0139425061 0.1836813488
720295680.0 0.0214337784 0.1886559628 0.0217112588 -0.5565402785 0.0225388382 -0.5566839242 -0.0117641068 0.1846792793
725295650.0 0.0236271157 0.1886016635 0.0160625046 -0.5565663957 0.0162532294 -0.5570779273 -0.0105474795 0.1846017266
730295620.0 0.0258375257 0.188678602 0.0100257115 -0.5561037152 0.0102040536 -0.5568189644 -0.0087851727 0.1844538331
735295590.0 0.0276167023 0.188654113 0.0042714034 -0.5567506141 0.0040408997 -0.5569991737 -0.0070241543 0.1847388375
740295560.0 0.0295634031 0.1884397716 -0.0019355813 -0.556516683 -0.0018019535 -0.5569221953 -0.0047318578 0.1850724965
745295530.0 0.0316050742 0.1882422121 -0.0079393648 -0.5561978094 -0.0080057972 -0.5567709069 -0.0027904143 0.1850027256
750295500.0 0.0341423785 0.1878214918 -0.0136245991 -0.5561244334 -0.0134797475 -0.5564912858 -0.0009847553 0.1851431397
755295470.0 0.0359436938 0.187601879 -0.0197841173 -0.5566273203 -0.0198340222 -0.5564173701 0.0012091441 0.1853330798
760295440.0 0.0377764163 0.1873124768 -0.0256195866 -0.5561866914 -0.025581919 -0.5561087394 0.0024020234 0.1856235137
765295410.0 0.0400434919 0.1872345126 -0.0319775963 -0.55570853 -0.0321916284 -0.5560460632 0.0044070486 0.1860113594
770295380.0 0.0418931935 0.1865962801 -0.0379553549 -0.5552507543 -0.0378801462 -0.5550474657 0.0060805085 0.1858063026
775295350.0 0.0438608933 0.186126754 -0.0440542073 -0.55463253 -0.0435710627 -0.5548038214 0.007394973 0.1860418663
780295320.0 0.0460964107 0.1861522376 -0.0494245749 -0.5539813131 -0.0491581282 -0.5544944242 0.009371736 0.1859954091
785295290.0 0.0478585121 0.1852671556 -0.0560255438 -0.5533130428 -0.0557315409 -0.5535883354 0.0117733618 0.186501003
790295260.0 0.0505493098 0.1855621825 -0.0612285945 -0.552897736 -0.0610574398 -0.5530100954 0.0136343914 0.186537
795295230.0 0.0523340195 0.1849068251 -0.0676441877 -0.5521314112 -0.0674350579 -0.5522886068 0.0157790432 0.1866448557
800295200.0 0.0542174117 0.1845113008 -0.0740100353 -0.5512129474 -0.0734869792 -0.5513619255 0.0173238387 0.186419237
805295170.0 0.0562892272 0.1840601184 -0.0793685352 -0.5506832543 -0.0795193199 -0.5508808249 0.0188995856 0.186548199
810295140.0 0.0583357835 0.1831735213 -0.0856059648 -0.5492242489 -0.0851544409 -0.5498731387 0.0212402562 0.1864031546
815295110.0 0.0603470041 0.1825495182 -0.0912208761 -0.5482079882 -0.0909779719 -0.5485671061 0.0223934724 0.1865081378
820295080.0 0.0620611863 0.1824878414 -0.0970932916 -0.5474270601 -0.0968655782 -0.5476492374 0.0245670829 0.1863284341
825295050.0 0.0649701127 0.1817863641 -0.1031807922 -0.5460279712 -0.1029537966 -0.5463809153 0.0265256754 0.1865369184
830295020.0 0.0662818239 0.1813858031 -0.109226021 -0.5448770612 -0.1088359705 -0.545139886 0.028991351 0.1863971129
