!Created with skrf (http://scikit-rf.org).
# Hz S RI R 50.0 
!freq ReS11 ImS11 ReS21 ImS21 ReS12 ImS12 ReS22 ImS22
300000.0 -0.2138746214 -0.0601972299 -0.001000839 -0.0001355006 -0.0006519522 -0.00013712 -0.7741031994 -0.1425345086
5299970.0 -0.2168671312 0.0082494351 -6.83841e-05 -4.00613e-05 -1.74459e-05 8.03438e-05 -0.7842213376 -0.0071299499
10299940.0 -0.2131298472 0.0193216972 -3.72465e-05 1.55309e-05 -0.000145185 6.34254e-05 -0.7875221034 -0.0035900544
15299910.0 -0.2089517524 0.0284657808 -6.3935e-06 -9.94275e-05 -0.0002314296 0.0001459357 -0.7932639518 -0.0017311185
20299880.0 -0.2033750394 0.0357051008 0.0001033074 -2.23444e-05 -3.23794e-05 9.6991e-05 -0.7997497624 0.0019021738
25299850.0 -0.1978371529 0.0420609111 -2.653e-07 0.0001183717 0.0002722684 5.43869e-05 -0.8060206914 0.0086006333
30299820.0 -0.1920097457 0.0466402564 7.71515e-05 -0.0001137501 4.7217e-05 -4.60832e-05 -0.8121537204 0.0165004655
35299790.0 -0.1861089521 0.0504299759 -7.67967e-05 8.16948e-05 -9.78446e-05 0.0001419005 -0.8170950748 0.025146389
40299760.0 -0.1808079572 0.0536642987 1.34131e-05 -0.000149131 0.0001641386 0.0001358429 -0.821411353 0.0345638429
45299730.0 -0.1754997746 0.0556200662 -4.78421e-05 -1.82895e-05 0.0001709749 -6.11238e-05 -0.8249724891 0.0439576107
50299700.0 -0.1708193394 0.0569545731 -0.0001034877 -0.0001680796 -2.91648e-05 -3.7753e-05 -0.8273032468 0.054386291
55299670.0 -0.1665183845 0.0577894626 -2.68989e-05 0.0003173056 6.94206e-05 7.3025e-06 -0.8294250991 0.0642886799
60299640.0 -0.1623823598 0.0589216796 7.30357e-05 0.0001098007 -4.61731e-05 0.0001833635 -0.8305317907 0.0742069317
65299610.0 -0.1590329154 0.0591538596 2.17655e-05 5.70528e-05 -8.16139e-05 0.0001420023 -0.8318649679 0.0838350749
70299580.0 -0.1557106553 0.0596141257 -0.0002590251 -3.50544e-05 2.0924e-05 -9.40479e-05 -0.8316372976 0.0941559127
75299550.0 -0.1527489899 0.0600897253 -0.0002435727 8.27254e-05 9.86907e-05 9.27269e-05 -0.8324770264 0.1041282282
80299520.0 -0.1498643157 0.0601296116 0.0001083894 0.0001208438 4.82125e-05 -1.08564e-05 -0.8318568489 0.1138512849
85299490.0 -0.1476684021 0.0597546936 1.8518e-05 -0.0001047165 -4.87597e-05 4.66996e-05 -0.8314160757 0.1239148507
90299460.0 -0.1455881534 0.0601742057 4.06423e-05 -3.55497e-05 -2.12326e-05 0.0001082003 -0.830651704 0.1333352725
95299430.0 -0.1432399967 0.0595687156 -2.06914e-05 -0.0001438455 -8.7421e-06 -0.0001731112 -0.8294607276 0.143211176
100299400.0 -0.1416696275 0.0597671836 8.38471e-05 0.0001727425 -5.91008e-05 -2.81749e-05 -0.8286622927 0.1524779508
105299370.0 -0.1400699629 0.0600718345 5.38622e-05 -9.89901e-05 7.04871e-05 6.9411e-05 -0.8267062961 0.1610353596
110299340.0 -0.1384909297 0.0601327997 1.91909e-05 -8.19454e-05 0.0001140218 0.0001275508 -0.8255643822 0.1709312453
115299310.0 -0.1368876648 0.0600052013 3.20567e-05 0.000128402 2.35249e-05 -2.96353e-05 -0.8240988463 0.1797476125
120299280.0 -0.136096275 0.0597745537 8.49957e-05 3.25085e-05 5.026e-06 -0.0001529093 -0.8222705934 0.1887910097
125299250.0 -0.1350942948 0.0598386019 0.0001579642 4.85421e-05 -4.9729e-06 -9.33249e-05 -0.8206860004 0.1977935296
130299220.0 -0.1342169311 0.0603909565 -2.09381e-05 9.95853e-05 9.3797e-06 0.0001536663 -0.8184202939 0.2067638726
135299190.0 -0.1332809613 0.060784744 -0.0001550722 8.11331e-05 0.0001364905 5.17367e-05 -0.8165321102 0.2155912203
140299160.0 -0.1324940987 0.06077064 0.0002167999 -0.0001288416 -1.36482e-05 3.0381e-05 -0.8142053166 0.2251360363
145299130.0 -0.1313173653 0.0609772764 7.89193e-05 -9.1104e-05 -0.0001015225 1.84302e-05 -0.811989432 0.2340676307
150299100.0 -0.130383862 0.0614768999 0.0001516202 2.53671e-05 3.4055e-05 -1.4744e-05 -0.8104180431 0.2428464006
155299070.0 -0.13021673 0.0617992656 4.84232e-05 0.000192335 0.0002195604 0.0001185352 -0.8073194782 0.2519476795
160299040.0 -0.1296291294 0.0625809882 9.1799e-06 -2.5497e-06 -1.20997e-05 3.749e-06 -0.805051359 0.2605740535
165299010.0 -0.1289578659 0.0627063848 0.0003716271 4.41828e-05 4.1347e-05 0.0001109117 -0.8022079851 0.2696325302
170298980.0 -0.128563883 0.0636464085 4.97206e-05 -3.25279e-05 -0.0001801318 1.89589e-05 -0.7994568239 0.2779788589
175298950.0 -0.1278298301 0.0641568952 0.0001872464 8.09515e-05 0.000194097 -4.35776e-05 -0.7967320578 0.2867313994
180298920.0 -0.1274238176 0.0646797788 0.0001286 -0.000256512 2.7081e-05 -1.57679e-05 -0.7936335988 0.2952362708
185298890.0 -0.1265378161 0.0650511745 0.0001183516 0.0001290224 0.0002430449 5.51317e-05 -0.7896203027 0.3037776546
190298860.0 -0.1261386384 0.0658613593 -4.80817e-05 -2.21759e-05 0.0001018884 1.79136e-05 -0.7880322259 0.3121968283
195298830.0 -0.1261052963 0.0665344382 7.54511e-05 -0.0001323599 0.0002005206 0.0001883577 -0.784077258 0.3210638125
200298800.0 -0.1250727042 0.0671023767 5.93711e-05 -9.33054e-05 0.0002653622 0.0003089646 -0.7813922571 0.3291999014
205298770.0 -0.1248832678 0.0682009898 1.72561e-05 7.93836e-05 0.000230637 0.0002306203 -0.777280912 0.3370964094
210298740.0 -0.1243508514 0.069003714 9.30743e-05 -2.7754e-06 -0.0001055904 -7.2789e-05 -0.7741812696 0.3455967526
215298710.0 -0.1243713862 0.0698361364 1.32693e-05 0.0001972428 -3.14552e-05 4.29536e-05 -0.771158262 0.3538955522
220298680.0 -0.1237780285 0.0703804551 0.0001771849 0.0001350683 -5.26423e-05 -5.80825e-05 -0.7671602329 0.3619946071
225298650.0 -0.1233439695 0.0710842811 -1.45491e-05 2.26326e-05 4.62157e-05 -0.0002181388 -0.763932918 0.3702152255
230298620.0 -0.1226031305 0.0722404418 -3.09364e-05 6.0155e-06 0.0001582836 -3.12891e-05 -0.759776506 0.3780833228
235298590.0 -0.1223502662 0.0733487473 0.0001936744 0.0001233745 0.0001543796 0.0001128945 -0.7561249754 0.3862096669
240298560.0 -0.1218228272 0.0741969461 0.0002267426 9.37194e-05 0.0002179509 2.2182e-06 -0.7517503949 0.3955072773
245298530.0 -0.1215412223 0.0748563537 0.0001069307 9.98071e-05 -0.0001119125 0.0001209552 -0.7482655289 0.4022940782
250298500.0 -0.1208097309 0.0757488348 0.0001745127 0.0001676236 -0.0001766644 0.0002084347 -0.743640296 0.4097711513
255298470.0 -0.1204224869 0.076501153 -4.91895e-05 2.93013e-05 -2.58876e-05 -9.96579e-05 -0.7387049453 0.417826433
260298440.0 -0.120145539 0.0778552133 0.0001180445 -5.40257e-05 -5.67811e-05 6.70619e-05 -0.7345969948 0.4262850754
265298410.0 -0.1194824834 0.078908553 2.0406e-06 0.0002101126 0.0001168857 0.0001068996 -0.7301679941 0.4332653067
270298380.0 -0.119220151 0.0798287274 0.0001529473 0.0001206558 1.54427e-05 0.0001166679 -0.7251025066 0.4408577821
275298350.0 -0.1184434649 0.080858267 -0.0001716254 1.99872e-05 0.0001288698 0.0002960482 -0.7206198891 0.448622405
280298320.0 -0.117938397 0.0816322414 -8.09179e-05 0.0001133947 0.0001680801 6.77335e-05 -0.7156173326 0.4557360343
285298290.0 -0.1170558871 0.0830201875 0.0001420465 0.0001350515 -0.0001106202 1.75944e-05 -0.710670937 0.4639516622
290298260.0 -0.1165763843 0.083954274 0.0002348226 0.0001486522 -4.43952e-05 -0.000115212 -0.7056709824 0.4703103233
295298230.0 -0.1160238144 0.0847086097 2.36143e-05 0.0001588245 0.0001660351 4.16087e-05 -0.7008590119 0.4777542365
300298200.0 -0.1155035433 0.0860934994 -5.83091e-05 -0.0001606309 9.7271e-05 0.000248048 -0.6958357309 0.4849726805
305298170.0 -0.1145154359 0.0869570934 6.55182e-05 0.0001034668 9.62834e-05 0.0001392786 -0.6901156427 0.4928686637
310298140.0 -0.1139894775 0.0879475236 5.58806e-05 1.14573e-05 1.83652e-05 0.0001128914 -0.6856831543 0.4999206143
315298110.0 -0.1131371567 0.0889620883 0.000145557 0.0001752538 0.0002686476 5.26729e-05 -0.680154975 0.5065870077
320298080.0 -0.1126687276 0.0896005326 0.0003086459 0.0001473739 -0.0001118903 -3.62818e-05 -0.6748611432 0.5142548046
325298050.0 -0.1120040868 0.0909625921 0.0001369003 -1.40585e-05 0.0001265455 4.81836e-05 -0.6695682754 0.5211289702
330298020.0 -0.111592108 0.0915286406 -3.49135e-05 0.0001019396 0.0001625152 6.46454e-05 -0.6637296685 0.5278018799
335297990.0 -0.1106716225 0.0923476158 7.74793e-05 0.0001976564 5.94841e-05 -4.86573e-05 -0.658204649 0.5352789165
340297960.0 -0.1104804047 0.0939102618 -2.16604e-05 -2.33124e-05 1.11738e-05 8.10574e-05 -0.6530933814 0.5421287815
345297930.0 -0.110138656 0.0948858521 0.0002281871 0.0001687703 0.0001154137 0.0002831769 -0.6468851148 0.5479466014
350297900.0 -0.1090637104 0.0960499707 0.0001336802 0.0001155276 0.0001692293 0.0001182169 -0.6413286713 0.5556580171
355297870.0 -0.10817989 0.0973563386 0.0001660042 6.61797e-05 6.08127e-05 0.0001273246 -0.6357763557 0.5617683767
360297840.0 -0.1078997424 0.0981385158 -0.0002049244 0.0001286476 -0.0001003355 0.000228971 -0.6296895361 0.5689382879
365297810.0 -0.1071960058 0.0994956264 0.0001811177 -0.0001120796 0.0001849432 0.0001014463 -0.6229101622 0.5752201663
370297780.0 -0.1064156302 0.1004978741 0.000260965 0.0001352738 0.0001743867 -3.19911e-05 -0.6174992529 0.5810316926
375297750.0 -0.1053951403 0.1016615894 0.000104546 9.06677e-05 0.0001989902 5.359e-07 -0.6116399852 0.5877966069
380297720.0 -0.104913731 0.1026658821 7.66051e-05 1.02097e-05 5.99659e-05 -0.0001351646 -0.6057591962 0.594024362
385297690.0 -0.1040979439 0.1036913188 -0.0001876857 0.0003306159 -7.38668e-05 0.0001033983 -0.5989848394 0.6002360552
390297660.0 -0.1034991414 0.1050139499 0.0001001531 0.0001654217 6.90873e-05 7.92887e-05 -0.5933213365 0.6066790039
395297630.0 -0.102281639 0.1059420171 0.0003552386 5.96904e-05 0.0002443036 -1.1419e-05 -0.5866508985 0.6129538748
400297600.0 -0.1014796633 0.107348708 -8.343e-07 6.72839e-05 0.0001762445 0.0001445862 -0.5810932096 0.6186429164
405297570.0 -0.1008570581 0.1082531488 0.0002944043 0.0001795972 8.43972e-05 9.59206e-05 -0.5738830661 0.624399291
410297540.0 -0.1000752874 0.1092637677 7.844e-06 0.0001463321 0.0003406016 -8.467e-07 -0.567237968 0.6305337737
415297510.0 -0.098869061 0.1101232234 0.0002406293 5.85221e-05 0.000126454 -0.0001043789 -0.5611742892 0.6362046346
420297480.0 -0.0983797444 0.1117363333 0.0002649775 -5.71675e-05 0.0001722976 -7.05929e-05 -0.5542348568 0.6427651865
425297450.0 -0.0971391613 0.1124496881 0.0001378245 0.0001244877 0.0001424967 0.0001335977 -0.5478024546 0.6481122892
430297420.0 -0.0960402886 0.113329621 0.0001508347 -6.23037e-05 6.1098e-06 0.0002137577 -0.5410000634 0.652638484
435297390.0 -0.0951455358 0.1148114802 0.0001791769 -0.0001426948 9.56109e-05 2.74835e-05 -0.5343032892 0.6581485553
440297360.0 -0.0946277921 0.1157911967 0.0001610939 0.000203938 0.0001474683 0.0001021692 -0.5272628997 0.663146465
445297330.0 -0.093529964 0.1164088321 0.0002507402 -9.4788e-06 0.0001724078 -1.01363e-05 -0.5205105209 0.6685444354
450297300.0 -0.0926650067 0.1173753934 0.0002290246 -3.2277e-05 -2.18129e-05 2.13073e-05 -0.5132285403 0.6741548933
455297270.0 -0.0916738476 0.1188680696 0.000175257 0.000223651 0.0001819564 0.0002065512 -0.5065454275 0.6785079945
460297240.0 -0.0905944172 0.1196115006 -2.10874e-05 0.0001566991 0.0001536892 4.35481e-05 -0.5001463277 0.6839091111
465297210.0 -0.0895454617 0.1207212113 0.0001337205 8.94152e-05 3.31114e-05 -5.1282e-06 -0.4920592221 0.6886208295
470297180.0 -0.0884393727 0.1216684722 -9.68169e-05 4.39342e-05 1.35184e-05 5.30756e-05 -0.4846802255 0.6942074863
475297150.0 -0.0874921552 0.1224187569 0.0001296983 0.0001401757 8.2491e-05 6.26138e-05 -0.4780152657 0.6980459598
480297120.0 -0.0862518105 0.1237695987 0.0003324116 2.9464e-05 0.0001644542 0.0003197627 -0.4694883254 0.7037945628
485297090.0 -0.0851423275 0.1247132854 0.0001963935 0.0004303482 0.0001660804 9.22552e-05 -0.4632542058 0.7083335317
490297060.0 -0.0843470124 0.1259777961 0.0004009491 0.0002668816 0.0002636369 0.0001274647 -0.4559823913 0.7122883541
495297030.0 -0.0831536921 0.1268041883 0.0001747318 0.0001298603 0.0001411171 7.32149e-05 -0.448831677 0.7177826925
500297000.0 -0.0821514576 0.1277403385 0.0001388726 0.0002863636 -7.20779e-05 0.000137126 -0.4407339883 0.7224779385
505296970.0 -0.0807995094 0.1285660242 9.81516e-05 0.0001797748 2.0139e-05 -2.3789e-06 -0.433384405 0.7269039399
510296940.0 -0.0798805244 0.1293904913 0.0002132752 5.2798e-06 0.0001888784 1.15333e-05 -0.4259403194 0.7308406836
515296910.0 -0.078490548 0.1302874713 0.0001560792 1.72211e-05 5.9385e-05 2.5031e-06 -0.4185683839 0.7347121147
520296880.0 -0.07765924 0.131377146 0.0001679455 -5.13821e-05 0.0002854023 3.5306e-05 -0.4113004373 0.7388155758
525296850.0 -0.0762558933 0.1317724091 0.0002337849 4.71222e-05 0.00025255 -3.81952e-05 -0.4038873434 0.7438732045
530296820.0 -0.0751839984 0.1332554886 0.0001700297 8.79923e-05 0.000105721 0.0001261993 -0.3964521049 0.7477316675
535296790.0 -0.0741737297 0.1340227349 -1.23009e-05 -0.0001233218 0.0002854711 0.0001308784 -0.3893438939 0.7515651543
540296760.0 -0.0730750122 0.1349425848 -2.49172e-05 -6.11075e-05 0.0002055816 0.0002044927 -0.3812987871 0.7558642974
545296730.0 -0.0717648996 0.1359207076 0.0001152494 5.97307e-05 8.91334e-05 -9.46703e-05 -0.3734815042 0.7595258599
550296700.0 -0.0705013616 0.1364715931 0.0001574865 0.0001974879 0.0001925786 -5.39878e-05 -0.365841622 0.7628268835
555296670.0 -0.069470844 0.1371298949 0.0001833808 -0.0001196059 0.0003877804 -9.3967e-05 -0.3581520469 0.7672847416
560296640.0 -0.0678958018 0.1382379421 0.0003081206 9.70896e-05 0.0002614545 -4.20874e-05 -0.3502253438 0.770730178
565296610.0 -0.0665664129 0.1389881075 0.0002466391 0.0002252855 0.0002959137 0.0001012354 -0.3420887478 0.7740271304
570296580.0 -0.065772365 0.1398648744 0.0001105218 0.0001140504 0.0002456463 4.99018e-05 -0.3353954305 0.7774612814
575296550.0 -0.0645766791 0.1409498069 1.95452e-05 0.0001881994 0.000277673 0.0001474682 -0.3272482184 0.7810923917
580296520.0 -0.0630804828 0.1417553991 0.00019292 7.85418e-05 0.0001523342 -0.0001640038 -0.3182776574 0.7836823043
585296490.0 -0.0621512546 0.1423177843 0.0002607889 4.18696e-05 0.0003444046 0.0002256119 -0.3104565557 0.7869733481
590296460.0 -0.0602887975 0.1428382128 0.0001796276 -5.22757e-05 0.000166655 0.0001089961 -0.3030979637 0.790150079
595296430.0 -0.0593249967 0.1437324645 0.000251309 -0.0001989253 0.0001547886 0.0001025755 -0.2946134355 0.7923430208
600296400.0 -0.0582567664 0.1446386727 0.0001569993 0.0001198174 0.0002215302 -4.07375e-05 -0.2869862997 0.795239488
605296370.0 -0.0570438681 0.1453793872 0.0002104942 8.6956e-06 0.0001555981 5.38751e-05 -0.2781692991 0.7981367133
610296340.0 -0.0554044054 0.1459943083 0.0001064982 0.0001065247 0.0001993201 -4.1948e-05 -0.2705733469 0.8011691479
615296310.0 -0.0539760027 0.1465130659 0.0002770045 -9.86441e-05 0.0002664602 0.0003232108 -0.2615300569 0.803266501
620296280.0 -0.052946441 0.1471188223 2.87352e-05 0.0001134955 0.0003645665 -2.76151e-05 -0.2544457799 0.8061923484
625296250.0 -0.0516473946 0.1477928322 7.95419e-05 -3.97633e-05 0.0003099393 -1.51854e-05 -0.2453386626 0.8078835417
630296220.0 -0.0497631056 0.1484128176 0.0001492586 2.98827e-05 0.0002217538 7.84209e-05 -0.2377979131 0.8105763811
635296190.0 -0.0489949177 0.1494210516 0.0003289365 0.0002403931 0.0002377398 6.56532e-05 -0.2298437997 0.8127982642
640296160.0 -0.0473857891 0.1497610335 0.000151642 1.30001e-05 0.0001407258 2.05964e-05 -0.2211395127 0.815418314
645296130.0 -0.0459637679 0.1508647088 0.0002792563 0.0001004197 0.0003352027 8.00814e-05 -0.2130652849 0.8174325078
650296100.0 -0.0445499062 0.1512340744 9.44778e-05 0.0002862716 0.0001217247 0.0002751711 -0.2048351297 0.8185876142
655296070.0 -0.0432832563 0.1518651061 0.0002101723 5.16883e-05 4.8961e-06 -9.50027e-05 -0.1960106983 0.821030518
660296040.0 -0.0423079098 0.1523840984 0.0002793973 2.09504e-05 0.0003122669 -3.9024e-06 -0.1876660827 0.823337242
665296010.0 -0.0404044259 0.1527618014 0.000487668 5.30981e-05 0.0002934207 -6.31329e-05 -0.1796106319 0.8250539389
670295980.0 -0.0394745812 0.1537286735 0.0001137233 -9.76185e-05 0.0002228257 0.0001718481 -0.1720847245 0.8268779274
675295950.0 -0.0379135781 0.1542377007 0.0003141569 0.0001249024 0.0002740252 0.0001756354 -0.1639587611 0.8284110409
680295920.0 -0.0360298629 0.1546306122 0.0003613092 0.0001614098 2.40649e-05 0.0002974624 -0.1550151692 0.830590199
685295890.0 -0.0348956682 0.1554830734 7.92582e-05 -2.56735e-05 0.0003899649 -2.93143e-05 -0.1459789046 0.8313313811
690295860.0 -0.0332028334 0.1559691151 0.0002782007 -3.35506e-05 0.0003882856 -3.52682e-05 -0.1378116687 0.8337596782
695295830.0 -0.0319215254 0.1565113936 0.0001824364 6.93661e-05 0.0002409764 0.0001030468 -0.129688501 0.8347444088
700295800.0 -0.0306227278 0.1568529804 0.0004138149 4.70228e-05 0.0002867801 -0.0001063622 -0.1224643265 0.8360915203
705295770.0 -0.0294944731 0.1575117502 0.0001876467 -6.6781e-06 0.0003197877 -0.0001105229 -0.1137170618 0.8383009047
710295740.0 -0.0275779366 0.1578162527 0.0002300344 0.0001684236 0.0003108718 -9.95059e-05 -0.1046072467 0.8383917517
715295710.0 -0.0263521606 0.1583750953 2.91254e-05 -2.39997e-05 0.0003425274 -0.0003278504 -0.0963702965 0.8396316971
720295680.0 -0.0249280764 0.1589310075 0.0004089049 4.92422e-05 0.0002400121 -2.8462e-05 -0.0879007949 0.840922025
725295650.0 -0.0233813501 0.1594463273 0.0004971074 5.3317e-05 0.0001720261 -6.81468e-05 -0.0798808121 0.8417263925
730295620.0 -0.021823612 0.1596214311 0.0004501624 -5.22324e-05 0.0001398336 0.000149884 -0.0725820482 0.8420478707
735295590.0 -0.0204250989 0.1600353646 0.0001324952 0.0001061323 0.000225195 1.45822e-05 -0.0634416792 0.8429781501
740295560.0 -0.0191071263 0.1606200549 0.0001539145 -0.0001770557 0.0003679079 -0.0001423042 -0.0539928183 0.843906177
745295530.0 -0.0177049282 0.1612104704 0.0001496242 -0.0001478621 0.0003077008 0.0001420409 -0.0459877456 0.8436418685
750295500.0 -0.0159207092 0.1613698486 0.000317271 -9.36215e-05 0.0003750079 -5.65146e-05 -0.0375114897 0.844145582
755295470.0 -0.0144109239 0.1616254114 0.0002709251 -6.42535e-05 0.0002678313 3.81998e-05 -0.0294657746 0.8438164813
760295440.0 -0.0130945505 0.161783534 0.0003607637 4.44958e-05 0.0002721784 0.0001143619 -0.0206762884 0.8442435247
765295410.0 -0.0114214579 0.1626060181 0.0005794414 0.0001767083 0.0004226903 -2.38402e-05 -0.0125120949 0.8449337702
770295380.0 -0.0099889233 0.1623594556 0.0001486493 0.000105779 0.0002491415 -0.0001402991 -0.004131144 0.844532608
775295350.0 -0.0087992038 0.1627839495 1.7411e-06 -2.363e-07 0.000310758 6.417e-07 0.0034671257 0.8447118238
780295320.0 -0.0069316877 0.163327239 2.24411e-05 0.0001215007 0.0001800785 -0.0001253229 0.0122128916 0.8444540419
785295290.0 -0.0055950899 0.1629900964 0.0002455637 0.0001391443 0.0003560872 -8.02859e-05 0.0210557263 0.8439246236
790295260.0 -0.0034804559 0.1639093049 0.0003877421 3.34436e-05 0.0001649588 5.6832e-06 0.0299113284 0.8436938633
795295230.0 -0.0025110158 0.1637709693 0.0001092292 -5.9094e-05 0.0004828408 7.35484e-05 0.0388931453 0.8425161122
800295200.0 -0.0012249386 0.1640578073 0.0002745562 -6.08608e-05 0.0001878241 4.77084e-05 0.0466850571 0.8427759536
805295170.0 0.0005536446 0.1640488664 0.0002363104 -0.0002293632 0.0003195262 -7.98318e-05 0.0547833868 0.8419746632
810295140.0 0.0023719143 0.1642816634 0.0002150291 -7.28203e-05 0.0002404175 0.0003401674 0.0637678407 0.8414606177
815295110.0 0.0036977976 0.1646063014 0.0001663111 -5.99141e-05 0.0001169393 -0.0004210693 0.0721829618 0.8409033266
820295080.0 0.0051140749 0.1649722018 0.0003314692 -0.0001180196 0.0001834088 0.0001119304 0.0801591571 0.840392377
825295050.0 0.0071800834 0.1646913038 0.0004854615 -0.0001321061 0.0003080634 -0.0003585187 0.0884552153 0.8395970136
830295020.0 0.0083215995 0.1649292284 0.0003905066 -0.0001445205 0.0003692762 8.46102e-05 0.097417458 0.8387576916
835294990.0 0.0096835394 0.1651486376 0.0004006428 -0.0002021997 0.0001676167 -0.0002726666 0.104952239 0.8375060033
840294960.0 0.0112877406 0.165460467 0.0004013774 -0.0002639867 0.000237213 -5.63804e-05 0.1137762312 0.8362582535
845294930.0 0.0130863052 0.1653175019 0.0002912349 -5.83088e-05 0.0004777671 -5.59333e-05 0.1219221088 0.8350527664
850294900.0 0.0144039427 0.1656944675 0.0006051052 -0.0001592834 0.0003955351 0.0001039706 0.1295940653 0.8339602584
