!Created with skrf (http://scikit-rf.org).
# Hz S RI R 50.0 
!freq ReS11 ImS11 ReS21 ImS21 ReS12 ImS12 ReS22 ImS22
300000.0 -0.0932401394 -0.0999414116 0.6213455101 0.0929342981 0.6207664206 0.0938525588 -0.0951825006 -0.1053810475
5299970.0 -0.1013572649 0.0113173758 0.6303582919 0.0113538461 0.6308249272 0.0113674272 -0.1015701497 0.0112765055
10299940.0 -0.0968798875 0.0286802 0.6345237005 0.016112663 0.6341819627 0.0166427948 -0.0962472225 0.0282354872
15299910.0 -0.0890308904 0.0423163056 0.6407136199 0.021259578 0.6407362309 0.0213320898 -0.0897884513 0.0417824352
20299880.0 -0.0802467776 0.0534502312 0.6489029356 0.0240250582 0.6489177095 0.0242661354 -0.0810054136 0.0529305287
25299850.0 -0.0704243096 0.0625188666 0.6585235751 0.0256358766 0.6584509331 0.0256530993 -0.0715520982 0.0617597915
30299820.0 -0.0609328565 0.0688372454 0.6683323297 0.0249405992 0.6677014621 0.0244913266 -0.0617016969 0.0681883465
35299790.0 -0.0505490381 0.073409732 0.6770546041 0.0219946122 0.6775504169 0.0218504849 -0.0523616788 0.0734833831
40299760.0 -0.0412388354 0.0764246012 0.6868814219 0.0174561047 0.6871012767 0.017670391 -0.0424755047 0.0770224696
45299730.0 -0.0318413885 0.0782792632 0.6960847511 0.0121840894 0.6958899467 0.0119097628 -0.0330700456 0.0790205148
50299700.0 -0.0227720472 0.0791940579 0.7039222869 0.0053274609 0.7036378577 0.0048919565 -0.0245323514 0.080382033
55299670.0 -0.015087715 0.0791196838 0.7113817239 -0.0022393008 0.7103594637 -0.002871507 -0.0171957453 0.0802492754
60299640.0 -0.0076615898 0.0788277248 0.7180897457 -0.0107937135 0.7179782614 -0.0111507592 -0.0094725472 0.0795202174
65299610.0 -0.0012598527 0.0772030361 0.7244633756 -0.0195957544 0.7237959307 -0.0196493446 -0.0026414212 0.0784511275
70299580.0 0.0053146155 0.0752628198 0.7291632804 -0.0287590629 0.72892782 -0.0289451498 0.003230229 0.0771620157
75299550.0 0.010515227 0.0732593314 0.7334917409 -0.0392764779 0.7332545612 -0.0387253692 0.0086244126 0.0756139483
80299520.0 0.0155951066 0.0715156663 0.737723964 -0.0486458939 0.7374205743 -0.0487353542 0.0139959374 0.0736404723
85299490.0 0.0200610749 0.0692235833 0.7415118659 -0.0586085422 0.7409631866 -0.0585979499 0.0181541157 0.0709669927
90299460.0 0.0239341633 0.0667697737 0.7435637094 -0.0683620737 0.7435013715 -0.0682977377 0.0225477126 0.0692388446
95299430.0 0.0279914446 0.0641886214 0.7458619852 -0.0793368814 0.7460573159 -0.0789811905 0.0259272047 0.0663847415
100299400.0 0.0313307204 0.0613494396 0.7476441117 -0.0882600506 0.7474731665 -0.0886855653 0.0292139805 0.0645785431
105299370.0 0.0343575474 0.0592820588 0.749114051 -0.0986896864 0.749577617 -0.0987552209 0.0327634323 0.061788068
110299340.0 0.037380256 0.056526089 0.7504873452 -0.1085752705 0.7510971489 -0.1084573991 0.0352411857 0.059515146
115299310.0 0.039500707 0.0542435178 0.7512372732 -0.1188681743 0.7512700876 -0.1186642804 0.0374404483 0.0579376981
120299280.0 0.0415373713 0.0520328887 0.7521724802 -0.1300209133 0.7520234726 -0.1295957645 0.0400845094 0.0548312122
125299250.0 0.0436805981 0.0496502379 0.7518691485 -0.1389295583 0.7522302552 -0.1385698531 0.0422490404 0.0530143013
130299220.0 0.0457428562 0.0470873899 0.7519543495 -0.1492486554 0.7517401621 -0.1492236035 0.0437572234 0.050912392
135299190.0 0.0470933204 0.0455191758 0.7521874687 -0.1585569934 0.7522012593 -0.1594302953 0.0456080665 0.0479606267
140299160.0 0.0487972109 0.0431791463 0.7518942698 -0.1688073439 0.7512697864 -0.1680160653 0.0461839201 0.0455856419
145299130.0 0.0494856229 0.0408676006 0.7501558199 -0.1783989546 0.7503049489 -0.1782646422 0.0479757287 0.0435974394
150299100.0 0.0509153732 0.0392766518 0.749359377 -0.1883388607 0.7490470096 -0.188188068 0.0493615473 0.0420061704
155299070.0 0.0525948679 0.0369875162 0.7476295078 -0.197738344 0.7485448579 -0.1974745788 0.0503465804 0.0395596484
160299040.0 0.0533002232 0.0352558533 0.746768927 -0.2072564917 0.7466038958 -0.207458099 0.0510474998 0.0380091477
165299010.0 0.0543721641 0.0333671368 0.7457541406 -0.2164257611 0.7451038008 -0.2165712955 0.0521024888 0.0359165595
170298980.0 0.0552456922 0.0318873698 0.7432044338 -0.2259449304 0.7434164423 -0.2265139543 0.052591126 0.0340015766
175298950.0 0.0560301605 0.0303158213 0.7418367764 -0.2355787817 0.7419119782 -0.2355796216 0.0536105637 0.0326483365
180298920.0 0.0562121227 0.0286987346 0.7396767378 -0.244866336 0.7394702288 -0.2448091477 0.054207686 0.0310369149
185298890.0 0.0566120145 0.027135422 0.7376433236 -0.2539571074 0.7371603874 -0.2531389376 0.0551019598 0.029205102
190298860.0 0.057906771 0.0258182702 0.7346094543 -0.2630119697 0.7349535863 -0.2627829921 0.0552119101 0.0274036378
195298830.0 0.0576928375 0.0242191586 0.7330390989 -0.2715734799 0.7330188672 -0.2718896215 0.0558804525 0.0259300039
200298800.0 0.0586290765 0.0223517317 0.7298851716 -0.2810558571 0.7299690645 -0.280933256 0.0563402753 0.0241432349
205298770.0 0.058165221 0.0207711586 0.7267305456 -0.2894851428 0.7271028604 -0.2892038043 0.0570478666 0.0226819617
210298740.0 0.0587410451 0.0199875981 0.7240641047 -0.2983220113 0.7236750485 -0.298304788 0.056577142 0.0207839001
215298710.0 0.0596038887 0.0187555869 0.7208553854 -0.3067982312 0.7206063446 -0.3071817379 0.0573568233 0.0197210889
220298680.0 0.059924862 0.0175812353 0.7180340913 -0.3159546617 0.7176165756 -0.3160903657 0.0573851468 0.0184031093
225298650.0 0.0598239651 0.0158715724 0.7143140597 -0.3241164083 0.7145132593 -0.3238769604 0.0576809415 0.016586176
230298620.0 0.0601253268 0.0152326892 0.7111681183 -0.3332575452 0.7115602912 -0.3328844241 0.0573273485 0.0152527849
235298590.0 0.0596149646 0.0136361468 0.7078288589 -0.342031254 0.7079733086 -0.3415092195 0.0580352585 0.0142384414
240298560.0 0.060207811 0.0126316075 0.7043499295 -0.3493931973 0.7035131718 -0.3494110213 0.0577045219 0.012842171
245298530.0 0.0603603353 0.0111544091 0.7008553411 -0.3581838188 0.6997890845 -0.3582247663 0.0579646745 0.0118213346
250298500.0 0.0603839499 0.0101921896 0.6969287686 -0.3662359115 0.696343437 -0.3659522179 0.0580184347 0.0105071853
255298470.0 0.0604349884 0.0097209257 0.6931683312 -0.3738517648 0.6933942053 -0.3741089586 0.0580203246 0.0099087812
260298440.0 0.0607435756 0.00810422 0.6890517735 -0.3815622429 0.6890426341 -0.3823172766 0.0578656781 0.0078665644
265298410.0 0.0600280711 0.0073833356 0.6845342907 -0.3906765799 0.6843805733 -0.3905744007 0.0587492401 0.0065660105
270298380.0 0.0600339379 0.0063547028 0.6804816549 -0.3987297449 0.6804362012 -0.3980066624 0.0583328127 0.0059087757
275298350.0 0.0603461312 0.0057500398 0.6754396552 -0.4056721037 0.6755466728 -0.4060985461 0.0580678326 0.0048700174
280298320.0 0.0597202632 0.0044681604 0.6719501449 -0.413288953 0.6720036993 -0.4136824982 0.058341976 0.0038589824
285298290.0 0.059857202 0.0034934322 0.6673284584 -0.4219887381 0.6674048076 -0.4212377131 0.0579298309 0.002385376
290298260.0 0.0597386539 0.002688049 0.6632723708 -0.4298445798 0.6634606774 -0.42957228 0.0581319523 0.0017641456
295298230.0 0.0599718843 0.0013977422 0.6584125303 -0.437759706 0.6580418334 -0.4377773014 0.0579099615 0.0002879407
300298200.0 0.0601475353 0.0007150716 0.6535636979 -0.4451920352 0.6534813099 -0.4446588125 0.0578125996 -0.0007171302
305298170.0 0.0600008811 -0.0007758689 0.6494001659 -0.4535232876 0.6490223255 -0.4528759587 0.0577301386 -0.0021637816
310298140.0 0.060465374 -0.0016952687 0.6447244662 -0.4604330867 0.643962797 -0.4601920849 0.0579633586 -0.0036263682
315298110.0 0.0599784504 -0.0029953908 0.6397395029 -0.4687065544 0.6391157718 -0.4684536509 0.0577157248 -0.0043680887
320298080.0 0.0597332958 -0.0037813467 0.6333677727 -0.4756650082 0.6341199654 -0.4763432439 0.0573148788 -0.0054775664
325298050.0 0.0585243644 -0.0054640874 0.6282859995 -0.4831534587 0.6286481852 -0.4833429145 0.0570304445 -0.0067264008
330298020.0 0.0571790796 -0.005795139 0.622711599 -0.4908110899 0.6234180221 -0.4908496689 0.0562486571 -0.0079863705
335297990.0 0.0576039799 -0.0064621117 0.6171811037 -0.497290412 0.6171788962 -0.4978194247 0.0555491563 -0.0087032914
340297960.0 0.0568818381 -0.0076246848 0.6111200968 -0.5049824304 0.6107554207 -0.5042351015 0.0550722854 -0.0093146648
345297930.0 0.0563138782 -0.0085361578 0.6053820934 -0.5120360678 0.605745556 -0.5118867816 0.0551426414 -0.0106611268
350297900.0 0.0557984146 -0.0091398232 0.6002968652 -0.5181768047 0.6004858392 -0.518065842 0.0544289723 -0.011471907
355297870.0 0.0555704047 -0.0097214373 0.5944141909 -0.5244349233 0.5941724081 -0.5241977218 0.0545179726 -0.0120428869
360297840.0 0.0551946753 -0.0103708624 0.5881712966 -0.5311529415 0.588231453 -0.531550382 0.0533250944 -0.0124027202
365297810.0 0.0546720462 -0.011063615 0.5825914419 -0.5384337736 0.5824540885 -0.5384782953 0.0529254617 -0.0131898633
370297780.0 0.0547427831 -0.0113119119 0.5760193611 -0.5446795326 0.5763358989 -0.5445193325 0.0529131085 -0.0141652297
375297750.0 0.0542665628 -0.012292433 0.5707857984 -0.5508615721 0.5705694624 -0.5509214958 0.0528888141 -0.0147890321
380297720.0 0.0532819273 -0.0127763691 0.5644677969 -0.5582515668 0.5641005551 -0.5576411099 0.0522258231 -0.0148963221
385297690.0 0.0531180649 -0.0135917533 0.5577467356 -0.5632882109 0.5580932244 -0.5640057903 0.0519860349 -0.015421622
390297660.0 0.0527371255 -0.0144809927 0.5516254912 -0.5693639657 0.5521022041 -0.5699077934 0.052236454 -0.0167517367
395297630.0 0.0528483638 -0.0149306166 0.5462430483 -0.5750946226 0.5454948815 -0.5752321363 0.0514502076 -0.016958729
400297600.0 0.0521263511 -0.0158339184 0.5394853046 -0.5824266751 0.5397255508 -0.5816585685 0.0513105742 -0.0176123497
405297570.0 0.0519244279 -0.016903953 0.5332295679 -0.5879256504 0.5329414344 -0.587735873 0.0508422702 -0.0177222403
410297540.0 0.0513667648 -0.0166157926 0.5265133754 -0.5941982037 0.5265297244 -0.5938511001 0.050539211 -0.0188830393
415297510.0 0.0510977694 -0.0176085229 0.5199384029 -0.6003372219 0.5205191123 -0.5999269481 0.0506551988 -0.0190240639
420297480.0 0.050417968 -0.0185368633 0.5132098954 -0.6054520145 0.513908014 -0.605830922 0.0504770905 -0.0193856381
425297450.0 0.050743412 -0.0189831451 0.5066803061 -0.6109221634 0.5064729638 -0.6106683253 0.04979006 -0.0206205603
430297420.0 0.0500685453 -0.0191719462 0.5010770412 -0.6168336217 0.500458221 -0.6162295876 0.0497842022 -0.0210668991
435297390.0 0.0496694193 -0.0203970771 0.4928737517 -0.6233526368 0.4928597198 -0.6225169125 0.0486809103 -0.0212106541
440297360.0 0.049741294 -0.02101978 0.4858457457 -0.6279191431 0.4860415646 -0.6281729044 0.0487788389 -0.0219351438
445297330.0 0.0493122959 -0.021941859 0.4797952748 -0.6327099726 0.4797482464 -0.6329824127 0.0482793926 -0.0222249215
450297300.0 0.0490357808 -0.022108911 0.4728184225 -0.6380493254 0.4729561666 -0.6378351419 0.0479571186 -0.0227072977
455297270.0 0.0478759632 -0.0229859528 0.4660932687 -0.643449177 0.4655457468 -0.6437179603 0.0479770976 -0.0234740909
460297240.0 0.0482564052 -0.0231649915 0.4588789774 -0.6495149494 0.4583725608 -0.6489971857 0.0473143714 -0.0241746917
465297210.0 0.0477467114 -0.0239379364 0.4511302502 -0.6538821699 0.4507256588 -0.6538009787 0.0475063177 -0.0239370601
470297180.0 0.0469750856 -0.0248626023 0.4438950161 -0.6588407615 0.4444661755 -0.6588113177 0.0472009739 -0.0252338981
475297150.0 0.0465875371 -0.0249130908 0.4366934615 -0.6635720635 0.4365599243 -0.6636627141 0.0467829129 -0.0258085227
480297120.0 0.0468150788 -0.0249065395 0.4297372433 -0.6684629322 0.4295932477 -0.6683820266 0.0460030691 -0.0263876481
485297090.0 0.0460642959 -0.0266128601 0.4220618313 -0.6734221337 0.4224347802 -0.6729122274 0.04580338 -0.026569627
490297060.0 0.0463793921 -0.02667648 0.4141223065 -0.6779473788 0.4147320311 -0.6780469401 0.0451480955 -0.0269827242
495297030.0 0.0450719868 -0.0276635562 0.4076220027 -0.6823091545 0.407342421 -0.6828509501 0.0454115521 -0.0276618016
500297000.0 0.0447518589 -0.0276571721 0.3999017594 -0.6866282632 0.3999308218 -0.6871176062 0.0446548482 -0.0278619062
505296970.0 0.0449941043 -0.0282276639 0.3925349669 -0.6920893454 0.3924299137 -0.6906551726 0.0442461825 -0.029428135
510296940.0 0.0440195104 -0.0290961693 0.3846856457 -0.6961430783 0.384855582 -0.6961483405 0.0443533992 -0.0289881087
515296910.0 0.0436776058 -0.0291563798 0.3768455394 -0.6997330017 0.3767112829 -0.7001063959 0.0436212411 -0.0300714363
520296880.0 0.0432425058 -0.0296797725 0.3699071925 -0.7036098029 0.3693970513 -0.7034683573 0.0436476918 -0.0296052889
525296850.0 0.0431009669 -0.0302040397 0.3614005161 -0.707846103 0.3612553632 -0.7075646286 0.0435355736 -0.0306066177
530296820.0 0.0425889979 -0.0310432321 0.3537746984 -0.7125994248 0.3541139094 -0.7114946519 0.0430444394 -0.0317058478
535296790.0 0.0430939448 -0.0312566312 0.3460886467 -0.7155502775 0.346252751 -0.7155566638 0.0428344016 -0.0313218731
540296760.0 0.0421372538 -0.03119702 0.3375934919 -0.7196811784 0.3377944363 -0.7192793807 0.0421810377 -0.032702023
545296730.0 0.0405914282 -0.03167233 0.3301190027 -0.7228443133 0.32991047 -0.7229940996 0.0420146828 -0.0327051579
550296700.0 0.0412248412 -0.032317524 0.3224300224 -0.7268619263 0.3219613892 -0.7269452794 0.0416867074 -0.0330068622
555296670.0 0.0406372848 -0.0328777315 0.3141891159 -0.7307014284 0.3146690214 -0.7301910354 0.0409321019 -0.0340934717
560296640.0 0.0410470771 -0.0330208436 0.306232411 -0.7336128897 0.3069342979 -0.7336446452 0.0403832773 -0.033709488
565296610.0 0.0396964023 -0.0336069658 0.2986238175 -0.7372483701 0.2985227847 -0.7365627721 0.0405337391 -0.0337789064
570296580.0 0.0393383947 -0.0335549611 0.2898551716 -0.7401653593 0.2901349933 -0.7399579116 0.0395949367 -0.0350978878
575296550.0 0.039194807 -0.0343725286 0.2827034616 -0.7433855963 0.2821341723 -0.7431043381 0.0390360189 -0.0349987923
580296520.0 0.0387453588 -0.0343642935 0.2742202569 -0.7463944977 0.2739887132 -0.7466698185 0.0383343842 -0.0357738876
585296490.0 0.0384425616 -0.0345950073 0.266336222 -0.7495017157 0.2657967949 -0.7488234924 0.0384203523 -0.0356961248
590296460.0 0.0383052997 -0.0350563278 0.2577396687 -0.7520995392 0.2578735093 -0.7523895836 0.0375362646 -0.0361073652
595296430.0 0.0377004272 -0.0351855295 0.2486996867 -0.7551460396 0.2489541563 -0.7552296629 0.0375226598 -0.0370899726
600296400.0 0.037546139 -0.0355754943 0.2406681918 -0.7578964178 0.2410045381 -0.7579142935 0.0368376107 -0.0373048484
605296370.0 0.0360912166 -0.0360322841 0.2332846734 -0.760355677 0.2321773553 -0.760540987 0.0361033442 -0.0376052659
610296340.0 0.0364386717 -0.0357488381 0.2246840222 -0.7623494789 0.2252311434 -0.7623676516 0.0353078501 -0.0377313682
615296310.0 0.0361776045 -0.0363004146 0.2160412724 -0.7656002092 0.2155676891 -0.7648888452 0.0355142752 -0.0379459022
620296280.0 0.034929475 -0.0360845697 0.2070919095 -0.7675225213 0.2075013565 -0.7673695347 0.0345443538 -0.0381491271
625296250.0 0.034738001 -0.036556762 0.1991008926 -0.7700493007 0.1992630274 -0.7700437689 0.0334270468 -0.0386687665
630296220.0 0.0343881686 -0.0368654147 0.1904368088 -0.7722597317 0.1906307076 -0.7716441147 0.03354391 -0.0390584422
635296190.0 0.0330878202 -0.0366871259 0.181943233 -0.773777523 0.1825441286 -0.7740272795 0.0327889778 -0.039411524
640296160.0 0.0328417391 -0.0370260041 0.1732072386 -0.7760371869 0.17345934 -0.7760204881 0.0320622169 -0.0399612498
645296130.0 0.0327872819 -0.0367279629 0.1651522122 -0.7775663086 0.1653906205 -0.7776742414 0.0312548705 -0.0406667949
650296100.0 0.0322523532 -0.0372999903 0.1570937176 -0.780028322 0.1569808003 -0.7800373242 0.0318349029 -0.0406441893
655296070.0 0.0316467758 -0.0372550298 0.1485572536 -0.7817187124 0.148349194 -0.7809907312 0.0303126959 -0.0403978805
660296040.0 0.0308651817 -0.0373748861 0.1397912608 -0.783169167 0.1398381788 -0.7829845653 0.0298588431 -0.0415533431
665296010.0 0.0309540853 -0.0376662387 0.130353491 -0.783624493 0.1311068518 -0.783790725 0.0292584127 -0.0412568244
670295980.0 0.0301475482 -0.0375367834 0.1224604133 -0.7855756859 0.1226788891 -0.7848455981 0.0283972721 -0.041806348
675295950.0 0.0293742913 -0.0379869238 0.1137621665 -0.7866772575 0.1144929003 -0.7867329978 0.0277326899 -0.0414167489
680295920.0 0.0288667422 -0.0378197593 0.1055731475 -0.7874740916 0.1057651113 -0.7876447782 0.0273955134 -0.0422982582
685295890.0 0.0284930174 -0.0380283051 0.0966037234 -0.7896419232 0.0971742453 -0.7893588959 0.0268459526 -0.0415915542
690295860.0 0.0275467175 -0.0380082405 0.0885143574 -0.7903135335 0.0876371731 -0.7904237177 0.0259858031 -0.0422952685
695295830.0 0.0271878452 -0.0384198263 0.0804998176 -0.7913672344 0.0800824231 -0.7906093788 0.0254822234 -0.042104994
700295800.0 0.026796428 -0.0381554473 0.0711557084 -0.7917511354 0.0713341534 -0.7917854115 0.0249547662 -0.0423321331
705295770.0 0.0257711422 -0.0382287466 0.0622276479 -0.7931410551 0.0630762637 -0.7923664587 0.0243303885 -0.0423224854
710295740.0 0.0255191906 -0.0386124397 0.0539243725 -0.7927542167 0.0541017375 -0.7933737848 0.0238941112 -0.0424417137
715295710.0 0.0247580974 -0.0381626928 0.0454182653 -0.7939689866 0.0451816888 -0.7938556239 0.0230942388 -0.0427497936
720295680.0 0.0247792639 -0.0383161356 0.0364959331 -0.7939548647 0.0368048847 -0.794566438 0.0224030395 -0.0430101232
725295650.0 0.0232819407 -0.0383321367 0.0280333881 -0.7942505425 0.0281225779 -0.794317795 0.0214760679 -0.0424766407
730295620.0 0.022014267 -0.0385410388 0.0191927863 -0.7949461211 0.0191917301 -0.793880281 0.0206448675 -0.0422334669
735295590.0 0.0224171932 -0.0384733364 0.0108654641 -0.7956340726 0.0109578443 -0.7946248598 0.020204981 -0.0431049243
740295560.0 0.0217554287 -0.0387834283 0.0020063998 -0.7954554799 0.0027754668 -0.7949094764 0.0195225624 -0.0426857906
745295530.0 0.0211549543 -0.0382993459 -0.0063258451 -0.7940121653 -0.005375869 -0.7949318371 0.0178958816 -0.0429537814
750295500.0 0.0201297772 -0.0382871934 -0.0143881354 -0.7949640434 -0.0154839263 -0.7945827291 0.0178357716 -0.0426475986
755295470.0 0.0192144759 -0.0385267129 -0.0231025792 -0.7946825545 -0.0235117234 -0.7948241396 0.0176738132 -0.0422542569
760295440.0 0.0187911252 -0.0378898284 -0.0329435314 -0.7941251869 -0.031902996 -0.793689897 0.0168834263 -0.0437673323
765295410.0 0.0188077858 -0.0387161667 -0.0409047704 -0.7933724498 -0.0403098999 -0.7934815559 0.016058229 -0.0432984969
770295380.0 0.0176692291 -0.0380746057 -0.0493865267 -0.7927634966 -0.049299001 -0.7936555732 0.0152489217 -0.0430574967
775295350.0 0.0171653434 -0.0383155194 -0.0577482638 -0.7926790122 -0.0575492232 -0.7921495597 0.0149493491 -0.0424034217
780295320.0 0.0161404473 -0.038007829 -0.0661677075 -0.7912940238 -0.0660579797 -0.7916612521 0.0147363463 -0.0429300806
785295290.0 0.0157090864 -0.0382272373 -0.0753006554 -0.7910486326 -0.0748680573 -0.790934203 0.0132624022 -0.0421003882
790295260.0 0.0153998191 -0.0387007445 -0.0837345868 -0.7903377883 -0.0832906312 -0.7906643779 0.0126513796 -0.0420247291
795295230.0 0.0147624187 -0.0383459023 -0.0922322952 -0.7895155762 -0.0922559183 -0.7893757269 0.0122623391 -0.0431092593
800295200.0 0.0134132809 -0.037860732 -0.1002515615 -0.7876403156 -0.1007110767 -0.7884707189 0.0112012187 -0.0424280032
805295170.0 0.0128590933 -0.0378645805 -0.1093293267 -0.7868661132 -0.1086224747 -0.7869125393 0.0112543353 -0.0423909672
810295140.0 0.0127909764 -0.0377294075 -0.1178389738 -0.7852399952 -0.1176985758 -0.7856109636 0.0102469148 -0.0423511144
815295110.0 0.0119601092 -0.0376814029 -0.1261538262 -0.7844668016 -0.1255658758 -0.7843647427 0.0095970832 -0.0423324657
820295080.0 0.0115102845 -0.0377361039 -0.1339539813 -0.7825935746 -0.1342604278 -0.7831569095 0.0081176133 -0.0412694357
825295050.0 0.010328716 -0.0376806116 -0.1437187035 -0.7817977779 -0.1429016756 -0.7808891585 0.0089118135 -0.0410712776
830295020.0 0.0098620269 -0.0377820929 -0.1514909372 -0.7799640411 -0.1516555338 -0.7800578632 0.0074467712 -0.0418653639
