!Created with skrf (http://scikit-rf.org).
# Hz S RI R 50.0 
!freq ReS11 ImS11 ReS21 ImS21 ReS12 ImS12 ReS22 ImS22
300000.0 -0.0943561624 -0.1015180389 0.6235464142 0.0931366595 0.6208517487 0.0946014646 -0.0957247564 -0.1057267851
5299970.0 -0.1014899481 0.0114719147 0.6306053675 0.0111235228 0.6309391726 0.0111308017 -0.1015312235 0.0111595898
10299940.0 -0.096835155 0.028531755 0.6346156757 0.0160236708 0.6342407649 0.0163686879 -0.0963239282 0.0284708479
15299910.0 -0.0893339367 0.0425307989 0.6404807174 0.0214338697 0.6406118148 0.0210356161 -0.0897802699 0.041690956
20299880.0 -0.0805423964 0.0534276107 0.648640555 0.0242348099 0.6491445068 0.0245793278 -0.0809953727 0.0528988353
25299850.0 -0.0700955707 0.0624239815 0.6581149462 0.0257714215 0.6585586892 0.0257595711 -0.0716345969 0.0617407461
30299820.0 -0.0608373133 0.0688178416 0.6681041957 0.0245697401 0.6680741818 0.0247442603 -0.0617327207 0.0682303727
35299790.0 -0.0503335205 0.0735758697 0.677211467 0.022036966 0.6773739788 0.0218930186 -0.0522901089 0.0735860764
40299760.0 -0.0410601251 0.0762339716 0.6866551737 0.0176096812 0.6868911852 0.0177299434 -0.0426589969 0.0767959125
45299730.0 -0.0317720016 0.0784108053 0.695389439 0.0125847029 0.6961173364 0.0122174724 -0.0331424665 0.0790686242
50299700.0 -0.0229356048 0.0790751352 0.7037615447 0.0051591665 0.7040496731 0.0051835621 -0.0243746891 0.0802684159
55299670.0 -0.0151873589 0.0790034365 0.7113340789 -0.0022712352 0.710701516 -0.0025878613 -0.0171177811 0.0804623664
60299640.0 -0.007774223 0.0789199014 0.7178423624 -0.0109371147 0.7179349557 -0.0112427394 -0.0096481589 0.0795499381
65299610.0 -0.0012466425 0.0769960321 0.7242439092 -0.0199396879 0.7238435973 -0.0196780352 -0.0028740348 0.0784186586
70299580.0 0.0053419012 0.075309396 0.7290231021 -0.0284320237 0.7290574367 -0.0289357843 0.0029572317 0.0770740548
75299550.0 0.010381886 0.0733902382 0.733428595 -0.0389323572 0.7333963277 -0.0387516235 0.0088248049 0.0751297353
80299520.0 0.0155399591 0.0713268605 0.7376511875 -0.0486396186 0.7378130856 -0.0488989569 0.0137666132 0.0733605008
85299490.0 0.0200266545 0.0690335013 0.7409893931 -0.0588656557 0.7412206252 -0.0583441696 0.0180287391 0.0710083877
90299460.0 0.0240654307 0.0666476876 0.7436720209 -0.0688748799 0.7436541155 -0.0682592117 0.0224617467 0.0692750451
95299430.0 0.027951261 0.0641351931 0.7458938066 -0.0784043787 0.7462589654 -0.0790190987 0.0261688027 0.0666838993
100299400.0 0.0313746573 0.0613836883 0.7476847876 -0.0887532145 0.747229364 -0.0888867845 0.0289165098 0.0645247961
105299370.0 0.0344786947 0.0591937468 0.7488938127 -0.0987785696 0.7495015645 -0.0988643424 0.0327675037 0.0616716096
110299340.0 0.0375463224 0.0564783758 0.7509700906 -0.1083342928 0.7505715638 -0.1084603607 0.0350425289 0.0593656461
115299310.0 0.0396945139 0.0542678939 0.7513320594 -0.1189283541 0.7510010436 -0.1186811628 0.0373866148 0.0575843372
120299280.0 0.0417923993 0.0520777071 0.7517684432 -0.1296039093 0.7519245525 -0.1292032237 0.0397869326 0.054640389
125299250.0 0.0438882733 0.0496079681 0.7523231112 -0.1386622899 0.7519796595 -0.138483215 0.0420322066 0.0528841846
130299220.0 0.0458352146 0.0470030624 0.7521545979 -0.1489401895 0.7517350591 -0.1495628093 0.0437451019 0.0506060817
135299190.0 0.0468998999 0.04540227 0.7521068361 -0.1586154305 0.7519605 -0.1588766818 0.0452562587 0.0477421839
140299160.0 0.0488930326 0.0432267987 0.7514546172 -0.1688385716 0.7510036886 -0.1682783711 0.0463817452 0.0457504854
145299130.0 0.0494192179 0.0411296051 0.7499967605 -0.178218192 0.7505050182 -0.1781631476 0.0481039377 0.0438458854
150299100.0 0.050635869 0.0392480377 0.7496385648 -0.1875810982 0.7496872537 -0.1875920306 0.0492470465 0.0421341421
155299070.0 0.0524731872 0.0371954097 0.7477895093 -0.1975743968 0.7484920648 -0.1976544029 0.050608648 0.0398044057
160299040.0 0.0532700504 0.0356038874 0.7469765725 -0.2070612124 0.7463471529 -0.2072865574 0.05105605 0.0380373538
165299010.0 0.0544164665 0.0334558178 0.7455421547 -0.2164205122 0.7448463169 -0.2166654305 0.0522939706 0.0359165933
170298980.0 0.0549739849 0.031915802 0.7433695618 -0.2259409658 0.7434191165 -0.2257277845 0.05275054 0.0342130655
175298950.0 0.0560221069 0.0301808952 0.741879634 -0.2347540873 0.7419772482 -0.23568297 0.0535842678 0.032716375
180298920.0 0.0562701372 0.0286537007 0.7395451115 -0.2448800758 0.7396020139 -0.2444156561 0.0542471568 0.0309608129
185298890.0 0.0568503871 0.027104608 0.737461393 -0.2535566872 0.7377533286 -0.2529894039 0.0550233657 0.0292691521
190298860.0 0.0578765619 0.0257609431 0.7344721674 -0.2624907027 0.7350682114 -0.2626078812 0.0553465061 0.0274041495
195298830.0 0.0579510938 0.0244866941 0.7327986651 -0.2715389617 0.7329599509 -0.271353263 0.0556721187 0.0262626063
200298800.0 0.0586662242 0.0224722649 0.7297557902 -0.2810005921 0.7298240084 -0.2807990775 0.0561868181 0.024089777
205298770.0 0.0582613943 0.0206218974 0.726888492 -0.2896505209 0.7271227197 -0.2886811614 0.0569539285 0.0227988605
210298740.0 0.059116988 0.0198489634 0.7246027223 -0.2983723758 0.7233793393 -0.2985158306 0.0563832872 0.0209272556
215298710.0 0.0594376915 0.0186912767 0.7210724861 -0.3068093875 0.7208721049 -0.306987181 0.0570574744 0.0200089005
220298680.0 0.0595810437 0.0176073931 0.7174928497 -0.3150902262 0.7174251679 -0.3158385316 0.0573903155 0.0180586403
225298650.0 0.0597637105 0.0159608508 0.7140937648 -0.324056941 0.7145612499 -0.3236783406 0.0573991633 0.016378112
230298620.0 0.0604111459 0.0152622589 0.7116404921 -0.3328642118 0.7114411966 -0.3328829083 0.057320143 0.0152081142
235298590.0 0.0597411739 0.0137580486 0.7078179129 -0.3416006832 0.7077471428 -0.3415012077 0.0579605157 0.014069209
240298560.0 0.0604150176 0.01307229 0.7042719487 -0.3490596366 0.7040530863 -0.3492121876 0.0579588268 0.0127858075
245298530.0 0.0602296788 0.0110243648 0.699981104 -0.3580489663 0.7000125866 -0.3581286898 0.0580725554 0.011764445
250298500.0 0.0602627949 0.0102218569 0.6975291567 -0.3663473177 0.6964827237 -0.3658320755 0.0577714602 0.0105103546
255298470.0 0.0606834177 0.0095613265 0.6932855958 -0.3739983872 0.6933176905 -0.3745321526 0.0580452952 0.0098204736
260298440.0 0.0607503048 0.0081875503 0.6895515609 -0.3815078426 0.6887973533 -0.3822594788 0.057729477 0.0079786909
265298410.0 0.0602239056 0.0074767238 0.6846894958 -0.3907050992 0.6847270452 -0.3909196244 0.0585971932 0.00651199
270298380.0 0.060016998 0.0062224203 0.6806199851 -0.3981960262 0.6801219333 -0.3978478184 0.0582822441 0.0062035284
275298350.0 0.0603394865 0.0055649443 0.6759632954 -0.4058399942 0.6757400232 -0.4059217092 0.0577096339 0.0048664536
280298320.0 0.059710186 0.0045490532 0.6720941177 -0.4131986859 0.6722551486 -0.4139787312 0.0586876952 0.0041066262
285298290.0 0.0600062566 0.003435854 0.6675260848 -0.4224846498 0.6677904111 -0.4216412845 0.0581080345 0.0024963126
290298260.0 0.0600216442 0.0027304502 0.6636017147 -0.4299318118 0.663161695 -0.429516373 0.0581512508 0.0016250598
295298230.0 0.0598511972 0.0014080414 0.6584299638 -0.4376859312 0.6584654406 -0.43737164 0.0578320505 0.0005621326
300298200.0 0.0601444152 0.0009684693 0.6537063627 -0.4452568199 0.6539203307 -0.4449497092 0.0578175505 -0.000688239
305298170.0 0.0600603931 -0.0008230908 0.6492927035 -0.4530998964 0.6494009777 -0.4534446293 0.0576523332 -0.0021731723
310298140.0 0.06050375 -0.0016861842 0.6448542919 -0.4604367301 0.6448412205 -0.4603937364 0.0579466005 -0.0035353831
315298110.0 0.0597561634 -0.0029770144 0.6395976293 -0.4686943548 0.6387543684 -0.4682675208 0.057606638 -0.0045711592
320298080.0 0.0596996124 -0.0038651368 0.633323711 -0.4757022349 0.6345109275 -0.4760428466 0.0574128101 -0.0057184162
325298050.0 0.0588337275 -0.0053195542 0.6283339104 -0.4833517225 0.6287381118 -0.4830622795 0.0573382542 -0.0069134364
330298020.0 0.057449267 -0.0058743008 0.6228412078 -0.4906962092 0.6234098028 -0.4908597329 0.056174378 -0.0078793986
335297990.0 0.0576852107 -0.0066004238 0.6172684288 -0.4973682234 0.6174434321 -0.4975436613 0.0557888454 -0.0086823086
340297960.0 0.0570138094 -0.0074624865 0.6112092232 -0.5044403766 0.6111177856 -0.5048357235 0.0553031821 -0.0091808589
345297930.0 0.0564595133 -0.008612839 0.6058495398 -0.5119198101 0.6055276661 -0.5116433179 0.0550433553 -0.0104422541
350297900.0 0.0557761584 -0.0090324599 0.6004355259 -0.5178447708 0.6003710011 -0.5177469086 0.0546806376 -0.0112468672
355297870.0 0.0556071741 -0.0097390994 0.5944032476 -0.5243486991 0.5945781525 -0.5248403316 0.0546086037 -0.0119113902
360297840.0 0.0552531218 -0.0103714814 0.5883640983 -0.5318035138 0.5881960808 -0.5316302836 0.0533574468 -0.0124311526
365297810.0 0.0544386934 -0.0109220179 0.5823400751 -0.5378899044 0.5822970739 -0.5381684688 0.0530762826 -0.0134257776
370297780.0 0.0549881548 -0.0114345761 0.5765252821 -0.5441776013 0.5765978569 -0.5444914915 0.0529019558 -0.0140662634
375297750.0 0.0544464987 -0.0121634859 0.5710959399 -0.5508568562 0.5709019796 -0.5511167909 0.0528304685 -0.0147172826
380297720.0 0.0533798713 -0.012817979 0.5647552569 -0.5576610843 0.5638197803 -0.5577300213 0.0525941311 -0.0151516762
385297690.0 0.0527999176 -0.0135602318 0.5576988805 -0.5635040625 0.5583393273 -0.5639775182 0.0519517164 -0.0154262732
390297660.0 0.052976063 -0.0144788282 0.5519670251 -0.5692846621 0.5522824886 -0.5701970903 0.0520380626 -0.0166442446
395297630.0 0.0530217674 -0.0148463724 0.546049574 -0.5751046777 0.545718021 -0.5758023929 0.0515459591 -0.0172730779
400297600.0 0.0520329115 -0.0158447869 0.5395887887 -0.5815652347 0.5395839621 -0.5818833744 0.0514331167 -0.0172471175
405297570.0 0.0520386726 -0.0167419133 0.5336973177 -0.5875486981 0.533208543 -0.588268205 0.0507650426 -0.0178713461
410297540.0 0.0514420791 -0.0164605945 0.5266486139 -0.5935860115 0.5270245509 -0.5940501472 0.0504599374 -0.0187983779
415297510.0 0.0507545107 -0.0175576191 0.5200795825 -0.5995970885 0.5202473435 -0.5998084536 0.0504822603 -0.0192849794
420297480.0 0.0506005485 -0.0183849451 0.5134406059 -0.6054976184 0.5140439989 -0.6050947794 0.0502398611 -0.0196454208
425297450.0 0.0506807519 -0.0189233641 0.5065545727 -0.610646685 0.5069864732 -0.611098021 0.0497271796 -0.0204560726
430297420.0 0.0500525336 -0.019238514 0.5008737378 -0.616888564 0.5008671565 -0.6161363873 0.0499230983 -0.0209076271
435297390.0 0.0497537911 -0.0203508928 0.4935268452 -0.6233046022 0.4931431137 -0.6223207076 0.0489425331 -0.021276747
440297360.0 0.0498919242 -0.0212741586 0.4859404751 -0.6279248315 0.4864834656 -0.6276710617 0.0487563616 -0.0218254512
445297330.0 0.049251917 -0.0220913589 0.479808186 -0.6323979601 0.479589244 -0.633285633 0.0483079929 -0.022180358
450297300.0 0.0488961223 -0.0222007529 0.4728629047 -0.6381914713 0.4730812054 -0.6377756916 0.048100859 -0.0226565947
455297270.0 0.0478820714 -0.0229167725 0.4655071873 -0.6434838132 0.466097825 -0.643463696 0.0477532298 -0.0233279414
460297240.0 0.0481684352 -0.023188786 0.4593047012 -0.648868632 0.4585885446 -0.6491560191 0.0473144151 -0.0243138082
465297210.0 0.0475490318 -0.0240608332 0.4513255943 -0.6536394602 0.4508470734 -0.6540898887 0.0473349841 -0.0238878315
470297180.0 0.0471277635 -0.025025808 0.4441292503 -0.6584909014 0.4446060852 -0.6586044969 0.0470519288 -0.0251503025
475297150.0 0.0464601915 -0.024932423 0.4369371897 -0.6633750655 0.4371334744 -0.6636664528 0.0465940292 -0.0258507433
480297120.0 0.0466109748 -0.0253285922 0.4295572644 -0.6680840903 0.4295456619 -0.6685157288 0.0460496964 -0.0258896079
485297090.0 0.0462572383 -0.0269039942 0.4221465377 -0.6733315139 0.4224792915 -0.6728871632 0.0456911084 -0.0266521834
490297060.0 0.0462156963 -0.0267528162 0.4139774004 -0.6783547938 0.4151771024 -0.6779192599 0.0452873752 -0.0269061144
495297030.0 0.0450388165 -0.0278164477 0.4075415624 -0.6822349304 0.4075046687 -0.6825536621 0.045454965 -0.0278597317
500297000.0 0.0448402904 -0.0278376932 0.4001765278 -0.6867414534 0.399961093 -0.6868606277 0.0448788892 -0.0277411731
505296970.0 0.0448168035 -0.0282614234 0.3922785124 -0.6913279005 0.3924830571 -0.6910039895 0.0443501795 -0.0292204412
510296940.0 0.0441178144 -0.0291576134 0.384747045 -0.6965202663 0.3849364526 -0.6962167469 0.044465285 -0.0288763027
515296910.0 0.043756728 -0.0291381591 0.3767339444 -0.6998185568 0.3767559525 -0.7000613121 0.0438042589 -0.0300882752
520296880.0 0.0435496871 -0.0295300899 0.369530752 -0.7034712681 0.3694641147 -0.7037438411 0.0439002912 -0.0297055906
525296850.0 0.0434126511 -0.030477531 0.3617108123 -0.707551594 0.3619030093 -0.7079224779 0.0437330078 -0.0305608488
530296820.0 0.0427199594 -0.0313857993 0.3540700719 -0.7122045295 0.3540445729 -0.712047372 0.0430065198 -0.0312887716
535296790.0 0.0430118844 -0.0310343172 0.3468402551 -0.7155952325 0.3463160174 -0.715432604 0.0430064038 -0.0312443431
540296760.0 0.0421702811 -0.0313900451 0.3379593495 -0.7195934383 0.3382177048 -0.718999494 0.0419935092 -0.0325955913
545296730.0 0.0408608532 -0.032084173 0.3305097012 -0.7232888586 0.3304735237 -0.7230225982 0.0421705554 -0.0325734921
550296700.0 0.0418071607 -0.0323800431 0.322458149 -0.7262861921 0.3221921382 -0.7268170262 0.0417898704 -0.0330472423
555296670.0 0.0407129541 -0.0328645203 0.3144438498 -0.7310051491 0.3152186281 -0.7303797359 0.0407344618 -0.0341766703
560296640.0 0.0410974269 -0.0333585789 0.3062212517 -0.7337404073 0.3068398571 -0.7334616657 0.040470129 -0.0336972919
565296610.0 0.0398589761 -0.03356559 0.2983843986 -0.7371810092 0.2988373789 -0.7362859627 0.0405483134 -0.0342186129
570296580.0 0.0393531011 -0.0337631368 0.2901398712 -0.7399598179 0.2904710493 -0.7402933748 0.0395974355 -0.0350399756
575296550.0 0.0392413632 -0.0344037349 0.2829051676 -0.7434823963 0.2824027159 -0.7431642996 0.0392513055 -0.0350808288
580296520.0 0.0388620446 -0.0344220765 0.2743726328 -0.7462476059 0.2739660626 -0.7466693005 0.0383964398 -0.0354192263
585296490.0 0.0381236328 -0.0346764225 0.2666440568 -0.7491581522 0.265963622 -0.749352199 0.0385805653 -0.0356006811
590296460.0 0.0385908338 -0.0348650345 0.2579740625 -0.7523142251 0.2580096041 -0.7526734782 0.0374684354 -0.0361501739
595296430.0 0.037831561 -0.0352214186 0.2490555767 -0.7555228743 0.2493704994 -0.7549680265 0.0375199006 -0.0371752028
600296400.0 0.0375694201 -0.035418924 0.2411084014 -0.7573925393 0.2409517628 -0.7575470009 0.0372520074 -0.0372534342
605296370.0 0.0361184877 -0.0359331692 0.2334069668 -0.7602175874 0.2326602975 -0.7606808809 0.0362342224 -0.037424079
610296340.0 0.0364282173 -0.0358596 0.2247264204 -0.7619162059 0.2249566263 -0.762837362 0.0353431164 -0.0377460647
615296310.0 0.0362195978 -0.0364271846 0.2163820856 -0.7653678134 0.2160145594 -0.7649300511 0.0355252639 -0.0378967413
620296280.0 0.0348445695 -0.0361744276 0.2076099721 -0.7674703171 0.207718492 -0.7676321874 0.0345120223 -0.0379343539
625296250.0 0.0346148552 -0.036890047 0.1995456219 -0.7698740876 0.1994009571 -0.7698311182 0.0337521265 -0.0389025832
630296220.0 0.0343264227 -0.036682255 0.1904962511 -0.7716857103 0.1909245953 -0.7718787809 0.0337418231 -0.03897095
635296190.0 0.0330660712 -0.0368097881 0.1823178766 -0.7733405343 0.1823227988 -0.7738715853 0.0331414353 -0.0391882143
640296160.0 0.0329844648 -0.0371846158 0.1735401187 -0.7759534501 0.1740640122 -0.7761581339 0.0321604151 -0.0398863189
645296130.0 0.0329775921 -0.0369135213 0.1652961143 -0.7777047867 0.1656826492 -0.7772011252 0.0317009781 -0.0406256747
650296100.0 0.0323314178 -0.0373344931 0.1567668647 -0.7797738881 0.156931994 -0.7800236333 0.0319450911 -0.0402568685
655296070.0 0.0316280588 -0.0375335551 0.1481962184 -0.781433095 0.1483975507 -0.7809402991 0.0305458896 -0.0403923424
660296040.0 0.0310234141 -0.0373671025 0.1400330039 -0.7829183538 0.1399999395 -0.7831413756 0.0299500447 -0.0414297628
665296010.0 0.0307440326 -0.0378497487 0.130188607 -0.7839206413 0.1313700114 -0.7838830524 0.0294652011 -0.040950526
670295980.0 0.0303037992 -0.0378969 0.1225145419 -0.7857244702 0.1226560048 -0.7850300315 0.0283821556 -0.04172603
675295950.0 0.0295011852 -0.0382555507 0.1137051604 -0.7867515892 0.1143958683 -0.7868844785 0.0280989639 -0.0415093281
680295920.0 0.028828023 -0.0380728741 0.1060247806 -0.7879843924 0.1061842005 -0.7878421614 0.0277741717 -0.0420283221
685295890.0 0.028726095 -0.0377307318 0.0964116642 -0.7895187718 0.0972489295 -0.7893425286 0.0269660603 -0.0415663928
690295860.0 0.0274827709 -0.037863524 0.0886398826 -0.7900981773 0.0882986184 -0.790034647 0.0261357199 -0.0422953485
695295830.0 0.0274531786 -0.0383017132 0.0803468623 -0.7911889142 0.0800754423 -0.7907052536 0.0258901882 -0.0421659322
700295800.0 0.0269546134 -0.0382185861 0.0719408674 -0.7916123211 0.071590659 -0.7917939609 0.0251345502 -0.0421266802
705295770.0 0.0259504976 -0.0382697943 0.062801913 -0.7928354122 0.0629195668 -0.7923783072 0.0244780194 -0.0422129664
710295740.0 0.025621073 -0.0385305184 0.0543685956 -0.7933502792 0.054465255 -0.793718543 0.0238770413 -0.0422000498
715295710.0 0.0247530665 -0.0382510926 0.0455379044 -0.7938646856 0.0453019169 -0.7936480473 0.0232126141 -0.0426242234
720295680.0 0.0248134595 -0.038137892 0.0371212081 -0.7938794153 0.0368745363 -0.7943403182 0.0227282215 -0.0427483454
725295650.0 0.0233860789 -0.0381538587 0.028383907 -0.794359042 0.0284143406 -0.794213716 0.0215232853 -0.042689531
730295620.0 0.0222022307 -0.0386785775 0.019197445 -0.794599132 0.0195150846 -0.7940141552 0.0211925257 -0.0421400414
735295590.0 0.0223934038 -0.0384424714 0.01094881 -0.7950031905 0.0111151282 -0.7949785884 0.0200607945 -0.0432341279
740295560.0 0.0217814925 -0.0386160535 0.0022081108 -0.7947942133 0.0025102519 -0.7953188679 0.0192748379 -0.0428058284
745295530.0 0.0209591465 -0.0385972366 -0.0057738016 -0.7937682283 -0.0058116029 -0.7947696697 0.0182272643 -0.0429065515
750295500.0 0.0201374232 -0.0383715618 -0.0145583076 -0.794551124 -0.0148770917 -0.7946390186 0.0177437669 -0.0427570187
755295470.0 0.0193078656 -0.0383369278 -0.02323266 -0.7946462992 -0.0229837267 -0.7948020463 0.0175889124 -0.0422607657
760295440.0 0.0188326318 -0.037753683 -0.0330791031 -0.7946167461 -0.0320562691 -0.7940634579 0.0169721095 -0.0438123686
765295410.0 0.0189444832 -0.0384471887 -0.0406123994 -0.79372627 -0.0406847853 -0.7938070441 0.0165623274 -0.0429676746
770295380.0 0.0179222406 -0.0379448581 -0.0487665588 -0.7925185772 -0.0491037792 -0.7935926569 0.015103116 -0.0427965395
775295350.0 0.0170641548 -0.0385407428 -0.0580163842 -0.7931867937 -0.0575332804 -0.7918530191 0.0154632203 -0.0425916685
780295320.0 0.0163722351 -0.0379343037 -0.0665055434 -0.7915014497 -0.0661618492 -0.7917036393 0.014835869 -0.0430999088
785295290.0 0.0157703854 -0.0382600339 -0.0750642477 -0.7912075073 -0.074642407 -0.7907624553 0.0130028684 -0.0422908515
790295260.0 0.0155486792 -0.0385036584 -0.0837786084 -0.790341252 -0.0824497726 -0.790546598 0.0126394287 -0.0417882064
795295230.0 0.0145911987 -0.0385237631 -0.0915781423 -0.7898059667 -0.0921820569 -0.7899595191 0.0121807206 -0.0429241059
800295200.0 0.0134903908 -0.0380518781 -0.0997826494 -0.787908891 -0.1003037648 -0.7879342523 0.0112100732 -0.0425744503
805295170.0 0.0128604673 -0.0382681941 -0.1092239813 -0.7873757182 -0.1090026992 -0.7871358985 0.0115297947 -0.0419732994
810295140.0 0.0129593359 -0.0377979236 -0.1178104183 -0.7858262187 -0.1172986193 -0.7854461948 0.0105445001 -0.0422246833
815295110.0 0.0117831682 -0.0373336074 -0.1262879941 -0.7841615483 -0.1254491607 -0.7849741854 0.0098182923 -0.0420793441
820295080.0 0.0113692567 -0.0377280558 -0.1334096413 -0.7828645562 -0.1339672114 -0.7835108235 0.0082412267 -0.0412395239
825295050.0 0.0104428956 -0.0378857356 -0.1433827604 -0.7815717738 -0.1427921582 -0.7808952468 0.0087624899 -0.0409707433
830295020.0 0.0099804391 -0.0377399989 -0.1513846941 -0.7797754552 -0.1510969341 -0.779812687 0.0076614151 -0.0416011499
