!Created with skrf (http://scikit-rf.org).
# Hz S RI R 50.0 
!freq ReS11 ImS11 ReS21 ImS21 ReS12 ImS12 ReS22 ImS22
300000.0 0.8604539054 -0.000839162 -0.0007486852 -8.21979e-05 -0.0008361973 0.0008533423 -0.7635495387 -0.2047567474
5299970.0 0.8604856739 -0.0101862286 0.0001676356 -0.000204865 7.20977e-05 -2.16337e-05 -0.7849307074 -0.0099024982
10299940.0 0.8583094837 -0.018517749 0.0001376801 -4.17203e-05 -0.0001004878 4.79549e-05 -0.7867641041 -0.0059359355
15299910.0 0.8582099254 -0.0271352655 0.0001429224 4.36859e-05 -0.0003231653 9.60429e-05 -0.792370093 -0.0026683983
20299880.0 0.8574025097 -0.0356256146 -7.86777e-05 6.8698e-05 1.99342e-05 3.72292e-05 -0.7992566412 0.0012372183
25299850.0 0.8564399501 -0.0438549474 -7.03417e-05 5.61585e-05 -7.69309e-05 -3.79573e-05 -0.8060720148 0.0075665699
30299820.0 0.8558233868 -0.0520493101 -3.1303e-06 0.0001926751 8.9415e-05 0.0003890824 -0.8120351196 0.0156672929
35299790.0 0.8550434136 -0.0603227396 0.0001476149 -3.53179e-05 0.0002454397 -1.03729e-05 -0.8167025723 0.0246303278
40299760.0 0.8552327482 -0.0682293892 -0.0002414559 -0.0002032441 5.7382e-05 -0.0001258628 -0.820932488 0.0337710673
45299730.0 0.8534666205 -0.0764326813 0.0001854901 4.5889e-06 -0.0002262212 0.0001765722 -0.8238205311 0.0437113267
50299700.0 0.8528614365 -0.0841941917 7.16247e-05 0.0002044463 -8.70562e-05 0.0001580028 -0.8260038181 0.0539548609
55299670.0 0.8522604268 -0.0932451798 9.24527e-05 3.91665e-05 0.0001162005 7.70974e-05 -0.8286250041 0.0636927479
60299640.0 0.8513282903 -0.1010295946 0.0002308524 0.0003083406 -0.0001039102 3.96843e-05 -0.8297172007 0.0741700626
65299610.0 0.8504786431 -0.1091064406 0.0002996455 -0.0001637817 -2.89991e-05 -0.0001120513 -0.8298936482 0.0839131138
70299580.0 0.8488874604 -0.1175070393 -2.1396e-05 0.0001866142 -4.90025e-05 -0.000123382 -0.8309163234 0.0935667527
75299550.0 0.8477482926 -0.1257037561 9.84569e-05 0.0001141177 8.50642e-05 -0.000191424 -0.8304099471 0.1041183423
80299520.0 0.8465073095 -0.1334111552 0.0001554272 0.0001853186 -7.04154e-05 -5.30635e-05 -0.8301574178 0.113747611
85299490.0 0.8451652926 -0.1417137026 1.3337e-06 -9.06843e-05 0.0001891661 1.3112e-06 -0.8297551661 0.1236179047
90299460.0 0.8439941142 -0.1504950314 2.23173e-05 -1.31854e-05 0.0001673586 0.0001211957 -0.8284298114 0.1326246997
95299430.0 0.8428530627 -0.1582425844 0.0001259201 0.0001460625 -3.34078e-05 6.58151e-05 -0.8275202839 0.1429151
100299400.0 0.8403263204 -0.1661127258 -4.29701e-05 0.0001084032 4.57645e-05 4.48209e-05 -0.8265587039 0.1518897245
105299370.0 0.8396772741 -0.1747462427 4.11107e-05 4.91179e-05 4.02757e-05 -2.25451e-05 -0.8253757713 0.160886558
110299340.0 0.8374374469 -0.1828859536 -0.0001364058 1.76263e-05 -0.0001044408 5.74905e-05 -0.8244236261 0.1697668219
115299310.0 0.8357081091 -0.1906054182 -4.91713e-05 4.57012e-05 -3.83396e-05 5.15443e-05 -0.8232697648 0.1788416475
120299280.0 0.8339959426 -0.1986699396 6.5748e-05 -5.97527e-05 -4.44391e-05 0.0001091048 -0.8205297742 0.1876925909
125299250.0 0.8321656639 -0.2066107727 -6.37815e-05 0.0001240271 0.0002706367 9.5163e-05 -0.8196193218 0.1968812149
130299220.0 0.8301983419 -0.2142911818 5.95206e-05 4.64299e-05 -2.95279e-05 -0.0002348112 -0.8171853976 0.2056918844
135299190.0 0.8283527737 -0.2227093001 -4.30664e-05 1.47189e-05 4.79827e-05 -5.5582e-05 -0.8160590873 0.2147291627
140299160.0 0.8257155139 -0.2299543916 7.09685e-05 -9.7058e-06 -0.0001078635 -1.33942e-05 -0.8135427999 0.2232410431
145299130.0 0.8236623492 -0.2383529683 -2.09229e-05 -0.0001406716 -4.67411e-05 -6.3124e-06 -0.8115633108 0.2325166778
150299100.0 0.8214012136 -0.246154875 -0.0001234779 -0.0002344525 0.0002964433 -0.0001850709 -0.8092347698 0.2414777576
155299070.0 0.8188044081 -0.2540678206 -9.02399e-05 -0.000120068 -0.0001059385 -2.55353e-05 -0.8067531154 0.2505401089
160299040.0 0.8158505571 -0.2618912127 -3.23398e-05 0.0001781809 6.44873e-05 0.0001085683 -0.8043687424 0.2589831142
165299010.0 0.814190804 -0.2693198997 -4.1856e-05 -6.00827e-05 -7.03101e-05 -8.68901e-05 -0.80152763 0.2673833596
170298980.0 0.8112955071 -0.277620129 -6.76943e-05 8.85735e-05 -6.16881e-05 6.5236e-06 -0.7991181001 0.2760652687
175298950.0 0.8089162051 -0.2854725408 9.83488e-05 -7.53852e-05 5.12556e-05 -0.0001952379 -0.7960274739 0.2848264427
180298920.0 0.8061529995 -0.2929672019 -2.10517e-05 0.0001370059 -5.64445e-05 5.2813e-05 -0.7932351959 0.2934622377
185298890.0 0.8028266984 -0.3007697465 9.35227e-05 -0.0001362057 2.31102e-05 0.0001571747 -0.7902167002 0.3016484055
190298860.0 0.7999665452 -0.3086550777 5.98749e-05 9.6381e-06 2.67963e-05 8.71547e-05 -0.7871582378 0.3097597102
195298830.0 0.7971120534 -0.3160260384 -9.6141e-06 0.000209816 0.0001965699 0.0002147424 -0.7838430487 0.3182942388
200298800.0 0.7939447954 -0.3230721585 -8.07406e-05 4.11111e-05 4.83347e-05 -6.90077e-05 -0.7804233285 0.3266922165
205298770.0 0.7902051036 -0.3313873504 2.55452e-05 -4.67375e-05 0.0001229129 -3.74333e-05 -0.7775081377 0.3353570305
210298740.0 0.7877587528 -0.3387312333 0.0001383282 9.20584e-05 0.0001431375 -3.88422e-05 -0.7742065877 0.3433215452
215298710.0 0.7848051697 -0.3467525646 -0.0001684496 0.0002275171 -2.10536e-05 1.06137e-05 -0.7703993462 0.3517020779
220298680.0 0.7808903894 -0.3541099917 -3.72071e-05 8.25136e-05 -3.35352e-05 -3.473e-06 -0.7666073293 0.3596172009
225298650.0 0.7775246835 -0.3613361362 -6.9001e-05 0.0001187646 -4.56333e-05 -0.0001607577 -0.7629922142 0.3676367302
230298620.0 0.7736847383 -0.3684015481 -7.173e-07 -5.81615e-05 -0.00015256 -9.1627e-06 -0.7588973365 0.3758677191
235298590.0 0.7703023853 -0.3763965323 -3.63601e-05 5.21185e-05 -6.41055e-05 -3.81136e-05 -0.7553006798 0.3836097741
240298560.0 0.7666625038 -0.3837538213 0.0001244591 -9.2711e-06 3.3965e-06 -9.36487e-05 -0.7510262077 0.3907191137
245298530.0 0.7624689411 -0.3906892475 7.85516e-05 0.0001436831 9.64106e-05 -9.91756e-05 -0.747353711 0.3988340513
250298500.0 0.7596041909 -0.3981712511 0.0001406175 -6.14258e-05 -0.0001255286 -1.70413e-05 -0.7427391806 0.4070973576
255298470.0 0.7555365617 -0.4050624683 -8.41528e-05 -0.0001206864 7.2501e-06 0.0001557226 -0.7383162032 0.4148274809
260298440.0 0.7512264633 -0.4126622944 -9.9891e-06 0.0001772548 4.30031e-05 -8.24595e-05 -0.7341825629 0.422007533
265298410.0 0.746969528 -0.4197265817 3.76808e-05 -0.0002146805 0.0002117642 -2.72569e-05 -0.7296850311 0.4303109321
270298380.0 0.7436586561 -0.4267052508 -0.0002123395 -1.81587e-05 8.5905e-05 1.42844e-05 -0.7251627464 0.4382958046
275298350.0 0.7391940076 -0.4338363536 1.75013e-05 0.0001144926 -0.0001507584 4.80352e-05 -0.7202873386 0.4457831891
280298320.0 0.7349367602 -0.4411839995 8.3624e-05 -0.000134254 -2.3683e-06 -3.49549e-05 -0.7160810552 0.4527541325
285298290.0 0.7306983163 -0.4487188896 -1.52641e-05 -0.000114919 0.0001446788 -0.0001045733 -0.7117380693 0.4601934107
290298260.0 0.7267708185 -0.4557533229 0.0003011435 0.0001842847 1.09351e-05 5.15898e-05 -0.7058627454 0.4678159316
295298230.0 0.7226289419 -0.4623504989 -4.99375e-05 -2.74098e-05 -2.25591e-05 9.5936e-05 -0.7013018153 0.4751128433
300298200.0 0.7182112366 -0.4696217081 5.45661e-05 -8.75305e-05 4.80974e-05 0.0001991147 -0.6962142582 0.4826712002
305298170.0 0.7138444818 -0.4775384997 0.0001031706 -2.15569e-05 4.74495e-05 0.0002612532 -0.6916034125 0.4894628332
310298140.0 0.709413398 -0.4851433799 -0.0001532499 -6.2826e-05 -0.0001387411 -0.0001933501 -0.686085525 0.4967125594
315298110.0 0.7042328368 -0.4923221859 5.03166e-05 6.13229e-05 0.0001363801 2.93836e-05 -0.681191806 0.5039891893
320298080.0 0.6986578853 -0.4993811942 -0.0001767926 7.30047e-05 0.000158034 -7.1268e-05 -0.6762025239 0.5103821854
325298050.0 0.6927817447 -0.5068116798 5.89618e-05 6.612e-05 5.58797e-05 -0.0001143348 -0.6704194416 0.5173536227
330298020.0 0.6868939268 -0.5133359711 0.0001748676 8.33482e-05 -0.0002189167 0.0002806809 -0.6646339148 0.5246805209
335297990.0 0.6814157928 -0.5189949441 5.9381e-05 8.75844e-05 1.812e-05 -5.02424e-05 -0.6588336317 0.5315401179
340297960.0 0.6754086357 -0.525547901 -0.0001657824 -0.0001376124 -8.82243e-05 -2.25235e-05 -0.6537541808 0.5385240786
345297930.0 0.6707281844 -0.5322278778 0.0001447862 -0.0001677098 7.53821e-05 -5.82086e-05 -0.6484259575 0.544460778
350297900.0 0.66505082 -0.5383764995 0.0001343568 1.09725e-05 2.06817e-05 -7.07207e-05 -0.6433724623 0.5516114107
355297870.0 0.6598416786 -0.5445651608 4.98921e-05 0.0001512783 -6.73332e-05 -4.50081e-05 -0.6367056703 0.5586063666
360297840.0 0.6542803117 -0.5507911728 -2.4891e-06 4.31654e-05 0.0001335787 -8.53581e-05 -0.6304689995 0.5648323333
365297810.0 0.6488120725 -0.5573444984 8.7249e-05 -4.4318e-05 8.67502e-05 9.65388e-05 -0.6255796144 0.5709638303
370297780.0 0.6436790539 -0.5631941488 0.0001078734 -0.0001965101 -8.99535e-05 5.00389e-05 -0.6194387277 0.5781261892
375297750.0 0.6378892343 -0.5691659553 6.1555e-06 0.0001278913 3.92053e-05 9.43547e-05 -0.6131211669 0.5835713749
380297720.0 0.6320689443 -0.574337034 -6.23354e-05 9.61023e-05 5.45052e-05 -0.000140252 -0.6064855405 0.5902994054
385297690.0 0.6263503316 -0.5810849653 -6.12514e-05 -6.03985e-05 0.0001116915 -2.7331e-05 -0.6013370735 0.596401471
390297660.0 0.6210412693 -0.5873434379 0.0001556701 -0.0001016523 0.000111505 -7.6474e-06 -0.5944254001 0.602346364
395297630.0 0.6146471161 -0.592658848 -9.4626e-05 -0.0001638603 -3.36428e-05 5.59274e-05 -0.5884165033 0.6079700867
400297600.0 0.6087531571 -0.59868262 -9.19581e-05 9.1263e-06 -6.45307e-05 -9.97745e-05 -0.582155698 0.6141032224
405297570.0 0.6039145048 -0.6049759957 -0.000231231 -2.82435e-05 -3.16803e-05 2.58862e-05 -0.5754132768 0.6204439234
410297540.0 0.5984123336 -0.6102754163 3.3491e-05 1.72562e-05 -3.924e-07 0.0001297482 -0.5689076468 0.6261321282
415297510.0 0.5912987273 -0.6158270811 4.91563e-05 -4.26217e-05 -2.62429e-05 -5.1575e-06 -0.5625231574 0.6319009469
420297480.0 0.5856076472 -0.6219571301 -0.0001462886 -4.70407e-05 -7.95956e-05 3.17265e-05 -0.5560436353 0.6378685604
425297450.0 0.5793860315 -0.6271082023 1.1729e-06 2.54053e-05 -1.1012e-06 0.0002182954 -0.5493541072 0.6424488924
430297420.0 0.5732085245 -0.6334008951 3.2663e-05 0.0001206443 6.30162e-05 4.96704e-05 -0.5428785717 0.6482636196
435297390.0 0.567082874 -0.6387422496 0.0001168726 6.9486e-06 -0.000132832 -3.89884e-05 -0.5364006951 0.6542018457
440297360.0 0.5609411806 -0.6442557283 4.04899e-05 -2.7184e-06 -0.0001181273 9.94162e-05 -0.5302921832 0.6596158627
445297330.0 0.5554171054 -0.6494897813 -7.86704e-05 0.000147768 -7.80991e-05 7.85935e-05 -0.5225658644 0.665045178
450297300.0 0.5494015145 -0.6552295433 -0.0001172769 9.44416e-05 -3.02965e-05 -0.0002589129 -0.5156372692 0.6700224663
455297270.0 0.5424639722 -0.6599335505 0.0001252407 6.99288e-05 -0.0001252984 4.93035e-05 -0.5084307286 0.6747784951
460297240.0 0.5357086427 -0.6652095163 -5.64331e-05 -2.70802e-05 0.0001237229 9.0481e-06 -0.5023413218 0.6804211442
465297210.0 0.5298501564 -0.6697603524 0.0002451391 1.64901e-05 -7.51902e-05 -0.0002176567 -0.4954498119 0.6858187775
470297180.0 0.5232700355 -0.6756370179 -8.22848e-05 -1.90776e-05 -2.41008e-05 -0.0001068072 -0.4881755565 0.6904334557
475297150.0 0.5163273529 -0.6807515845 3.9089e-05 -0.0001358 5.61634e-05 0.0001058422 -0.4811016017 0.695398732
480297120.0 0.5100437085 -0.6855357059 -8.22889e-05 -8.5321e-05 8.83886e-05 4.93628e-05 -0.474127124 0.7000498374
485297090.0 0.5027855701 -0.6896395252 -0.0001201068 0.0001810015 0.000199834 -2.6541e-05 -0.4673399465 0.7054050899
490297060.0 0.4966617589 -0.695086875 0.0001259439 -0.0001346897 2.21297e-05 0.0001787984 -0.4593372935 0.7093741186
495297030.0 0.4901757971 -0.6995335832 -4.8365e-05 4.03407e-05 -5.58451e-05 0.000140081 -0.4523495943 0.7136199509
500297000.0 0.4836102775 -0.7046627621 0.0001131887 0.0001414042 -6.78562e-05 0.0001025877 -0.4452376671 0.7186028257
505296970.0 0.476255992 -0.7093354924 0.0002522098 7.75709e-05 4.71233e-05 3.19735e-05 -0.437643044 0.7228855177
510296940.0 0.4696978437 -0.7134780514 0.0001942209 9.86386e-05 9.3548e-06 0.0001350843 -0.4296999254 0.7274489775
515296910.0 0.4623483819 -0.7182261279 -6.83121e-05 3.2442e-06 -0.0003086239 -6.44754e-05 -0.4230889155 0.7311621475
520296880.0 0.4565150636 -0.7225035676 -8.69512e-05 0.0002063689 1.80143e-05 6.97292e-05 -0.4152304542 0.7361359187
525296850.0 0.4492480014 -0.7269309583 0.0002012561 0.0001590609 2.19643e-05 -0.0002306943 -0.4082021504 0.7400504435
530296820.0 0.4423115406 -0.7318138034 -9.28427e-05 -2.61807e-05 -1.11755e-05 0.0001339278 -0.4004825452 0.7439141636
535296790.0 0.4350747139 -0.7348668627 7.53287e-05 8.19181e-05 5.91876e-05 0.0001035987 -0.3931887152 0.7479727082
540296760.0 0.4283220187 -0.7396611499 -5.4338e-05 -4.423e-05 -8.83527e-05 9.95084e-05 -0.3848227373 0.7515457203
545296730.0 0.4206072911 -0.743973994 2.77893e-05 -7.81928e-05 0.0001883239 -8.83227e-05 -0.3778436551 0.7551429516
550296700.0 0.4129412184 -0.747328979 0.0001226853 0.0001633103 -0.0001168527 0.0001209458 -0.3700071681 0.7593559467
555296670.0 0.4062929707 -0.7515178539 0.0001633291 2.9883e-06 -1.0079e-05 0.0002095663 -0.3622575046 0.7623650914
560296640.0 0.3994230863 -0.7548525678 -7.36823e-05 5.22497e-05 -2.8277e-05 8.28729e-05 -0.3541456928 0.7666533767
565296610.0 0.3912558935 -0.7599477042 -1.55249e-05 -0.0001074464 -6.98953e-05 -3.50121e-05 -0.346654518 0.7700082349
570296580.0 0.3839295916 -0.7625901341 8.37772e-05 0.0002539814 0.0001912823 -2.11708e-05 -0.3390772848 0.7733905463
575296550.0 0.3771615545 -0.7663605747 9.9908e-06 -0.0001359724 0.0001459443 -7.41584e-05 -0.3310789227 0.7769710406
580296520.0 0.3696642908 -0.7697378029 -0.0001415927 3.50848e-05 -1.29143e-05 -5.40241e-05 -0.3234707489 0.7798406362
585296490.0 0.3621505341 -0.7729939843 0.0001052874 -0.0001008407 7.87917e-05 -2.69544e-05 -0.3155664249 0.7832699949
590296460.0 0.3542198331 -0.7759953111 8.50146e-05 -9.7115e-06 8.14664e-05 0.000283518 -0.3079846692 0.7859971216
595296430.0 0.3467307964 -0.7801725511 3.20429e-05 5.67631e-05 5.98245e-05 3.85796e-05 -0.2997043063 0.789368774
600296400.0 0.3394415951 -0.7833325603 7.54617e-05 -7.6397e-06 -0.0001198837 -8.15411e-05 -0.2916907809 0.7919966255
605296370.0 0.3309877137 -0.7868078892 -0.0001924698 -3.4816e-06 2.29085e-05 -4.62688e-05 -0.2833780597 0.7952695434
610296340.0 0.3233618986 -0.7901239225 0.0001695997 0.0001556067 -3.29608e-05 -7.38964e-05 -0.2763493264 0.7978673809
615296310.0 0.3159035192 -0.79251136 -0.000227566 0.0001358579 -7.67586e-05 -5.8107e-06 -0.2672808547 0.8004571139
620296280.0 0.308345275 -0.7951794745 -2.37063e-05 0.0002250233 5.97641e-05 -8.3354e-05 -0.2599431766 0.8033650092
625296250.0 0.2998889986 -0.7980513145 1.70886e-05 -3.6638e-06 7.19272e-05 8.3593e-06 -0.2518606032 0.80517892
630296220.0 0.2915724002 -0.8007878196 3.80245e-05 -4.22356e-05 -0.0001067296 0.0001800575 -0.2435515499 0.8081783373
635296190.0 0.2841069843 -0.8036323828 -9.28102e-05 0.0001530953 6.53517e-05 5.41182e-05 -0.2357245358 0.8100123217
640296160.0 0.2755134657 -0.8057138958 0.0001184985 0.0001378204 0.0001443534 0.0001128806 -0.2272039846 0.8127240845
645296130.0 0.2690373525 -0.8080083224 -3.00837e-05 0.000128281 -8.72686e-05 -6.66445e-05 -0.2195114618 0.8148329925
650296100.0 0.2602352525 -0.8106213289 0.0002946935 -9.2847e-06 -1.94127e-05 8.40691e-05 -0.2107073457 0.8167699042
655296070.0 0.2522490645 -0.8135517129 -0.0002449308 -7.783e-07 0.0002067432 9.81361e-05 -0.2033213674 0.8191689012
660296040.0 0.2437711276 -0.8151853334 -3.69452e-05 0.0001275324 -4.99233e-05 -0.0001762538 -0.1940994035 0.8210339386
665296010.0 0.2366386375 -0.8177456999 0.0001420401 3.20939e-05 5.81804e-05 -3.90561e-05 -0.186262094 0.8227568849
670295980.0 0.2279838844 -0.8195204581 6.8283e-05 0.0002012453 8.23196e-05 -7.40929e-05 -0.1784059192 0.8242624226
675295950.0 0.2196927427 -0.8218364968 -6.52884e-05 -1.88568e-05 0.0001217167 1.57555e-05 -0.1697737577 0.8264220913
680295920.0 0.2117194164 -0.8238514638 8.70508e-05 -4.25712e-05 3.65276e-05 -1.82282e-05 -0.1613127685 0.8280732623
685295890.0 0.2031306808 -0.8246992735 -2.47836e-05 0.000183 -0.0001816993 3.32105e-05 -0.1534393714 0.8297729504
690295860.0 0.1952406468 -0.8264537415 -0.0001249633 0.0001335537 7.06088e-05 0.0001652563 -0.1452097437 0.8308904603
695295830.0 0.186942424 -0.8289479501 0.0002138571 6.23745e-05 9.3298e-06 8.28577e-05 -0.1368005343 0.8328657296
700295800.0 0.1782459609 -0.8300174464 0.0001080506 -0.0001466349 4.34531e-05 -5.73586e-05 -0.1282406772 0.8335956023
705295770.0 0.1701157578 -0.8314880553 3.31851e-05 0.0002502841 0.0002039748 4.47162e-05 -0.1208645571 0.8354472123
710295740.0 0.1621640327 -0.8325620788 -6.6556e-06 1.52765e-05 -9.17505e-05 -4.14553e-05 -0.1117022369 0.8363457228
715295710.0 0.1538509098 -0.8339153723 3.6982e-06 -0.0001078624 3.7538e-06 -0.0001224223 -0.1030268496 0.8367284503
720295680.0 0.1454898212 -0.8349627912 0.0002435154 -1.29194e-05 -3.86566e-05 -0.0001504899 -0.0949231655 0.8381949618
725295650.0 0.1369282356 -0.8362088704 -0.0001237527 2.00677e-05 5.2565e-06 -7.86557e-05 -0.0874163511 0.8392195018
730295620.0 0.1280525611 -0.8374886851 3.54495e-05 -5.89597e-05 0.00010607 -4.50917e-05 -0.0787123563 0.8403705441
735295590.0 0.119639035 -0.8383652471 -3.51822e-05 -5.74015e-05 0.000126409 3.80484e-05 -0.0697977041 0.8404030833
740295560.0 0.1114767511 -0.8396885065 -3.61066e-05 0.0001854516 -0.0001325937 -5.64769e-05 -0.0615818229 0.8413174471
745295530.0 0.1030985851 -0.8402860157 3.95563e-05 0.000171347 -0.0001522116 -0.0001700604 -0.0536844849 0.8423222831
750295500.0 0.095064632 -0.8410367286 6.7968e-05 4.57855e-05 -2.63458e-05 8.0538e-06 -0.0448058505 0.8421847521
755295470.0 0.0868524985 -0.8413171886 -9.74268e-05 0.000134791 6.21421e-05 0.0001212161 -0.03690837 0.8428446264
760295440.0 0.0782739533 -0.8413162411 2.2723e-06 0.0001990578 0.0001040087 0.0001434608 -0.0281359065 0.8424095983
765295410.0 0.0705181543 -0.8424019373 -7.06154e-05 5.74096e-05 -0.0001658081 0.0001914176 -0.0197134877 0.8431583192
770295380.0 0.0612209822 -0.8419442299 6.58553e-05 5.0656e-06 -0.00017669 -5.0123e-05 -0.0114717044 0.8432011557
775295350.0 0.0531774352 -0.8426382035 -0.0001237432 1.51194e-05 -8.05746e-05 0.0001731336 -0.0032337952 0.8430844851
780295320.0 0.0443735975 -0.8431801789 6.73809e-05 -0.0001836601 4.49079e-05 6.29324e-05 0.0057077878 0.8437278819
785295290.0 0.0366816992 -0.8431540799 -1.29141e-05 -9.68049e-05 -2.8914e-06 8.9259e-05 0.0134311434 0.8433724224
790295260.0 0.0284300897 -0.8434600646 0.000140553 0.0001996272 0.0001761058 9.79406e-05 0.0220305251 0.8435063258
795295230.0 0.0196561768 -0.8440506172 -0.0001579327 -6.27718e-05 2.89771e-05 -4.28083e-05 0.0300492556 0.842352813
800295200.0 0.0110355207 -0.8437458104 -0.0001057567 -0.0002855287 0.0002979726 -0.0001401452 0.0380897128 0.8421741439
805295170.0 0.0028651536 -0.843502789 4.1167e-06 0.0001006441 -0.0001441657 -4.83954e-05 0.0474889376 0.8417503975
810295140.0 -0.00599862 -0.8428198674 0.000117203 -4.32575e-05 4.88415e-05 -0.0001023253 0.0555184637 0.8409082917
815295110.0 -0.0142518531 -0.8428730459 -2.52099e-05 -0.0001297563 -1.67526e-05 -8.57672e-05 0.0631903544 0.8406902136
820295080.0 -0.0225636292 -0.8422401236 7.17437e-05 -2.43285e-05 -2.30864e-05 5.70132e-05 0.0713918191 0.8401326606
825295050.0 -0.0316028594 -0.8425573177 -0.0001390569 7.04677e-05 -1.33276e-05 2.29416e-05 0.08024583 0.8392025824
830295020.0 -0.0393090157 -0.8417405014 -7.39876e-05 -5.5591e-06 -0.0001887345 -0.0002108765 0.0876414466 0.8380883243
835294990.0 -0.0471637581 -0.8411643151 4.30272e-05 4.48633e-05 5.05405e-05 -4.29615e-05 0.0966816925 0.8378086829
840294960.0 -0.0555699754 -0.8402900923 0.0002339378 0.0001126908 -0.0001506072 -7.409e-06 0.105846918 0.8366405258
845294930.0 -0.0644402048 -0.8394687294 0.0001493194 -3.34349e-05 6.3457e-05 -0.0001903466 0.11353674 0.8354026408
850294900.0 -0.0717729347 -0.8385291842 0.0001035214 -0.0001165756 0.0001371549 0.0001429034 0.1214624048 0.8347987908
