!Created with skrf (http://scikit-rf.org).
# Hz S RI R 50.0 
!freq ReS11 ImS11 ReS21 ImS21 ReS12 ImS12 ReS22 ImS22
300000.0 -0.7693240495 -0.1742412951 0.0001851482 0.0011747943 0.0017453331 0.0006729851 -0.7664219616 -0.1885168306
5299970.0 -0.7859167821 -0.0090863387 -9.43601e-05 -0.000151728 0.0001914812 0.000146469 -0.7849370927 -0.0097731914
10299940.0 -0.7894356079 -0.0058957706 0.0001742273 -9.73265e-05 0.0001054611 7.78269e-05 -0.7877540855 -0.0051116817
15299910.0 -0.7943868767 -0.0035217318 -9.38242e-05 -0.0001891447 -5.58784e-05 1.935e-07 -0.7928920031 -0.002601752
20299880.0 -0.8008328796 0.0005517866 -5.95015e-05 -6.88793e-05 3.0547e-05 -0.0001095231 -0.7999323538 0.0014949644
25299850.0 -0.8075833972 0.006835276 8.9192e-06 -2.64872e-05 -7.49378e-05 -4.52706e-05 -0.8058003537 0.0080960263
30299820.0 -0.8135448113 0.0136307114 -4.69284e-05 9.5803e-06 0.0001484968 -7.53302e-05 -0.8119776845 0.015797233
35299790.0 -0.8186786768 0.0227434323 -0.0001355669 0.0001059672 -5.94317e-05 -0.000158247 -0.8171289163 0.0248285524
40299760.0 -0.8237345631 0.0320474502 -2.66738e-05 0.0001356323 -7.7705e-06 -0.0001119761 -0.8212328678 0.0339062514
45299730.0 -0.8269124261 0.0420618794 0.0001727795 -0.0001146636 7.51573e-05 -0.0001178061 -0.8241870795 0.0434254297
50299700.0 -0.8290922046 0.0516392187 -0.0001408784 -0.0002390827 -2.94001e-05 0.0001056174 -0.8263823173 0.0539131582
55299670.0 -0.8311379676 0.0611951481 0.0001501535 3.16698e-05 -8.38307e-05 0.000144991 -0.8286229694 0.063572753
60299640.0 -0.8323500716 0.0718736035 6.46575e-05 7.0519e-06 0.0001140818 7.04075e-05 -0.829385191 0.0741012926
65299610.0 -0.8336207728 0.0816432281 -7.03876e-05 -0.0002834808 0.0003770928 -7.9183e-05 -0.8303273764 0.0837417672
70299580.0 -0.8335565555 0.0912150299 -3.959e-07 8.97317e-05 -4.071e-06 -1.0162e-05 -0.8311239141 0.0936258141
75299550.0 -0.8337025179 0.1018164586 0.000172183 8.64603e-05 7.83844e-05 0.0001092271 -0.8312749453 0.104097013
80299520.0 -0.8336789601 0.1119337933 -0.0002041598 0.0002024886 2.79931e-05 0.0001442863 -0.8311709559 0.113842255
85299490.0 -0.8326414883 0.12116289 0.0001755419 -1.69681e-05 8.47483e-05 0.0001470174 -0.8300819047 0.1230231961
90299460.0 -0.8327535534 0.1315673691 0.0001229124 -8.77119e-05 0.0001035187 4.52014e-05 -0.8289969306 0.1327445502
95299430.0 -0.8320122328 0.1402126516 -0.0001326057 -0.0001819671 0.0001022611 -0.0003081009 -0.8285140699 0.1426516245
100299400.0 -0.8301532982 0.1500245195 -0.0002607734 -0.0001682821 1.15628e-05 -0.0001355934 -0.8272224808 0.152002725
105299370.0 -0.828892618 0.1592648309 -2.1035e-06 -0.0001025107 4.1483e-06 2.64688e-05 -0.8256228237 0.1610085068
110299340.0 -0.8278978335 0.1683018904 -0.0002428526 0.0002448299 4.33535e-05 -0.0001697066 -0.8246500613 0.1698183409
115299310.0 -0.8257730141 0.1774404726 3.77355e-05 -6.04829e-05 -0.0001436814 -4.51495e-05 -0.8232194132 0.1791963
120299280.0 -0.8245324133 0.1865974238 0.0001239936 0.0001793216 2.26586e-05 7.38674e-05 -0.8211834076 0.1880613913
125299250.0 -0.8223651456 0.1956461099 -5.59627e-05 0.0003031516 0.0001198656 0.0001983317 -0.8194553786 0.1975219953
130299220.0 -0.8211109444 0.2053281103 -0.0002339911 -8.0716e-05 7.37427e-05 -1.7385e-05 -0.8179449831 0.205654797
135299190.0 -0.818385735 0.2140603311 -0.0001699569 -0.0003041069 -7.69125e-05 -0.0001448091 -0.8162170032 0.2147766569
140299160.0 -0.8171941418 0.2234574846 -4.93468e-05 8.22365e-05 -5.04688e-05 -4.79779e-05 -0.8139897851 0.223394145
145299130.0 -0.8149627604 0.2319865733 -0.0001944158 -2.09469e-05 -3.36047e-05 -2.98059e-05 -0.8123863311 0.2325664197
150299100.0 -0.8121653482 0.2406608651 0.0002231249 -6.59552e-05 1.90341e-05 -0.00019044 -0.8099997193 0.2415521582
155299070.0 -0.8096367682 0.2502944296 1.00879e-05 -5.79188e-05 -7.06647e-05 0.0001530911 -0.8074151294 0.2501219553
160299040.0 -0.8077725928 0.2586761727 -5.084e-06 -5.54261e-05 -3.37353e-05 7.19852e-05 -0.8043878138 0.2588481819
165299010.0 -0.8051702068 0.2673255678 3.22383e-05 -0.0001411498 0.0001007875 -0.0001120829 -0.8018903202 0.2673283321
170298980.0 -0.8014873763 0.2763022068 0.0002614616 0.0002460394 -5.84466e-05 -1.44446e-05 -0.7997678184 0.2759394009
175298950.0 -0.798624763 0.2841503152 5.7909e-06 -0.0002925207 2.15491e-05 2.47312e-05 -0.7970988474 0.2849198107
180298920.0 -0.7959241804 0.2927727114 -2.84921e-05 6.4772e-06 6.27982e-05 -0.0001043565 -0.7933522863 0.2932800665
185298890.0 -0.7924353095 0.3023100374 0.0001585575 0.0002258586 8.80983e-05 0.0003205111 -0.790409615 0.3017512572
190298860.0 -0.7895294114 0.3106810524 0.0003232823 -4.8657e-05 -0.0002589813 -0.0001632464 -0.7871998489 0.3101402194
195298830.0 -0.7867234971 0.3187571855 -0.0001659783 -0.0001723736 -0.0002231736 -0.0001454319 -0.7841243669 0.3179503925
200298800.0 -0.7822293862 0.3276542843 -6.0941e-05 -0.0001469942 0.0001015077 -6.33431e-05 -0.7807727617 0.3266659683
205298770.0 -0.7794422948 0.3360192954 -5.46001e-05 -3.66383e-05 -8.83994e-05 -0.0001036175 -0.7778453152 0.335377475
210298740.0 -0.7759303781 0.3444172839 2.78688e-05 -2.34097e-05 -2.06785e-05 3.3754e-06 -0.7745484315 0.3432239503
215298710.0 -0.7727017919 0.3534040767 4.6406e-06 -3.71996e-05 8.62493e-05 -0.0001840494 -0.7706479489 0.3516679351
220298680.0 -0.7686588168 0.3609953202 -0.0001786624 -4.32391e-05 0.0002782167 -8.08607e-05 -0.7667033163 0.3594297194
225298650.0 -0.7648061153 0.3695516997 0.0001850272 0.0002432271 -0.0001152353 -3.49751e-05 -0.7631290489 0.367460537
230298620.0 -0.761096606 0.3778715924 0.0001221123 2.37949e-05 4.24631e-05 -0.0002201255 -0.7588600332 0.3756592554
235298590.0 -0.7571700333 0.3860792564 7.47629e-05 -7.40136e-05 -0.0001087879 7.06104e-05 -0.7551202377 0.3834902148
240298560.0 -0.7531938553 0.3938068711 4.75144e-05 -5.63365e-05 0.0002353194 -6.1992e-05 -0.751130714 0.3911022684
245298530.0 -0.7483964828 0.4014326843 0.0002795276 -2.98237e-05 6.09146e-05 4.50682e-05 -0.7472922145 0.3990564223
250298500.0 -0.7447563335 0.4089585568 -0.0001586673 0.00012267 -2.4629e-05 -0.000163455 -0.7426565779 0.4069157451
255298470.0 -0.7405031548 0.4172596209 -2.8602e-05 -1.46239e-05 4.8547e-06 5.55223e-05 -0.7388959754 0.4146973103
260298440.0 -0.7363981903 0.4249805654 -4.35059e-05 -3.85739e-05 -9.16093e-05 0.0001292228 -0.7345864456 0.4220324269
265298410.0 -0.7321005227 0.4326951967 6.79221e-05 0.0001396554 5.73208e-05 -4.42433e-05 -0.7297286355 0.4298518059
270298380.0 -0.7272105182 0.4401840559 0.0001146131 3.37019e-05 9.27144e-05 6.67565e-05 -0.7250094106 0.4382458286
275298350.0 -0.723278547 0.4482140982 6.60802e-05 0.000152048 9.9262e-05 1.98019e-05 -0.7206137605 0.4456046704
280298320.0 -0.7182736787 0.4556828829 2.0706e-05 3.02161e-05 -0.0001417776 0.0002230049 -0.715756171 0.4530902109
285298290.0 -0.7137819701 0.4632520239 0.000177519 -7.83058e-05 -0.0002106584 0.0001441405 -0.7117917179 0.4607124716
290298260.0 -0.7089584129 0.4708922493 1.58222e-05 -3.72691e-05 -7.35216e-05 -0.0001037971 -0.7062826079 0.4677547629
295298230.0 -0.7043076979 0.4781192172 0.000188936 3.98493e-05 -9.38334e-05 6.29072e-05 -0.701412323 0.4743325753
300298200.0 -0.6991713708 0.4852173539 -0.0001396885 -7.91251e-05 -0.0001352581 0.0001087907 -0.6963553897 0.482462311
305298170.0 -0.6945239547 0.4922569046 -0.0001054575 7.49936e-05 0.0001109514 -0.0001300073 -0.6918892381 0.4893447472
310298140.0 -0.68899447 0.4997102485 -0.0001088011 0.0001500768 0.0001912563 -3.65315e-05 -0.6864708742 0.4967331998
315298110.0 -0.6846745061 0.5067909321 0.0001204614 7.11784e-05 0.0001876036 9.40441e-05 -0.6814918112 0.503736712
320298080.0 -0.6789648821 0.5140231729 9.8054e-06 -5.4793e-06 9.28594e-05 9.0614e-06 -0.6767979898 0.5106349725
325298050.0 -0.67367957 0.5209556763 -0.0001582228 -0.000136684 2.66707e-05 -0.0001190759 -0.6703009535 0.5176485593
330298020.0 -0.6676667927 0.5277894179 -0.0002282929 1.4192e-06 7.30825e-05 -0.0001062458 -0.6653263993 0.5242974009
335297990.0 -0.6630036198 0.5348736368 -0.0001550403 -8.48658e-05 -4.858e-05 -0.0002227423 -0.6591453541 0.5316293488
340297960.0 -0.6578102083 0.5412799883 1.00802e-05 -4.04375e-05 4.76952e-05 -0.0001585965 -0.6538814691 0.5386565562
345297930.0 -0.6522303917 0.5476643041 0.0001701025 -0.0001439639 -1.8833e-05 -3.61559e-05 -0.648575843 0.5446260433
350297900.0 -0.6464236858 0.5550817414 -5.2327e-05 0.0001608362 5.32404e-05 -0.0001391246 -0.6432636177 0.5508375119
355297870.0 -0.6408481639 0.5611298281 0.0001234907 -1.83464e-05 -0.000158609 0.0001454254 -0.6373400849 0.558434342
360297840.0 -0.6350639252 0.5680629881 0.0001211695 4.88e-05 -2.997e-05 0.0001025001 -0.6306891174 0.5646571371
365297810.0 -0.6295062877 0.5744982858 6.33454e-05 -0.000161704 -5.48397e-05 -0.0001159359 -0.6262242673 0.57054632
370297780.0 -0.6234132602 0.5806603725 2.31251e-05 0.0001053829 6.91153e-05 -1.44945e-05 -0.6194347851 0.5775618581
375297750.0 -0.6175595178 0.5873682691 -4.868e-05 0.0001098821 0.0001573097 -6.81818e-05 -0.6133069524 0.5837128159
380297720.0 -0.6117063885 0.5933441031 0.0001701047 5.19473e-05 0.0001964948 -0.0002936657 -0.6067225607 0.5904094257
385297690.0 -0.6058831534 0.5989340202 0.0001867628 0.0001427472 -3.08242e-05 -9.75099e-05 -0.6015539214 0.5965198996
390297660.0 -0.5981709106 0.6053724592 -0.0001471875 -0.0001181212 -3.11898e-05 0.0001404282 -0.5948291155 0.6018289055
395297630.0 -0.5928977742 0.611909501 0.0001368322 2.12116e-05 0.00016375 7.34e-08 -0.5882376395 0.6075170948
400297600.0 -0.5866441352 0.6183800629 -0.0001476091 -4.07907e-05 0.0001235941 -6.871e-07 -0.5827669991 0.6139662065
405297570.0 -0.5809179743 0.6227730363 0.0001011626 -9.86285e-05 8.9994e-05 0.0001863367 -0.5756180636 0.6203504493
410297540.0 -0.5740006552 0.6295985396 -5.14483e-05 -1.87287e-05 8.77176e-05 6.12975e-05 -0.5692481348 0.6255317571
415297510.0 -0.5682665465 0.6358702335 -5.1403e-06 5.11403e-05 0.0001187123 5.8546e-05 -0.5627928597 0.6313759461
420297480.0 -0.5610084234 0.6407470634 0.0001731482 4.26513e-05 -3.53493e-05 6.72186e-05 -0.5563257024 0.6383257291
425297450.0 -0.5540447356 0.6467605034 0.0001476517 8.23771e-05 9.16388e-05 -0.0001594108 -0.5498660176 0.6427596505
430297420.0 -0.5481488277 0.6517472404 -0.0001378477 -9.9101e-06 -6.615e-07 -9.49252e-05 -0.543325065 0.6482317265
435297390.0 -0.5413177431 0.6574708021 0.0001151319 -4.14799e-05 0.0001333055 0.000163385 -0.5373191176 0.6538768081
440297360.0 -0.5340929113 0.6629243075 -0.0001057402 -1.2322e-06 -3.2042e-06 -6.14751e-05 -0.5303551173 0.6600636683
445297330.0 -0.5273678836 0.6680574804 6.01044e-05 0.0001056923 -9.88534e-05 -0.0002776909 -0.5229093643 0.6647302921
450297300.0 -0.5200691624 0.6735790092 -5.81944e-05 7.68994e-05 -6.67845e-05 4.59061e-05 -0.5158454538 0.6696976348
455297270.0 -0.5137757986 0.6785073371 8.02215e-05 -0.000104415 -3.06448e-05 1.01039e-05 -0.509399303 0.6750784767
460297240.0 -0.5055624916 0.6842191293 -2.23911e-05 -0.0001422426 9.8404e-06 7.2099e-06 -0.5022289508 0.6802446724
465297210.0 -0.4997108946 0.6890757115 -0.0001406575 0.0001053014 -7.01268e-05 -0.0001831907 -0.4948616156 0.6854589706
470297180.0 -0.4922094477 0.6945720538 -5.43249e-05 -4.97646e-05 2.76073e-05 0.0002028581 -0.488024779 0.689993218
475297150.0 -0.4848942593 0.6988327615 -0.0002056191 6.80192e-05 2.284e-07 4.29974e-05 -0.4813115088 0.6951742233
480297120.0 -0.4770740749 0.7037315815 -4.02153e-05 0.0001507369 -6.62818e-05 0.000130322 -0.4743938344 0.6996699358
485297090.0 -0.4704819747 0.7083927931 1.8189e-06 9.71543e-05 -0.0001017492 -6.38392e-05 -0.4669964729 0.7046743819
490297060.0 -0.4621746466 0.7135602555 -5.32531e-05 -0.0002019395 3.54008e-05 1.12055e-05 -0.4596032688 0.7088170327
495297030.0 -0.455076426 0.7174457379 -1.90265e-05 0.0001201665 0.0001332097 -5.53583e-05 -0.4522086971 0.7136512442
500297000.0 -0.4475194496 0.7219651826 -1.07207e-05 -8.89619e-05 9.55255e-05 0.0001001516 -0.4449430917 0.7180960514
505296970.0 -0.4395453997 0.727478612 -3.48572e-05 -7.06832e-05 -3.0579e-06 0.000118068 -0.4373049828 0.7225417691
510296940.0 -0.4319278299 0.7314314025 -9.06052e-05 7.25131e-05 -9.13491e-05 -6.9128e-06 -0.4296682578 0.7274057003
515296910.0 -0.4240243935 0.7356296725 -5.10989e-05 2.11488e-05 5.807e-05 3.0567e-05 -0.4235774819 0.7306615955
520296880.0 -0.4164048655 0.7392152942 6.10484e-05 -0.0001585854 0.0001856153 0.0002764977 -0.4153652541 0.735943835
525296850.0 -0.4087080285 0.7438694703 9.26449e-05 1.3648e-06 0.0001136521 0.0002512322 -0.408391973 0.7396783303
530296820.0 -0.4017269025 0.7479831805 2.99046e-05 0.0001557195 0.0001200737 -6.17392e-05 -0.4009173149 0.7438421155
535296790.0 -0.3928926303 0.7515483291 -0.0001030476 -0.0001230874 0.0001677865 -2.2392e-05 -0.393385999 0.7479326014
540296760.0 -0.385233194 0.7559479663 3.29358e-05 4.96896e-05 0.0001443219 -0.0001303977 -0.384973875 0.7515639591
545296730.0 -0.3776182665 0.7605048251 7.22845e-05 4.32615e-05 -7.88359e-05 -8.42648e-05 -0.3776035166 0.7554275519
550296700.0 -0.3695902205 0.7638971118 -7.12705e-05 -0.0001174853 -7.97276e-05 8.44411e-05 -0.3703395588 0.7592979147
555296670.0 -0.3618943205 0.767393168 0.0001691299 -0.0001620058 -6.64002e-05 6.2819e-06 -0.3628764507 0.7622808057
560296640.0 -0.3536137404 0.7707173204 -0.0001715079 -0.0001953776 7.74927e-05 3.6728e-06 -0.3543728602 0.7663828821
565296610.0 -0.3458861898 0.7744212206 -5.77893e-05 -7.35983e-05 6.83863e-05 -0.0001195765 -0.3465714655 0.76995549
570296580.0 -0.3372669949 0.7776265748 0.0002217357 3.11488e-05 7.23329e-05 -2.19121e-05 -0.3393384941 0.7728956074
575296550.0 -0.3284451284 0.7812994764 0.0001170373 7.97025e-05 -7.61668e-05 2.59693e-05 -0.3310277209 0.77655174
580296520.0 -0.3215468509 0.7848688001 6.65896e-05 -3.19835e-05 -2.90121e-05 6.24503e-05 -0.3238953813 0.7797724308
585296490.0 -0.3124517807 0.7874744713 -4.4634e-05 0.0002163392 6.27423e-05 -6.26298e-05 -0.3158446912 0.7833498706
590296460.0 -0.3043043868 0.7908259526 -0.0001415276 0.0002684318 -5.10573e-05 5.35684e-05 -0.3078982292 0.7857317493
595296430.0 -0.2959916334 0.7937627657 -0.0001052643 3.41887e-05 -7.21225e-05 0.0001388574 -0.2997770866 0.7893523956
600296400.0 -0.2885890354 0.7969607182 0.0001736854 0.000171561 -4.94473e-05 9.9898e-06 -0.2922655265 0.7916310629
605296370.0 -0.2799387422 0.7994198463 0.000120085 7.34065e-05 -5.82785e-05 -7.0541e-06 -0.2840646789 0.7954909231
610296340.0 -0.2714997386 0.8028815626 3.12913e-05 3.7768e-06 0.0001746658 -7.34817e-05 -0.2763353489 0.7977409087
615296310.0 -0.2627007985 0.8052614377 -4.3161e-05 -4.5087e-05 -5.38146e-05 -4.58695e-05 -0.2675319911 0.8003537473
620296280.0 -0.2555971767 0.8081971195 -4.5071e-06 8.6641e-06 3.31288e-05 8.02172e-05 -0.2604498645 0.8032970171
625296250.0 -0.2477192152 0.8096699765 6.59159e-05 0.0001040444 4.10353e-05 -3.21097e-05 -0.2517906416 0.8048804802
630296220.0 -0.2390820717 0.8127992561 0.0002217004 -0.0001552519 -0.0001021908 2.42923e-05 -0.2439706005 0.8080735402
635296190.0 -0.2303361433 0.8156073641 -5.7882e-06 0.0001010108 -1.8764e-05 -7.21364e-05 -0.2357883949 0.8098157183
640296160.0 -0.2223819536 0.8173827075 4.53453e-05 -6.15176e-05 -0.0002020145 -2.48583e-05 -0.2272971696 0.8123149311
645296130.0 -0.2131516417 0.8197935916 -0.0001347037 -7.10191e-05 8.09862e-05 1.51645e-05 -0.2192968699 0.8144567697
650296100.0 -0.2058186173 0.821666635 0.0001222865 8.64012e-05 9.24203e-05 -1.51891e-05 -0.2111508933 0.8167769478
655296070.0 -0.1976582489 0.8241006876 6.84477e-05 -5.5023e-06 7.73398e-05 8.93417e-05 -0.2029796912 0.8193020952
660296040.0 -0.1893931258 0.8262825763 -0.0001044266 2.42349e-05 8.60955e-05 6.07066e-05 -0.1940165716 0.8208276605
665296010.0 -0.1808787732 0.8285778618 3.16453e-05 -9.17348e-05 4.49437e-05 -3.16247e-05 -0.1863417007 0.8225862316
670295980.0 -0.1725734463 0.8301774496 -1.90898e-05 2.92473e-05 -2.55006e-05 1.86072e-05 -0.1785857318 0.8242778372
675295950.0 -0.1638448673 0.8322653827 -9.08797e-05 7.08879e-05 -0.0001186595 2.25554e-05 -0.1694919871 0.8264639483
680295920.0 -0.1564537688 0.8339794983 0.0002106812 3.1875e-06 -3.43665e-05 0.0001173851 -0.1617146919 0.8277437744
685295890.0 -0.1474417478 0.8356257675 0.000136103 8.98169e-05 0.0001115754 -2.65869e-05 -0.1537642736 0.8299800634
690295860.0 -0.1393781085 0.836417001 6.0733e-05 -0.000102652 0.0001359324 7.38007e-05 -0.1452523831 0.8312066247
695295830.0 -0.1315265077 0.8380153756 -5.72629e-05 7.16798e-05 8.12466e-05 -0.0001107674 -0.1371180291 0.8328179514
700295800.0 -0.1224171837 0.8399207358 -8.03344e-05 -0.0003182673 1.23051e-05 6.14432e-05 -0.1287248527 0.8333463522
705295770.0 -0.1149278285 0.8415013456 -0.000142806 -0.0001779078 -9.552e-06 -8.01064e-05 -0.1203771845 0.8354079569
710295740.0 -0.107256978 0.8417982856 -0.0001952663 -0.0002495166 -0.0001524829 -0.0001400919 -0.1117607568 0.8360362517
715295710.0 -0.0976451891 0.8436800065 -1.19331e-05 -0.0002808773 -0.0001016181 0.0001325449 -0.1034905912 0.8368569692
720295680.0 -0.0889301671 0.8444366958 2.77133e-05 -7.66149e-05 -8.65372e-05 -8.95009e-05 -0.0949824613 0.838261161
725295650.0 -0.0817598452 0.8463922458 0.0001215779 -1.96545e-05 0.0001297804 -3.54731e-05 -0.08720081 0.8397639095
730295620.0 -0.0740214496 0.8468658676 7.2661e-06 -0.0001270754 6.43251e-05 -1.34503e-05 -0.0791690143 0.8398871215
735295590.0 -0.0653085523 0.8476323738 0.0001964674 0.0001538838 1.015e-07 2.8662e-06 -0.0700149488 0.8406534367
740295560.0 -0.057958049 0.8475246127 -3.3675e-06 -2.97356e-05 -7.28893e-05 1.89527e-05 -0.0617133758 0.8415028253
745295530.0 -0.0493190027 0.8484230641 -9.70522e-05 0.0001987404 -8.8652e-05 -1.92269e-05 -0.0537261365 0.8421332111
750295500.0 -0.0413408982 0.8491004996 -0.0001111507 -2.05783e-05 4.56596e-05 7.52159e-05 -0.0446850025 0.8421346199
755295470.0 -0.0321091091 0.8499977702 -0.0001125114 -4.29721e-05 -7.76832e-05 -5.7692e-05 -0.0372874713 0.8426125063
760295440.0 -0.0243811893 0.8510710559 -5.0745e-05 -1.31933e-05 7.97898e-05 -4.47681e-05 -0.0280804729 0.8421793457
765295410.0 -0.0164896638 0.8504861914 -0.0001581804 -4.84804e-05 0.0001633111 3.8387e-06 -0.0200770621 0.843687618
770295380.0 -0.0089210207 0.8508788146 -1.55192e-05 0.0001729453 0.0001201821 -0.0001889152 -0.0116334024 0.8434046986
775295350.0 -5.45156e-05 0.8512318564 -2.1747e-05 -0.0002604024 -0.0002518418 0.0001531714 -0.0035408222 0.8433040516
780295320.0 0.0084863636 0.8512255226 -0.0001628813 0.0001810709 1.89748e-05 -3.09606e-05 0.0053629866 0.8438666343
785295290.0 0.0165435144 0.8508971415 -0.0001457013 0.0002629368 4.04136e-05 0.0001467388 0.0130889521 0.8434149279
790295260.0 0.0245780664 0.8505732498 3.3086e-06 0.0001388336 -5.84446e-05 -0.0001613508 0.0217486004 0.8435459606
795295230.0 0.0333214124 0.850766774 -5.61799e-05 7.81012e-05 2.11039e-05 8.17145e-05 0.0298458328 0.8427592992
800295200.0 0.0410922175 0.8509137127 -5.94347e-05 -2.28066e-05 -9.229e-06 -0.0002094692 0.0382975415 0.8422210342
805295170.0 0.0485955455 0.8508948773 0.0001657184 -4.57956e-05 0.0001481642 -1.99573e-05 0.0474852137 0.8422165052
810295140.0 0.0573939328 0.8508351267 0.000179559 -0.0001316575 9.9869e-06 0.0001049401 0.0553473368 0.8417758725
815295110.0 0.0650840184 0.8495845098 0.000147383 0.0001162438 -1.72132e-05 3.26143e-05 0.0633749112 0.8408287383
820295080.0 0.0735032272 0.8491220904 -0.0001261431 2.72968e-05 -0.0002913064 0.0001339108 0.070961753 0.8405369466
825295050.0 0.0815846412 0.848407239 -1.04963e-05 -6.66956e-05 0.0001546526 0.0001668382 0.0802087553 0.8395569991
830295020.0 0.0905819049 0.8474699209 -0.0001296728 -0.0001150683 -0.0001089513 -0.0001446725 0.0880267303 0.8381929625
835294990.0 0.0980682899 0.8466291178 -6.23451e-05 -0.0002453451 0.0002100623 -3.8276e-06 0.096411714 0.8382243491
840294960.0 0.1066218309 0.8455504225 -0.0001069729 -3.45376e-05 -3.35448e-05 -1.97816e-05 0.1052474211 0.8368737591
845294930.0 0.1141138205 0.8444944406 -2.9115e-05 0.0001001812 1.8248e-05 4.8077e-05 0.1135850447 0.8354267362
850294900.0 0.1240691178 0.8435860186 -8.27404e-05 -7.22397e-05 -1.08883e-05 4.37663e-05 0.12095604 0.834657637
