!Created with skrf (http://scikit-rf.org).
# Hz S RI R 50.0 
!freq ReS11 ImS11 ReS21 ImS21 ReS12 ImS12 ReS22 ImS22
300000.0 0.858741961 -0.003381226 -0.0014927518 -0.0003483147 -0.0004770699 0.0007649803 -0.7750819669 -0.1198961158
5299970.0 0.8587142116 -0.0099094893 0.0002076575 -0.0002080461 -0.0001115664 -7.66723e-05 -0.7850946271 -0.0067248637
10299940.0 0.857608177 -0.0185839474 1.71571e-05 0.0002303967 6.38504e-05 3.80262e-05 -0.7884459346 -0.0035585479
15299910.0 0.8567982405 -0.0264592664 -6.98999e-05 -3.59111e-05 0.0002097861 -5.95045e-05 -0.7939595931 -0.0010935801
20299880.0 0.8559760385 -0.0353153692 0.0001487009 0.000101833 -0.0002965149 -0.0001139955 -0.8002515413 0.002033366
25299850.0 0.855462918 -0.0433896825 4.84608e-05 -0.0001085 -6.75055e-05 -0.0001591979 -0.8068989325 0.0082232815
30299820.0 0.8546463524 -0.0521183357 2.55957e-05 0.0001140065 -9.1536e-06 -9.66408e-05 -0.8129085393 0.0161055919
35299790.0 0.8537822402 -0.0600683803 -1.78235e-05 0.0001737901 6.98859e-05 7.70454e-05 -0.8174736238 0.0253557759
40299760.0 0.8528247627 -0.0688982993 -0.0002017778 -7.66812e-05 -0.0001918294 0.0001608833 -0.8216228078 0.0342287897
45299730.0 0.8527269301 -0.0769997089 -4.09255e-05 -2.89801e-05 0.0001712167 -9.85949e-05 -0.8256222279 0.0434408484
50299700.0 0.8520402075 -0.0847768143 -8.81124e-05 9.23339e-05 -7.7541e-05 -0.000285814 -0.8273070223 0.0538598797
55299670.0 0.8506784701 -0.0932152897 -4.02025e-05 0.0002002857 -4.196e-07 -5.29486e-05 -0.8296070826 0.0637076828
60299640.0 0.8491133473 -0.1013989085 7.49941e-05 2.4693e-05 -0.0001240419 6.36564e-05 -0.8305883036 0.0737468856
65299610.0 0.8483330985 -0.1093653015 -1.12947e-05 -9.32195e-05 8.15585e-05 0.0001194544 -0.8322019983 0.083821129
70299580.0 0.8477282295 -0.1185479576 0.0002255707 3.19661e-05 4.42892e-05 7.61879e-05 -0.8322931922 0.0939255251
75299550.0 0.846129948 -0.1263397136 0.0002103567 -2.20435e-05 -0.0002701802 -0.0001520905 -0.8323430591 0.1036001119
80299520.0 0.8446065264 -0.1348445815 -0.0002525279 0.000146555 -0.0001868262 4.43281e-05 -0.8321265442 0.1136655976
85299490.0 0.8432714823 -0.1428602879 -7.5937e-06 -2.46289e-05 -0.0001507471 -0.0001611826 -0.8317066739 0.1228452162
90299460.0 0.8417406727 -0.150689453 -5.52862e-05 -2.21627e-05 8.02478e-05 -0.0001927775 -0.8306159621 0.1327031578
95299430.0 0.8400233635 -0.1594380865 -6.44379e-05 -5.61013e-05 0.0001512334 7.97484e-05 -0.8291269347 0.1423265944
100299400.0 0.8381821501 -0.1675492048 6.48597e-05 -6.95359e-05 -0.0002284729 -2.7723e-05 -0.828457659 0.1521283487
105299370.0 0.8372811798 -0.1754608653 1.17948e-05 5.642e-06 -8.88478e-05 8.44613e-05 -0.8272472751 0.1611783226
110299340.0 0.8354756985 -0.1837662963 0.0002354849 -6.36034e-05 8.71381e-05 -1.28649e-05 -0.8254055933 0.1706338891
115299310.0 0.8331699639 -0.1921737215 -0.0002214337 -0.000265026 7.20617e-05 9.82868e-05 -0.8247314516 0.1798056457
120299280.0 0.8317523101 -0.1996689222 -6.09418e-05 2.50627e-05 4.34656e-05 3.43832e-05 -0.8228022303 0.1888784073
125299250.0 0.8290407913 -0.2085157661 -6.3297e-05 -8.63891e-05 5.02228e-05 -5.50089e-05 -0.8212696916 0.197981258
130299220.0 0.8274709593 -0.2158615168 0.0003570386 -8.52793e-05 8.77627e-05 -7.70307e-05 -0.8194583613 0.2065353874
135299190.0 0.8252129458 -0.2236169427 -0.0001196761 5.58484e-05 1.9374e-06 0.0002526774 -0.8171027592 0.2159662812
140299160.0 0.8228954849 -0.2318964147 -4.19807e-05 0.0001376519 0.0003033041 -0.0001416419 -0.8145671995 0.22494709
145299130.0 0.8209627246 -0.2403052467 1.76003e-05 0.0001962664 -0.0001111314 -3.03117e-05 -0.8130000256 0.2340175155
150299100.0 0.8184237693 -0.2480768932 0.0002310815 6.0231e-06 0.000106174 0.0001722078 -0.8114360518 0.24287218
155299070.0 0.8155199912 -0.2559468484 -0.0001217225 -8.74212e-05 6.41364e-05 0.0002878579 -0.8080210791 0.2515554516
160299040.0 0.8129730598 -0.2642143973 7.1702e-05 -0.0001983688 -0.0002173696 -0.0001528974 -0.8059555107 0.2607072158
165299010.0 0.8105725625 -0.2723573146 3.79737e-05 -0.0001282257 -0.0002928965 6.8302e-05 -0.8033249487 0.2692546268
170298980.0 0.8076054932 -0.2796625728 0.0001204215 0.0002745052 -8.4056e-05 -0.0001587937 -0.8007915999 0.2777423629
175298950.0 0.804448944 -0.2878328753 2.65329e-05 -0.000140313 -2.03225e-05 -9.22502e-05 -0.7970355277 0.2868226854
180298920.0 0.8021029646 -0.2954622886 -0.0001883961 -0.0001796043 -4.10933e-05 0.0001080091 -0.7943373838 0.2949400432
185298890.0 0.798895919 -0.3035428093 -8.35772e-05 -5.40871e-05 -0.0001563277 7.95979e-05 -0.7909511842 0.3036341564
190298860.0 0.7954703612 -0.3111829209 0.0004660693 9.11666e-05 0.0001419016 2.6707e-05 -0.7884845468 0.3121947514
195298830.0 0.7929055007 -0.3187732244 -5.98541e-05 -3.2492e-06 -3.8448e-06 -8.42453e-05 -0.7850135049 0.3211422939
200298800.0 0.7890804107 -0.3261467362 -0.0001723431 4.71832e-05 5.81053e-05 0.0002294363 -0.7822799947 0.3289753527
205298770.0 0.7858932959 -0.3340957221 -0.0001211387 0.0001510598 -0.0003095952 -0.0001975881 -0.7782471993 0.3373069466
210298740.0 0.783055624 -0.3417595828 -7.7511e-05 0.0001448604 0.0001088887 6.9191e-06 -0.7749254941 0.3458035378
215298710.0 0.7792269919 -0.3499821596 -0.0002404293 0.0001040416 6.92971e-05 0.0001028333 -0.7714034807 0.3535368694
220298680.0 0.7757079979 -0.3570830702 8.59293e-05 -4.31805e-05 6.4816e-05 -0.0001445886 -0.7672581552 0.3614208156
225298650.0 0.7723389789 -0.3653838896 2.52868e-05 0.0001929391 -9.50136e-05 -3.60365e-05 -0.7639775071 0.3697613464
230298620.0 0.7687187015 -0.3728384725 -0.0001876122 -7.9764e-06 -1.75431e-05 -0.0001479089 -0.7597947249 0.3777890204
235298590.0 0.7649672457 -0.3797619692 -9.6921e-06 -0.0001228637 -2.76413e-05 1.94723e-05 -0.755768338 0.3864904514
240298560.0 0.7613030664 -0.3875441895 -3.44827e-05 9.96662e-05 1.88161e-05 -5.40072e-05 -0.7520498279 0.395036818
245298530.0 0.7568880806 -0.3946937573 2.96481e-05 -2.40185e-05 -7.42543e-05 9.1049e-05 -0.7477993107 0.4017098407
250298500.0 0.7536825436 -0.4021307942 8.35659e-05 -0.0001020755 5.77218e-05 -0.0001655375 -0.7436392222 0.4096181427
255298470.0 0.7489728155 -0.4093733415 -0.0001139007 -2.08177e-05 8.84136e-05 -1.66006e-05 -0.7387541446 0.4180504517
260298440.0 0.7449050156 -0.4164717876 -2.04773e-05 -5.51128e-05 7.96903e-05 5.42931e-05 -0.7351673456 0.4257969178
265298410.0 0.7410794724 -0.4238973501 6.1324e-06 1.83045e-05 -0.0001029741 0.0001923697 -0.730209631 0.4338143618
270298380.0 0.7370674329 -0.4309319511 -0.0002178267 -9.66918e-05 -0.0001887886 6.42663e-05 -0.7259369898 0.4408883264
275298350.0 0.7327017272 -0.4386244304 -9.34174e-05 3.47981e-05 -2.49657e-05 2.5542e-06 -0.7211291258 0.4484119912
280298320.0 0.7285443604 -0.4455615974 -6.59111e-05 0.0001920603 -6.23475e-05 -0.0001882056 -0.7163804397 0.4556000543
285298290.0 0.7244976227 -0.4527466975 -0.0002575677 0.0001334636 -0.0001512582 5.97322e-05 -0.7111054808 0.4637434579
290298260.0 0.7206680802 -0.4594071367 0.0002226542 5.96216e-05 3.55467e-05 -6.67916e-05 -0.7067300424 0.471031725
295298230.0 0.7159125305 -0.466651656 -9.3668e-05 -0.0001227204 -1.89388e-05 4.53064e-05 -0.7016283925 0.4784350253
300298200.0 0.7117856217 -0.4742180386 6.94576e-05 0.0003474246 -4.38895e-05 8.40522e-05 -0.6969474245 0.4852522384
305298170.0 0.7071152753 -0.4809949083 -0.0002680138 -6.49266e-05 -6.59372e-05 -9.55005e-05 -0.6907499801 0.4934510495
310298140.0 0.7024547983 -0.4881555871 0.0001001145 -0.0001491587 -0.0001827419 8.20103e-05 -0.6861588539 0.5003825801
315298110.0 0.6981400511 -0.4955958532 -0.000109722 0.0001315787 5.43187e-05 -1.99574e-05 -0.6808674942 0.5072187462
320298080.0 0.693527452 -0.5034254237 -7.15615e-05 -0.0001487977 -0.0002315797 0.0001013943 -0.6756223121 0.5147825084
325298050.0 0.68749966 -0.5104114171 -0.0002049385 -2.0184e-05 -0.0001343445 -1.33512e-05 -0.6700489148 0.5216760121
330298020.0 0.6822905553 -0.5178010866 8.50419e-05 0.0001850786 3.22951e-05 2.64003e-05 -0.664474152 0.5288102295
335297990.0 0.6755145441 -0.5244055596 -4.11124e-05 -2.9514e-06 2.9121e-05 1.93075e-05 -0.6594370801 0.5356279044
340297960.0 0.669858002 -0.5310699208 0.0001640173 -8.92892e-05 -0.0001830287 -8.19041e-05 -0.6536469661 0.5426499244
345297930.0 0.6641355306 -0.5374358806 -3.57837e-05 4.56721e-05 -0.0003201393 0.0001443206 -0.6475930981 0.5484760535
350297900.0 0.6583170862 -0.5432479313 4.26954e-05 -2.56833e-05 -3.44017e-05 0.0001144504 -0.6419511583 0.5561182939
355297870.0 0.6530304376 -0.549602528 -8.733e-05 -1.7003e-06 -0.0001233939 -0.0001550642 -0.6367145546 0.5619455941
360297840.0 0.6473086809 -0.5557096384 0.0002286396 -0.000152801 -9.45734e-05 -0.0001246464 -0.6308592493 0.5688397495
365297810.0 0.640924819 -0.5617757636 -0.0001601386 -0.000157845 -3.03036e-05 0.0001350357 -0.6241568287 0.5749225021
370297780.0 0.6361472587 -0.5678113767 -0.0002405263 -1.75612e-05 5.9967e-06 2.3897e-05 -0.6177952623 0.5819242355
375297750.0 0.629599661 -0.5739462425 -3.23047e-05 6.88503e-05 7.12502e-05 -0.0001339013 -0.6119795127 0.5875645593
380297720.0 0.624494798 -0.5808249504 1.38529e-05 -8.246e-07 1.14034e-05 -0.0002064679 -0.6063193899 0.5940387828
385297690.0 0.6184509571 -0.5862213034 0.0001258451 -2.59765e-05 -3.20203e-05 -3.80035e-05 -0.5995615961 0.6001849994
390297660.0 0.6130056651 -0.5919478346 -6.70706e-05 -1.12325e-05 -0.0001408748 -4.86434e-05 -0.5935174974 0.6063695894
395297630.0 0.6066316689 -0.5975675162 -8.66234e-05 4.20653e-05 7.80533e-05 5.41455e-05 -0.5865645533 0.6133316909
400297600.0 0.6012575715 -0.6032350319 -0.000160559 8.69231e-05 5.77611e-05 0.0001987416 -0.5816181486 0.6183516765
405297570.0 0.5947207858 -0.6093852208 6.78664e-05 -3.93668e-05 0.0001260212 5.22538e-05 -0.574618293 0.6250110536
410297540.0 0.5883504652 -0.6148734094 -5.48035e-05 -0.0001413659 -5.56187e-05 0.0001139714 -0.5676100667 0.6307320732
415297510.0 0.5827503492 -0.6212720582 -0.0001717798 -9.09723e-05 -5.85466e-05 -5.82472e-05 -0.5616091408 0.6363055836
420297480.0 0.5769024211 -0.6263717224 -0.0001049419 -5.3115e-06 -3.973e-07 -6.7994e-06 -0.554842765 0.6420761814
425297450.0 0.5701693195 -0.6321693423 -2.58907e-05 0.000176826 5.3319e-05 0.0001719809 -0.547999829 0.647555174
430297420.0 0.5638162443 -0.6372029597 0.0001194478 -7.3113e-06 8.11382e-05 -1.99718e-05 -0.5414083285 0.6529864043
435297390.0 0.5576863432 -0.6428579493 -0.0001089051 0.0001417864 7.05908e-05 -6.55712e-05 -0.5342416505 0.6584685707
440297360.0 0.5511941445 -0.649059813 2.168e-05 4.73251e-05 6.40354e-05 -0.0002098554 -0.5276925165 0.6638611011
445297330.0 0.5449454695 -0.6536350977 -5.55218e-05 0.0001991316 0.0001482627 -1.32492e-05 -0.5206011541 0.6687989027
450297300.0 0.5388171338 -0.6586299336 -7.92295e-05 -0.000129672 0.0001284381 6.58016e-05 -0.5134740734 0.673832063
455297270.0 0.5316497638 -0.664449972 0.0001527817 -2.7538e-05 -7.75965e-05 -0.0002046902 -0.5068410661 0.6785610384
460297240.0 0.5251653268 -0.6694752694 7.72219e-05 -9.32843e-05 4.99919e-05 -0.000107424 -0.5000175819 0.6846421268
465297210.0 0.5184971743 -0.6744782963 2.2857e-06 -0.0001292733 -4.64897e-05 -6.75542e-05 -0.4925022206 0.689448077
470297180.0 0.5116872723 -0.6789256717 6.3352e-05 1.98875e-05 4.42294e-05 6.52763e-05 -0.4853699291 0.6950461806
475297150.0 0.5049291496 -0.6842077842 -2.43778e-05 -3.09379e-05 0.0002555627 -3.85862e-05 -0.4784790615 0.6989463811
480297120.0 0.4973200925 -0.6890153129 4.25253e-05 0.0001637248 -7.88643e-05 0.0001021413 -0.4709855411 0.7042571873
485297090.0 0.4909028087 -0.6933215255 -0.0002380962 -4.70612e-05 -4.92121e-05 3.5425e-05 -0.4638111404 0.7089589881
490297060.0 0.4834038787 -0.6982629065 0.0002933545 5.1218e-06 -0.0001833229 -4.62003e-05 -0.4567852801 0.7132875167
495297030.0 0.4763825234 -0.702894609 4.93652e-05 -0.0002009117 0.0001772053 7.40755e-05 -0.4489334154 0.7185619016
500297000.0 0.4700766926 -0.7074529793 2.21561e-05 -4.1034e-06 4.54624e-05 9.83812e-05 -0.441712077 0.7233852303
505296970.0 0.4637190374 -0.7120646026 0.0001726844 3.95184e-05 -0.0001747034 -7.77832e-05 -0.4344938614 0.7268667592
510296940.0 0.4558199718 -0.7167941571 1.5588e-05 -8.7368e-05 -0.000110049 4.29324e-05 -0.4270365459 0.7314645862
515296910.0 0.4488629131 -0.7210647866 5.59767e-05 -1.87957e-05 -5.86608e-05 7.3698e-05 -0.4187057072 0.735996389
520296880.0 0.4416162309 -0.7252760749 5.56775e-05 9.04185e-05 -0.0001381013 -0.0001270357 -0.4120405488 0.739406067
525296850.0 0.434002692 -0.7298376424 8.25872e-05 0.0002121103 -4.05153e-05 -1.60754e-05 -0.4049658687 0.7440346643
530296820.0 0.4271227601 -0.7333018328 6.73562e-05 1.68618e-05 -7.51741e-05 -2.78538e-05 -0.3973871916 0.7479601202
535296790.0 0.4197571319 -0.7383778739 -0.0001042929 0.0001183915 3.66178e-05 8.37213e-05 -0.3901427081 0.7514378992
540296760.0 0.4119306358 -0.741841321 -0.0002073434 5.59306e-05 -2.76642e-05 -0.0003295325 -0.3814946243 0.7558469167
545296730.0 0.4049419668 -0.7458092153 -0.0002492097 7.32474e-05 6.38403e-05 -3.97494e-05 -0.3742347655 0.7591525338
550296700.0 0.3980974458 -0.7491185993 1.16787e-05 -4.22629e-05 -0.0001253069 8.90019e-05 -0.3666654741 0.7630813462
555296670.0 0.3903457692 -0.7534122688 -8.79378e-05 6.35496e-05 -0.0003085768 6.09751e-05 -0.3581582724 0.767193587
560296640.0 0.3821164076 -0.756799981 -0.0001010533 7.39342e-05 0.0001069515 -0.0001314479 -0.3506163699 0.7707629827
565296610.0 0.3750063224 -0.7607342758 -6.152e-06 0.0001230222 7.95322e-05 -7.61226e-05 -0.3430132024 0.7735479076
570296580.0 0.3673776664 -0.7641643492 5.02446e-05 -5.28553e-05 -5.04405e-05 0.0001560681 -0.3351989228 0.7777017181
575296550.0 0.3598104958 -0.7672268488 -5.15464e-05 8.71696e-05 5.93587e-05 -0.0001184102 -0.3274100853 0.7806911828
580296520.0 0.3522425213 -0.7712790744 -6.57082e-05 -5.78694e-05 -2.16e-05 0.0001057252 -0.3182388248 0.783922577
585296490.0 0.3439952286 -0.7754040507 -8.92338e-05 0.0001100133 -9.71079e-05 -9.97785e-05 -0.3109962912 0.787067486
590296460.0 0.3371638931 -0.7767695175 0.0001641871 -0.0001128189 2.97775e-05 -4.70413e-05 -0.3033826996 0.7901679015
595296430.0 0.3283885707 -0.7810847841 -0.0001599566 0.0001715864 -5.6717e-05 -1.18721e-05 -0.2954167899 0.793043515
600296400.0 0.3208893478 -0.7837678801 -6.01788e-05 -0.0002957723 2.0468e-06 -2.672e-05 -0.2867818822 0.7955615119
605296370.0 0.3133105436 -0.7869262836 0.000136944 -6.80574e-05 -0.0001731333 1.45979e-05 -0.2784947479 0.7986144275
610296340.0 0.3050212857 -0.7901132513 -8.34023e-05 -7.68864e-05 0.0001292587 -0.0001692474 -0.2704820088 0.8012330589
615296310.0 0.2979206228 -0.7931771193 -0.0002193801 -7.66156e-05 -8.80332e-05 5.3238e-05 -0.2625807487 0.8036058858
620296280.0 0.2893356429 -0.7954506811 -9.9126e-06 0.0002195747 0.0001025102 2.90434e-05 -0.2545052378 0.8066002173
625296250.0 0.281649961 -0.7986038631 -4.76573e-05 -7.26115e-05 3.68788e-05 -9.5501e-05 -0.2458772249 0.8087053445
630296220.0 0.2739659194 -0.8011891828 -0.0001062533 -0.0001949725 5.48952e-05 -5.25905e-05 -0.2376290303 0.8119424662
635296190.0 0.2664645035 -0.8038701148 -6.30845e-05 -3.6546e-06 -0.0001271737 -0.0001747874 -0.2300511108 0.8133498015
640296160.0 0.2574779857 -0.8063317448 5.48478e-05 6.55745e-05 -2.51692e-05 -5.79167e-05 -0.2217594688 0.815966957
645296130.0 0.2498077863 -0.8082666179 8.98024e-05 -6.25378e-05 0.0003807095 -7.564e-05 -0.2134434715 0.8182362708
650296100.0 0.2413575414 -0.8104864752 0.0001258633 -1.18132e-05 0.0001801779 0.0004029584 -0.2053098953 0.8196666176
655296070.0 0.2338928629 -0.8135999102 1.43967e-05 -0.0001265548 -2.9795e-05 0.0001973829 -0.1964401174 0.8218812084
660296040.0 0.2256614497 -0.8154188088 7.6733e-06 -0.0002508014 -0.0001674447 0.0001931193 -0.1885261602 0.8239346464
665296010.0 0.2178151389 -0.8173867016 -0.0001180014 -0.0001121927 -5.62992e-05 9.45494e-05 -0.1797356595 0.8262755669
670295980.0 0.2088459587 -0.8193749687 -0.0001566982 -3.76157e-05 -0.0001654391 0.0001417089 -0.1722560764 0.8277437152
675295950.0 0.2010775962 -0.8211448285 0.00014932 0.000136002 -2.53539e-05 0.0002323525 -0.1641711697 0.8296685389
680295920.0 0.1927271755 -0.8229880569 0.0001219259 -8.56598e-05 -0.0001014161 -4.59374e-05 -0.1557839239 0.831649423
685295890.0 0.1845306318 -0.824331904 -8.75754e-05 -0.0001006858 -5.48331e-05 9.65405e-05 -0.1467637383 0.8318397829
690295860.0 0.1763810463 -0.8262278796 -0.0001553264 -1.30745e-05 -4.46751e-05 2.7491e-05 -0.1392383066 0.8345877259
695295830.0 0.1679931672 -0.8276140108 0.0001537418 -7.97212e-05 0.0002948023 7.81046e-05 -0.1296543472 0.8353828405
700295800.0 0.1595942405 -0.8292230384 3.0275e-05 4.52034e-05 3.5416e-05 -0.000141181 -0.1226299993 0.8365009607
705295770.0 0.151413045 -0.8305055974 0.0001176549 0.0001627696 -0.00011059 6.36409e-05 -0.1141373407 0.8385983367
710295740.0 0.1424270287 -0.8318179436 0.0001949146 -0.000308422 -6.0535e-06 -3.11789e-05 -0.1057703763 0.8384098289
715295710.0 0.134697264 -0.8332251978 -2.91469e-05 -0.0001021121 1.10321e-05 8.1891e-06 -0.0965804086 0.8397169447
720295680.0 0.1269023506 -0.8347332193 -0.0001241257 3.44521e-05 0.0001022751 -8.7577e-05 -0.0886658115 0.8406353058
725295650.0 0.1181387183 -0.8347743048 6.36432e-05 -0.0001746278 -8.01162e-05 -1.3291e-05 -0.0799693578 0.8419922106
730295620.0 0.1094405487 -0.8358142945 -3.54582e-05 2.86489e-05 -5.79994e-05 -0.0001825671 -0.0723156662 0.8425140719
735295590.0 0.1013586665 -0.8368677662 0.0001369359 2.77573e-05 -0.0001305522 -6.56126e-05 -0.0636436094 0.8430905008
740295560.0 0.0923591171 -0.8375916982 -0.0001857923 -0.0001568929 5.582e-07 -0.0001525377 -0.0544832891 0.8436637871
745295530.0 0.0843348356 -0.8384359236 4.6171e-05 0.0001582415 0.000147489 -3.55729e-05 -0.0460764447 0.843760534
750295500.0 0.0758735382 -0.8392172615 -0.0003232468 0.0001002614 -5.2125e-06 -4.8188e-05 -0.038238774 0.8444496404
755295470.0 0.0675075913 -0.8398981531 1.664e-06 3.68444e-05 3.41507e-05 0.0001367686 -0.0296390491 0.8443145338
760295440.0 0.0590153575 -0.840158681 -0.0001461198 0.0001365959 2.4078e-05 0.000142679 -0.0209795446 0.8446278436
765295410.0 0.0513834833 -0.8411523917 5.82756e-05 -6.03234e-05 -1.245e-07 -5.75959e-05 -0.012683079 0.8452577684
770295380.0 0.0422200472 -0.8411921533 4.4166e-05 0.0001826489 8.53765e-05 0.0001882102 -0.004395562 0.8449746311
775295350.0 0.0332309005 -0.8416888432 -0.0001387152 -1.24478e-05 -1.98849e-05 -0.0001450981 0.0033258375 0.8448595431
780295320.0 0.0260247916 -0.841282669 7.05031e-05 -0.0001668081 -5.6845e-05 -0.0001916431 0.012013388 0.8445393007
785295290.0 0.017256232 -0.8423106804 4.73503e-05 0.0002969467 -0.0001175354 1.76224e-05 0.0210538061 0.8444894235
790295260.0 0.0086929295 -0.842227357 -0.0001010959 0.0001012776 1.56231e-05 0.0001257314 0.0297172988 0.8448917546
795295230.0 0.0003335777 -0.8411110647 0.0002505057 9.14951e-05 -0.0001385307 -8.20377e-05 0.0383214007 0.8437779263
800295200.0 -0.0079599638 -0.8413348244 0.0002411853 0.0002593507 -0.0001234988 -3.61957e-05 0.0466988124 0.8435329457
805295170.0 -0.0165886759 -0.840777239 0.0001826756 -3.42985e-05 8.58845e-05 0.0001881204 0.0544801187 0.8433201729
810295140.0 -0.0242661036 -0.8405256693 0.0001322936 -6.55662e-05 5.68093e-05 6.208e-06 0.0630264936 0.8425396387
815295110.0 -0.0332565749 -0.8407954497 5.48894e-05 -4.98024e-05 -7.57057e-05 -1.48141e-05 0.0718685063 0.8420683393
820295080.0 -0.0412323226 -0.8399108584 -2.2247e-06 -6.95279e-05 4.22047e-05 0.0001813784 0.0803968117 0.841130221
825295050.0 -0.0499455317 -0.8385194832 5.7688e-05 -0.0001437614 -5.0396e-05 0.0001069751 0.088215433 0.840148896
830295020.0 -0.058262709 -0.8381291893 4.4683e-05 0.0001351248 2.45941e-05 2.44317e-05 0.0974974388 0.8396816034
835294990.0 -0.0660787724 -0.8365521005 -0.0001285548 2.51933e-05 1.41792e-05 -9.83e-06 0.1049935918 0.8382942456
840294960.0 -0.0749003112 -0.8367804286 0.0003110744 -0.0001322602 8.94285e-05 -0.0001226015 0.1140421245 0.8371557994
845294930.0 -0.0830552259 -0.8352710609 -0.0002332031 -3.49194e-05 1.70032e-05 0.0001347247 0.121541196 0.835858866
