!Created with skrf (http://scikit-rf.org).
# Hz S RI R 50.0 
!freq ReS11 ImS11 ReS21 ImS21 ReS12 ImS12 ReS22 ImS22
300000.0 -0.0965955049 -0.0826205309 0.6226997345 0.0769658893 0.6245161295 0.0801874341 -0.0963127831 -0.0884855794
5299970.0 -0.100347864 0.0128017479 0.6305234282 0.0103137853 0.6307411592 0.0112009039 -0.1022112145 0.0120873993
10299940.0 -0.0953914487 0.0300149245 0.6345416852 0.0156577843 0.6345442155 0.0158096251 -0.0974272212 0.0288736058
15299910.0 -0.0885815688 0.0433258579 0.6400019378 0.02033589 0.6402873846 0.0208429082 -0.0901922885 0.0419268597
20299880.0 -0.0795045994 0.0543892952 0.64861468 0.0241537518 0.6488860058 0.0243479152 -0.0817427417 0.0534060002
25299850.0 -0.0695916522 0.0627166883 0.6577158846 0.0250040398 0.6582146057 0.0253797482 -0.072519996 0.0618395671
30299820.0 -0.0595780467 0.0691083531 0.6682345986 0.0248003454 0.6675165697 0.0246957794 -0.0628269847 0.0685715522
35299790.0 -0.0495597112 0.0742348375 0.6773907905 0.0213467867 0.6777922267 0.0220603869 -0.0524277675 0.0735300101
40299760.0 -0.0396399144 0.0770726342 0.6872107281 0.0179037884 0.6866380382 0.0173676295 -0.0435831674 0.0769338841
45299730.0 -0.0304796022 0.0795211609 0.6961088153 0.0116562687 0.6962080656 0.0119630847 -0.0341348352 0.079036129
50299700.0 -0.0218499536 0.0799336138 0.7035881296 0.0043221572 0.7040171287 0.0045840386 -0.0255253909 0.0801363313
55299670.0 -0.0142608216 0.0800047428 0.7104000822 -0.0027308144 0.7109772798 -0.0027279844 -0.0179410458 0.0796744056
60299640.0 -0.0067305861 0.0789058948 0.7173464096 -0.0116676018 0.7175465087 -0.0113222477 -0.0103342626 0.079588291
65299610.0 -0.0003519435 0.0779929132 0.7236112878 -0.0193865917 0.7239091684 -0.0200305274 -0.0035759715 0.0783053706
70299580.0 0.0059280726 0.0758439866 0.7285402208 -0.028945437 0.7285302313 -0.0290947272 0.0025509752 0.0771034547
75299550.0 0.0115960812 0.0744494341 0.7330163829 -0.0386931645 0.7329740227 -0.0389280479 0.0082340829 0.0757715494
80299520.0 0.0161573414 0.0720647096 0.7376382571 -0.0490738376 0.7381058811 -0.0493287113 0.0132983725 0.0728416965
85299490.0 0.0209572036 0.0694694193 0.7406369215 -0.0588439885 0.7406614062 -0.058836641 0.0175235623 0.0708555837
90299460.0 0.0244639566 0.0673300241 0.7431456375 -0.0687385871 0.7437275648 -0.0686514081 0.0219168254 0.0688068616
95299430.0 0.0280009797 0.0653079282 0.7460710876 -0.0791003634 0.7461268546 -0.0787437463 0.0252307504 0.0663783591
100299400.0 0.031499093 0.0628376566 0.7473923895 -0.0894596276 0.7474470375 -0.0895079437 0.0285442265 0.0641605148
105299370.0 0.0346692602 0.0602765278 0.7489160256 -0.0993624494 0.7494926275 -0.0992703046 0.0319651794 0.0619298748
110299340.0 0.0368924242 0.0578363508 0.7502594083 -0.1090796314 0.7500279526 -0.1098529781 0.0350810073 0.059283097
115299310.0 0.0393724967 0.0548855345 0.75080286 -0.1190266592 0.7511269106 -0.1188482486 0.0374314298 0.0560698254
120299280.0 0.0412269575 0.0528104366 0.7516461327 -0.1295724714 0.7513042529 -0.1296345176 0.0390266936 0.054035249
125299250.0 0.0430745327 0.050411431 0.7519403678 -0.139077815 0.7520681974 -0.1395192646 0.041093554 0.0510453389
130299220.0 0.04508384 0.0480107023 0.7521122314 -0.1490617795 0.7518376238 -0.1492396169 0.0430802971 0.0494007579
135299190.0 0.0466097628 0.0454921615 0.7516051307 -0.1586466712 0.7510432766 -0.1590050793 0.0447071921 0.0476282913
140299160.0 0.0476536671 0.0442141944 0.7506477818 -0.1689393162 0.7510493068 -0.1686329405 0.0461271276 0.0453202183
145299130.0 0.049353972 0.0418782923 0.7502897827 -0.1783327509 0.7501741488 -0.1782040204 0.0473967653 0.0428758506
150299100.0 0.0505236881 0.0397436809 0.7492357291 -0.188459813 0.7491892218 -0.1879205064 0.0490706442 0.040840397
155299070.0 0.0511518592 0.0384405292 0.7480784777 -0.1979367615 0.7476257449 -0.198030747 0.0495018306 0.0386668069
160299040.0 0.0523681786 0.035970125 0.7461496195 -0.2068260664 0.7463353765 -0.2073874509 0.0510332427 0.0372566214
165299010.0 0.052853043 0.0340609159 0.7450819621 -0.2170633827 0.7451822962 -0.2169183787 0.0517542328 0.0347399916
170298980.0 0.0534447744 0.0325397227 0.7423148103 -0.2263461249 0.7432495224 -0.2259972814 0.0526528125 0.0329241727
175298950.0 0.0543573614 0.03062846 0.741834133 -0.2348928622 0.7415724801 -0.2349201733 0.0532930045 0.0311557758
180298920.0 0.0553052395 0.0292413186 0.7392271256 -0.24481212 0.7389761646 -0.2443967921 0.0539672825 0.0298137066
185298890.0 0.0557861485 0.0272006068 0.7365738509 -0.2537827345 0.7368696338 -0.2536455083 0.0545428211 0.0276601276
190298860.0 0.0560933282 0.0257840286 0.7344991353 -0.2624655126 0.7348955487 -0.2626570433 0.0554935677 0.0261922476
195298830.0 0.0563620006 0.0240372081 0.7314601412 -0.2710884317 0.732134465 -0.2723238213 0.0558653526 0.0241401082
200298800.0 0.0569808805 0.0226699072 0.7293238373 -0.2801951647 0.729433704 -0.2802851321 0.0564138078 0.0232629168
205298770.0 0.057218747 0.0214995882 0.7269784189 -0.2897523248 0.7266056851 -0.2894714945 0.0568435986 0.0213136211
210298740.0 0.0571688722 0.019568196 0.7242079225 -0.2988942172 0.7239667411 -0.2988749315 0.0567531854 0.0200630853
215298710.0 0.0578620787 0.018769931 0.7210381759 -0.3070215833 0.7206629305 -0.306970399 0.0571102862 0.0185559806
220298680.0 0.0581581328 0.0172640498 0.7173692059 -0.3159204733 0.7176380682 -0.3154688734 0.0574498792 0.0174812775
225298650.0 0.0583566963 0.0162144082 0.7140251812 -0.3237952366 0.7142693913 -0.3240904123 0.0575663921 0.015862184
230298620.0 0.0581683181 0.0147564585 0.7113363436 -0.3328903186 0.7113069132 -0.332784007 0.0576068303 0.0144260876
235298590.0 0.0585599078 0.0132610984 0.7079236709 -0.3410529556 0.7077946822 -0.3416387543 0.0581777095 0.012825572
240298560.0 0.0582180576 0.0120722565 0.7044206863 -0.3491949948 0.7042205414 -0.348994879 0.0583598095 0.0118244833
245298530.0 0.0588295229 0.0113670628 0.6991788602 -0.3578831694 0.6999987001 -0.358078354 0.058608477 0.0110512443
250298500.0 0.0583835551 0.0099648556 0.6957412158 -0.3653923433 0.6964143199 -0.3659159307 0.0587183617 0.0091823377
255298470.0 0.058135156 0.0088224658 0.6922229565 -0.374424281 0.6926136462 -0.3742728265 0.0590728328 0.0078488683
260298440.0 0.0583653986 0.0079370667 0.6881212601 -0.3819960208 0.6884325097 -0.3824934403 0.059458691 0.0071793903
265298410.0 0.058924086 0.007298988 0.6844034415 -0.3904094159 0.6842132982 -0.3906061074 0.0586114128 0.005696417
270298380.0 0.0591791155 0.0057208242 0.6796827354 -0.3981893561 0.6804346123 -0.3984329451 0.0590519984 0.0051067919
275298350.0 0.0584008661 0.0048069692 0.6755093917 -0.4067399245 0.6760989225 -0.4069481455 0.0587447629 0.0037211664
280298320.0 0.0587633584 0.0039354714 0.6708839968 -0.4136449591 0.6708788773 -0.414139686 0.0594919569 0.0029729946
285298290.0 0.0588420729 0.0030204819 0.6663544082 -0.4215718447 0.6666194185 -0.4217836444 0.0587372564 0.0017172621
290298260.0 0.0586265682 0.0018995889 0.6623524332 -0.429497362 0.6623302777 -0.4300245993 0.0592907776 0.0008207434
295298230.0 0.0586947487 0.0008774178 0.6578074808 -0.4374026555 0.6578249712 -0.437353847 0.0597258537 -0.0001979912
300298200.0 0.0593539151 0.0002291289 0.6529666024 -0.445256704 0.6536259332 -0.4451674291 0.0591339067 -0.0010085755
305298170.0 0.0590322216 -0.0012504722 0.6486983794 -0.4527945713 0.6488170365 -0.4527944495 0.0596723701 -0.0022262204
310298140.0 0.0593561114 -0.0023808305 0.6439804851 -0.460577735 0.6437159433 -0.4612243667 0.0596220241 -0.0025882288
315298110.0 0.0587048706 -0.0033547858 0.6388004477 -0.4683277027 0.6386228107 -0.4684582383 0.0599962363 -0.0045017281
320298080.0 0.0587221365 -0.0043151493 0.6332623367 -0.4758317151 0.6335510547 -0.4755656036 0.0592557955 -0.0058317022
325298050.0 0.058302812 -0.0058742324 0.6284665414 -0.4830744262 0.6284827344 -0.4835663388 0.0588316949 -0.0069359432
330298020.0 0.0577691882 -0.0064282735 0.6214692226 -0.4902575749 0.622420355 -0.4907542403 0.0583960002 -0.0082419641
335297990.0 0.0577183554 -0.0076280264 0.6165602296 -0.4979273972 0.6167364717 -0.4980890339 0.0580906806 -0.0087478334
340297960.0 0.0567054432 -0.0077734157 0.6105549253 -0.5049718774 0.6110695843 -0.5040526929 0.0573696588 -0.0095987722
345297930.0 0.0563138237 -0.0083083893 0.6053258103 -0.5106518769 0.6049773237 -0.5112098162 0.0575845583 -0.0107799603
350297900.0 0.0566182861 -0.0093836315 0.599266261 -0.5177437003 0.5996961193 -0.5178447336 0.0568972739 -0.0106605564
355297870.0 0.0560671104 -0.0101118347 0.5934325275 -0.5243951374 0.5934912865 -0.52495017 0.05609217 -0.0112155122
360297840.0 0.0561972918 -0.0106044058 0.5877089948 -0.5310989676 0.5873668935 -0.5314290964 0.0565378847 -0.0116950948
365297810.0 0.0555792475 -0.0114588992 0.581615836 -0.5374123224 0.5819472588 -0.5378357788 0.0560513107 -0.0122777878
370297780.0 0.0557611235 -0.0122018862 0.5756394217 -0.5440765215 0.5760738196 -0.5445616491 0.0559487824 -0.0128517995
375297750.0 0.0552603199 -0.0122796162 0.5704343507 -0.5512025912 0.5698843242 -0.551167499 0.0556688996 -0.0134031528
380297720.0 0.0553286097 -0.0139122257 0.5638678664 -0.5566496267 0.5632702782 -0.5571776694 0.0551939746 -0.014241601
385297690.0 0.0548911857 -0.0141731384 0.5572484418 -0.5627919266 0.5574566932 -0.5631984209 0.0550927563 -0.0147449477
390297660.0 0.0541631832 -0.0148306661 0.5507865842 -0.5701400114 0.551393817 -0.5700305406 0.0545934005 -0.0158094559
395297630.0 0.0546147099 -0.0157567583 0.5451487074 -0.5753771745 0.5451689221 -0.5758795061 0.0543291521 -0.0157280825
400297600.0 0.0538804662 -0.0159471095 0.5385496009 -0.5823022425 0.5393326059 -0.5822231693 0.0533575598 -0.0167131959
405297570.0 0.0539528127 -0.0165260267 0.5323058448 -0.5879155616 0.5324498622 -0.5883047271 0.0537733261 -0.0169861318
410297540.0 0.0538069837 -0.0174487622 0.5252037395 -0.5936182177 0.5255496899 -0.5937596385 0.0530473137 -0.0180374545
415297510.0 0.0534013288 -0.0173345806 0.5195270119 -0.5990480867 0.519733211 -0.5996164158 0.0527408789 -0.0180898715
420297480.0 0.0529110968 -0.0188004452 0.5123436825 -0.6058808375 0.5125724417 -0.6058974328 0.0528726748 -0.0191843236
425297450.0 0.0533224192 -0.0197092276 0.5058356189 -0.6111720023 0.5065756461 -0.6106836926 0.0522554695 -0.0192058796
430297420.0 0.0526214724 -0.0197474432 0.4993841493 -0.6171689063 0.4994039262 -0.6170039758 0.0516960107 -0.0203185325
435297390.0 0.0524204544 -0.0208143278 0.4924504866 -0.6222299387 0.4923480598 -0.622108703 0.051158174 -0.0202749355
440297360.0 0.0521664696 -0.0216789575 0.4852785225 -0.6276838169 0.4850505268 -0.628122381 0.0510712236 -0.0214954507
445297330.0 0.0523504826 -0.0222026305 0.478245151 -0.6332830069 0.4787999966 -0.6334642022 0.0510410527 -0.0219539161
450297300.0 0.0518953461 -0.0225205233 0.4711817232 -0.6384182671 0.4717656667 -0.6386233223 0.050393521 -0.0221718489
455297270.0 0.0511706803 -0.0233466975 0.4644845919 -0.643041365 0.4654761974 -0.6437796379 0.0502607826 -0.0226038566
460297240.0 0.050493125 -0.0237675696 0.4571808201 -0.6483806201 0.4567990447 -0.6487954069 0.0496156673 -0.0223388682
465297210.0 0.0503954111 -0.0246131696 0.4508398154 -0.6536983428 0.450310903 -0.6544728906 0.0490203766 -0.0234790992
470297180.0 0.0498566235 -0.0251285682 0.443463455 -0.6585959767 0.4436916276 -0.6588295277 0.0481762105 -0.0242842805
475297150.0 0.0493353299 -0.0263110329 0.4356635085 -0.6631382851 0.4358921427 -0.6632500928 0.0483743339 -0.0246429222
480297120.0 0.0499856668 -0.0269897032 0.4282455353 -0.6680692862 0.4288212471 -0.6685919416 0.047754447 -0.0243768387
485297090.0 0.0493783042 -0.0273135296 0.421653769 -0.6729778707 0.4217529267 -0.6734419479 0.046951853 -0.0255249137
490297060.0 0.0491377822 -0.0280252219 0.4140230641 -0.677433928 0.4143535354 -0.6776675451 0.0468279159 -0.0254839168
495297030.0 0.0476849899 -0.0281369357 0.4060829342 -0.6822927456 0.4061308305 -0.6821292339 0.0466959106 -0.0264299819
500297000.0 0.0478848177 -0.0291316075 0.3988906952 -0.6862681535 0.3990774213 -0.6868438853 0.045388307 -0.0268109546
505296970.0 0.0470609696 -0.0296138573 0.3910536633 -0.6903720625 0.3912933793 -0.6908449559 0.0449824965 -0.0272301755
510296940.0 0.0468620623 -0.0298186093 0.3834884561 -0.6960316372 0.3839540507 -0.695620882 0.0452656698 -0.026988591
515296910.0 0.0463001541 -0.0305315253 0.3756539966 -0.6991213136 0.376191458 -0.6993614279 0.0439442813 -0.0278776917
520296880.0 0.0458089356 -0.0313158008 0.3680605558 -0.7034667852 0.3684271528 -0.7034182653 0.0441113126 -0.0282045166
525296850.0 0.0452406859 -0.0321510869 0.3609076589 -0.7079954026 0.3610138276 -0.707933379 0.0439025284 -0.02859974
530296820.0 0.0449771698 -0.0323758393 0.3532346349 -0.7106291623 0.3529529439 -0.7114228513 0.0427989432 -0.0295499072
535296790.0 0.0443443682 -0.0329826309 0.3447718295 -0.7147781742 0.3457699622 -0.7150302116 0.0427189181 -0.0301137342
540296760.0 0.0439252019 -0.0336606375 0.3378220887 -0.7192867406 0.3368251772 -0.7195834461 0.0415276828 -0.0301136082
545296730.0 0.0433559346 -0.0333839137 0.3290415898 -0.7224902729 0.3294931036 -0.7230499562 0.0411752326 -0.0307828843
550296700.0 0.042566641 -0.0343868399 0.3219365292 -0.7265889443 0.3218718809 -0.7266283174 0.0405688982 -0.0307096313
555296670.0 0.0425904196 -0.0351689177 0.3135241981 -0.7301548508 0.3135523003 -0.7299136127 0.0400571081 -0.0309040014
560296640.0 0.041605199 -0.0354403789 0.3051794011 -0.7333551914 0.3058683051 -0.7327940873 0.0396205333 -0.0313212409
565296610.0 0.0406482861 -0.0360620499 0.29714932 -0.7367977948 0.2970907591 -0.7367497259 0.0390142662 -0.0323969302
570296580.0 0.0411510892 -0.0366004195 0.2896889857 -0.7392832685 0.2897255274 -0.7400602172 0.038898187 -0.0316968676
575296550.0 0.0403462566 -0.0361080237 0.2817232367 -0.7426728613 0.2816161847 -0.7425726881 0.038367179 -0.0327089657
580296520.0 0.039580862 -0.0371908576 0.2735219155 -0.746204318 0.2730594952 -0.7465124811 0.0375854171 -0.0331484436
585296490.0 0.0395710174 -0.037946417 0.2658943532 -0.7487125372 0.2653171397 -0.7488815617 0.0371518717 -0.0338481836
590296460.0 0.0379346425 -0.0386436262 0.2569311773 -0.7520472551 0.2565901514 -0.7519314224 0.0367769041 -0.0334743923
595296430.0 0.0376000596 -0.0383118379 0.2488993628 -0.7546262247 0.248948376 -0.7551272699 0.0365183757 -0.0340185287
600296400.0 0.0369287727 -0.0386707655 0.2407071958 -0.7573246701 0.2405160118 -0.7571709966 0.0356850694 -0.0340081114
605296370.0 0.0369199283 -0.0386239181 0.2322606192 -0.7599781539 0.2323031284 -0.7596677616 0.0347593944 -0.0347754935
610296340.0 0.0358534696 -0.0394447223 0.2243633354 -0.7622607171 0.22458741 -0.7625180136 0.0343777822 -0.0343669564
615296310.0 0.0354973872 -0.0395606123 0.2155008618 -0.7643675734 0.2154938265 -0.7648006433 0.0342710562 -0.0351830698
620296280.0 0.0346511393 -0.0401738632 0.2070736873 -0.7669080207 0.2073902718 -0.7672935428 0.0336475641 -0.0354955585
625296250.0 0.0347021534 -0.0405111607 0.1986961612 -0.7696483092 0.1987987738 -0.769331124 0.0327348754 -0.0353720254
630296220.0 0.0337017222 -0.0406182803 0.1898476821 -0.7716614348 0.1905563762 -0.7710111411 0.0318016754 -0.0360372344
635296190.0 0.033295761 -0.0409843865 0.1820385601 -0.7730298075 0.1823435499 -0.773063275 0.0316828862 -0.0362234436
640296160.0 0.0325084602 -0.0409702182 0.1737942049 -0.7754296267 0.1736451981 -0.7755333178 0.031605354 -0.0365060677
645296130.0 0.0321722108 -0.0410495054 0.1655135115 -0.7774886952 0.1651591614 -0.777208689 0.0297150881 -0.03734569
650296100.0 0.0309314324 -0.0410974969 0.1569350381 -0.7785260469 0.1572261047 -0.7789027681 0.030093687 -0.0375715051
655296070.0 0.0304946126 -0.0420359055 0.1483311926 -0.7807284577 0.1480161358 -0.7802786513 0.0296211718 -0.0370071999
660296040.0 0.0293987361 -0.0416922144 0.1400461956 -0.7814615441 0.1398969976 -0.7815125461 0.0286691555 -0.0378987741
665296010.0 0.029598965 -0.0425546968 0.1316571504 -0.7830293091 0.1317269425 -0.7837932522 0.0279208142 -0.0374152303
670295980.0 0.0291764731 -0.0424695662 0.123041562 -0.7847666201 0.1228083682 -0.785016929 0.0271416301 -0.0383229119
675295950.0 0.0287859033 -0.0426077009 0.1141149154 -0.7861235596 0.114446024 -0.786802871 0.0271978589 -0.0379680785
680295920.0 0.0275752694 -0.0425469272 0.1053417637 -0.7873696355 0.1055409727 -0.787426954 0.0265055967 -0.0385376766
685295890.0 0.0268927258 -0.0430899784 0.0972372066 -0.7883715355 0.0964118422 -0.7885603836 0.0262174499 -0.0383894949
690295860.0 0.0266589647 -0.0430919136 0.0885347435 -0.7886598935 0.0882600301 -0.7892478163 0.0258118801 -0.0381599573
695295830.0 0.0264993912 -0.0435926911 0.078796042 -0.7905614036 0.0789615686 -0.7905688676 0.0243235637 -0.0386784108
700295800.0 0.0258435509 -0.0436731005 0.0705469789 -0.7910013549 0.0706671946 -0.79133324 0.0238014866 -0.0392159633
705295770.0 0.0250093816 -0.0437097399 0.0622994347 -0.7917046883 0.0625896571 -0.7916031665 0.0229342327 -0.0389333965
710295740.0 0.0241206196 -0.0436209479 0.0537732394 -0.7918838275 0.0536144725 -0.7923055989 0.0218442113 -0.0389125011
715295710.0 0.0236486475 -0.044140084 0.0449357445 -0.7931981031 0.0455667593 -0.7929911578 0.0219194703 -0.0398807347
720295680.0 0.0228571535 -0.0442965387 0.0366482424 -0.792865104 0.036546871 -0.7937542123 0.0216526522 -0.0394215478
725295650.0 0.0226151595 -0.0443022026 0.0272357278 -0.7932465777 0.0271853995 -0.7937037499 0.0210963409 -0.0391909581
730295620.0 0.0213850772 -0.0445983655 0.0191782099 -0.7939116776 0.0193514881 -0.7941065449 0.0207678458 -0.0404920238
735295590.0 0.0211921011 -0.0445864731 0.0115085232 -0.7938763279 0.010751884 -0.7943264012 0.0196189157 -0.0395179696
740295560.0 0.0203681056 -0.0442952241 0.0017160022 -0.7937175171 0.0022227046 -0.7935727446 0.019714838 -0.0401189511
745295530.0 0.0200448982 -0.0448957796 -0.0064164698 -0.7943204681 -0.0061632463 -0.7943555289 0.0183201068 -0.0397627232
750295500.0 0.0192320415 -0.0448673315 -0.015152615 -0.7938115951 -0.015379574 -0.7932483801 0.0187087389 -0.0404134873
755295470.0 0.0190038665 -0.0447254353 -0.0234751835 -0.7939162558 -0.0235492324 -0.7940288752 0.0169758296 -0.0400901535
760295440.0 0.0179167508 -0.0443340919 -0.0327578601 -0.7930774097 -0.0325908406 -0.7935386216 0.0159773758 -0.0405610323
765295410.0 0.0170530961 -0.0451380124 -0.0407060731 -0.7925804217 -0.0406406202 -0.7932338128 0.0168608565 -0.0396890345
770295380.0 0.0169864311 -0.0447470423 -0.0500315975 -0.7922357105 -0.0496651015 -0.7930349236 0.0162611107 -0.0401169992
775295350.0 0.0161369469 -0.0445963201 -0.0578764751 -0.7912614068 -0.0580600483 -0.7919844094 0.0147094803 -0.0408463594
780295320.0 0.015612308 -0.0448692878 -0.0665169088 -0.7911319333 -0.0661146231 -0.7909799424 0.0147367371 -0.0398405954
785295290.0 0.014721683 -0.0444906906 -0.0755909666 -0.7894090755 -0.0755759331 -0.7902722332 0.0133920567 -0.0402873322
790295260.0 0.0142003297 -0.0447027498 -0.0837712584 -0.7897550318 -0.0837474913 -0.7900851945 0.0132754008 -0.0399313864
795295230.0 0.0133583861 -0.0447333402 -0.0922079873 -0.7881665952 -0.0922365336 -0.7884344964 0.012751147 -0.0395015008
800295200.0 0.0129922702 -0.0444676961 -0.1016722891 -0.7878790739 -0.101630432 -0.7878144671 0.0121426629 -0.0397373552
805295170.0 0.011533524 -0.0447842746 -0.1095777022 -0.7858888194 -0.1099558113 -0.78620032 0.0108435251 -0.0403076333
810295140.0 0.0115432668 -0.0446328649 -0.117799454 -0.7850757425 -0.1175640528 -0.7856977586 0.0109437361 -0.0396956234
815295110.0 0.0109490769 -0.0444140235 -0.1268342992 -0.7829896237 -0.1272687193 -0.7840646105 0.0097281351 -0.0403766394
820295080.0 0.0101650113 -0.0448422601 -0.1350148266 -0.7819336977 -0.1351230034 -0.7826504975 0.009120504 -0.0398478813
825295050.0 0.0095529433 -0.0448103531 -0.1435558864 -0.7794675998 -0.1435158756 -0.7805884648 0.0091627509 -0.0395670679
830295020.0 0.0090259891 -0.0439063291 -0.1524109204 -0.7787767395 -0.1530184574 -0.7793750617 0.0081379738 -0.0399127517
