!Created with skrf (http://scikit-rf.org).
# Hz S RI R 50.0 
!freq ReS11 ImS11 ReS21 ImS21 ReS12 ImS12 ReS22 ImS22
300000.0 -0.0435289157 -0.0716801176 -0.0018534504 0.0017460302 -0.0003793059 -0.0001142081 -0.7610256054 -0.1992811804
5299970.0 -0.045823061 0.0143380424 0.0002235995 0.0001202183 -0.0001292927 -0.0001779265 -0.7849557397 -0.009424193
10299940.0 -0.0403841808 0.0328295598 -0.000148618 -1.42181e-05 0.0002011059 9.29847e-05 -0.7873449475 -0.0053512322
15299910.0 -0.0315879001 0.0472879949 1.5437e-06 0.0002514827 -7.70216e-05 -0.0001580617 -0.7923613124 -0.0026122922
20299880.0 -0.0215441539 0.0592787133 -6.5464e-05 2.77546e-05 8.89696e-05 -0.0002318621 -0.7991279441 0.0017084612
25299850.0 -0.0102488331 0.0688395055 -7.4076e-06 1.69973e-05 -0.0001460734 3.72937e-05 -0.8057460646 0.0079875199
30299820.0 0.0016035931 0.0756916449 9.39009e-05 1.2639e-06 -0.0001318433 2.3391e-05 -0.8112195728 0.0157991938
35299790.0 0.0130845234 0.0803866087 0.0001119971 3.07956e-05 -8.78524e-05 5.08888e-05 -0.8168536912 0.0246180405
40299760.0 0.0246529509 0.0832971697 -0.0001400867 9.30904e-05 7.8706e-05 -2.2135e-05 -0.8210780147 0.034420959
45299730.0 0.0350625831 0.0841927441 1.62423e-05 9.23091e-05 -8.77129e-05 -0.0001331675 -0.8241062623 0.0438530763
50299700.0 0.0455960814 0.0843896047 -9.79806e-05 3.84237e-05 7.187e-05 -5.18887e-05 -0.82636746 0.0538412558
55299670.0 0.0550072338 0.0834400179 0.0001418687 6.34148e-05 -2.66904e-05 -7.39478e-05 -0.82826894 0.0640020076
60299640.0 0.0635526466 0.0814604312 0.0003265227 2.67287e-05 -8.961e-07 7.63568e-05 -0.8294855751 0.0736559172
65299610.0 0.0717008582 0.0791097962 -0.0001596704 -7.5528e-06 8.6666e-06 4.41113e-05 -0.8305079329 0.0836509844
70299580.0 0.0780745235 0.0762896968 -4.7848e-06 -8.7624e-05 -0.0001108276 1.33196e-05 -0.830809658 0.09354607
75299550.0 0.084686247 0.0731925845 -6.41497e-05 5.07238e-05 -8.23001e-05 1.95096e-05 -0.8302906382 0.1040077653
80299520.0 0.0904909314 0.0693327248 6.40394e-05 0.0002018544 3.05881e-05 0.0001761979 -0.8305247061 0.114062324
85299490.0 0.0956829181 0.0657395531 0.000250149 5.59396e-05 -6.50639e-05 -8.16929e-05 -0.8298409761 0.123154274
90299460.0 0.1006512578 0.0620345294 -0.0001175696 2.915e-07 -7.33214e-05 0.0001742028 -0.8288299499 0.1328352936
95299430.0 0.1044953268 0.0581663635 5.64889e-05 0.0001585728 5.99185e-05 -2.16021e-05 -0.8278901017 0.1424147608
100299400.0 0.108326119 0.0542446909 -2.8622e-05 3.29415e-05 4.6373e-05 -7.52287e-05 -0.8271131937 0.1517086752
105299370.0 0.1115858975 0.0502081893 -4.68936e-05 -0.0001825536 -7.49923e-05 0.0001514854 -0.8253360982 0.1606386397
110299340.0 0.1147544685 0.0464019516 4.39148e-05 -1.32436e-05 4.51975e-05 -8.43576e-05 -0.8240020509 0.1695681515
115299310.0 0.1168539982 0.0427551982 6.64879e-05 8.46023e-05 5.3481e-05 0.0001100173 -0.8232179396 0.1790851745
120299280.0 0.1194468902 0.0389084062 9.70373e-05 0.0001247075 0.0001187048 6.57782e-05 -0.8207870538 0.1880663555
125299250.0 0.1213389274 0.0350949075 0.0001056571 -0.000245016 -9.46378e-05 -3.00074e-05 -0.8194214148 0.1967389174
130299220.0 0.1231018838 0.031227746 7.56054e-05 -5.27943e-05 0.0001726286 0.0001106158 -0.8174821821 0.205939162
135299190.0 0.1248358486 0.0278022509 8.99261e-05 0.0001017408 0.0001159692 -6.92e-05 -0.8157186387 0.2149098282
140299160.0 0.1260959582 0.0243932476 8.57593e-05 0.0002267309 -5.16e-06 3.23915e-05 -0.8136777938 0.2236528567
145299130.0 0.1271715075 0.0212363417 4.04062e-05 0.0001456657 0.0001156024 -3.97507e-05 -0.8115715632 0.2323082715
150299100.0 0.1282474771 0.0175658529 9.66312e-05 0.0001286242 -5.18256e-05 -4.26035e-05 -0.8093918158 0.241208914
155299070.0 0.1293812473 0.0146876669 1.97336e-05 4.01569e-05 -0.0001350748 0.0001958488 -0.8066563257 0.2504470238
160299040.0 0.1300078803 0.0113930034 -8.71783e-05 -0.0001434025 0.0002928391 0.0002097975 -0.8040295669 0.2590857921
165299010.0 0.1306583516 0.0086518247 -6.04364e-05 4.19384e-05 -3.85926e-05 -7.48009e-05 -0.8013339991 0.2673098322
170298980.0 0.1310658959 0.0055002411 5.20782e-05 0.0001311151 -7.78654e-05 6.0472e-05 -0.7992673098 0.2755647819
175298950.0 0.1315088902 0.0023587165 8.3874e-06 6.43302e-05 0.0001345185 0.0002170595 -0.7962529335 0.284709293
180298920.0 0.1315170508 -0.0005391408 -7.44258e-05 8.38217e-05 0.0002007769 8.53945e-05 -0.7930022699 0.2934112433
185298890.0 0.1316069585 -0.0032411061 -4.4501e-05 3.3961e-06 6.61642e-05 -1.89769e-05 -0.7900972804 0.3016003543
190298860.0 0.1320114756 -0.0058386157 8.23633e-05 7.06632e-05 3.06939e-05 0.00018561 -0.7866598604 0.3100926053
195298830.0 0.131957689 -0.0084134867 0.000220878 0.0001728025 5.62312e-05 0.0001538998 -0.7836986147 0.3184707902
200298800.0 0.1321761574 -0.0113494215 5.16147e-05 0.0001160386 3.03791e-05 0.0001722461 -0.780499733 0.3265513712
205298770.0 0.1315231453 -0.0135124185 -7.62915e-05 0.0001110494 8.97019e-05 -1.19577e-05 -0.7772189543 0.3353168142
210298740.0 0.131744709 -0.0161542027 0.0001020043 6.48819e-05 0.0002674847 0.0002471237 -0.7739710031 0.3435935094
215298710.0 0.1311327828 -0.0185268561 -6.413e-07 0.0002629271 0.0002359809 8.63124e-05 -0.7701394983 0.3513442337
220298680.0 0.1310070184 -0.0208677582 6.59844e-05 0.000244491 -5.4208e-06 0.0001098154 -0.7664851665 0.3594173247
225298650.0 0.1306899926 -0.0230670665 3.09645e-05 0.000277894 -2.39702e-05 0.0001198722 -0.7628958415 0.3677339561
230298620.0 0.1299566924 -0.0252322862 -0.0001466846 -6.23813e-05 1.33323e-05 5.68257e-05 -0.7588581783 0.375537342
235298590.0 0.1297913976 -0.0276815879 -5.36797e-05 0.0001064744 0.0001422723 0.0001057321 -0.7549037087 0.3835935037
240298560.0 0.1289753331 -0.0296558177 0.0001237176 3.69318e-05 0.0002071495 0.000161028 -0.7506044498 0.3910737241
245298530.0 0.128535373 -0.032100443 7.78337e-05 -0.0001079698 0.000167802 0.0001768118 -0.7472103334 0.3987718194
250298500.0 0.1279087684 -0.0338613301 0.0001844152 -0.0001463257 -0.0001021995 0.0003880891 -0.7424303068 0.4066466084
255298470.0 0.1272445958 -0.0356882798 0.0001414242 -0.0001095832 -9.91409e-05 8.01099e-05 -0.7384608347 0.4146770114
260298440.0 0.1266884277 -0.0380587417 -1.65959e-05 0.0001835407 3.88249e-05 0.0001557026 -0.7335539265 0.4218821101
265298410.0 0.1259087759 -0.0399641094 0.0001862278 0.0001008865 9.51657e-05 5.44584e-05 -0.7300305134 0.4303697294
270298380.0 0.1250540832 -0.0417514204 9.29661e-05 -5.66189e-05 0.0002832408 6.64221e-05 -0.724975618 0.4380309454
275298350.0 0.1243322566 -0.0435747931 1.09186e-05 0.0001711728 -1.48559e-05 0.0001249835 -0.7203123023 0.4450607386
280298320.0 0.123643798 -0.0453496978 8.34745e-05 0.0001727156 0.000213558 9.55786e-05 -0.7157959102 0.452974463
285298290.0 0.1228724405 -0.0470195221 1.27044e-05 1.29841e-05 0.0001627004 1.99892e-05 -0.7118788784 0.4609823039
290298260.0 0.1219998423 -0.0489363742 -2.99588e-05 -3.86333e-05 0.0002789955 0.0001907446 -0.7063967037 0.4676399899
295298230.0 0.1210240282 -0.0509057108 0.0001390734 0.00027342 0.0002276227 -2.93629e-05 -0.7013361132 0.4746108719
300298200.0 0.1201503057 -0.0525768402 0.0003061464 0.0003654102 3.40509e-05 0.0001179089 -0.6962708009 0.4826246968
305298170.0 0.1197058629 -0.0545880591 0.0001277671 0.0001254656 7.79209e-05 0.0001724349 -0.6916319086 0.4889039922
310298140.0 0.1183189973 -0.0566821687 0.000258436 7.42281e-05 3.26984e-05 0.0003167767 -0.6857434046 0.4971217899
315298110.0 0.1173513059 -0.0581929254 0.0001562666 0.0002151556 0.0001626323 0.000130885 -0.6813610743 0.5041236771
320298080.0 0.1163426967 -0.059998031 9.34117e-05 0.0002245917 0.0001725289 -1.88571e-05 -0.6762871107 0.5105601353
325298050.0 0.1147149354 -0.0622337607 0.0003154052 0.00034408 0.0001134754 2.10562e-05 -0.6699963276 0.5176385495
330298020.0 0.1134543125 -0.0633977459 0.000243156 0.0003247997 8.46398e-05 0.0001653124 -0.6647739741 0.5245630057
335297990.0 0.1122165839 -0.0648562539 -1.18509e-05 1.4801e-05 0.0001135292 4.00636e-05 -0.6591101998 0.5320551891
340297960.0 0.1107971081 -0.0660246961 0.0002412027 0.0001445214 0.0002355457 6.19223e-05 -0.6543087913 0.5383810864
345297930.0 0.1098652334 -0.0675301061 0.0001449333 7.73538e-05 0.0001477881 4.8142e-05 -0.6486542443 0.5451224971
350297900.0 0.1084420521 -0.069048 7.183e-05 0.0001915434 0.0001209325 0.0001120207 -0.6434455735 0.5516312165
355297870.0 0.1072385727 -0.0702230624 -4.26719e-05 -0.0001395626 2.12052e-05 9.7147e-05 -0.6365782868 0.5587556005
360297840.0 0.106159927 -0.0717651714 0.0001561427 0.000132691 0.0002110513 0.0001959977 -0.6307395601 0.5651762189
365297810.0 0.1051872955 -0.0731475973 0.0001133333 0.0001919574 0.0002192313 0.0001381442 -0.6259032086 0.5710009329
370297780.0 0.1039170423 -0.0746342448 0.0001528801 -4.65232e-05 0.0001490011 0.0003319904 -0.6197412553 0.57790938
375297750.0 0.1026221415 -0.0758369983 0.0001818049 0.0001967356 5.50795e-05 5.13045e-05 -0.6133380754 0.5837055176
380297720.0 0.1012331829 -0.0766945354 0.0001319538 0.0002549422 5.80538e-05 0.0002059802 -0.6065592183 0.5904157231
385297690.0 0.100124031 -0.0781669437 0.000375953 -3.50698e-05 0.0001590744 2.92037e-05 -0.6013023748 0.5966823136
390297660.0 0.0988947483 -0.079711798 0.000230557 0.0001230571 8.4753e-05 -1.13821e-05 -0.5946108931 0.6025606946
395297630.0 0.0979887433 -0.0804772992 0.0001048028 1.63825e-05 0.0002253031 2.15344e-05 -0.5879305327 0.6077063302
400297600.0 0.0962902964 -0.081867111 0.0001871548 0.0002900966 6.97523e-05 0.0002106476 -0.5825253762 0.6144086762
405297570.0 0.0950807394 -0.083222673 0.0001803875 0.0001441699 0.0004277818 0.0001928143 -0.5751829681 0.6202103048
410297540.0 0.0943309691 -0.0841412006 0.0001537398 7.8955e-05 0.0001553721 0.0002828286 -0.5693346094 0.6265254602
415297510.0 0.092708515 -0.0854879266 0.0001166214 0.0001444314 0.0004362329 8.92521e-05 -0.563037105 0.6315174486
420297480.0 0.0914280797 -0.0869046559 7.63756e-05 -8.91275e-05 0.0001582155 0.0001936352 -0.5560646982 0.6384802387
425297450.0 0.0903410518 -0.0878264686 0.0002159023 -2.16984e-05 0.0002560101 -9.00656e-05 -0.5496912047 0.6427737181
430297420.0 0.0890949771 -0.0888809887 0.0001376846 4.68826e-05 0.000250672 0.0002605174 -0.5429026013 0.6487962043
435297390.0 0.0875386962 -0.0898627725 8.73521e-05 0.0001952284 0.0003477713 0.0002738117 -0.5367086116 0.6541298527
440297360.0 0.0864395084 -0.0910658826 0.0001054823 -4.00325e-05 0.000229339 7.06722e-05 -0.5303817029 0.6597666362
445297330.0 0.085305398 -0.0919937915 0.0001748043 6.20361e-05 0.0002835243 -4.48493e-05 -0.5230093446 0.665001855
450297300.0 0.0839143435 -0.0931613062 4.40217e-05 7.56314e-05 0.0004700054 0.0002509197 -0.5155395119 0.6698951268
455297270.0 0.0825253639 -0.0942919677 3.11149e-05 0.000169333 0.0001113429 0.0001033206 -0.5095523819 0.6753814496
460297240.0 0.0815375632 -0.0950157168 0.0001508686 0.0001981037 0.0002013151 0.0001504179 -0.5023311048 0.6802946493
465297210.0 0.0801773961 -0.0957394914 0.0002263088 -9.76491e-05 0.0002506065 7.56477e-05 -0.4949453784 0.6861421072
470297180.0 0.0788493749 -0.0965675609 0.0001795373 0.0001204012 0.0003334973 0.0001349175 -0.4879504024 0.6901798013
475297150.0 0.077258711 -0.0975961473 0.0001715561 0.0001832742 0.0002683752 0.0002461652 -0.4810812164 0.6956145161
480297120.0 0.0762394806 -0.0987521125 0.0001742729 0.0002556576 7.7944e-06 4.41118e-05 -0.4742471536 0.6999716462
485297090.0 0.0749516231 -0.0995705039 0.0001143265 5.84233e-05 0.0002623913 8.61377e-05 -0.46666339 0.7052791758
490297060.0 0.0739394114 -0.1004549276 0.0003420286 -2.62866e-05 0.0002345161 0.0001194084 -0.4592702873 0.709204197
495297030.0 0.0724185719 -0.1012788071 0.0002152758 0.0002685409 0.0001702477 1.0675e-05 -0.4526193018 0.713527367
500297000.0 0.0710607439 -0.1018728115 0.0002179121 0.0002003366 0.0003803948 7.9824e-05 -0.4452411677 0.7182960077
505296970.0 0.0697852805 -0.1026742171 0.0002556367 -6.89979e-05 0.0001975587 0.0001509517 -0.4372286347 0.7231428322
510296940.0 0.0685968254 -0.1032895685 0.000154281 8.67559e-05 0.0002358585 0.0002896694 -0.4298017445 0.7278504097
515296910.0 0.067076086 -0.1039778555 0.000289436 5.91518e-05 0.0002802314 4.32452e-05 -0.423199214 0.7313367548
520296880.0 0.0659829681 -0.1048155971 0.0004379867 -6.78048e-05 0.0003717671 7.71315e-05 -0.4156250052 0.7362775816
525296850.0 0.0644393352 -0.105693317 0.0003515316 0.0001449517 0.0002840628 0.0001974043 -0.4083168378 0.7396904198
530296820.0 0.0631160361 -0.1061492954 0.0002413207 7.59551e-05 0.0003604556 0.0001780863 -0.4003715682 0.7437032705
535296790.0 0.0622049855 -0.1066760112 6.99201e-05 2.66298e-05 0.000434077 5.1233e-05 -0.3931813859 0.7477797166
540296760.0 0.0607576124 -0.107405307 0.0003265047 0.0001881916 0.0003293305 0.0002820742 -0.3852988647 0.7515632365
545296730.0 0.0590890686 -0.1078003123 0.0003524931 8.19882e-05 0.0002635593 8.23004e-05 -0.3775854253 0.7554818758
550296700.0 0.0578871683 -0.1082401092 0.0003068366 -8.30298e-05 0.0001834971 3.55926e-05 -0.3701629626 0.7588916772
555296670.0 0.0566063037 -0.1087955663 0.0003877425 4.29289e-05 0.0002432912 -3.86355e-05 -0.3625403388 0.7622183324
560296640.0 0.055522508 -0.1094939254 0.0004139796 -2.67156e-05 0.0002370189 -2.83973e-05 -0.3544652184 0.7666398993
565296610.0 0.0536932681 -0.1098723546 0.0002786954 6.9568e-06 4.23849e-05 0.000148765 -0.3469016183 0.7698367643
570296580.0 0.0523142981 -0.1101406754 0.0004084749 8.9336e-06 0.0002769379 0.0001040076 -0.3393087119 0.772824154
575296550.0 0.0512726229 -0.1106931778 0.0002323971 0.0002128815 0.0001681116 0.0001652109 -0.3309396104 0.7760415263
580296520.0 0.0496268589 -0.1107737766 0.0003144574 2.46178e-05 0.0002308799 6.39485e-05 -0.3231480304 0.7797744184
585296490.0 0.0487203575 -0.1110370537 0.0003731294 0.0002243609 0.0002133966 -6.6657e-05 -0.315395785 0.7836644096
590296460.0 0.0471379246 -0.1113908 0.0003863415 2.04102e-05 0.0002909946 0.0001138568 -0.3076894972 0.7857544244
595296430.0 0.0454776222 -0.1117858334 0.000366125 5.31307e-05 0.0001312494 0.0001647395 -0.2997847509 0.7894027761
600296400.0 0.044211919 -0.1121339835 0.0002838746 0.0003036725 0.0003852399 0.0002847595 -0.2923379326 0.7921838059
605296370.0 0.042584116 -0.1122297095 0.0004221325 2.99831e-05 0.0002469063 -6.70783e-05 -0.2838605318 0.7953810065
610296340.0 0.0415793544 -0.1126327568 0.0002099034 -4.11948e-05 0.0002613829 8.65142e-05 -0.2758074918 0.7978026334
615296310.0 0.0404033681 -0.113066358 0.0001075752 -9.69789e-05 0.0001839228 9.63965e-05 -0.267409895 0.8003478213
620296280.0 0.0388076671 -0.1125885566 0.0004669893 0.0002125729 0.0003385411 0.0001827063 -0.2598960655 0.8029475391
625296250.0 0.0371392315 -0.112980618 0.000350018 0.000219837 0.0005415017 2.47822e-05 -0.2516747324 0.8052344786
630296220.0 0.0358292013 -0.11293422 0.0002805021 0.0001432275 0.0002876302 -8.2207e-06 -0.2435533633 0.8081686262
635296190.0 0.0342704618 -0.1130537461 0.0002991186 2.02144e-05 0.0002402628 0.0001320543 -0.235252683 0.8099930584
640296160.0 0.033064633 -0.1132050192 9.36451e-05 0.0002152729 0.0004044251 -6.64866e-05 -0.2270167 0.8126969637
645296130.0 0.0318877231 -0.1134165692 0.0001338721 3.17923e-05 0.0004797503 0.0001068123 -0.2195084713 0.8142643432
650296100.0 0.0300543406 -0.1134573023 0.000224873 5.69409e-05 0.0003257264 -5.82682e-05 -0.2106301988 0.816880376
655296070.0 0.0289636926 -0.1133581041 0.0004673868 0.0001044145 0.0003599276 -2.32808e-05 -0.2033810433 0.8191104091
660296040.0 0.027393596 -0.11326465 0.0002664778 4.56102e-05 0.0005844078 4.08698e-05 -0.1942382656 0.8204326509
665296010.0 0.0260351108 -0.1132809125 0.0006397766 6.84756e-05 0.0002772893 -1.91201e-05 -0.1864416013 0.8226846246
670295980.0 0.024432831 -0.1134746497 0.0002921575 0.000132073 0.0001726865 -1.78289e-05 -0.1784423477 0.8248140921
675295950.0 0.0229655077 -0.1132141747 0.0002454275 0.0002298079 0.0004559273 -0.0001000262 -0.1697560528 0.8264419364
680295920.0 0.0213006899 -0.1131579285 0.0003937906 3.59242e-05 0.0004164761 0.0001589414 -0.1615783436 0.8280826666
685295890.0 0.0199072037 -0.1129357203 0.0003664659 4.25892e-05 0.0002102737 0.0001098479 -0.1534516677 0.8298281894
690295860.0 0.0184294175 -0.1128336555 0.0003442374 -0.0001367966 0.0003425063 3.91042e-05 -0.1448782051 0.8308192822
695295830.0 0.0169342398 -0.1126355435 0.0004463774 -0.0001807637 0.000522451 0.0001216978 -0.1371908332 0.8328090932
700295800.0 0.0156516507 -0.1126165736 0.0004680571 -0.0001247371 0.0003715157 -7.35838e-05 -0.1284916073 0.8335745393
705295770.0 0.0140219706 -0.1123430743 0.0003116384 -0.0001242404 0.0002651735 1.77436e-05 -0.120302009 0.8354778129
710295740.0 0.0126351994 -0.1123336965 0.0002948445 0.0001102005 0.0003010793 0.0001017746 -0.1118913146 0.8361313129
715295710.0 0.011436514 -0.1118681555 0.000420722 -2.38174e-05 0.000346607 2.96962e-05 -0.1032460659 0.836660719
720295680.0 0.009691671 -0.1121059684 0.0004450606 -1.681e-06 0.0002227013 6.11695e-05 -0.0948511996 0.838068284
725295650.0 0.0082849938 -0.1114397876 0.0005046882 -0.0001029736 0.0002990235 1.81085e-05 -0.0871433881 0.8393483838
730295620.0 0.0064553796 -0.1115070148 0.0002477071 -0.0001349323 0.0002852987 5.62887e-05 -0.0785913359 0.840289457
735295590.0 0.005243375 -0.1109442079 0.0003948324 -0.0001152845 0.000299811 0.0002143985 -0.0698121035 0.8405613516
740295560.0 0.0037156982 -0.1108019836 0.0001982996 1.13354e-05 0.0002588512 5.26466e-05 -0.0614936515 0.8416417419
745295530.0 0.0022940978 -0.1105812045 0.0002398779 -7.27262e-05 0.0004590722 0.0001439097 -0.0538512895 0.8418055044
750295500.0 0.000504098 -0.1102171463 0.0001074184 0.0002418299 0.0003751945 0.0001499185 -0.0446937285 0.8423520289
755295470.0 -0.0009565033 -0.1099132589 0.0003186989 -5.36005e-05 0.0004753977 9.6702e-05 -0.0366815548 0.8427772502
760295440.0 -0.0023139008 -0.1093392011 0.0003585314 4.30178e-05 0.0002868404 -5.62524e-05 -0.0280619953 0.8428719035
765295410.0 -0.0037414593 -0.1091261256 0.0002904493 -2.82455e-05 0.0003429697 8.79248e-05 -0.0197458845 0.8432361764
770295380.0 -0.0051028735 -0.1085559918 0.0002445455 -0.0001953225 0.0004320262 -8.62107e-05 -0.0116389433 0.8433913976
775295350.0 -0.0066808679 -0.1081727356 0.0006350049 -0.0002578267 0.0003383455 0.0001307078 -0.0030445607 0.8432194093
780295320.0 -0.0082057343 -0.1078676554 0.0003045169 3.06e-07 0.0002160139 -0.0001021659 0.0057195884 0.8439518108
785295290.0 -0.009501188 -0.1076017687 0.0002998208 -0.0002616236 0.0004090295 -0.0001139163 0.0131854914 0.8437253255
790295260.0 -0.0112043115 -0.1074761933 0.0003404757 -9.49842e-05 0.000274111 4.78749e-05 0.0219062959 0.8434055942
795295230.0 -0.0126877344 -0.1070554652 0.0003362731 -0.0002020448 0.0005280877 -0.0001446513 0.0298889353 0.8424329594
800295200.0 -0.0139837332 -0.1064652461 0.0004138227 -0.0001466816 0.0002451513 -6.1372e-06 0.0382443659 0.8422184521
805295170.0 -0.0155870351 -0.1060176691 0.0004413883 -4.29466e-05 0.0004312902 -0.000119763 0.0474806606 0.8418878066
810295140.0 -0.0169016989 -0.1052500426 0.0004666306 -0.0001162043 0.0005554776 -5.86508e-05 0.0553984927 0.841211681
815295110.0 -0.0185040393 -0.1053178387 0.0004208646 -0.0001595169 4.41839e-05 2.69001e-05 0.0632378978 0.840451442
820295080.0 -0.0196211295 -0.1047965335 0.000600952 -0.000342362 0.0003480382 -0.0001066221 0.0710456114 0.8404653269
825295050.0 -0.0213431778 -0.1043268381 0.0002562987 -0.0001484056 0.000446943 -0.0001475275 0.0801738329 0.8393502876
830295020.0 -0.0225849957 -0.1036712798 0.0002689 -0.0001892759 0.0003667256 -0.0002725311 0.088433948 0.8383443554
835294990.0 -0.0241342694 -0.1032889414 0.0004616315 -9.6856e-06 0.0004431865 -0.0001921442 0.0962733513 0.8377563935
840294960.0 -0.0255495345 -0.1029642169 0.0004956191 -0.0002431078 0.0002974562 -2.82111e-05 0.1053463543 0.8367942119
845294930.0 -0.0268589703 -0.1019675063 0.0002879268 -0.0003140674 0.0003907221 -0.0001571922 0.1135426724 0.8355705554
850294900.0 -0.0277617679 -0.1017663032 0.0002522905 -0.0002094449 0.000474335 -0.0001814156 0.1212824028 0.8349236677
