!Created with skrf (http://scikit-rf.org).
# Hz S RI R 50.0 
!freq ReS11 ImS11 ReS21 ImS21 ReS12 ImS12 ReS22 ImS22
300000.0 -0.2408508405 -0.070009135 0.4728966035 0.0479256361 0.4690747132 0.0475231198 -0.2432344576 -0.08492707
5299970.0 -0.2443668337 0.0073814793 0.4737755945 0.0047038173 0.4736536251 0.0048987905 -0.2444269294 0.0074436186
10299940.0 -0.2410155502 0.0189142916 0.4754244432 0.0060834947 0.4754723767 0.0064956215 -0.2410674449 0.0202540912
15299910.0 -0.2369269871 0.028239088 0.47928806 0.0078215432 0.4794222269 0.0077404661 -0.2365001737 0.0294879311
20299880.0 -0.2319967166 0.0355327242 0.4839266865 0.0083015561 0.4840197265 0.0082290135 -0.2314589528 0.0373446649
25299850.0 -0.2269906974 0.0422035614 0.4895363391 0.0074182597 0.4890745772 0.0075585545 -0.2254258189 0.0437549385
30299820.0 -0.2214854992 0.0471083869 0.4943854158 0.0054186329 0.4946890397 0.005320894 -0.2194096519 0.048944352
35299790.0 -0.2166103857 0.0515122215 0.5002274255 0.0024123674 0.5001654073 0.0021288853 -0.2138631797 0.0533160703
40299760.0 -0.2115815216 0.0550398009 0.5049441764 -0.0015975202 0.5050519422 -0.0015371113 -0.2085011404 0.0558580288
45299730.0 -0.2062558147 0.0577086975 0.5097392036 -0.0066304389 0.5099013779 -0.0064839791 -0.2032686404 0.0587557334
50299700.0 -0.2025193477 0.0598627592 0.5144534509 -0.0118304031 0.51409335 -0.0118373733 -0.1984191637 0.0603570009
55299670.0 -0.1981601689 0.0617921827 0.5178684205 -0.0183761014 0.5179061952 -0.0178729682 -0.19442153 0.0618262823
60299640.0 -0.1943613194 0.063524751 0.521376001 -0.0243692728 0.5215385897 -0.023670147 -0.1903267348 0.0629207753
65299610.0 -0.1911058302 0.0645904554 0.5240118183 -0.0304567967 0.5242629076 -0.0308191784 -0.1870811868 0.0639776606
70299580.0 -0.1878609692 0.065842981 0.5266883542 -0.037174647 0.5264697876 -0.0367724249 -0.1837549384 0.0645817502
75299550.0 -0.185143913 0.0672370437 0.5284702151 -0.0440655403 0.5283956195 -0.0440113263 -0.1805286421 0.0650325847
80299520.0 -0.1824233367 0.068124857 0.5306034116 -0.050792758 0.5306009864 -0.0509214689 -0.1782046224 0.0660037166
85299490.0 -0.1801004056 0.0690080269 0.5315258685 -0.057400386 0.5315675339 -0.057382283 -0.175796868 0.0660245981
90299460.0 -0.1777525524 0.0696686074 0.5323430312 -0.064499171 0.5331575579 -0.0647019348 -0.1735234284 0.066928391
95299430.0 -0.1753925913 0.0705217444 0.5335561423 -0.0714740991 0.5336493264 -0.0718664522 -0.1713620495 0.0673663405
100299400.0 -0.1735562661 0.071649503 0.5333271975 -0.0786520945 0.5339053558 -0.0785701172 -0.1691540269 0.0673426365
105299370.0 -0.1719390744 0.0723343683 0.5344386691 -0.0858813445 0.5348522521 -0.0852191755 -0.1674810092 0.0679686012
110299340.0 -0.1704357957 0.0731658464 0.5346689755 -0.0921204181 0.5344016315 -0.0918344615 -0.1662499921 0.0686610354
115299310.0 -0.1685958409 0.0740539718 0.5345457555 -0.0991441105 0.534616498 -0.0989990801 -0.1649336157 0.0691102993
120299280.0 -0.1674896011 0.0744945124 0.5342660586 -0.1056629108 0.5343697571 -0.1057765012 -0.1635063572 0.0698616746
125299250.0 -0.1658669129 0.0755633887 0.5338554164 -0.1120926472 0.5345702743 -0.1122015263 -0.1625773627 0.0697208835
130299220.0 -0.1650479058 0.0765093511 0.5331906699 -0.1193211695 0.5332423668 -0.1193676707 -0.161194707 0.0707113437
135299190.0 -0.1638759415 0.077804073 0.5333526488 -0.1259520395 0.5327837696 -0.1260160128 -0.1602618134 0.0715064166
140299160.0 -0.1628684112 0.0787906864 0.5321769995 -0.1323763923 0.5320340322 -0.1327128759 -0.1590601525 0.0722232308
145299130.0 -0.1614630924 0.0799410377 0.5314653599 -0.1395014049 0.5310339748 -0.1392168741 -0.1581394291 0.0728901837
150299100.0 -0.1603155419 0.0809970694 0.5297724923 -0.1452873492 0.5302326559 -0.1454583044 -0.1571196516 0.0739236443
155299070.0 -0.1593839279 0.0819342534 0.528977744 -0.1527856118 0.5284213031 -0.1522728902 -0.1561040328 0.075052586
160299040.0 -0.1583031912 0.0834655005 0.527362897 -0.1590977101 0.5272531811 -0.1585024094 -0.1558349227 0.0757825571
165299010.0 -0.1574756385 0.0846771836 0.5258017085 -0.1654723317 0.5261209579 -0.1655549425 -0.1546586022 0.0767886729
170298980.0 -0.1564985423 0.085830176 0.5245353101 -0.1718143236 0.5244334619 -0.1716179868 -0.1540028707 0.0777332511
175298950.0 -0.1557247956 0.0871043608 0.523134412 -0.1776387144 0.5225371415 -0.1780067635 -0.153204364 0.078813274
180298920.0 -0.1547362663 0.0882384422 0.5209013533 -0.1844115548 0.520888481 -0.1835946959 -0.1522544324 0.0799131512
185298890.0 -0.1533832183 0.0894482861 0.5189209062 -0.1904401385 0.5190834781 -0.1901713125 -0.1514286884 0.0810914056
190298860.0 -0.1527193302 0.0910596133 0.5171574623 -0.1966840189 0.5176695467 -0.1965308325 -0.1508018525 0.0815741033
195298830.0 -0.1516707305 0.0921955343 0.5153428859 -0.2027219708 0.5151360248 -0.2025193063 -0.149867189 0.0828683334
200298800.0 -0.1507365519 0.0937386226 0.5130757144 -0.2086932686 0.5133337388 -0.209157161 -0.1496177718 0.0840958035
205298770.0 -0.1495640991 0.0949638641 0.5108800848 -0.2150039123 0.5111614137 -0.2148527784 -0.148574929 0.0845675358
210298740.0 -0.1488436578 0.0961974982 0.5084705496 -0.2207521942 0.5084895195 -0.2204996762 -0.1475984136 0.0863125793
215298710.0 -0.1481188031 0.0977879672 0.5066944065 -0.2268895981 0.5061387007 -0.2268149309 -0.1471306102 0.0874358987
220298680.0 -0.1469742882 0.0991468147 0.5034134283 -0.2324916278 0.5040851755 -0.2322947665 -0.1470073366 0.0885489452
225298650.0 -0.1460389064 0.1004309185 0.5013280878 -0.2386456721 0.5017302106 -0.2386922667 -0.146009074 0.0894456471
230298620.0 -0.1451627565 0.1022198016 0.4990550739 -0.2441603665 0.4995478492 -0.244354207 -0.1455056113 0.0909004734
235298590.0 -0.1440134236 0.1035470389 0.496258046 -0.2499109435 0.4964060701 -0.2495811458 -0.144520809 0.0919843641
240298560.0 -0.1430290337 0.1050381698 0.493809157 -0.2560191829 0.4933759728 -0.2560146788 -0.1438648501 0.0934564384
245298530.0 -0.1423550216 0.1064415218 0.4914457464 -0.2614750191 0.4910373078 -0.2617489131 -0.14277171 0.0939441919
250298500.0 -0.1406984076 0.1081873677 0.4878834086 -0.2673969429 0.4873324919 -0.2665229498 -0.1422495608 0.0956435002
255298470.0 -0.1399169367 0.1090483902 0.484477091 -0.2724821362 0.4850823565 -0.2726840704 -0.1414282463 0.096705438
260298440.0 -0.1391083368 0.1105614149 0.4820101734 -0.2786403166 0.4823498336 -0.278104 -0.1400907753 0.0982288842
265298410.0 -0.1375203202 0.1125246072 0.4789320878 -0.2838376424 0.4793714064 -0.2836033358 -0.1397101927 0.0996275344
270298380.0 -0.1366968782 0.1138253735 0.4763298954 -0.2889506324 0.4765107301 -0.2890274116 -0.13883311 0.1008964711
275298350.0 -0.1351092479 0.1151200588 0.4726229836 -0.294445765 0.4730057865 -0.2944232797 -0.1378234653 0.1017990302
280298320.0 -0.1341822365 0.116710117 0.4699013204 -0.3001034805 0.4698748141 -0.29991318 -0.1366545694 0.1032463378
285298290.0 -0.132998593 0.1183763535 0.4668559268 -0.3053561385 0.4661114275 -0.3052586016 -0.1355650626 0.1044447043
290298260.0 -0.1314426031 0.1195515034 0.462926082 -0.3101151622 0.4630287267 -0.3106842409 -0.1348333602 0.1059808243
295298230.0 -0.1303912086 0.1209612915 0.4599380556 -0.3161165196 0.4598748656 -0.315922003 -0.1336431246 0.1069145778
300298200.0 -0.1290975779 0.1223788057 0.4566437289 -0.3206103314 0.4568231804 -0.3212786072 -0.132864425 0.1082819699
305298170.0 -0.1279007707 0.1235094545 0.4530642601 -0.3267266623 0.4526241262 -0.3262948158 -0.1313641336 0.1094449455
310298140.0 -0.1266625438 0.125196476 0.4490381513 -0.331239507 0.4496864924 -0.33156012 -0.1309111112 0.1105546123
315298110.0 -0.1254210867 0.126080171 0.445699253 -0.336622166 0.4459408298 -0.3369413667 -0.1298375551 0.1116921344
320298080.0 -0.1236460833 0.1275384258 0.4410801713 -0.3419511649 0.4420908453 -0.3419437191 -0.1285045808 0.1130705922
325298050.0 -0.1228426636 0.1288361573 0.438066946 -0.3470924886 0.4381929098 -0.3468276691 -0.1285098543 0.1141174473
330298020.0 -0.1216904249 0.129978055 0.4336842244 -0.3522878449 0.4342708392 -0.3516880348 -0.1273693318 0.1151914535
335297990.0 -0.1200990895 0.1314509613 0.4298327997 -0.3566861947 0.4299975001 -0.3567954593 -0.1269667498 0.1169362222
340297960.0 -0.1193157495 0.1329083677 0.4259066969 -0.3612373134 0.4253814414 -0.3616600181 -0.1252340272 0.1181906173
345297930.0 -0.1178621314 0.134510823 0.4217760816 -0.3664471455 0.4214148511 -0.3665364928 -0.1246212102 0.1190466881
350297900.0 -0.1166559389 0.1358174175 0.4170196535 -0.3711973776 0.417334293 -0.370346024 -0.1239797903 0.1211151121
355297870.0 -0.1149532112 0.1376166867 0.4133896021 -0.3757629138 0.413804106 -0.3751771593 -0.1230971375 0.1221517398
360297840.0 -0.1136105558 0.1387822664 0.4094558279 -0.3800545521 0.4095266096 -0.3798678815 -0.1215935725 0.1234473367
365297810.0 -0.112630756 0.1403305972 0.4050250805 -0.3847270039 0.4053274376 -0.3844892764 -0.1205012504 0.1247821376
370297780.0 -0.1106423084 0.1416205512 0.4006837319 -0.3890536065 0.4011092356 -0.3886673352 -0.119397686 0.1261057989
375297750.0 -0.1090643256 0.1429876845 0.3965624767 -0.3933383013 0.3967327967 -0.3933582812 -0.1182465711 0.1272051249
380297720.0 -0.1079570697 0.1445693163 0.3921904317 -0.3981699213 0.3926285221 -0.3969837469 -0.1176567651 0.1283926725
385297690.0 -0.1067796884 0.1455781727 0.3878757372 -0.4017394876 0.3876340814 -0.4015977965 -0.1157862012 0.12989179
390297660.0 -0.104872202 0.1469397471 0.3835834144 -0.4062026934 0.3830705205 -0.4059785199 -0.11485966 0.1310881069
395297630.0 -0.1029749134 0.1482761293 0.3788311905 -0.4102918423 0.3790452174 -0.4103053555 -0.113184533 0.1323855485
400297600.0 -0.1016585087 0.1494771486 0.3738873997 -0.4148416901 0.3743629747 -0.4144627608 -0.112324532 0.1335194364
405297570.0 -0.1002378287 0.150535119 0.3699187561 -0.418327701 0.3700023714 -0.4184694705 -0.1112952919 0.134781694
410297540.0 -0.098373427 0.1521892197 0.3651264581 -0.4228764028 0.3656540182 -0.4226050655 -0.1099253207 0.1362098715
415297510.0 -0.0965763703 0.1530922296 0.3601990047 -0.4267802928 0.3606184328 -0.4265548716 -0.1084862556 0.137349466
420297480.0 -0.0952158886 0.1546889606 0.3558179698 -0.4307798858 0.3559117488 -0.4306322116 -0.107530381 0.1381265315
425297450.0 -0.0936745437 0.1555028587 0.3510809893 -0.4342510961 0.3513674547 -0.4347277884 -0.1063780246 0.1399891194
430297420.0 -0.0920741139 0.156460578 0.3463168483 -0.4378936377 0.3464402405 -0.4379656436 -0.1049755041 0.1407896613
435297390.0 -0.0901144062 0.1576776297 0.3410539715 -0.4420430909 0.3409493713 -0.4420414261 -0.1030887921 0.1422176968
440297360.0 -0.0883686285 0.1589562823 0.3362347463 -0.4456274499 0.3365887332 -0.4456413484 -0.1022568107 0.1430149611
445297330.0 -0.0868247641 0.159897259 0.3317933757 -0.4491884595 0.3316045933 -0.4488385059 -0.1005073713 0.1437753508
450297300.0 -0.0847816427 0.1610029181 0.3263852784 -0.4531121863 0.3266435357 -0.4533673316 -0.0994090239 0.144864618
455297270.0 -0.0832436226 0.1623197721 0.321600045 -0.4564798881 0.3222882695 -0.4566408916 -0.0980938861 0.1463202907
460297240.0 -0.0817325287 0.1632845383 0.3165618446 -0.4600583641 0.3166098423 -0.4597969381 -0.0964928643 0.147767231
465297210.0 -0.0796129811 0.1643740527 0.3116495929 -0.4632957961 0.3116496697 -0.4637493741 -0.0951688577 0.1480882592
470297180.0 -0.0777768327 0.1652426717 0.3062439375 -0.4665777281 0.3064987192 -0.4669391991 -0.0935790726 0.1497716494
475297150.0 -0.0760593273 0.1658731742 0.3013840809 -0.4691865331 0.3015502314 -0.4692798631 -0.0919122018 0.1502991389
480297120.0 -0.07435338 0.1673326651 0.2960754641 -0.4735136842 0.2959736563 -0.4734223367 -0.0904911379 0.1515891215
485297090.0 -0.0725244279 0.168103881 0.2913676627 -0.4762995446 0.291164179 -0.476136725 -0.0891663139 0.1523101968
490297060.0 -0.071189317 0.1693156715 0.2862806612 -0.4795066502 0.2861922863 -0.479402397 -0.0879384702 0.1535335981
495297030.0 -0.0691302021 0.1700985829 0.2808784505 -0.4822299431 0.2811264227 -0.4826038211 -0.0865632392 0.1544786964
500297000.0 -0.0668235597 0.1707500597 0.2749564999 -0.4850114754 0.275106393 -0.4848622817 -0.0846391177 0.1559865952
505296970.0 -0.0649964299 0.1718769648 0.2702055138 -0.4884280966 0.2699939928 -0.4884762974 -0.0833217254 0.1568839702
510296940.0 -0.06334523 0.1727374417 0.2650935115 -0.4917852429 0.2646113539 -0.491560082 -0.0818585825 0.1578910498
515296910.0 -0.0613953097 0.1735143496 0.2590671443 -0.4940005891 0.2589005711 -0.4938102224 -0.080309235 0.1584988329
520296880.0 -0.0594756668 0.1742765317 0.2539782331 -0.4974287886 0.2541428097 -0.4965794822 -0.0791305313 0.1593107984
525296850.0 -0.0570999378 0.1748160048 0.2479880389 -0.4992693051 0.2491056775 -0.4993651419 -0.077586817 0.1604113467
530296820.0 -0.0551763012 0.1759171134 0.2426295412 -0.5026992274 0.2431920187 -0.5022442458 -0.0759332914 0.1613230626
535296790.0 -0.0536648858 0.1765015273 0.2378680477 -0.5052341117 0.2377499549 -0.5043683318 -0.0744594602 0.1616088899
540296760.0 -0.0517622739 0.1775095746 0.2321879565 -0.5076069836 0.2319920853 -0.5075540313 -0.0734200349 0.1633547352
545296730.0 -0.0497978148 0.1780653444 0.2264478097 -0.5099874962 0.226481603 -0.509925064 -0.0712117029 0.1632755258
550296700.0 -0.0475085345 0.1786992712 0.2208214033 -0.5120909181 0.2212390998 -0.5122154815 -0.0697960639 0.1648945857
555296670.0 -0.045785822 0.1791520187 0.2154240706 -0.5148149313 0.2157259132 -0.5146803125 -0.0680775567 0.1659536651
560296640.0 -0.0437289724 0.1803756419 0.2101385861 -0.5173163055 0.2098338255 -0.5167740136 -0.0664869823 0.1662663007
565296610.0 -0.0420695793 0.1806873782 0.2040288235 -0.5189900762 0.2047638981 -0.519132842 -0.0654302471 0.1667916157
570296580.0 -0.040080981 0.1810247017 0.1986329021 -0.5219584927 0.1978598505 -0.5215728919 -0.0634813162 0.1684412719
575296550.0 -0.0381940916 0.1821808453 0.1930578265 -0.5240064343 0.1930367997 -0.5234666893 -0.0617730035 0.1687807634
580296520.0 -0.0357745376 0.1823735163 0.1869247357 -0.5257619211 0.1869404662 -0.5254605749 -0.0598979704 0.1693271732
585296490.0 -0.0341343491 0.1825551124 0.1815761184 -0.5270780236 0.1816095858 -0.527629539 -0.0585762883 0.1700470293
590296460.0 -0.031563007 0.1837063122 0.175276655 -0.5290067268 0.1758436274 -0.5290993012 -0.0572548805 0.1708566013
595296430.0 -0.0296468284 0.1840267447 0.1695178693 -0.5313284818 0.1696460109 -0.5311784105 -0.05523549 0.1712183275
600296400.0 -0.0276967422 0.184393846 0.1638635682 -0.5330443695 0.1642223985 -0.5328585291 -0.0537004881 0.1721655027
605296370.0 -0.0259555661 0.1850488347 0.157978012 -0.5345954087 0.1585137674 -0.5348869642 -0.0516715722 0.1728652494
610296340.0 -0.0236676357 0.1853849518 0.1522763047 -0.5363112369 0.152647477 -0.5363199751 -0.050095011 0.1733797058
615296310.0 -0.0213821121 0.1852364013 0.14660208 -0.537783975 0.146480098 -0.5381044911 -0.0483489346 0.1740236591
620296280.0 -0.019595813 0.1856988289 0.1405586993 -0.5392880133 0.1410321185 -0.5395762678 -0.0470913693 0.1750201034
625296250.0 -0.017722315 0.1859180687 0.1353654287 -0.5409405175 0.1352114188 -0.541333577 -0.0445564831 0.1755001559
630296220.0 -0.0149046654 0.1861992035 0.1283275661 -0.5425091826 0.1288348149 -0.5423293726 -0.0432902054 0.1763509637
635296190.0 -0.0135713648 0.1867309492 0.1230915387 -0.5436070093 0.1229253722 -0.5435716131 -0.0416126358 0.1766825089
640296160.0 -0.0115639964 0.1872407668 0.1174247983 -0.5443685095 0.1177099217 -0.5448449099 -0.0397586598 0.1774279529
645296130.0 -0.0095381575 0.1875745133 0.1115148215 -0.5459642026 0.1119040301 -0.5458378663 -0.038283333 0.1779714927
650296100.0 -0.0072161584 0.1875989771 0.1054372994 -0.5470692754 0.1055600036 -0.5471721473 -0.0359849918 0.1777379871
655296070.0 -0.0055789994 0.1878126541 0.0993951325 -0.5479451529 0.0998317736 -0.5483024951 -0.0343756407 0.1784734114
660296040.0 -0.0035796297 0.1879697636 0.0940448587 -0.549312389 0.0939850478 -0.5494620342 -0.0324337204 0.1793389711
665296010.0 -0.0007836664 0.1880371929 0.0871060888 -0.5499846006 0.0878237384 -0.5503336544 -0.030640635 0.1801203085
670295980.0 0.0002447775 0.18867811 0.0817966753 -0.5512911859 0.0819835276 -0.5513284364 -0.0296445914 0.1803427567
675295950.0 0.0029464287 0.1886141282 0.0759156595 -0.5517700426 0.0760921319 -0.5513263464 -0.0280232657 0.1806846419
680295920.0 0.0046323497 0.1883303757 0.0698510001 -0.5522238063 0.0693791164 -0.5528345605 -0.0260199987 0.1817682552
685295890.0 0.0070330667 0.1890520803 0.0641233503 -0.5533098069 0.0639287486 -0.5533874655 -0.0243424892 0.1819034665
690295860.0 0.0093520426 0.1889035361 0.0576948114 -0.5535225702 0.0580079541 -0.554322254 -0.0224370044 0.1826325267
695295830.0 0.0112811012 0.1887146878 0.0522965756 -0.5542805132 0.0516710858 -0.5543146049 -0.0206335562 0.1827443983
700295800.0 0.0133126096 0.1882913807 0.0454829189 -0.5547522319 0.0456444582 -0.5546387037 -0.0190068167 0.1832121973
705295770.0 0.0150530502 0.1891066387 0.0396051778 -0.5551102281 0.0401482361 -0.5554192523 -0.0170984371 0.1834928002
710295740.0 0.017426311 0.1889982603 0.034037322 -0.5563867003 0.0340425151 -0.5562227945 -0.0155043315 0.1833316174
715295710.0 0.0190041344 0.1884624355 0.0282471429 -0.5559788622 0.0279359266 -0.555956236 -0.0135338445 0.183708559
720295680.0 0.0212138634 0.18853118 0.0221683252 -0.5566507722 0.0224167618 -0.5562307649 -0.0117692426 0.1842885949
725295650.0 0.0234138333 0.1886424323 0.0161140543 -0.5561920217 0.0161709621 -0.5567193344 -0.0103149277 0.1848290567
730295620.0 0.0256330755 0.188600259 0.0100173116 -0.5564371403 0.0102141574 -0.5568710134 -0.0086342585 0.1846000116
735295590.0 0.0278412839 0.1884335775 0.0038474244 -0.5567592896 0.004083164 -0.5566789947 -0.0068758175 0.1844753415
740295560.0 0.0294673629 0.1885438628 -0.001889966 -0.5566302619 -0.0019076835 -0.556736819 -0.0042649041 0.1850558135
745295530.0 0.0315598357 0.1881270302 -0.0082708966 -0.5563816982 -0.0080840897 -0.5564901064 -0.0029330786 0.1851350592
750295500.0 0.0337988515 0.1880841417 -0.0138792116 -0.5563582677 -0.0140186064 -0.5563712354 -0.0011203531 0.1852365045
755295470.0 0.0358458247 0.1871792098 -0.0194823829 -0.5560874339 -0.0201118025 -0.5566189421 0.0008326874 0.1852883737
760295440.0 0.037666544 0.1874170445 -0.0258779722 -0.5566132511 -0.026110318 -0.5561931335 0.0025470816 0.1853578238
765295410.0 0.040156289 0.1872240515 -0.0322965774 -0.5557504869 -0.0324983955 -0.5559515609 0.0045838946 0.1860607517
770295380.0 0.0417780079 0.186542289 -0.0382855653 -0.5550483418 -0.0381019701 -0.5551268302 0.0061742296 0.1859487712
775295350.0 0.0437529037 0.1859547653 -0.0443549585 -0.5543463835 -0.0434127941 -0.5544349263 0.0075805736 0.1860848284
780295320.0 0.0459939511 0.1858463023 -0.0498179226 -0.5537376601 -0.049621133 -0.5540325175 0.0093858449 0.1856534816
785295290.0 0.0481045999 0.1849996183 -0.056301277 -0.5530043836 -0.0557641051 -0.5531565016 0.0119311451 0.1859137023
790295260.0 0.0504661323 0.1855224212 -0.0617534045 -0.5530864281 -0.0612627527 -0.5525648789 0.0135905195 0.1862524301
795295230.0 0.0522881145 0.1845184214 -0.0680191859 -0.5520678127 -0.0673018023 -0.5519557582 0.0156739363 0.1864109912
800295200.0 0.053966635 0.1843598554 -0.0742149249 -0.5511681112 -0.0738720475 -0.5513761953 0.0172319663 0.1865280139
805295170.0 0.0563865504 0.1837784826 -0.0797108838 -0.5501578377 -0.079899833 -0.5506059631 0.0189521712 0.1861565197
810295140.0 0.0581089238 0.1830663579 -0.0855929057 -0.5492119628 -0.085651242 -0.5496604598 0.0215430356 0.1862990662
815295110.0 0.0602222755 0.182346033 -0.0913090542 -0.5483508724 -0.0911266812 -0.548532968 0.0227469651 0.1865130198
820295080.0 0.0619181643 0.182435868 -0.0970273406 -0.547059387 -0.0967894027 -0.547432513 0.0246180153 0.1864894321
825295050.0 0.0647721614 0.1815625564 -0.1026140427 -0.5460766124 -0.1028940979 -0.5463738085 0.0265656049 0.1863960989
830295020.0 0.0664224911 0.1812269038 -0.1094037695 -0.5447944295 -0.1088755918 -0.5448458148 0.0290423604 0.1858471327
