!Created with skrf (http://scikit-rf.org).
# Hz S RI R 50.0 
!freq ReS11 ImS11 ReS21 ImS21 ReS12 ImS12 ReS22 ImS22
300000.0 -0.0975329877 -0.1036597547 0.624520209 0.0943495387 0.6220996489 0.0952006113 -0.0946988333 -0.1066035168
5299970.0 -0.101299602 0.0114114348 0.6299914973 0.0111727624 0.6307595404 0.0111305954 -0.1016814089 0.011001444
10299940.0 -0.0969284459 0.028971912 0.634668057 0.0160427017 0.6342607746 0.0163233908 -0.0964073122 0.0282995976
15299910.0 -0.0892683165 0.0423473147 0.6404753459 0.0212296833 0.6407983287 0.0214562575 -0.0897231212 0.0417258046
20299880.0 -0.0805871177 0.0536279142 0.6487562686 0.0242445528 0.6491794749 0.0244725728 -0.0809416763 0.0528101223
25299850.0 -0.0702284772 0.0624718771 0.6582351632 0.0261238473 0.6586975027 0.0256692229 -0.0717217616 0.06179413
30299820.0 -0.0610630053 0.0686515905 0.6679375508 0.0245681301 0.6679866063 0.0245879514 -0.0618755273 0.0683811176
35299790.0 -0.0506800729 0.0733549234 0.676871692 0.0222748685 0.6775505767 0.0217776824 -0.0521675257 0.073707795
40299760.0 -0.0410326103 0.0762256992 0.686476177 0.0177502557 0.6871978097 0.0176202891 -0.0429069056 0.0769967319
45299730.0 -0.0319329143 0.0782952057 0.6959440342 0.0129051198 0.6960854825 0.0120896001 -0.033229434 0.0793681908
50299700.0 -0.0228223954 0.0789744755 0.703873214 0.00549255 0.7036349503 0.0049210466 -0.0248560191 0.0802147359
55299670.0 -0.0153772843 0.0789364098 0.7113751312 -0.0023438977 0.7110002036 -0.0027125363 -0.0172868313 0.0803582287
60299640.0 -0.0077182139 0.0787647388 0.7183740712 -0.0111135096 0.7178781477 -0.0112187299 -0.0095718585 0.0794895978
65299610.0 -0.0011947118 0.0771861972 0.7245070909 -0.0198511398 0.724152791 -0.0197829789 -0.0027243385 0.0785034367
70299580.0 0.0052632507 0.0750927251 0.7289170259 -0.0289004749 0.7294464392 -0.028779734 0.0030625931 0.0774401053
75299550.0 0.0104641435 0.0733152054 0.7332310473 -0.0388868014 0.7332954908 -0.0388884931 0.008651773 0.0756057238
80299520.0 0.0153897026 0.0715961818 0.7379107227 -0.0483077913 0.7383269712 -0.0487377074 0.0137252708 0.0736113753
85299490.0 0.0200442682 0.0691065953 0.741275724 -0.0585991272 0.7410424309 -0.058313156 0.0181927449 0.0710047625
90299460.0 0.024035042 0.0665990059 0.7432203638 -0.0685886258 0.7436230272 -0.0679961454 0.0224440474 0.0692697303
95299430.0 0.0280679449 0.0641619961 0.7461096793 -0.0786505899 0.7461965264 -0.0791541481 0.026108505 0.0664237134
100299400.0 0.0313091214 0.0615600202 0.7478288922 -0.0884941844 0.7476679017 -0.0888340118 0.0291329439 0.0645945077
105299370.0 0.0344301382 0.0590247785 0.7488757053 -0.098601608 0.7498817534 -0.0987152923 0.0327806227 0.0618310515
110299340.0 0.0370580671 0.0563672088 0.7506166822 -0.1083789104 0.7507630108 -0.1082746006 0.0348111705 0.0593030925
115299310.0 0.039577959 0.0543607784 0.7510202463 -0.1183763722 0.7513447301 -0.1188637599 0.0375583304 0.0576475125
120299280.0 0.0417726165 0.0519793364 0.7523144897 -0.1298989589 0.7514888101 -0.1296303747 0.0399873713 0.0543638214
125299250.0 0.0437741112 0.049728588 0.7519603732 -0.1388219404 0.7523591629 -0.1383414837 0.0423180164 0.0528334184
130299220.0 0.0457444622 0.046985581 0.7519041166 -0.1491242419 0.75191105 -0.1493488378 0.0440812158 0.05067192
135299190.0 0.0470308729 0.0455356575 0.7519146921 -0.1581726061 0.7522243976 -0.1587385476 0.0454062125 0.0481096445
140299160.0 0.0489276302 0.0431932888 0.7515964779 -0.1687234283 0.7510987665 -0.168466558 0.0463553199 0.0456149524
145299130.0 0.049439576 0.0411046052 0.7497949764 -0.1778111418 0.7508551654 -0.1781098776 0.0484704118 0.0436593581
150299100.0 0.0510897082 0.0392147676 0.7495351744 -0.1880031178 0.7496890462 -0.1876500584 0.0493227551 0.0420989079
155299070.0 0.0525743769 0.0370773049 0.7475142195 -0.1972368271 0.7485404136 -0.1979416436 0.0504760577 0.0396796877
160299040.0 0.0532799718 0.0354515282 0.7468519183 -0.2065828172 0.7468124193 -0.2069028728 0.0509659302 0.0384348571
165299010.0 0.0543540571 0.033545028 0.745363071 -0.2162042132 0.7449883335 -0.2164263521 0.0522696079 0.0358418819
170298980.0 0.0551882091 0.0320904302 0.7432706697 -0.2256694723 0.7435965687 -0.2260029842 0.0526971065 0.0342621144
175298950.0 0.0558595255 0.0306765608 0.7422063529 -0.2352373515 0.7422286143 -0.2357332956 0.0536033586 0.0326640916
180298920.0 0.0563484955 0.0287395808 0.7393213597 -0.2444005587 0.7394599482 -0.2450508216 0.0540400024 0.0307654454
185298890.0 0.056713644 0.0272392845 0.7377534375 -0.2537209184 0.7371538247 -0.2534681715 0.0551441065 0.0290713743
190298860.0 0.0579531601 0.0258836294 0.7346205336 -0.2629163073 0.7351351149 -0.2622909928 0.0550525044 0.027217135
195298830.0 0.0578674064 0.0240977158 0.7326969831 -0.2717892503 0.732817067 -0.2714705868 0.0557113489 0.0259276038
200298800.0 0.0585252335 0.0224680826 0.7299804642 -0.2811067462 0.729935777 -0.2811399704 0.0562806994 0.0239278233
205298770.0 0.058379972 0.0206996327 0.726514211 -0.2897119135 0.7267623968 -0.288794175 0.0567590863 0.022653361
210298740.0 0.0589679222 0.0200219205 0.7243438019 -0.2982635223 0.7238500459 -0.2985029141 0.0564775631 0.0208255778
215298710.0 0.0594934988 0.0186051405 0.7211046123 -0.3067696483 0.7207994161 -0.3067022322 0.0571853625 0.0199907723
220298680.0 0.0596812367 0.0175256066 0.7176556965 -0.3152192098 0.7174957979 -0.3157512752 0.0574778914 0.0182875471
225298650.0 0.0596997565 0.0159422988 0.7141929706 -0.32403201 0.7145086386 -0.3233822893 0.0575410982 0.0165117489
230298620.0 0.0603288959 0.0150931793 0.7119076939 -0.3326244229 0.7112982658 -0.3331164131 0.0575297377 0.0153971091
235298590.0 0.0598161844 0.0138867714 0.7084825105 -0.341323427 0.7079666382 -0.3413114991 0.0579539605 0.0141359683
240298560.0 0.0606296902 0.0130439979 0.7044576048 -0.348974541 0.7042460408 -0.3494935568 0.0576288643 0.0126804936
245298530.0 0.0602280705 0.0113780371 0.7006507206 -0.3577971196 0.700586037 -0.3579668627 0.0580348312 0.0118373516
250298500.0 0.0600464602 0.0103501181 0.6969295274 -0.3662563432 0.696893108 -0.3656162612 0.0577906782 0.0109705829
255298470.0 0.060518209 0.0099032169 0.6929170287 -0.3735810949 0.6931754637 -0.3742736744 0.0578185498 0.0099271391
260298440.0 0.060705788 0.0080626319 0.6889069011 -0.3818338363 0.6893232265 -0.382130811 0.0578369688 0.0080184806
265298410.0 0.0599136457 0.0073370472 0.6848033351 -0.3905559595 0.6847586351 -0.3908392675 0.0587676573 0.0066721054
270298380.0 0.0600479301 0.0060570468 0.6805566117 -0.3984380592 0.6806846424 -0.3982458408 0.0581946227 0.0060143378
275298350.0 0.0605373279 0.0057672088 0.675770393 -0.4059180544 0.6757479718 -0.4058263517 0.0578749966 0.0050721591
280298320.0 0.0599229438 0.0045559236 0.6722742755 -0.4135348624 0.6723830335 -0.41364295 0.0582927944 0.003975412
285298290.0 0.0600228043 0.0037046189 0.6674016515 -0.421679956 0.6678161664 -0.4219279116 0.0579126968 0.0029541551
290298260.0 0.0600389508 0.0024199561 0.6634830945 -0.4298245753 0.6633631177 -0.4294939173 0.0582317658 0.0015925028
295298230.0 0.0602037678 0.0013278643 0.6589312144 -0.4379451586 0.6584939221 -0.4378649994 0.058136194 0.0005493126
300298200.0 0.0603637444 0.0008315154 0.6542554623 -0.4456311542 0.6535337489 -0.4445812711 0.0576847141 -0.0007789663
305298170.0 0.0599544032 -0.0007220485 0.6489850564 -0.4527159919 0.6491478651 -0.4531748092 0.0578512689 -0.0022730703
310298140.0 0.0602011407 -0.0017245139 0.6446166507 -0.4601142797 0.644373007 -0.4602341739 0.0581731627 -0.0034908225
315298110.0 0.0599082897 -0.0030513341 0.6392996612 -0.4686223421 0.6392919659 -0.4687969645 0.0577535482 -0.0042345721
320298080.0 0.0596048398 -0.0036721 0.6335578946 -0.4756568457 0.6345168604 -0.4758908171 0.0572616733 -0.0054540862
325298050.0 0.0586565996 -0.0054329185 0.6284509705 -0.4829316212 0.62901715 -0.4833157985 0.0571450793 -0.0067796814
330298020.0 0.0576281316 -0.0061702369 0.6226581526 -0.4908605271 0.6233663512 -0.4907660511 0.0560988419 -0.007965123
335297990.0 0.0575870824 -0.0066029885 0.6177449897 -0.4974050287 0.6175506077 -0.4975208025 0.0556891721 -0.0087729056
340297960.0 0.057297813 -0.00786927 0.6112316807 -0.5051013882 0.6111598232 -0.5045984562 0.0552793866 -0.0090999187
345297930.0 0.0562821572 -0.008263748 0.6055631765 -0.5119352834 0.6055777258 -0.5117204242 0.0551638513 -0.0101673709
350297900.0 0.0559847574 -0.0090465514 0.6003381858 -0.5176278746 0.6005263096 -0.5178626837 0.0546282115 -0.0113819976
355297870.0 0.0554401208 -0.0096292418 0.5948986687 -0.5243562431 0.5945121644 -0.5246331623 0.0546013444 -0.0117495946
360297840.0 0.0552708156 -0.0102890304 0.5882882867 -0.5316170273 0.5885502676 -0.5314724742 0.0534330207 -0.0121888971
365297810.0 0.0546175113 -0.0108521769 0.5829870799 -0.5377715861 0.5822198367 -0.5380728722 0.0529492513 -0.0131421213
370297780.0 0.0548092854 -0.0115952578 0.5762555645 -0.5446715644 0.5766214535 -0.5444086051 0.0527466984 -0.0138390553
375297750.0 0.0545176125 -0.0123715678 0.5708415702 -0.5512102796 0.5706226774 -0.5509453668 0.0527338303 -0.014641167
380297720.0 0.0535563171 -0.0125799639 0.564799801 -0.5577933022 0.5644251086 -0.5571959993 0.052291625 -0.0149411316
385297690.0 0.0532054771 -0.0135625525 0.5583741583 -0.5632979453 0.5584367168 -0.5645558209 0.0521930609 -0.0153441229
390297660.0 0.0528794016 -0.0144428796 0.5518082387 -0.5693811623 0.5522533705 -0.5697708161 0.0521083527 -0.0163869923
395297630.0 0.0533855956 -0.015063708 0.5466937244 -0.5747180783 0.5457444799 -0.5756485671 0.051255202 -0.0170829059
400297600.0 0.0521893773 -0.0158824648 0.5396274738 -0.5821661237 0.5394059656 -0.5820244268 0.0515923508 -0.0173172572
405297570.0 0.0521110389 -0.0165525084 0.5334902825 -0.5876632745 0.533366897 -0.587921424 0.0507582278 -0.0178387526
410297540.0 0.0515981531 -0.0167275163 0.5270257603 -0.5939223591 0.5271687929 -0.5940521769 0.0506330951 -0.0188768082
415297510.0 0.0510340038 -0.0173812345 0.5197119237 -0.5999179772 0.5206986981 -0.5998270871 0.0507254698 -0.0191204751
420297480.0 0.0507871501 -0.0186046752 0.5132889686 -0.6055866132 0.513808135 -0.6057881417 0.0504806532 -0.0193356901
425297450.0 0.0509551571 -0.018806217 0.5069785179 -0.6106131696 0.5070700251 -0.6110558012 0.0497282411 -0.0205417557
430297420.0 0.0501201757 -0.0191582027 0.5009830548 -0.6164539482 0.5008583153 -0.6157162986 0.0501313122 -0.0209902011
435297390.0 0.050010068 -0.0202752879 0.4932853233 -0.6224243811 0.4935750956 -0.6223184635 0.0486442346 -0.0211094892
440297360.0 0.0495486051 -0.021063234 0.4862759034 -0.6277495732 0.486267784 -0.6276760528 0.0486036323 -0.0217287482
445297330.0 0.0494714678 -0.021795259 0.4801069191 -0.63278976 0.4798648066 -0.6330445138 0.0486198398 -0.022072037
450297300.0 0.0488423027 -0.0222592725 0.4729629572 -0.6380041212 0.4730235098 -0.6380857298 0.0481192472 -0.0224883637
455297270.0 0.047978389 -0.0228265417 0.4660565538 -0.6434551356 0.4662032245 -0.6437056465 0.0480270886 -0.0233655734
460297240.0 0.0480953372 -0.0233456485 0.4587414851 -0.6495017183 0.4589162862 -0.6489022163 0.0476253082 -0.0239208425
465297210.0 0.0479815043 -0.024000874 0.4507652277 -0.6537066389 0.4513083171 -0.6541387762 0.0475169071 -0.0235948445
470297180.0 0.0473590299 -0.0249378574 0.4443474331 -0.659049193 0.4451725896 -0.6584379881 0.0472273047 -0.0255597084
475297150.0 0.0465539202 -0.0250508626 0.4367088672 -0.6637340401 0.437182055 -0.6635820271 0.0467993128 -0.0256016947
480297120.0 0.0469523366 -0.0251801492 0.4296124198 -0.6685009488 0.4303271575 -0.668157407 0.0459856253 -0.0259360308
485297090.0 0.0463178991 -0.0267974011 0.4224894763 -0.6736481895 0.4225335242 -0.6732531685 0.0457789268 -0.0261689471
490297060.0 0.0460895416 -0.026604932 0.4144254409 -0.6780703165 0.4146052307 -0.6779599328 0.0454259848 -0.0270247433
495297030.0 0.0453845324 -0.0277191547 0.4079009917 -0.6821067014 0.4078525403 -0.6827376886 0.0456538063 -0.0275755684
500297000.0 0.0447787476 -0.0278274039 0.4005814195 -0.6862457895 0.4003082689 -0.6867537939 0.0449437694 -0.0277992508
505296970.0 0.045268407 -0.0282216232 0.3927792725 -0.6911226995 0.3926285612 -0.6911108885 0.0445596922 -0.0289349219
510296940.0 0.0442505318 -0.0292073885 0.3852430323 -0.6960190494 0.3856449496 -0.6959345284 0.0443576035 -0.0291920622
515296910.0 0.0438244275 -0.0292351888 0.3771551567 -0.6997294064 0.3770889844 -0.7001251805 0.0436550322 -0.0301435318
520296880.0 0.0435174797 -0.0294927198 0.3693967246 -0.70337738 0.3693769345 -0.7037117594 0.0440082064 -0.0297082251
525296850.0 0.0433957867 -0.0304721422 0.3622123667 -0.7076901418 0.3617429404 -0.7075215071 0.043859949 -0.030682401
530296820.0 0.0426567098 -0.0311306459 0.3538163151 -0.7118890694 0.3543343373 -0.7116507355 0.0430840081 -0.0314244368
535296790.0 0.043007804 -0.0313080658 0.3464810995 -0.7156833481 0.346943922 -0.7152558616 0.0429147363 -0.031320399
540296760.0 0.0422462428 -0.03143017 0.3382160085 -0.719185403 0.3381616125 -0.71970103 0.0421911432 -0.0322052029
545296730.0 0.0410307486 -0.0320338865 0.3305921391 -0.7228172855 0.3304640014 -0.7232116668 0.0421125974 -0.0327111831
550296700.0 0.0416245605 -0.0322221407 0.3226384056 -0.7269687931 0.322509098 -0.7269829497 0.0418742998 -0.0330373481
555296670.0 0.0407528942 -0.0327529944 0.3145749362 -0.7306673556 0.3146881309 -0.7306741491 0.0410362073 -0.0340085929
560296640.0 0.0411980192 -0.033203955 0.3059337983 -0.7332517574 0.3071856123 -0.7335829111 0.0403618357 -0.0336462253
565296610.0 0.0399157322 -0.0336098421 0.2987038825 -0.737252046 0.2991061976 -0.7363220229 0.0405071168 -0.0338741237
570296580.0 0.0390961076 -0.0337641362 0.2899484808 -0.7399835314 0.2909414046 -0.740583204 0.0396679316 -0.0348984176
575296550.0 0.0391844685 -0.0343212325 0.2830084345 -0.7433017685 0.2825290743 -0.7435158662 0.0393624839 -0.0349262756
580296520.0 0.0387094134 -0.0343223031 0.2740630561 -0.7464244313 0.2742745032 -0.7466530726 0.0384981406 -0.0354008542
585296490.0 0.0383573477 -0.034518475 0.2667332992 -0.7490153171 0.2661891385 -0.7493173492 0.0387104 -0.035894617
590296460.0 0.038579879 -0.034996203 0.2580642829 -0.7519178138 0.2579377182 -0.752913312 0.03763002 -0.0358029565
595296430.0 0.0376766921 -0.0352407172 0.2487401303 -0.7547066604 0.2491551036 -0.7551431121 0.0377192778 -0.0369241778
600296400.0 0.0376164512 -0.0356769058 0.2411740948 -0.7579008532 0.2412533688 -0.7577992014 0.0371290239 -0.0371101548
605296370.0 0.0363411144 -0.0359625194 0.2335046426 -0.7600836822 0.2329075955 -0.7602256263 0.0361877778 -0.0373533078
610296340.0 0.0364420685 -0.0359664396 0.2245337394 -0.7621922348 0.2252091381 -0.7626615704 0.0353956975 -0.0375264254
615296310.0 0.0362545602 -0.0366453327 0.2166381688 -0.7655358053 0.2160734258 -0.7653931452 0.0356037843 -0.037794425
620296280.0 0.0351080409 -0.0363627685 0.2076997757 -0.7678478871 0.2076724621 -0.7676976485 0.0344769488 -0.038070628
625296250.0 0.0345372915 -0.0366502589 0.1993428159 -0.7698221786 0.1994041854 -0.7699025288 0.0336959942 -0.0387045361
630296220.0 0.0344616584 -0.0369248882 0.1906111796 -0.7722338367 0.1910540223 -0.771703264 0.0336032526 -0.0388898857
635296190.0 0.0334227878 -0.0369801705 0.1824430021 -0.7737446006 0.1826039358 -0.7739360061 0.0330243271 -0.0390425445
640296160.0 0.0328203293 -0.0370767482 0.1737586445 -0.7764458657 0.1740840776 -0.7758859344 0.032039346 -0.0396261277
645296130.0 0.0329848608 -0.036893757 0.1656477587 -0.7780777683 0.1659209947 -0.7776039347 0.0314924125 -0.0405773266
650296100.0 0.0323185969 -0.0372818875 0.1575295587 -0.780030153 0.1572744338 -0.7800352503 0.0321214641 -0.0401778578
655296070.0 0.031879848 -0.0376368548 0.1482513505 -0.7816315148 0.148844433 -0.7807386602 0.0306553556 -0.0404217595
660296040.0 0.031152312 -0.0374032881 0.1399949461 -0.7829553456 0.1400936383 -0.7827532971 0.0300044083 -0.0409861819
665296010.0 0.0308234723 -0.037875624 0.1307135224 -0.783880477 0.1312948827 -0.784078042 0.0293364978 -0.0409920995
670295980.0 0.0302824685 -0.0377646682 0.1226625072 -0.7857899282 0.1229304878 -0.7848918925 0.0284884755 -0.0415781101
675295950.0 0.0293866994 -0.0380671253 0.1145807291 -0.7869241641 0.1148190402 -0.7867983844 0.0279982495 -0.0414958715
680295920.0 0.028839293 -0.0379004865 0.1057667805 -0.7880295165 0.106198867 -0.7874774775 0.0279513657 -0.0422349101
685295890.0 0.028462631 -0.0378865819 0.0969158022 -0.7890859378 0.0977772913 -0.7891055118 0.0273783313 -0.0415141569
690295860.0 0.027397837 -0.0380071519 0.0885462333 -0.7900644351 0.088212331 -0.7907070111 0.0265438292 -0.0421064879
695295830.0 0.0274324526 -0.038418581 0.0806009497 -0.7916399312 0.0803922151 -0.7906667346 0.0258256291 -0.042304036
700295800.0 0.0269405145 -0.0383159955 0.0719684998 -0.7917390683 0.0715596183 -0.7917357726 0.0251410188 -0.0420517736
705295770.0 0.0259222134 -0.0382937277 0.0626520524 -0.7927806864 0.0628681473 -0.792234271 0.0244587151 -0.0420212983
710295740.0 0.0255950181 -0.0386226623 0.0540990423 -0.7930664965 0.0541915649 -0.7937401005 0.024171071 -0.0421863785
715295710.0 0.0247971491 -0.0381516687 0.0460093003 -0.7939308925 0.0455484478 -0.793871731 0.0232927805 -0.0427967365
720295680.0 0.0249297723 -0.0384538969 0.0372992917 -0.7941328946 0.0372088609 -0.7942975511 0.022642152 -0.0426904198
725295650.0 0.0230626412 -0.0384132954 0.0284664196 -0.7943887187 0.028397396 -0.794500191 0.021758893 -0.0422146644
730295620.0 0.0221981648 -0.0388074697 0.0199841249 -0.7946589712 0.0199128557 -0.7939626655 0.0210762328 -0.0419650599
735295590.0 0.0225628195 -0.0386225912 0.0107152435 -0.7952206268 0.0112525311 -0.794999861 0.0201434508 -0.042887103
740295560.0 0.0219276874 -0.0387321547 0.0026356252 -0.7949933194 0.0030832698 -0.7950146109 0.0194854869 -0.0424077052
745295530.0 0.0209714746 -0.0388402721 -0.0062194861 -0.7941527121 -0.0050095832 -0.7947090477 0.0184563744 -0.042900911
750295500.0 0.0202970217 -0.0383261717 -0.0144827063 -0.7945609943 -0.0147669962 -0.7945369559 0.018162675 -0.0425866144
755295470.0 0.0191751326 -0.0384782367 -0.0227290096 -0.7947680224 -0.0231134768 -0.7950294479 0.017694953 -0.0421817326
760295440.0 0.0188580515 -0.0380479591 -0.0324844895 -0.7941823565 -0.0319174983 -0.7940801261 0.0170490029 -0.0435115948
765295410.0 0.0188028835 -0.0383633238 -0.0406081673 -0.7934710921 -0.0395109483 -0.7937997578 0.0162716005 -0.042993979
770295380.0 0.0180399281 -0.0382113369 -0.0486937168 -0.7923657715 -0.0489071736 -0.7934973816 0.0151349086 -0.042829246
775295350.0 0.0173399994 -0.0388043263 -0.0573853 -0.7929883989 -0.057487218 -0.7923098769 0.0153437004 -0.0423593428
780295320.0 0.0161927368 -0.0382114008 -0.0664559773 -0.7917345277 -0.0655474794 -0.7918306801 0.0148075522 -0.0427371474
785295290.0 0.0158147174 -0.0384172475 -0.0745712668 -0.7913696386 -0.0743745852 -0.7909200304 0.0132236963 -0.0421919372
790295260.0 0.0153809623 -0.0384735403 -0.0832551347 -0.7897782963 -0.0829163066 -0.790492643 0.0125836133 -0.0417091161
795295230.0 0.0146058433 -0.0386729848 -0.091607521 -0.7897514844 -0.0918687421 -0.7900856173 0.0123986812 -0.0430099687
800295200.0 0.0134458719 -0.0380750518 -0.0997476653 -0.7878850766 -0.1001154295 -0.7880322424 0.0113625747 -0.0422762912
805295170.0 0.0128065477 -0.0382956128 -0.1089580643 -0.7876871607 -0.1082567568 -0.7876611998 0.0119117151 -0.042259288
810295140.0 0.012935534 -0.0381366633 -0.117754376 -0.7857894339 -0.1173296975 -0.785925913 0.0107090272 -0.0422144026
815295110.0 0.0119354153 -0.0376062408 -0.1255593827 -0.7849793965 -0.1250561031 -0.7852092401 0.0097892706 -0.0422212584
820295080.0 0.0113696323 -0.0377582346 -0.133481839 -0.7824133997 -0.1337912124 -0.7836512489 0.0081493661 -0.0411033791
825295050.0 0.0104976374 -0.0377329542 -0.1430978068 -0.7816228675 -0.1426315517 -0.781204051 0.0089363761 -0.0408697193
830295020.0 0.0097274887 -0.0378489734 -0.1513537501 -0.7800557377 -0.1510950034 -0.780438059 0.0078454782 -0.0417392449
