!Created with skrf (http://scikit-rf.org).
# Hz S RI R 50.0 
!freq ReS11 ImS11 ReS21 ImS21 ReS12 ImS12 ReS22 ImS22
300000.0 -0.777772569 -0.1247002927 -0.0007371401 0.0007607781 -4.0869e-06 0.0001532362 0.859190996 -0.0030755678
5299970.0 -0.7851870125 -0.0063651186 -0.0001410233 3.89797e-05 5.49161e-05 -4.98545e-05 0.8594902141 -0.009667813
10299940.0 -0.7880619705 -0.0041903299 -4.69746e-05 8.51072e-05 -0.0001623337 -2.66466e-05 0.8582867603 -0.0185031478
15299910.0 -0.7933309168 -0.0023835364 -9.94908e-05 4.57117e-05 0.000114895 -9.03616e-05 0.8577055903 -0.0276013083
20299880.0 -0.8002993247 0.0020631485 -4.86589e-05 2.58154e-05 -4.80837e-05 3.88243e-05 0.8567678209 -0.0358070993
25299850.0 -0.8065790107 0.0078222367 0.0001759531 -2.94996e-05 -6.71984e-05 -0.0001452832 0.8561835506 -0.0434489763
30299820.0 -0.8124661959 0.0153178172 0.0001315725 -0.0002069843 0.0001866548 -2.49322e-05 0.8550060442 -0.0516829627
35299790.0 -0.8174403093 0.0248949436 3.39168e-05 -6.4337e-05 7.95668e-05 -0.0001676885 0.854423186 -0.0597696455
40299760.0 -0.8213266771 0.0335157646 -0.0001891928 0.0001463052 0.0001034983 9.21121e-05 0.8533205759 -0.0679185286
45299730.0 -0.824815625 0.042484652 -0.0001211881 0.0001106132 -2.86495e-05 -7.83754e-05 0.8521147156 -0.0762848722
50299700.0 -0.827293955 0.0532735493 -0.000114491 -0.0001851956 7.5691e-06 2.70093e-05 0.851398791 -0.0844495851
55299670.0 -0.8293983838 0.0635509885 8.2464e-06 -7.79711e-05 -5.97542e-05 -2.86374e-05 0.850452858 -0.0930101609
60299640.0 -0.8303531873 0.073659655 0.0001425176 -5.92892e-05 0.0002869283 -7.40268e-05 0.8500163783 -0.1007618976
65299610.0 -0.8314241517 0.0833963445 -6.82598e-05 0.0001002742 2.07612e-05 -4.9563e-06 0.8490899467 -0.1085918792
70299580.0 -0.8318557241 0.0936787354 -1.8903e-05 -6.14238e-05 -0.0001000597 2.70126e-05 0.8473243557 -0.1171502732
75299550.0 -0.8316903894 0.1037081945 3.77861e-05 0.0002304972 -0.000168474 -1.10637e-05 0.8462414386 -0.1257439246
80299520.0 -0.8319307068 0.1139140165 -9.1322e-05 6.15128e-05 -0.0002445416 -0.0001664649 0.8452526131 -0.1333748653
85299490.0 -0.8309676325 0.1227764609 7.23655e-05 2.50366e-05 6.68625e-05 -5.67081e-05 0.8437439532 -0.1425243319
90299460.0 -0.8301165801 0.1324533644 -7.59176e-05 -0.00031187 8.83654e-05 -7.48451e-05 0.8419519549 -0.1500725765
95299430.0 -0.8289278439 0.1417393165 7.08974e-05 -1.44062e-05 -7.72199e-05 9.2645e-05 0.8403696307 -0.15817777
100299400.0 -0.8278991093 0.1513038448 -9.47279e-05 -0.0001436447 -7.13768e-05 0.000182968 0.8390065763 -0.1663887404
105299370.0 -0.8271466025 0.1605728889 0.0001390269 -0.0002488903 9.01256e-05 5.3326e-06 0.8369661583 -0.1745110624
110299340.0 -0.8256254389 0.169518702 0.0001764988 0.0001072541 0.0001243936 -0.0001251951 0.8356187528 -0.1820980333
115299310.0 -0.8242761823 0.1786087578 2.99805e-05 -0.0002564415 -8.90847e-05 5.07869e-05 0.8340983125 -0.1910874826
120299280.0 -0.8220452628 0.186962671 -6.11466e-05 0.000141969 -5.83778e-05 2.79333e-05 0.8325028746 -0.199242238
125299250.0 -0.8204896473 0.1954624766 4.87424e-05 -2.99821e-05 7.38314e-05 6.62127e-05 0.8306811249 -0.2069557558
130299220.0 -0.8189017785 0.205440973 8.86193e-05 6.61615e-05 9.37276e-05 -2.06222e-05 0.8284896367 -0.2150739709
135299190.0 -0.8166894043 0.2143757795 -5.72932e-05 6.74152e-05 2.36436e-05 3.81715e-05 0.8261755212 -0.2227870145
140299160.0 -0.8148174168 0.2231411833 5.95428e-05 4.88627e-05 -0.0001180518 -7.46574e-05 0.8240705991 -0.2305861207
145299130.0 -0.8126139308 0.2320629664 -0.0001313185 1.69548e-05 6.64944e-05 -9.9878e-05 0.8222525665 -0.2381994538
150299100.0 -0.809924403 0.2404004742 -3.54049e-05 3.91293e-05 0.0001489107 0.0001947102 0.8199243747 -0.2472921956
155299070.0 -0.8075704907 0.2494787386 -7.50366e-05 3.7904e-05 0.0001843555 7.34753e-05 0.8171550349 -0.2548729472
160299040.0 -0.805067392 0.2583144651 -1.23098e-05 1.28705e-05 8.88897e-05 -2.34611e-05 0.8145152723 -0.2624739885
165299010.0 -0.8025955909 0.2668247455 4.61294e-05 0.0001585211 0.0001641666 -3.78725e-05 0.8120087319 -0.2708673465
170298980.0 -0.8002297273 0.2757299528 5.47298e-05 6.14193e-05 -0.000118204 0.0001987536 0.8091031848 -0.2780081218
175298950.0 -0.7967941321 0.2845563399 0.0001364204 6.31153e-05 0.0002985585 -7.53352e-05 0.8066292515 -0.2861481022
180298920.0 -0.7943680742 0.2930360243 -2.36471e-05 0.0001849075 0.0001516117 0.0001977112 0.8034943035 -0.2942247641
185298890.0 -0.7907680158 0.3004444419 9.20101e-05 -3.8533e-05 -3.01109e-05 -5.31112e-05 0.8004779697 -0.3020079371
190298860.0 -0.7883677794 0.3096677533 -2.09719e-05 -6.62009e-05 -4.47169e-05 0.0001387404 0.7977792948 -0.308866583
195298830.0 -0.7857180533 0.318020645 -1.31149e-05 0.0001361707 -5.29478e-05 -0.0001152401 0.7947766303 -0.316745374
200298800.0 -0.7815464932 0.3265209791 -4.3883e-05 0.0001082324 -4.73937e-05 -0.000362611 0.791303367 -0.3247333173
205298770.0 -0.778773985 0.3343212371 0.0001343719 -4.63547e-05 -3.22899e-05 -2.24686e-05 0.7879022088 -0.332226697
210298740.0 -0.7750207168 0.3420623077 -6.64808e-05 -8.41847e-05 -1.75997e-05 -0.0001272123 0.7839455743 -0.3394377041
215298710.0 -0.7716026334 0.3506617038 -8.18024e-05 4.96051e-05 -9.61677e-05 3.74479e-05 0.7810321125 -0.3473347494
220298680.0 -0.7672808544 0.3586982634 -0.0002496199 -0.0001775315 1.52983e-05 -7.8657e-05 0.777533481 -0.3545382293
225298650.0 -0.7643644582 0.3665472266 3.13884e-05 -0.0002507924 -0.0002756405 7.28256e-05 0.7738549985 -0.3620072989
230298620.0 -0.7597663359 0.3752584137 -0.000105395 0.0002025005 -0.0002225327 -0.0001301458 0.7701860715 -0.3694791112
235298590.0 -0.7560068943 0.3834797149 -0.0002162427 -0.0001382823 -0.0001962246 -1.7393e-06 0.7667413461 -0.3772312071
240298560.0 -0.7527245215 0.3911069645 7.3864e-05 -1.30588e-05 0.0001013279 0.0001902469 0.7626886095 -0.3846169917
245298530.0 -0.74902167 0.3990018546 0.0003225464 -0.0001315112 -5.52202e-05 -3.17532e-05 0.7591932542 -0.3923099586
250298500.0 -0.743948123 0.4068472808 -5.97139e-05 -9.36201e-05 2.90927e-05 0.0001911941 0.7554357027 -0.3991750319
255298470.0 -0.7395670066 0.413889026 3.80623e-05 -0.0001108591 -4.2239e-05 0.0002005984 0.7513282235 -0.4068825815
260298440.0 -0.7352891854 0.4216228987 -1.56325e-05 7.97166e-05 0.0002120292 -0.0002263222 0.747532223 -0.4133845064
265298410.0 -0.7313203966 0.4300559938 8.98263e-05 0.0001331027 -8.13198e-05 0.0001754761 0.743535079 -0.4212532001
270298380.0 -0.7270544332 0.4375243349 -3.65418e-05 0.0001648661 8.38484e-05 5.56449e-05 0.7396947672 -0.4280394777
275298350.0 -0.7223215451 0.4447521619 2.91011e-05 -0.0001727763 0.0003063118 5.89831e-05 0.7350574787 -0.435416031
280298320.0 -0.7166826639 0.4526173616 -7.65706e-05 7.2617e-05 -8.96919e-05 9.12311e-05 0.7316046283 -0.4428107902
285298290.0 -0.7126712004 0.4603846385 0.0001150821 6.75944e-05 0.0001110542 2.14655e-05 0.7277599289 -0.4502009421
290298260.0 -0.7080240337 0.4677245699 -4.11802e-05 -9.33634e-05 0.0002087444 0.0002277398 0.7235869542 -0.4571991096
295298230.0 -0.7026194571 0.4745809893 -3.5857e-05 -5.34371e-05 -9.53389e-05 2.34217e-05 0.7196887085 -0.4639260089
300298200.0 -0.697825395 0.4815159164 -7.56676e-05 -0.000161428 6.50224e-05 -5.79566e-05 0.71490944 -0.4715531443
305298170.0 -0.6924316512 0.4878153747 6.51149e-05 2.76414e-05 7.80877e-05 -9.26955e-05 0.7113383219 -0.4795176297
310298140.0 -0.6877732496 0.496272669 4.52994e-05 7.87655e-05 6.84106e-05 3.56648e-05 0.7065320725 -0.4873271122
315298110.0 -0.6828079524 0.5030926434 -4.9849e-06 -5.99209e-05 0.0003134284 -0.0001026274 0.700614594 -0.4939919717
320298080.0 -0.6772705643 0.5101290833 0.0001763041 -0.0001478704 2.07822e-05 0.0001238074 0.6957023035 -0.5017433538
325298050.0 -0.6721124334 0.5171403231 -0.0001225515 8.08798e-05 -2.56795e-05 5.66519e-05 0.690499816 -0.5084475691
330298020.0 -0.6658103661 0.5238978043 0.0001676056 3.59056e-05 0.0003002047 -8.41928e-05 0.6836383269 -0.5151390176
335297990.0 -0.6608974568 0.5307670918 0.0001329372 0.0001351791 -6.44067e-05 0.0001735166 0.6789144352 -0.5212023949
340297960.0 -0.6557541604 0.5379067311 -2.54027e-05 0.0002119939 -6.28846e-05 9.49128e-05 0.6735625712 -0.527190978
345297930.0 -0.6500283667 0.5441453346 8.57004e-05 -8.19861e-05 -6.62693e-05 3.66441e-05 0.6674464895 -0.5343042871
350297900.0 -0.6440954992 0.5507253572 -2.6137e-06 6.9391e-05 6.34721e-05 9.41657e-05 0.6618010654 -0.539185258
355297870.0 -0.6376769443 0.5581927857 -6.41534e-05 7.31414e-05 -6.11537e-05 -0.000128091 0.6565727424 -0.545872011
360297840.0 -0.6329051906 0.563772305 -0.0001198437 -4.6753e-06 -7.30149e-05 7.41494e-05 0.651154441 -0.5524145833
365297810.0 -0.6273047408 0.5704372725 -0.0003160681 -8.47901e-05 0.0001451289 -3.83615e-05 0.6460821113 -0.5587106381
370297780.0 -0.6209210237 0.5768875113 0.0001117231 -4.5375e-06 -1.21754e-05 -5.21735e-05 0.6402755282 -0.5638480533
375297750.0 -0.6141760461 0.5833722508 -3.95622e-05 0.0001262147 3.63415e-05 -0.00013987 0.6340317925 -0.57071144
380297720.0 -0.6089421531 0.5885803964 -4.81703e-05 1.93845e-05 -2.53896e-05 -0.0002090576 0.6283872594 -0.5766621424
385297690.0 -0.6033318923 0.5957233687 3.53477e-05 4.41203e-05 0.000145513 7.81964e-05 0.6231729249 -0.5826530702
390297660.0 -0.5968590075 0.60092526 -0.0002940917 -7.69141e-05 -8.78061e-05 2.18619e-05 0.6168438818 -0.5879628222
395297630.0 -0.5902020379 0.6080945125 1.87259e-05 5.54995e-05 4.0069e-05 -0.0002200147 0.6113229486 -0.5939787527
400297600.0 -0.5837611772 0.6142082047 -0.0001533622 6.6229e-05 0.0001678829 4.3448e-06 0.6053895927 -0.5999356855
405297570.0 -0.577751362 0.6197447092 -0.0001043945 -2.7907e-05 0.0001372993 0.0001053261 0.5995262731 -0.6056152753
410297540.0 -0.5716407642 0.6251373897 -9.02093e-05 -0.0001504963 2.24073e-05 -1.5574e-06 0.5931431104 -0.6114007057
415297510.0 -0.5645724935 0.6311873108 0.0002276654 8.6841e-06 -5.77386e-05 -3.6496e-06 0.5871794976 -0.6174129782
420297480.0 -0.5589994263 0.6368260931 3.52719e-05 -0.0001795544 -0.0002842618 8.4481e-05 0.5815908748 -0.6227076373
425297450.0 -0.5513657436 0.6420365728 0.0001791355 0.0001975029 0.0001133976 2.1966e-06 0.5748922901 -0.628661693
430297420.0 -0.5452479482 0.6487039248 -0.0001806815 -0.0002364535 8.80587e-05 -7.51969e-05 0.5687264928 -0.6343865634
435297390.0 -0.5386033822 0.6526503884 0.0001158729 -0.0001619462 4.2784e-06 -0.0001272093 0.5623721051 -0.6398300593
440297360.0 -0.5315190509 0.6596076458 -6.5824e-06 -0.000126787 -4.50593e-05 4.83437e-05 0.5566192436 -0.6451781158
445297330.0 -0.5253217937 0.6642514918 -0.0002125393 -0.0001191608 -1.45068e-05 0.0001654145 0.5505917681 -0.6514922683
450297300.0 -0.5181175612 0.6689521433 -3.22015e-05 2.9034e-06 0.000241987 4.97548e-05 0.5436912017 -0.6557889961
455297270.0 -0.5113306253 0.6747002209 -0.0001424912 1.52861e-05 6.52704e-05 4.09316e-05 0.5374074285 -0.6604996925
460297240.0 -0.5049126249 0.679673113 9.25756e-05 -3.3953e-05 -0.0001289641 -8.92927e-05 0.5305689333 -0.6666323997
465297210.0 -0.4975891313 0.6848156283 0.0001848362 -4.3066e-06 -0.0002143496 7.79132e-05 0.5238052679 -0.6710947439
470297180.0 -0.4904581374 0.6898795427 3.33641e-05 -0.0001932156 -8.07848e-05 -0.0001622353 0.5176021332 -0.6763970054
475297150.0 -0.4831980742 0.6946042809 5.08176e-05 7.44832e-05 -1.98691e-05 3.02533e-05 0.5108964755 -0.6814945813
480297120.0 -0.4765443478 0.6995754735 -3.46251e-05 -8.35866e-05 4.26159e-05 2.0591e-06 0.5051404411 -0.6855722469
485297090.0 -0.4685563191 0.7040867464 -7.50599e-05 -6.2894e-06 0.0001413359 8.17041e-05 0.4980764179 -0.6910395918
490297060.0 -0.4621285448 0.7087440103 -6.6194e-05 0.0002133234 0.0001389769 7.4509e-06 0.4901725821 -0.696278519
495297030.0 -0.4549141366 0.7131438833 8.40936e-05 -1.75929e-05 -0.0001611214 -7.342e-06 0.4838790526 -0.7003048571
500297000.0 -0.4478387854 0.7180832819 -0.0001216302 -4.96667e-05 -9.44829e-05 -4.15109e-05 0.4766098272 -0.7048413683
505296970.0 -0.4402295713 0.722356327 0.0001009843 -0.0001139952 0.000155043 -4.26746e-05 0.4700011624 -0.7092592335
510296940.0 -0.4330971251 0.7267642815 2.47676e-05 3.01787e-05 -7.6365e-05 -5.72665e-05 0.4625793029 -0.714376664
515296910.0 -0.4246603547 0.7306530952 -9.34796e-05 -2.00611e-05 9.04159e-05 -0.0001483583 0.4561143219 -0.7182191093
520296880.0 -0.418497265 0.7353122497 -6.13299e-05 6.15228e-05 0.0002070218 1.87749e-05 0.4485893459 -0.7234212589
525296850.0 -0.4096358312 0.7388197212 -8.38228e-05 0.0002076519 0.0001589367 -2.20222e-05 0.4415924361 -0.7265801238
530296820.0 -0.402669594 0.743842413 -0.000131753 -0.000206175 -2.00838e-05 4.17447e-05 0.4347728196 -0.7305451816
535296790.0 -0.3956260846 0.7468571794 6.79935e-05 -4.58232e-05 -9.7201e-05 -0.0001079683 0.4270480284 -0.735333558
540296760.0 -0.387988191 0.7508809972 3.21268e-05 -0.0001769602 0.0002143263 -0.0001449707 0.4194914541 -0.7391219185
545296730.0 -0.3801734932 0.7553412655 -3.6741e-05 6.47161e-05 0.0001170911 -9.29386e-05 0.4125171123 -0.7432540603
550296700.0 -0.3735555824 0.75917106 -1.459e-05 8.02893e-05 -2.2383e-06 7.07546e-05 0.4050631206 -0.7476313078
555296670.0 -0.3644028284 0.7617560793 -9.76508e-05 4.3313e-06 -2.13467e-05 9.97618e-05 0.3973744464 -0.7511632303
560296640.0 -0.3574628382 0.7663777622 0.0001417772 8.42466e-05 8.89828e-05 8.02318e-05 0.389630492 -0.7540758142
565296610.0 -0.3492536108 0.7697398815 8.20433e-05 2.65763e-05 -0.0001305023 7.14111e-05 0.3822341536 -0.7578705017
570296580.0 -0.3422212488 0.7721127306 0.0001634412 0.000132577 1.30906e-05 1.855e-07 0.3748943105 -0.7618492427
575296550.0 -0.3345680254 0.7765224067 -0.0001015542 -6.06665e-05 -4.73609e-05 0.0001878148 0.3676187376 -0.765129209
580296520.0 -0.3262909916 0.7796062866 -0.0001135579 0.0002591705 0.0001294547 2.78998e-05 0.359659352 -0.7688672351
585296490.0 -0.3189057306 0.7821733078 -8.20715e-05 0.0001322763 -0.000100021 1.97983e-05 0.3530769395 -0.772653291
590296460.0 -0.3105986074 0.785801446 -0.0001004192 0.0001011288 -2.83899e-05 3.18799e-05 0.3442075454 -0.7756386125
595296430.0 -0.3024617568 0.7887662083 0.0001046412 -0.0002130536 3.72908e-05 -5.46713e-05 0.3367540896 -0.778740546
600296400.0 -0.2948086336 0.7921039638 -0.0001180871 8.54129e-05 -0.000185031 -5.27444e-05 0.3297979908 -0.7822178069
605296370.0 -0.2877623623 0.7948014169 -0.0003386545 0.0001000704 -6.78813e-05 9.51348e-05 0.3213904496 -0.7858259799
610296340.0 -0.2788884118 0.7974513393 -5.82015e-05 2.07109e-05 5.17094e-05 -7.3625e-05 0.3145278954 -0.7884112458
615296310.0 -0.2698027654 0.8005948837 -0.0001040426 -8.22751e-05 -7.00151e-05 -5.07512e-05 0.3058118263 -0.7912162491
620296280.0 -0.2627685189 0.8021706965 8.38779e-05 9.70995e-05 6.3944e-05 9.181e-05 0.2988490555 -0.7946340729
625296250.0 -0.2548996393 0.8053345934 -0.0001763246 0.0001545879 -0.0001210024 7.036e-05 0.2906965886 -0.7968621055
630296220.0 -0.2460694344 0.8080508439 -9.915e-06 8.77213e-05 8.80975e-05 3.92511e-05 0.2822111769 -0.7998019901
635296190.0 -0.2385346697 0.8102778131 -3.8402e-06 -0.0001022673 -6.83744e-05 -3.34541e-05 0.2751899518 -0.8025427179
640296160.0 -0.2310709148 0.8122136491 -0.0001009211 -0.0001850004 4.80828e-05 0.0001665556 0.2665018829 -0.8052932754
645296130.0 -0.2225590223 0.8149694093 -0.0001082778 0.0003595234 -9.54603e-05 -0.0001569027 0.2584288453 -0.8073387537
650296100.0 -0.2147052113 0.816631037 -0.0001300236 7.66543e-05 -1.85256e-05 9.3005e-06 0.2510158647 -0.8107089108
655296070.0 -0.2057475865 0.818576933 1.36006e-05 7.37077e-05 -2.255e-06 5.85622e-05 0.2435899779 -0.8120106967
660296040.0 -0.197746414 0.8206165738 0.0001013414 -7.7433e-06 -2.50984e-05 -7.95269e-05 0.2360692336 -0.8146721824
665296010.0 -0.1891139862 0.822445401 0.0002084453 -1.34803e-05 1.46994e-05 -5.85076e-05 0.2272183434 -0.8168526383
670295980.0 -0.1816046478 0.8249215392 0.0001177579 4.57311e-05 -0.0002483234 -4.13728e-05 0.2186882488 -0.8197220257
675295950.0 -0.1731800664 0.8258643573 -5.89008e-05 2.117e-07 0.0002344919 5.17635e-05 0.2100329602 -0.8205253491
680295920.0 -0.164798072 0.8280361235 -7.13663e-05 8.11542e-05 0.0001013698 9.943e-05 0.2028238703 -0.8221758784
685295890.0 -0.1563585088 0.8305339202 4.99782e-05 -2.60619e-05 -5.54329e-05 4.8088e-05 0.1948731641 -0.8237176939
690295860.0 -0.1482762727 0.8306574113 0.00016468 1.53588e-05 2.04459e-05 8.6988e-06 0.1860307751 -0.8251264298
695295830.0 -0.1404394341 0.8318301563 0.000159349 0.0001504912 -0.0002010444 -0.0001071958 0.1780543222 -0.8273466835
700295800.0 -0.1315696093 0.8336397438 -8.66256e-05 0.000215338 -3.55132e-05 -0.0001798612 0.1698142468 -0.8288614799
705295770.0 -0.1240823494 0.8355497968 3.06286e-05 -2.99113e-05 -8.92554e-05 -1.4613e-06 0.1613092514 -0.8296890147
710295740.0 -0.1149739066 0.8364033396 -0.0001053984 -6.65401e-05 4.24565e-05 0.0001141888 0.1533334993 -0.8317934033
715295710.0 -0.107149291 0.8372102839 3.26768e-05 7.39713e-05 6.59803e-05 -4.21408e-05 0.1449112372 -0.8330083631
720295680.0 -0.0987435048 0.8386382765 9.83324e-05 -0.0001871875 -8.28872e-05 -0.0001339948 0.1368172149 -0.8341658822
725295650.0 -0.0902642327 0.8392723899 8.76559e-05 -0.0001223172 -6.52037e-05 -9.06995e-05 0.1283529774 -0.8346425043
730295620.0 -0.0821497135 0.8405611028 4.01535e-05 4.7844e-06 -1.02471e-05 6.35258e-05 0.1194682644 -0.8365615883
735295590.0 -0.0739496028 0.8408881588 0.0003390814 0.0001707458 7.3527e-05 -0.0002355435 0.1116595896 -0.8383005407
740295560.0 -0.0656935605 0.8423338464 -6.00455e-05 -2.40736e-05 0.0001407584 -0.0001149435 0.1032224043 -0.8380479733
745295530.0 -0.0571970748 0.8428873223 6.94508e-05 3.43405e-05 0.000197063 -2.89199e-05 0.0951668434 -0.8393307033
750295500.0 -0.0483151327 0.8430692804 6.48083e-05 -0.0001508501 0.0001140855 -0.0001849516 0.086801653 -0.8400144654
755295470.0 -0.0404775704 0.8431517009 5.66457e-05 -0.0001931136 7.78469e-05 -3.4436e-06 0.0788198009 -0.8414699214
760295440.0 -0.0323627277 0.8433191342 0.0001619509 -0.0003458605 -2.56003e-05 0.0002932209 0.0702338023 -0.8417963805
765295410.0 -0.0240367467 0.8439394351 1.13924e-05 5.22558e-05 -0.0002186848 0.0002099067 0.06135766 -0.8419399702
770295380.0 -0.0156153961 0.8438155002 4.1878e-05 -0.0001012161 -6.32901e-05 0.0001226459 0.0532416953 -0.843087538
775295350.0 -0.0072596202 0.8444600518 0.0001681145 -6.39093e-05 -7.48724e-05 5.53518e-05 0.0444168191 -0.8428709856
780295320.0 0.0015371949 0.8439880469 -0.0002641848 2.98911e-05 0.0002021538 0.0002001043 0.0364450086 -0.8430935178
785295290.0 0.0095382717 0.8433706777 5.29759e-05 -7.47747e-05 8.50257e-05 -1.25845e-05 0.0285509624 -0.8432247422
790295260.0 0.0181852559 0.843847735 0.0002542844 6.30674e-05 0.0001002892 0.0001249441 0.0205337148 -0.8437227971
795295230.0 0.025970266 0.8435335951 -0.000148499 -9.71598e-05 2.11739e-05 -2.67121e-05 0.0121188612 -0.84425694
800295200.0 0.0346182469 0.8431450863 0.0001960825 -6.21313e-05 0.0001881368 -9.36764e-05 0.0030880326 -0.8440569746
805295170.0 0.0431141541 0.8433603199 -0.0001020272 6.65137e-05 -2.99502e-05 1.24971e-05 -0.0049188749 -0.8434097989
810295140.0 0.0516160915 0.8419258723 -6.14001e-05 2.35812e-05 3.7735e-05 -0.0002034233 -0.01254543 -0.8436045843
815295110.0 0.059412387 0.8415400914 7.52432e-05 6.4818e-06 -0.0001170982 0.000102706 -0.0218479104 -0.8432022742
820295080.0 0.0676100237 0.8412153664 0.0002775221 -7.80602e-05 7.50866e-05 0.0002004588 -0.029829935 -0.843145218
825295050.0 0.077452319 0.8400772618 0.0002214206 -5.5867e-05 9.14309e-05 2.0177e-06 -0.0371712671 -0.8424038249
830295020.0 0.0847114894 0.8395580793 -6.10041e-05 -6.67369e-05 0.0001738482 -4.14218e-05 -0.0460796124 -0.8419321425
835294990.0 0.0924990338 0.8387551439 4.2134e-06 -1.60865e-05 -0.0001972757 -9.36213e-05 -0.054987052 -0.8411232643
840294960.0 0.1005632259 0.8385447751 -8.98542e-05 5.81354e-05 9.36877e-05 5.87801e-05 -0.0630071519 -0.8401242051
845294930.0 0.1088550478 0.8368644579 6.02762e-05 -0.0002333078 0.000158716 0.0001970432 -0.071327882 -0.8388449562
850294900.0 0.1169232509 0.8362014092 9.42383e-05 0.0001688944 -1.93574e-05 -3.04553e-05 -0.0795169746 -0.8384508846
