!Created with skrf (http://scikit-rf.org).
# Hz S RI R 50.0 
!freq ReS11 ImS11 ReS21 ImS21 ReS12 ImS12 ReS22 ImS22
300000.0 -0.2134135002 -0.0582836921 0.0011861097 0.0008422728 0.0015395611 0.0002487955 -0.775313994 -0.1343787834
5299970.0 -0.2169174094 0.0082974706 -0.0001773782 2.29687e-05 -0.0001993577 0.0001100405 -0.784298084 -0.0072691794
10299940.0 -0.213488486 0.0194686445 0.0001307016 -3.5815e-06 -0.000103588 -2.13479e-05 -0.7874736172 -0.0037239163
15299910.0 -0.2087387831 0.0284050799 -0.0001924759 -8.68663e-05 4.33494e-05 5.71743e-05 -0.792674343 -0.001498608
20299880.0 -0.2033329271 0.0359449451 0.0001268983 -5.48654e-05 -1.78865e-05 0.0001853506 -0.7997668005 0.0021694241
25299850.0 -0.1978517232 0.0421008054 8.642e-05 4.74616e-05 -0.000157989 0.0001226807 -0.8063649294 0.0082536086
30299820.0 -0.191953431 0.0468046627 -0.0001626645 0.0002365958 5.01798e-05 2.3538e-05 -0.8118003262 0.0161053798
35299790.0 -0.1863780914 0.0506171444 2.5778e-05 -0.0001898163 6.23139e-05 -1.26172e-05 -0.817147673 0.0249372738
40299760.0 -0.1807517224 0.0536888535 8.1503e-06 5.44482e-05 -4.14118e-05 4.66875e-05 -0.8208539114 0.0343196108
45299730.0 -0.1753439091 0.0556267554 -2.14704e-05 7.00351e-05 4.69707e-05 -0.0001170715 -0.824984138 0.0442415869
50299700.0 -0.1709841772 0.0569631701 7.37707e-05 0.0001731471 0.0002152574 -0.0001494416 -0.8278063076 0.0541803131
55299670.0 -0.1663946989 0.0579665455 4.939e-07 5.00945e-05 -3.73179e-05 -0.0001361068 -0.8294438394 0.0643316349
60299640.0 -0.1625144577 0.0588659723 -4.1961e-05 5.36882e-05 -8.41995e-05 -4.24629e-05 -0.8304959077 0.0742529116
65299610.0 -0.1586320355 0.0593204927 -0.0001116578 0.0002852653 -0.0001040418 -3.64564e-05 -0.8319092498 0.0841576369
70299580.0 -0.1557495266 0.0596274308 -4.31664e-05 1.13846e-05 0.0001170233 -5.23551e-05 -0.8314909704 0.0945451328
75299550.0 -0.1525864609 0.0597433828 -4.1894e-05 -1.04338e-05 1.36491e-05 6.48737e-05 -0.8321913024 0.1041227837
80299520.0 -0.1499827181 0.0601111353 0.0001185787 6.72854e-05 0.0001018842 5.0529e-05 -0.8322886237 0.1138657116
85299490.0 -0.1477923331 0.0598873367 -4.99357e-05 -5.76549e-05 0.0001274384 2.1851e-05 -0.8318397245 0.1236693556
90299460.0 -0.1454479662 0.060188245 -0.0001491442 -4.44782e-05 -3.47818e-05 4.73941e-05 -0.8307244534 0.1328506973
95299430.0 -0.143355016 0.0599207789 -6.03863e-05 9.76974e-05 0.0001911165 0.0002045814 -0.8293887911 0.1431488354
100299400.0 -0.1417898521 0.0599679998 6.04815e-05 0.0001626752 0.0001870036 9.5291e-06 -0.8287239427 0.1523565593
105299370.0 -0.1399639301 0.0601040545 0.0001145324 4.44082e-05 -1.14005e-05 -4.41767e-05 -0.8269982608 0.1610402614
110299340.0 -0.1387521277 0.0598815518 6.08847e-05 1.05138e-05 -0.0001421261 0.0001876222 -0.8253559201 0.1706497845
115299310.0 -0.1370403128 0.0600479545 6.04603e-05 0.0001003339 8.37735e-05 0.0001662149 -0.8246825836 0.1796686988
120299280.0 -0.1360872352 0.0597419694 0.0002219115 -6.48885e-05 7.36813e-05 6.72753e-05 -0.8223252102 0.1887186132
125299250.0 -0.1349338225 0.0598631737 9.26117e-05 5.29422e-05 -4.62968e-05 3.26e-08 -0.8210794866 0.1980129045
130299220.0 -0.1343362723 0.0603932193 -9.16996e-05 0.0002908472 -6.37883e-05 7.94802e-05 -0.8187524346 0.2068113201
135299190.0 -0.1332165937 0.0607805466 0.0002413877 6.37398e-05 0.0002403731 -8.99019e-05 -0.8169000104 0.2160213817
140299160.0 -0.1324356361 0.0606002343 -6.4428e-05 -9.02636e-05 1.22974e-05 7.99374e-05 -0.8144817558 0.224910475
145299130.0 -0.1314284837 0.0612139813 0.0002527995 2.1004e-05 0.0001131918 -5.53061e-05 -0.8124540969 0.2337535741
150299100.0 -0.1307087143 0.0615757686 -4.08851e-05 0.0001511512 -6.66912e-05 9.6153e-06 -0.8104671936 0.2431869201
155299070.0 -0.1301580146 0.0619240196 6.7155e-05 -7.86405e-05 -7.61175e-05 1.84061e-05 -0.8073766033 0.2521036999
160299040.0 -0.1296448624 0.0626035072 0.0002111642 0.0003202726 0.0001080583 0.0001552405 -0.8051946866 0.2607657865
165299010.0 -0.1290645917 0.0626679632 -7.40458e-05 0.0002308499 -0.0002675908 0.0001517092 -0.8023804228 0.2695453627
170298980.0 -0.1283637977 0.0635478595 4.1376e-05 8.75703e-05 -0.0001578945 0.0001061304 -0.7991306377 0.278071381
175298950.0 -0.1278754701 0.0640183859 7.1798e-06 7.58562e-05 -0.0001022699 0.0001978275 -0.797052911 0.2868430983
180298920.0 -0.1273525063 0.0647528599 -6.71697e-05 0.0002387906 -4.454e-07 3.75006e-05 -0.7938631411 0.2953138158
185298890.0 -0.126487211 0.0651265475 0.0001232396 -6.66339e-05 -3.9858e-06 0.0001672828 -0.7902125707 0.3042387027
190298860.0 -0.1260396439 0.0661352972 5.70379e-05 0.0001265201 -0.0001676608 0.0002223665 -0.7881546728 0.3122390116
195298830.0 -0.1259208025 0.0667098856 -9.86612e-05 7.83066e-05 2.39609e-05 0.0002260698 -0.7845720821 0.3207440206
200298800.0 -0.1249567753 0.0673267032 0.0002768546 2.28717e-05 0.0001143402 -5.97038e-05 -0.7816196242 0.3291184923
205298770.0 -0.1248689006 0.0680452374 -9.02683e-05 0.0001217718 1.90676e-05 0.0001030067 -0.7779125364 0.3377242555
210298740.0 -0.1243049432 0.0688207759 0.0001384993 -0.0001544973 0.0001568054 -6.37404e-05 -0.774562075 0.3459679144
215298710.0 -0.1240243876 0.0695415366 2.34344e-05 0.0002542817 0.0001636802 0.00015757 -0.7710878674 0.3542669252
220298680.0 -0.1236522704 0.070262164 -2.51779e-05 0.0001337721 0.0002226325 3.86091e-05 -0.7679943183 0.3623063008
225298650.0 -0.1232032266 0.0712885447 4.43676e-05 0.0001654821 4.08975e-05 0.0001904251 -0.7636844561 0.3703726933
230298620.0 -0.1228411323 0.0722356913 9.01613e-05 0.0002675108 4.5409e-06 5.86026e-05 -0.7600314454 0.3785402359
235298590.0 -0.1220286978 0.0730398152 -3.75815e-05 0.0001948469 5.65192e-05 -1.96077e-05 -0.7558761062 0.386884102
240298560.0 -0.1218049494 0.0738591471 -2.2233e-06 0.0001664075 0.0001151539 0.0001575637 -0.7515075736 0.395656173
245298530.0 -0.1214140712 0.0747608756 0.0001010485 -4.97627e-05 0.0002584533 -0.0001038765 -0.7480977186 0.4024776216
250298500.0 -0.1208884733 0.0758939977 -4.58163e-05 -4.3111e-06 7.42469e-05 -4.38216e-05 -0.7436212827 0.4105246256
255298470.0 -0.1204797333 0.0763339259 0.0001545858 7.48403e-05 5.04196e-05 0.0001173546 -0.7388865211 0.4180882949
260298440.0 -0.1199464668 0.0776143407 -4.55663e-05 -9.75189e-05 1.9245e-05 0.0001348851 -0.7346139934 0.4263146012
265298410.0 -0.1196820405 0.0790156305 0.0001463854 7.94335e-05 0.0001539108 9.98814e-05 -0.7295033428 0.4335915866
270298380.0 -0.118855832 0.0800073977 0.0002549097 2.76588e-05 -6.47337e-05 9.9884e-05 -0.7261378768 0.4411207855
275298350.0 -0.1183734521 0.0807749049 0.0001700271 3.7091e-05 0.0001051032 4.39363e-05 -0.7210751732 0.4487538295
280298320.0 -0.1175429368 0.0813804932 0.0001058874 0.000271951 0.0001196482 5.67334e-05 -0.716169963 0.4566028206
285298290.0 -0.1169254259 0.0828175057 0.0001694189 0.0003112257 8.57406e-05 -1.62219e-05 -0.7109868376 0.4637812147
290298260.0 -0.116546466 0.0839041829 -6.0207e-05 9.04719e-05 -7.31473e-05 0.0001136599 -0.7062409297 0.4711625617
295298230.0 -0.1159000402 0.0847799981 0.0003045425 1.79974e-05 0.0001051643 0.0001558569 -0.7010961727 0.4780130354
300298200.0 -0.1154628774 0.0855486089 1.62613e-05 8.2628e-05 -6.22943e-05 -3.34533e-05 -0.6962620707 0.4852928808
305298170.0 -0.1147451441 0.0866871614 4.54992e-05 -6.63755e-05 0.0001518102 -4.07197e-05 -0.6904736182 0.4931835608
310298140.0 -0.1140821336 0.0879132367 -3.31905e-05 0.0002107313 0.0001219697 8.08718e-05 -0.6855317604 0.4999335382
315298110.0 -0.1131651867 0.0886422938 1.39798e-05 -1.10552e-05 -6.53642e-05 8.67671e-05 -0.6797393022 0.5069927599
320298080.0 -0.1127426879 0.0895810444 0.0001072211 0.0002440368 6.2828e-05 0.0001028182 -0.6749268274 0.5145134585
325298050.0 -0.1120973922 0.0905311394 0.0001439048 0.0002521447 -4.02904e-05 0.0002248386 -0.6691163615 0.5213718122
330298020.0 -0.1117515469 0.0913883808 -0.0002271113 8.53455e-05 -1.1084e-05 0.0001609649 -0.6636929238 0.5287064529
335297990.0 -0.1107918604 0.092470035 0.0001251251 6.71264e-05 0.0002214489 0.0001635034 -0.6585427997 0.5358789955
340297960.0 -0.1107925162 0.0934562047 0.0003813856 8.64464e-05 0.0001155632 -0.0001477549 -0.6523936897 0.542236223
345297930.0 -0.1101401663 0.0945695609 -0.0001307726 8.05538e-05 2.31863e-05 0.0001436554 -0.6468820203 0.548449632
350297900.0 -0.1090157671 0.0958146483 0.0002650221 0.0002120835 0.0003193759 6.12667e-05 -0.6414134409 0.5552612349
355297870.0 -0.1083726102 0.0970201484 0.0003203997 1.61074e-05 2.7538e-05 -9.30538e-05 -0.635227783 0.5618240766
360297840.0 -0.107964146 0.0981753215 4.05764e-05 0.0002684196 0.0001351222 0.00013429 -0.6296974765 0.5692410034
365297810.0 -0.1072609661 0.0995681345 -7.40916e-05 -0.0001277536 0.0001089554 -9.492e-07 -0.6231445747 0.5755178416
370297780.0 -0.1063233604 0.1006511802 7.77181e-05 9.13169e-05 0.000234787 8.14068e-05 -0.6170343507 0.5817375606
375297750.0 -0.1054897004 0.1016212322 0.0002623551 0.0002348744 0.0002316388 0.0002976027 -0.6114373706 0.5876013588
380297720.0 -0.1048793846 0.1023030639 8.812e-07 -0.000106397 -1.82914e-05 0.0001104745 -0.6058063797 0.5946098887
385297690.0 -0.1042375594 0.1038735333 -0.0001449918 8.75689e-05 0.0003257813 0.0001116662 -0.5991378386 0.6007141017
390297660.0 -0.1036316802 0.1050241108 6.30449e-05 -9.92681e-05 0.0002457486 3.80359e-05 -0.593508766 0.606734252
395297630.0 -0.1024499452 0.1059357632 0.0002966661 4.06205e-05 0.0001173336 -9.11411e-05 -0.5865176637 0.6128606279
400297600.0 -0.1015945356 0.1072004846 0.0002674765 0.0001822291 5.32645e-05 0.0001087185 -0.5806790177 0.6190489488
405297570.0 -0.1009368675 0.108198643 8.99611e-05 0.0001054148 0.0003217653 0.0001250971 -0.5740040156 0.6245382463
410297540.0 -0.0997719682 0.1093321926 -3.855e-06 5.61448e-05 0.000139258 2.24993e-05 -0.5672927164 0.6306016838
415297510.0 -0.0989542285 0.1100622798 -3.04244e-05 0.0001186354 9.64553e-05 -2.27955e-05 -0.5611507274 0.6364768489
420297480.0 -0.0983621516 0.1115071587 1.38769e-05 0.0001186508 0.0002184331 1.41268e-05 -0.5544111133 0.6425774255
425297450.0 -0.0969576944 0.112322112 0.0002917264 6.8439e-06 0.000238153 -8.47465e-05 -0.5474401531 0.647995012
430297420.0 -0.0961941699 0.1133233119 0.0001287394 -5.8641e-06 0.0001658508 -9.70045e-05 -0.5409574122 0.6532263012
435297390.0 -0.0953312778 0.1146452564 7.30321e-05 -0.0001948442 3.8552e-06 5.92793e-05 -0.5337444148 0.6586506076
440297360.0 -0.094420729 0.1155200831 0.0001967358 2.58629e-05 4.38934e-05 5.0905e-05 -0.5271379663 0.6639259579
445297330.0 -0.093511653 0.1165368225 0.0001861657 -5.52668e-05 0.0001610999 1.214e-05 -0.5200553305 0.6687188436
450297300.0 -0.092534135 0.117535211 0.0003737131 0.0001111206 1.53217e-05 0.0001656493 -0.513256956 0.674089281
455297270.0 -0.0918223008 0.1184950857 0.0002821418 -5.62955e-05 0.0001095204 -0.0001516418 -0.5067918728 0.6790466112
460297240.0 -0.0908111599 0.1195458834 0.0002020145 0.0002571894 0.0001933167 2.52679e-05 -0.4995463534 0.6843822031
465297210.0 -0.0895276958 0.1208543696 0.000248916 -5.78097e-05 -5.48993e-05 -0.0001090538 -0.4918366211 0.6894356761
470297180.0 -0.0884317058 0.1217751193 4.53632e-05 4.42935e-05 8.19149e-05 0.0001257975 -0.4850081563 0.6945630564
475297150.0 -0.0874350792 0.1225618208 2.29467e-05 -2.29734e-05 5.58006e-05 8.80506e-05 -0.4773922495 0.6985368943
480297120.0 -0.086274146 0.1234997635 0.0003091087 -0.0002307606 0.0001124138 -0.0001648719 -0.47031677 0.703560247
485297090.0 -0.0853645445 0.1243702557 -1.48423e-05 0.0001269784 4.96346e-05 7.7386e-05 -0.463012925 0.7085851868
490297060.0 -0.0844134174 0.1256856139 0.0002207431 0.0001267471 0.0003254131 5.86584e-05 -0.4555355358 0.7125843156
495297030.0 -0.0831461091 0.126436156 0.0004048334 -4.49129e-05 0.0003239548 -0.0001028472 -0.4482656286 0.7173952233
500297000.0 -0.0820900366 0.1273506991 0.0002562932 0.0001690068 0.0002598323 -0.0001496729 -0.440424788 0.7226399938
505296970.0 -0.0807650679 0.1285999417 0.0001280061 -7.03405e-05 0.0002011249 0.0001640528 -0.4336182658 0.7265359166
510296940.0 -0.0798730403 0.1291704017 0.000360531 -9.6281e-06 0.0003382986 5.93924e-05 -0.4261524843 0.7310575202
515296910.0 -0.0783506829 0.1302023911 -4.6403e-05 0.0001645985 0.0003724744 0.0001171372 -0.4182307635 0.7350130568
520296880.0 -0.0776537308 0.1310176601 0.0004215356 1.33736e-05 9.97472e-05 0.0001641472 -0.4107955928 0.7390796369
525296850.0 -0.0762900469 0.1316887025 0.0001570073 0.0001939383 0.000328596 0.0001708111 -0.4040287701 0.7441799148
530296820.0 -0.0750203439 0.132976378 1.2543e-06 5.97209e-05 0.0002911756 -0.0001257503 -0.3965837216 0.7473842046
535296790.0 -0.0739955524 0.133815655 0.0002941458 0.0001189664 2.7962e-05 0.000177992 -0.3888503514 0.7519559
540296760.0 -0.0731876549 0.1348701115 0.0001612465 0.0001120622 0.0003041985 -4.97656e-05 -0.3808906671 0.7558525883
545296730.0 -0.0717529424 0.1354755985 0.0002803925 0.0002082613 0.0001083475 5.8496e-05 -0.3735052371 0.7591053673
550296700.0 -0.0703188524 0.1361865822 0.0003800072 -6.03559e-05 0.0001422603 -0.0001269694 -0.3652832329 0.7635046144
555296670.0 -0.0691919754 0.1371865995 0.0001535641 -8.85958e-05 0.0003804903 2.75655e-05 -0.3571519114 0.7670863983
560296640.0 -0.0678044883 0.138128911 0.0002182213 0.000176032 0.0002999537 0.0001620169 -0.3498198859 0.7707802108
565296610.0 -0.0668136052 0.1388190491 0.0002894532 0.0001113388 0.0002958196 -2.04686e-05 -0.3421229431 0.77407641
570296580.0 -0.065770809 0.1396959547 0.0002488384 0.0001347629 0.0003420428 -9.86752e-05 -0.3350126735 0.7774589818
575296550.0 -0.064569987 0.1405968837 0.0002153809 -0.0001058604 0.0002445677 9.38318e-05 -0.3262863495 0.7814138505
580296520.0 -0.0629582587 0.1412675911 0.0002385501 4.17842e-05 0.0002273656 -0.0001421682 -0.3182856911 0.7840438948
585296490.0 -0.062359281 0.1418229628 0.0001336692 0.0001007982 -9.152e-06 5.1106e-06 -0.310374295 0.7877979569
590296460.0 -0.0605882392 0.1427677696 0.0004191888 0.0002446536 0.0002316538 7.1524e-05 -0.3030034615 0.7900606864
595296430.0 -0.0593191627 0.1433850509 0.0002544139 1.76482e-05 0.0001291666 9.7185e-06 -0.2945699499 0.7927983989
600296400.0 -0.0582095849 0.1442550904 0.0002232398 2.00344e-05 0.000306457 -6.70469e-05 -0.2866120104 0.7958759954
605296370.0 -0.0569309059 0.145229274 2.35396e-05 3.05687e-05 0.0001959669 4.10244e-05 -0.277719409 0.7984470246
610296340.0 -0.0557027524 0.1457224058 0.0003445037 0.0001760155 9.13428e-05 6.61448e-05 -0.270381944 0.8009867826
615296310.0 -0.0539551328 0.1464753949 0.0003880515 0.0001195261 5.77766e-05 0.0001414803 -0.2618155824 0.8034413978
620296280.0 -0.052952142 0.1468282131 0.0004583848 6.65069e-05 0.0002041505 7.12209e-05 -0.2543791974 0.8063544934
625296250.0 -0.0517590111 0.1477513805 0.0002742154 0.0001219349 0.0003194812 -0.0001358698 -0.2451109959 0.8086199748
630296220.0 -0.0499498791 0.1481266406 0.000230502 -6.1567e-06 0.000186565 -4.10634e-05 -0.2375577908 0.8110489651
635296190.0 -0.0489520086 0.149226043 0.0001064082 0.0001249809 0.0003215653 5.77223e-05 -0.229447086 0.8130419825
640296160.0 -0.0475676067 0.1495436442 0.0004324104 0.0002915129 0.0001588765 0.0001903547 -0.2209668427 0.8154776233
645296130.0 -0.0461202244 0.1506819263 0.0003914276 0.0001710019 0.0002649923 0.0001455696 -0.2128171284 0.8177444365
650296100.0 -0.0446135605 0.1510014488 0.0001565706 -0.0001201319 0.0003417669 0.0001014448 -0.2047156 0.8189727703
655296070.0 -0.0434201103 0.151652621 0.0001156828 7.21604e-05 0.0004131682 5.95295e-05 -0.1958359619 0.8210106515
660296040.0 -0.0419659918 0.1522305555 0.0003147334 6.98613e-05 0.0002286796 7.23438e-05 -0.1875803475 0.8233068627
665296010.0 -0.0404887128 0.1522987703 4.89388e-05 -0.0001543446 0.0001762751 0.0002343819 -0.1791050065 0.8250385058
670295980.0 -0.0394611778 0.1536017746 4.88692e-05 4.21106e-05 0.0001428787 -0.0001416065 -0.1717115477 0.8268579558
675295950.0 -0.0379609512 0.1538414752 9.21647e-05 -0.0001636309 0.0004144314 -5.30997e-05 -0.1635879299 0.8289090578
680295920.0 -0.0363598511 0.1548806115 0.0002433142 -7.02423e-05 0.0003052997 2.7467e-05 -0.1545443592 0.8310907757
685295890.0 -0.03475875 0.1554161144 0.0002415693 -9.30026e-05 0.000333675 7.94675e-05 -0.1456922669 0.8319752436
690295860.0 -0.0334808467 0.1555523364 0.0004962638 0.0001545413 0.000284482 9.18003e-05 -0.138074088 0.8336034975
695295830.0 -0.0318962963 0.1561363155 0.0004373142 -3.21997e-05 0.0002508458 -4.23047e-05 -0.1291973574 0.8348958825
700295800.0 -0.0305137418 0.1565959957 0.0004719967 0.0001080945 0.0002191295 -0.0001871702 -0.1214981466 0.8364915646
705295770.0 -0.0293368687 0.1572252042 0.0003488777 0.000115936 0.0004744273 -7.34901e-05 -0.1128605804 0.8377351295
710295740.0 -0.0276540892 0.1576302949 0.0002431442 -0.0001481723 0.0002444187 0.0001217416 -0.104570428 0.8385723004
715295710.0 -0.0266046051 0.1579021056 0.000372245 3.83474e-05 0.0001992234 -4.44138e-05 -0.0966088256 0.8396912944
720295680.0 -0.0248221666 0.1583957103 0.0002825145 4.41839e-05 4.74137e-05 0.0002541963 -0.0874179177 0.8406597236
725295650.0 -0.023417347 0.1591453757 0.0002078379 3.11158e-05 0.0003547762 -5.58138e-05 -0.0799609439 0.8418250355
730295620.0 -0.021904902 0.1593933962 0.0003436188 -3.16338e-05 0.000390513 2.49154e-05 -0.0715924389 0.8421715266
735295590.0 -0.0203935273 0.1598408785 0.0002902536 -8.2337e-05 0.0002139922 0.0002361059 -0.062560094 0.842990818
740295560.0 -0.0192294546 0.1603243143 0.0004195924 7.7063e-06 0.0002206718 -0.0002408197 -0.0538957252 0.843817304
745295530.0 -0.0175520296 0.1606387215 7.55694e-05 -4.38615e-05 0.000172211 -0.000104972 -0.0455114693 0.8438838975
750295500.0 -0.0157820467 0.1611507696 0.0004924702 3.6909e-05 0.0001213709 -8.78787e-05 -0.0376198859 0.8446106237
755295470.0 -0.0144107893 0.1613051826 0.0002905019 -1.72345e-05 0.0002664009 -4.11208e-05 -0.0287226515 0.8440012427
760295440.0 -0.0131723576 0.1615241417 0.0003643646 -0.0002269231 0.0003208919 -8.40785e-05 -0.0206590093 0.8442926641
765295410.0 -0.0117242135 0.1620676095 0.0002121493 0.0001099948 0.0003938768 -0.0001917412 -0.0121897901 0.8446492803
770295380.0 -0.0099785062 0.1624610854 0.0004122517 8.18597e-05 0.0001896916 9.15676e-05 -0.0038259624 0.8448116568
775295350.0 -0.0087036353 0.1627645817 0.0001376523 -0.0003087652 0.0002525305 -4.10657e-05 0.0034536275 0.8448208165
780295320.0 -0.0068078894 0.1627767522 0.0002833096 -0.0002314684 0.0001203891 -0.0001755747 0.0123621592 0.8439875834
785295290.0 -0.0056143659 0.1628125667 0.0002900082 -2.61371e-05 0.0002580698 -5.29882e-05 0.0216705596 0.8440669124
790295260.0 -0.0037822384 0.1636650917 0.0003011758 -0.0001858276 0.000214202 -7.79276e-05 0.0299662765 0.8439503404
795295230.0 -0.0024983706 0.1639163632 0.0002091198 -0.0002158461 0.0005756429 -8.78441e-05 0.0393010413 0.8428810878
800295200.0 -0.0012185869 0.1638576214 0.0004589033 -0.0001377997 0.0005028333 4.10544e-05 0.0468470903 0.8429261815
805295170.0 0.0007874934 0.1637237287 0.0003887671 -0.0001894212 0.0003090679 -0.000224159 0.0553210528 0.8424591778
810295140.0 0.0021757793 0.1641838657 0.0004555524 1.48528e-05 0.0002576934 7.8219e-06 0.0637610796 0.8412924986
815295110.0 0.0036834677 0.1642599491 0.0005809702 -0.0003068792 0.000137296 8.9059e-06 0.0723106124 0.8407386237
820295080.0 0.0050649856 0.164510186 0.0003568469 -6.0007e-05 0.0002101888 9.05897e-05 0.0806911764 0.8403831498
825295050.0 0.0069758925 0.1645549903 0.0003490747 -8.37171e-05 0.0002059597 -0.0001803411 0.088536839 0.839540804
830295020.0 0.0082840642 0.1649762209 0.000298593 -0.0002363279 0.0004596848 2.7358e-06 0.0982031599 0.8384623776
835294990.0 0.0099446037 0.1650503848 0.0003358778 -0.0002811524 0.0003965062 -0.0001666374 0.1056742881 0.8374264761
840294960.0 0.0112472961 0.1652552843 0.0003764199 -0.000297838 6.72135e-05 4.00252e-05 0.1143559322 0.836349512
845294930.0 0.0129038748 0.1650957336 0.0001571479 -6.82989e-05 0.0002626657 -9.00098e-05 0.1222288802 0.8346280133
850294900.0 0.01463562 0.1654241042 0.0001464841 -0.0002228142 0.0003200482 3.4518e-06 0.1306684024 0.8340653623
