!Created with skrf (http://scikit-rf.org).
# Hz S RI R 50.0 
!freq ReS11 ImS11 ReS21 ImS21 ReS12 ImS12 ReS22 ImS22
300000.0 0.8606841737 -0.0010132077 -0.0008812139 -0.0004671599 -1.69359e-05 0.0005611346 -0.7673566186 -0.1900293427
5299970.0 0.8593627107 -0.0104643003 0.0001966235 -4.62061e-05 -0.0002364122 -0.0002272023 -0.7853368116 -0.0096108423
10299940.0 0.8584303859 -0.0186526686 -2.70445e-05 5.9253e-06 4.25647e-05 -9.31995e-05 -0.7875501128 -0.0050624508
15299910.0 0.8578569224 -0.0273102801 0.0001948432 1.6982e-05 6.52602e-05 -3.94458e-05 -0.7930347506 -0.0026422064
20299880.0 0.8575106063 -0.035345991 -0.0002090671 6.61563e-05 -8.19764e-05 -0.0001356323 -0.7997378441 0.0017810041
25299850.0 0.8563592972 -0.0442213842 -0.0001451864 -9.54568e-05 -5.1412e-05 0.0001284056 -0.8062889804 0.0079249203
30299820.0 0.8559854309 -0.0522231443 -9.634e-07 -9.33696e-05 -5.17627e-05 -0.00013388 -0.812309904 0.0154783512
35299790.0 0.8546678042 -0.0602251833 2.74915e-05 -8.959e-06 -3.53781e-05 -5.68065e-05 -0.8170113981 0.0251065833
40299760.0 0.8545895991 -0.0680731168 -9.8098e-05 -5.47073e-05 9.4544e-05 0.0002211376 -0.8212247961 0.0340443037
45299730.0 0.8537483964 -0.0768403667 -3.86377e-05 0.0002065044 1.29172e-05 -5.72009e-05 -0.8245306836 0.0435881329
50299700.0 0.8530721563 -0.0842828189 2.44395e-05 0.000109174 -0.0002131019 0.0001145187 -0.8265916548 0.0535387158
55299670.0 0.8518598565 -0.0929272346 -6.75052e-05 -6.40734e-05 -7.70464e-05 5.66203e-05 -0.8289400778 0.0638437768
60299640.0 0.8507467165 -0.1008488347 0.0002358339 2.47027e-05 -6.84038e-05 -7.49611e-05 -0.8294271501 0.0739042164
65299610.0 0.8498785737 -0.1090623003 0.0001679267 6.78641e-05 0.000110789 0.0001782592 -0.8301677614 0.0840071922
70299580.0 0.8490672391 -0.1174575244 -2.40479e-05 6.5007e-06 8.8582e-05 -0.0001289343 -0.8312548101 0.093864747
75299550.0 0.8477698217 -0.1259821273 0.0002872939 0.0004023523 -2.81131e-05 -0.0001347564 -0.8308657268 0.1040553819
80299520.0 0.8460314357 -0.1334135558 0.0002076471 9.18881e-05 -0.0001154938 -7.94801e-05 -0.8308860472 0.1138351501
85299490.0 0.8453153956 -0.1420937283 -4.8802e-06 0.0001881297 -6.49855e-05 -0.0001999907 -0.8303171105 0.1231323824
90299460.0 0.8443266479 -0.1502523922 0.0001440459 0.0001031527 -2.14254e-05 -9.43511e-05 -0.82921059 0.1329925829
95299430.0 0.8423723156 -0.1580623385 3.09847e-05 0.0002274829 9.68967e-05 -4.78417e-05 -0.8287362234 0.1423019284
100299400.0 0.8406882726 -0.1663078586 5.9072e-05 -3.03288e-05 9.428e-07 5.05388e-05 -0.8273087671 0.1516671561
105299370.0 0.8395244777 -0.1746470184 -0.0001441867 -0.0001190063 1.95964e-05 -2.8061e-05 -0.8257770356 0.1608190315
110299340.0 0.8372974211 -0.1829903437 0.0001513881 -5.13136e-05 0.0001201945 0.0001646619 -0.8246631252 0.1697300146
115299310.0 0.8362240053 -0.1908112707 -7.546e-06 -4.45763e-05 0.000181929 0.0002254471 -0.8232659105 0.1791137996
120299280.0 0.833603123 -0.1985326008 0.0001018084 8.54395e-05 -4.4551e-06 5.00194e-05 -0.8212305575 0.1879874807
125299250.0 0.8316206398 -0.2063105875 0.000150497 2.3281e-06 0.0001439479 0.0001567891 -0.8199207525 0.1972757437
130299220.0 0.8297052253 -0.2141990621 -0.0002250531 0.0002300081 9.36972e-05 3.93706e-05 -0.8180398354 0.2056546459
135299190.0 0.8279860609 -0.2227926093 -6.10418e-05 8.28124e-05 -7.12629e-05 1.80886e-05 -0.816343738 0.2150528256
140299160.0 0.8257010032 -0.2300635391 -9.68076e-05 -0.0001316904 0.0001062278 9.0491e-05 -0.8144366305 0.2236396993
145299130.0 0.8235397587 -0.2378562624 6.35662e-05 9.87264e-05 -0.0001414126 0.0001113376 -0.8118317737 0.232607758
150299100.0 0.8210421897 -0.2459326171 2.61142e-05 -8.3052e-05 0.0001208457 -7.65236e-05 -0.8094189422 0.2416020753
155299070.0 0.8186283568 -0.2540255956 0.0001246137 -0.0001299661 -0.0002388135 -6.86206e-05 -0.8073648927 0.2505106428
160299040.0 0.8162798719 -0.2619769429 6.20844e-05 -5.37877e-05 -2.08151e-05 0.0002770755 -0.8044697262 0.2588981406
165299010.0 0.813591927 -0.2696054848 4.74054e-05 -6.9134e-06 -9.17029e-05 9.60483e-05 -0.8023694506 0.267513739
170298980.0 0.8115176069 -0.2779315287 0.0002385885 -0.0001116697 -9.89027e-05 -8.57383e-05 -0.7995335419 0.2756416812
175298950.0 0.8085680091 -0.2856790848 -0.0002192952 -0.0001051784 -0.0001117353 -0.0001024429 -0.7963665708 0.2850719397
180298920.0 0.805815182 -0.2932067933 0.0001734456 7.2503e-06 -0.0001509116 0.0001309925 -0.7932610755 0.2934931725
185298890.0 0.8025702665 -0.3006889735 4.14631e-05 0.0002107376 2.75254e-05 8.36767e-05 -0.7906978142 0.3016441606
190298860.0 0.7997521717 -0.3091078162 -1.73108e-05 -6.33599e-05 0.0001899057 2.63584e-05 -0.7870820469 0.3098601907
195298830.0 0.7968099416 -0.3156348154 -4.71468e-05 0.000107769 3.42878e-05 -3.00569e-05 -0.7839811977 0.3179688379
200298800.0 0.7936383625 -0.3236475073 -1.1068e-05 -0.0001538335 2.3473e-06 0.0001592739 -0.7807569188 0.3263591366
205298770.0 0.7903363892 -0.33167634 -1.98726e-05 -0.0001219004 2.50384e-05 -0.000152166 -0.7778954611 0.3352142991
210298740.0 0.7877776578 -0.3385080449 7.4366e-06 1.42458e-05 2.23458e-05 -4.78472e-05 -0.7739735046 0.3430704339
215298710.0 0.7842423782 -0.346453 -4.1996e-05 0.0001648212 6.94124e-05 0.0001224504 -0.7705257901 0.351427249
220298680.0 0.7804479152 -0.3537252818 0.0002379714 0.0001511898 -0.0002501174 4.17405e-05 -0.7668798638 0.3591056728
225298650.0 0.7778907413 -0.3616523336 3.20128e-05 0.0001255515 9.91462e-05 1.08387e-05 -0.7630667739 0.3677581278
230298620.0 0.7731795194 -0.3686916678 6.09693e-05 -0.0002065569 5.10813e-05 0.0002002002 -0.7590587195 0.3756184429
235298590.0 0.7704049445 -0.3760887891 2.09119e-05 -3.61513e-05 4.1338e-06 -3.02099e-05 -0.7549703141 0.3831322042
240298560.0 0.766600959 -0.3838599491 0.0001041513 -2.34669e-05 0.0001402002 0.0001011979 -0.7509583369 0.3911041583
245298530.0 0.7624384158 -0.3909646155 -0.0002015667 -0.0001022503 -4.59618e-05 -7.73909e-05 -0.7471919213 0.3991652933
250298500.0 0.7587505203 -0.3982704182 2.7394e-06 6.51853e-05 7.9975e-06 -0.000123672 -0.7431050936 0.4071930753
255298470.0 0.7551936441 -0.4054366783 9.09276e-05 -0.000213233 -0.0001072185 -8.29189e-05 -0.7391913545 0.4141477101
260298440.0 0.7514797468 -0.4129073631 9.84322e-05 8.5288e-06 -0.0002451486 -0.0002377974 -0.7340873339 0.4215562211
265298410.0 0.7472215619 -0.4200501769 4.8133e-06 -0.0001531488 0.000103113 -6.72893e-05 -0.7304025376 0.4298789534
270298380.0 0.7431521695 -0.4268938079 0.0001298321 0.0001047822 -3.71203e-05 -2.80058e-05 -0.7254131994 0.4384499263
275298350.0 0.7390163517 -0.4340036577 -2.27456e-05 -0.0001484381 -0.0001825933 3.71998e-05 -0.7205023786 0.4453213187
280298320.0 0.7353116582 -0.4411237861 -0.000166377 4.63876e-05 -0.0001808634 0.0001611369 -0.7163481425 0.4524266812
285298290.0 0.7310256942 -0.4484451727 -7.98344e-05 4.55983e-05 0.0001706695 -7.93745e-05 -0.7121132193 0.4606330505
290298260.0 0.7262220262 -0.4554782962 0.0002692881 5.98801e-05 -0.0001996524 -0.0001515612 -0.7066717604 0.467806693
295298230.0 0.7224476929 -0.4622091997 0.0001346131 -5.2521e-06 6.68582e-05 7.04855e-05 -0.7016065675 0.4748110391
300298200.0 0.7179948531 -0.4696759062 -8.36189e-05 1.58307e-05 -0.0001239424 5.29784e-05 -0.6965578459 0.4822279606
305298170.0 0.7141412424 -0.4767746001 6.99999e-05 -0.0001148315 -0.0001192041 3.1553e-05 -0.6912868296 0.4893938398
310298140.0 0.7091593955 -0.4851845149 9.0971e-05 -8.58529e-05 -8.22497e-05 7.32384e-05 -0.6862087833 0.4965874024
315298110.0 0.7037128301 -0.4924101444 -0.0001428174 -9.02311e-05 0.0001045902 8.29018e-05 -0.6813649487 0.5038838955
320298080.0 0.6981089653 -0.4995827152 -0.000191239 0.0001994059 -6.12363e-05 -4.6863e-06 -0.6757604665 0.510213869
325298050.0 0.6925250973 -0.5067162918 5.1328e-06 -4.07067e-05 -5.9428e-05 8.6978e-06 -0.6703548615 0.5179886572
330298020.0 0.6860433181 -0.513826975 -0.0001908697 3.74744e-05 7.57806e-05 -2.4522e-06 -0.6648531966 0.5244474339
335297990.0 0.6809827943 -0.5189063046 6.29547e-05 -0.0002272824 0.0001132135 7.2322e-06 -0.6591728101 0.5313903917
340297960.0 0.6752415159 -0.5255944571 -0.0001560446 3.50438e-05 -2.65628e-05 -3.533e-05 -0.6539750804 0.5384319631
345297930.0 0.6707167998 -0.5318965631 -7.03884e-05 -7.95968e-05 -3.73722e-05 0.0001487871 -0.6490046336 0.5446749863
350297900.0 0.6652293512 -0.5379434718 8.89828e-05 -4.5387e-06 1.56016e-05 -0.0001238629 -0.6435869289 0.551491003
355297870.0 0.6596547683 -0.5441512472 6.37292e-05 -2.08634e-05 3.45922e-05 -6.51709e-05 -0.6365801081 0.5590199822
360297840.0 0.6539328279 -0.5506464178 3.03575e-05 -7.38745e-05 8.2563e-06 -0.0003302508 -0.6308485383 0.565120328
365297810.0 0.6485638872 -0.5564266574 -0.0002311303 -0.0001180095 -2.87015e-05 -9.35547e-05 -0.6262171767 0.5704552607
370297780.0 0.6432533566 -0.5628198841 -0.0001709059 0.0002511508 -5.82277e-05 6.1837e-05 -0.6195595855 0.577649904
375297750.0 0.6378354933 -0.569152426 -0.0001401359 6.66791e-05 -0.0001667146 -0.0001089881 -0.6129315398 0.5839948865
380297720.0 0.6318247031 -0.5745277761 -9.15008e-05 9.45598e-05 0.0001061183 0.0001149183 -0.6068010464 0.5899169097
385297690.0 0.6260215119 -0.580751447 -8.36887e-05 -0.0001112224 0.0001392328 -7.98248e-05 -0.6011523626 0.5962125809
390297660.0 0.6211872529 -0.5874786223 0.0001177815 -1.87936e-05 -7.9413e-06 -2.1541e-06 -0.5947922728 0.6024341531
395297630.0 0.6151641854 -0.5920436501 -0.0001602291 2.79431e-05 -7.35709e-05 1.2702e-05 -0.5878739299 0.6081029402
400297600.0 0.6090416032 -0.598454537 2.4981e-06 3.55795e-05 6.02799e-05 -0.0001118298 -0.5825167856 0.6142514259
405297570.0 0.6033484512 -0.6045708235 -4.68966e-05 -5.91094e-05 -6.0661e-05 5.70305e-05 -0.5754242358 0.620016805
410297540.0 0.5979231603 -0.6097847264 0.0001154899 -4.34784e-05 -4.26715e-05 -5.35583e-05 -0.5693970407 0.6265286982
415297510.0 0.5918296488 -0.6156180409 -0.0001049245 -3.84126e-05 5.94016e-05 6.5066e-05 -0.5629685728 0.6311976387
420297480.0 0.5855740985 -0.6219847364 -0.0001089565 -6.20075e-05 -0.0001876471 -0.0001227027 -0.5557974272 0.6378554626
425297450.0 0.5795088699 -0.6271616915 0.000130434 1.63972e-05 6.6735e-05 0.0001048054 -0.5497992857 0.6427346989
430297420.0 0.57305905 -0.632990746 -0.00010178 -0.0001515468 -0.0001961501 -0.0001155296 -0.5432250453 0.6487974241
435297390.0 0.567054753 -0.6386867356 2.42259e-05 -4.108e-06 0.0001009493 -2.90397e-05 -0.5368483105 0.6546366249
440297360.0 0.5609602654 -0.6437139109 0.0001134704 -0.0001009144 6.57464e-05 -5.80047e-05 -0.5300770562 0.659290175
445297330.0 0.5554098111 -0.6489662412 2.50698e-05 3.50757e-05 0.0001669868 -7.81476e-05 -0.5226326224 0.6650323621
450297300.0 0.5486171782 -0.6546527089 8.29305e-05 2.4746e-06 -5.96677e-05 -0.0001201901 -0.5155451196 0.6695797699
455297270.0 0.5423905596 -0.6599927354 8.23522e-05 -2.14367e-05 3.36508e-05 -8.79725e-05 -0.5090548172 0.6749884313
460297240.0 0.535557299 -0.6646957102 7.36825e-05 9.63903e-05 -0.0001995946 -1.79901e-05 -0.5022386035 0.6798333774
465297210.0 0.5296248127 -0.670053084 -0.0001511056 0.000245014 -8.84733e-05 5.49563e-05 -0.4950976507 0.6857014282
470297180.0 0.5231474087 -0.6753044925 5.23995e-05 5.04733e-05 0.0003710683 4.77337e-05 -0.4879560279 0.6902414162
475297150.0 0.5159360924 -0.6801836998 -7.86084e-05 0.0001134394 -0.0001593247 -4.4627e-05 -0.4809557748 0.6953007579
480297120.0 0.5098309289 -0.6855003285 7.11116e-05 7.94094e-05 5.97433e-05 9.4948e-05 -0.4748827159 0.6999554289
485297090.0 0.5026222386 -0.6901853038 -2.38341e-05 0.0001318014 0.0002470316 0.0001135041 -0.4671441296 0.70458493
490297060.0 0.4972173853 -0.6946456379 -0.0001467572 -2.85397e-05 7.80282e-05 1.68935e-05 -0.4595838423 0.7084614394
495297030.0 0.4897805015 -0.6992965837 -0.0002392282 -7.75492e-05 -0.0001119915 7.51182e-05 -0.4523895501 0.7136495558
500297000.0 0.4832245897 -0.7044862344 -0.0001520356 4.40319e-05 0.0001384312 -0.0001222213 -0.4452035243 0.7185756811
505296970.0 0.4762721642 -0.7092319433 3.41933e-05 -1.70862e-05 -7.01526e-05 -4.3133e-06 -0.4377143601 0.7226469775
510296940.0 0.4692921666 -0.713514768 -4.97515e-05 -0.0002503029 -7.9811e-05 3.096e-07 -0.4297302701 0.7272836158
515296910.0 0.4621435146 -0.7178258738 1.06831e-05 0.0001981565 0.0001499847 -9.35687e-05 -0.4229017845 0.7309462496
520296880.0 0.4559480079 -0.7226743709 2.46186e-05 -9.75035e-05 -0.0001907127 -5.14321e-05 -0.4149972566 0.7360329761
525296850.0 0.4491019821 -0.72701908 9.33056e-05 3.13971e-05 5.82389e-05 0.000146936 -0.4081239628 0.7396254417
530296820.0 0.442229647 -0.731214221 0.0001921662 2.0086e-06 -2.80596e-05 -0.0001409142 -0.4004642626 0.7437762743
535296790.0 0.435034714 -0.7352726734 4.43362e-05 -0.000109522 4.35025e-05 4.13989e-05 -0.3933682781 0.7478890635
540296760.0 0.4285837045 -0.7392258592 5.6567e-05 0.0001240214 6.2986e-06 -1.24663e-05 -0.3850387268 0.7515834121
545296730.0 0.4198629944 -0.7441188377 -4.13388e-05 -5.77777e-05 -3.74496e-05 -0.0002445943 -0.3776014291 0.7553540562
550296700.0 0.4130871754 -0.7473245523 0.0001958416 7.85266e-05 9.59458e-05 0.0001392432 -0.3704027394 0.7593552232
555296670.0 0.4053905055 -0.7514689214 -6.05875e-05 2.67283e-05 -8.43343e-05 -9.62174e-05 -0.3624030401 0.7624873241
560296640.0 0.3986081244 -0.7546457065 3.61442e-05 9.51233e-05 3.06083e-05 1.71002e-05 -0.3546953473 0.766482004
565296610.0 0.3905781382 -0.7594000226 7.36503e-05 0.0002196676 2.5041e-06 7.69988e-05 -0.3462673385 0.7698060131
570296580.0 0.3839198772 -0.7626462178 -5.4268e-06 -0.000143708 0.0001351511 -9.60586e-05 -0.3390152678 0.7727048865
575296550.0 0.3763514384 -0.7663699664 -0.0001466278 0.0001690454 1.59165e-05 7.68284e-05 -0.3308412868 0.7766134583
580296520.0 0.3694866833 -0.7694118642 -0.0001279151 -9.59124e-05 5.86747e-05 -0.0002124719 -0.3234188371 0.7793658734
585296490.0 0.3619124945 -0.7728538928 -0.0001186766 0.0001687936 0.0001003786 -5.50132e-05 -0.3151766116 0.7832280029
590296460.0 0.3541683342 -0.7757221629 -0.000119062 -0.0001312159 -0.0001282884 -7.6984e-06 -0.3078772906 0.7857116937
595296430.0 0.3464784473 -0.7796361799 -0.0001760491 0.000148839 0.0001601758 -0.0001601394 -0.2997391335 0.7890530451
600296400.0 0.3394210958 -0.7835990764 -5.09939e-05 8.31395e-05 -1.23185e-05 9.53429e-05 -0.2920618986 0.7914589714
605296370.0 0.330566311 -0.7869043388 5.5835e-05 0.0001960775 -0.0002006507 -4.457e-07 -0.2839975223 0.7952836283
610296340.0 0.3229380576 -0.7895624736 0.0001278693 -5.7892e-05 -1.63573e-05 -1.13876e-05 -0.2758445011 0.7978886804
615296310.0 0.315711981 -0.7921566505 4.69347e-05 5.08554e-05 -4.39915e-05 3.0851e-06 -0.2670210722 0.8007136084
620296280.0 0.3072345063 -0.7945475424 0.0001856088 -6.33509e-05 -2.2648e-06 -0.0001152482 -0.259765035 0.803080926
625296250.0 0.2997940966 -0.7983508654 7.1714e-05 2.53156e-05 0.0001189579 -3.02987e-05 -0.2518191634 0.8051443537
630296220.0 0.2914683839 -0.800340088 0.0001144567 0.0001131428 -0.0001915875 -9.45361e-05 -0.243333422 0.8081058178
635296190.0 0.2837929075 -0.803296452 -5.98565e-05 -0.0001739597 0.0001023323 -5.26969e-05 -0.2354664431 0.8096018885
640296160.0 0.2756855177 -0.8059375562 2.92387e-05 -8.68304e-05 -0.0001001576 0.0001125173 -0.2270324364 0.8123745398
645296130.0 0.2690889918 -0.807866207 0.0001905877 -0.0002557617 0.0001438154 -4.7472e-06 -0.2194501686 0.8145609442
650296100.0 0.2603007046 -0.8105535162 4.58497e-05 -9.25545e-05 -0.0001257601 -7.4628e-05 -0.2103022998 0.8165119337
655296070.0 0.2522806959 -0.8127313778 -0.0001744814 -3.11278e-05 -8.54595e-05 5.71801e-05 -0.2031789888 0.8190141894
660296040.0 0.2434935958 -0.8150943892 -0.0001590798 0.0001765659 3.75571e-05 -3.77878e-05 -0.1941567745 0.8209224869
665296010.0 0.2361770127 -0.8174195525 -7.3475e-06 -7.35409e-05 -2.86295e-05 0.0001041326 -0.1859432977 0.8225840327
670295980.0 0.2280442648 -0.8192842564 0.0001122279 -5.84074e-05 4.09176e-05 -6.73192e-05 -0.1785922083 0.8244230557
675295950.0 0.2193749513 -0.821471887 8.3077e-05 -3.3958e-06 5.49879e-05 -0.000151023 -0.1697530214 0.826231746
680295920.0 0.2112308865 -0.8234663244 -0.0002615872 -1.42461e-05 8.89955e-05 0.0001169485 -0.1613098367 0.8280884219
685295890.0 0.2027761298 -0.8247644054 -7.60308e-05 3.61198e-05 -0.0002361417 9.5731e-05 -0.1531604289 0.8291660997
690295860.0 0.19518008 -0.8266905701 -6.93641e-05 -9.55874e-05 -3.34085e-05 2.32826e-05 -0.1455826251 0.8308668654
695295830.0 0.1869158924 -0.8283521561 -0.0001160926 0.0001762984 0.0001744065 -3.11886e-05 -0.1369562018 0.8327773384
700295800.0 0.1784683512 -0.8298046824 0.0001088975 0.0001854197 0.0001239945 -6.8277e-06 -0.1280752814 0.8333890125
705295770.0 0.170179117 -0.8314583518 0.0002808873 -1.06414e-05 2.54244e-05 -8.45885e-05 -0.1201236691 0.8351245912
710295740.0 0.1615278776 -0.8324850468 -1.7398e-06 -6.22876e-05 6.31924e-05 0.0002282275 -0.1116550647 0.835860108
715295710.0 0.1537422127 -0.8335658648 -4.47174e-05 7.82969e-05 -7.35488e-05 -1.863e-07 -0.102954501 0.8369428475
720295680.0 0.1455190056 -0.8350234789 -1.93324e-05 -9.909e-06 1.12541e-05 2.17499e-05 -0.0948171833 0.8376842215
725295650.0 0.1365273419 -0.8361139447 2.82569e-05 9.46046e-05 -5.38508e-05 4.21484e-05 -0.0865195901 0.8390454166
730295620.0 0.1279828776 -0.8374005914 -0.0002050315 6.3953e-05 -4.207e-07 -3.8852e-06 -0.0790745685 0.8400764552
735295590.0 0.1199548239 -0.8378764006 0.0001535047 8.84441e-05 0.0001270425 -2.75567e-05 -0.0695011568 0.8405192806
740295560.0 0.1115698899 -0.8396191732 0.0001364902 -7.00858e-05 3.91696e-05 0.0002893076 -0.0611853811 0.8417545172
745295530.0 0.1035734108 -0.8401133155 -3.33846e-05 6.82349e-05 -2.44775e-05 -5.89578e-05 -0.0536074838 0.8419422684
750295500.0 0.0947581684 -0.8407904221 -0.0001285939 -0.0002648497 -8.80016e-05 -3.85204e-05 -0.0447142887 0.8424721785
755295470.0 0.0862644338 -0.8410201821 -0.0002921314 -4.14588e-05 -0.0001352662 -2.3832e-06 -0.0368326999 0.8426893591
760295440.0 0.078224252 -0.8412544128 -0.0002102065 0.0001430051 3.36364e-05 -2.28084e-05 -0.0274240582 0.8426916716
765295410.0 0.0704211605 -0.8418756019 -7.53894e-05 -7.5592e-05 -1.54893e-05 -6.0846e-05 -0.019390229 0.8435743758
770295380.0 0.0611148538 -0.8415379738 -3.0955e-05 -7.85834e-05 6.28914e-05 0.0001335874 -0.0114975332 0.8433404298
775295350.0 0.0532852144 -0.8422532999 -0.0001689538 -0.0001734188 5.25863e-05 -6.42585e-05 -0.0029884254 0.8431614029
780295320.0 0.0444474047 -0.842716442 0.0001608957 -0.0001328927 6.93483e-05 -0.0001594955 0.0054371062 0.8436209241
785295290.0 0.0361873129 -0.8432792511 2.5999e-05 7.7527e-05 -5.71808e-05 -0.0001217456 0.013639798 0.8437447847
790295260.0 0.0281799995 -0.843311017 -2.92473e-05 -6.7694e-06 4.95443e-05 5.8986e-05 0.0220908471 0.8429991873
795295230.0 0.0196505785 -0.8435328919 0.0001071248 -1.19916e-05 1.41913e-05 -0.0001161189 0.0303059212 0.8425239125
800295200.0 0.0105024505 -0.8438216794 0.0001713648 0.0001178322 0.0001049561 -6.84749e-05 0.0388345396 0.8421585782
805295170.0 0.0027692077 -0.8432006397 3.10081e-05 -0.0001228397 -8.017e-05 -7.33859e-05 0.0475945012 0.8414213605
810295140.0 -0.0055898591 -0.8421583626 4.39099e-05 -6.33463e-05 -4.4171e-05 6.5426e-06 0.0559037307 0.8411433881
815295110.0 -0.0145203175 -0.8429667085 -2.25734e-05 -1.81062e-05 6.78819e-05 4.45421e-05 0.0634477438 0.840898876
820295080.0 -0.0228713636 -0.8421010178 -0.0001081596 -0.0001174658 7.42598e-05 -4.1727e-05 0.071694599 0.8404631528
825295050.0 -0.0317661499 -0.8415886237 -0.0001434503 8.29028e-05 -6.64954e-05 -4.68494e-05 0.0803272014 0.8397567497
830295020.0 -0.0395558183 -0.8410580213 -7.0606e-06 -0.0001727745 -1.68215e-05 8.39417e-05 0.0882524207 0.8375921896
835294990.0 -0.0472415283 -0.8406487158 3.40479e-05 -6.39351e-05 -3.3495e-06 0.0002002751 0.0966087166 0.8380277366
840294960.0 -0.0554287585 -0.8404728473 -0.0001534418 1.95061e-05 1.28779e-05 6.3294e-06 0.1061222685 0.8367742474
845294930.0 -0.0647188799 -0.8391882712 7.7911e-06 -0.0001703861 -1.35105e-05 0.0001473883 0.1139147007 0.8354447406
850294900.0 -0.0724522229 -0.8382391427 5.08511e-05 -0.0001618642 -0.0001650178 -4.91487e-05 0.1215380356 0.8349124863
