!Created with skrf (http://scikit-rf.org).
# Hz S RI R 50.0 
!freq ReS11 ImS11 ReS21 ImS21 ReS12 ImS12 ReS22 ImS22
300000.0 -0.2421242813 -0.0725709612 0.4740421807 0.0487665534 0.4684122399 0.0473999547 -0.2429073185 -0.0848641597
5299970.0 -0.2442549896 0.007737409 0.4733573716 0.0049521437 0.4736868647 0.0046671197 -0.244864414 0.0076783925
10299940.0 -0.241314853 0.0189457283 0.4756906072 0.0062613243 0.4760298715 0.0066039863 -0.2415630561 0.0202971971
15299910.0 -0.236964818 0.0280894101 0.4794121678 0.0076215184 0.4796834829 0.0077379175 -0.236799478 0.0294682502
20299880.0 -0.2322027528 0.0355137665 0.4839386078 0.0084866801 0.4839189252 0.0084832944 -0.2312861104 0.0373030909
25299850.0 -0.2272751793 0.0421658276 0.4892886732 0.0074889393 0.4892041379 0.0074936487 -0.2255217382 0.0437518591
30299820.0 -0.2215308617 0.0472708513 0.4944901293 0.0051068677 0.4948926027 0.0054517672 -0.219555932 0.0486800458
35299790.0 -0.2164497496 0.0514475085 0.5001005996 0.0020392046 0.5003128293 0.0020719697 -0.2141645812 0.0531425852
40299760.0 -0.2113639782 0.0550954158 0.5051580569 -0.0020255096 0.505277696 -0.0014526015 -0.2086396456 0.0557301709
45299730.0 -0.2065938135 0.0577138524 0.5093873512 -0.0065191646 0.5100115351 -0.0061174374 -0.2036460174 0.0583151267
50299700.0 -0.2023220941 0.059646632 0.5144050369 -0.0118152561 0.5142958523 -0.0116977693 -0.1987309625 0.06007245
55299670.0 -0.1985447895 0.0617432714 0.51806278 -0.0183799002 0.5183224111 -0.0179672082 -0.1945025098 0.0620635683
60299640.0 -0.1941824017 0.0634717283 0.5210699357 -0.0242879897 0.5216173572 -0.0237211772 -0.1905010504 0.0627608909
65299610.0 -0.1910944847 0.0648536632 0.5243886803 -0.0306798712 0.5246594172 -0.0302910216 -0.1871560812 0.0638020144
70299580.0 -0.1877836882 0.0660821799 0.5266192473 -0.0373462787 0.5266256837 -0.0371280838 -0.1835438285 0.0644871279
75299550.0 -0.1852107842 0.0671309073 0.5284219861 -0.0441451351 0.5283062841 -0.044081208 -0.1806419536 0.0651972351
80299520.0 -0.1825974549 0.0681538293 0.5307368172 -0.050601931 0.5310185582 -0.0507721597 -0.1781528558 0.0659970885
85299490.0 -0.1801034765 0.068775092 0.5316828539 -0.0575090238 0.5319766805 -0.0572957493 -0.1757329861 0.0657895668
90299460.0 -0.1776741959 0.0697265669 0.5324081471 -0.0644792985 0.5332198093 -0.0646697712 -0.1734900292 0.0665862734
95299430.0 -0.1756393673 0.0702975959 0.5338094438 -0.071459442 0.5340812517 -0.0717697949 -0.1716081255 0.0673573141
100299400.0 -0.1740111864 0.0714605004 0.5337692882 -0.0782779628 0.5337397624 -0.0783465653 -0.1692124685 0.0675729759
105299370.0 -0.1718640541 0.0718871753 0.5346933477 -0.0856438294 0.5344344567 -0.0855321096 -0.1671478452 0.0685548248
110299340.0 -0.1704385657 0.0731368122 0.5347318637 -0.0918961411 0.5348542691 -0.0919779591 -0.1663306124 0.0686119987
115299310.0 -0.1688015985 0.0738726691 0.5348395666 -0.0988473081 0.5347966934 -0.0989588883 -0.164920784 0.0693426031
120299280.0 -0.1672494879 0.0744211578 0.5345619302 -0.1057111035 0.5346215373 -0.1055212871 -0.1633545683 0.0697084878
125299250.0 -0.1661276381 0.0755768183 0.5343469876 -0.1120864769 0.5341860465 -0.112206121 -0.1624626787 0.0700299343
130299220.0 -0.1653924916 0.0765985821 0.5332852601 -0.1193153099 0.5334163837 -0.1190100616 -0.1611685198 0.0707350403
135299190.0 -0.1638449304 0.0778503312 0.5330859004 -0.1258975954 0.5329213954 -0.1254841226 -0.1600417901 0.0714470549
140299160.0 -0.1628184683 0.0790824052 0.5320818561 -0.1328288802 0.5321933803 -0.1325271797 -0.1590997496 0.0728608926
145299130.0 -0.1614853527 0.0800731378 0.5313539934 -0.1388662294 0.5310239133 -0.1390290314 -0.1582913412 0.0733335507
150299100.0 -0.1602158836 0.0813124356 0.5297220153 -0.1452805209 0.5299540078 -0.1454973638 -0.1573470458 0.0742787651
155299070.0 -0.1598739361 0.081925491 0.5291190227 -0.1524478987 0.5289009391 -0.1520507311 -0.1564520542 0.0748492958
160299040.0 -0.1585530287 0.083593411 0.5278259346 -0.1589287324 0.5275067108 -0.1587121632 -0.1562469622 0.0758714309
165299010.0 -0.1576140003 0.0846613528 0.5261364605 -0.1652674066 0.5264715524 -0.1652312594 -0.1550291732 0.0766836256
170298980.0 -0.1565866662 0.0855616314 0.5242663528 -0.1713822645 0.5243622861 -0.171311962 -0.1541849522 0.0775938598
175298950.0 -0.1559378481 0.0869841673 0.5233804239 -0.1775417078 0.5227127526 -0.1777859267 -0.1534820514 0.0786248281
180298920.0 -0.154852553 0.0883150228 0.5212095745 -0.1842200834 0.5212224475 -0.1836530772 -0.1525822011 0.0797207156
185298890.0 -0.1535186709 0.089403967 0.519520793 -0.1901444359 0.5188791804 -0.189946058 -0.1519402513 0.0807355751
190298860.0 -0.1528022655 0.0910876431 0.5173972977 -0.1965795058 0.5177593135 -0.1964199285 -0.1512263671 0.0818536924
195298830.0 -0.1520538009 0.0919329233 0.5155340495 -0.2026982639 0.5156955332 -0.2025329957 -0.1501379834 0.0828074512
200298800.0 -0.1507546315 0.0936820036 0.5133480586 -0.2090807878 0.5134140542 -0.2086314623 -0.1500268994 0.0837417704
205298770.0 -0.1499087087 0.0947942751 0.5109087578 -0.2147660484 0.5109488456 -0.2145259784 -0.1488128635 0.0843347007
210298740.0 -0.1489598373 0.0961219235 0.5089441578 -0.2199343153 0.5089234427 -0.2204135562 -0.1477586947 0.0863298498
215298710.0 -0.1483538923 0.0977906099 0.5065396869 -0.2267190931 0.5066035974 -0.2267517271 -0.1475044849 0.0871628365
220298680.0 -0.1470246553 0.09881179 0.5037450269 -0.2324745871 0.504017589 -0.2325292421 -0.1466062941 0.0880734544
225298650.0 -0.1462491972 0.1003734053 0.5015798756 -0.2385320971 0.5016323585 -0.2383993899 -0.1463064136 0.0893539788
230298620.0 -0.1450927929 0.1020551768 0.4993182272 -0.2442449216 0.4996640408 -0.2437875772 -0.1455231456 0.090226727
235298590.0 -0.1440432937 0.1037918338 0.4966769238 -0.2499822598 0.4968135841 -0.2496109283 -0.1445742255 0.0920119384
240298560.0 -0.14304944 0.1051129014 0.4941264493 -0.2557457351 0.4939744308 -0.255628873 -0.1439314523 0.0935825923
245298530.0 -0.1422892631 0.1063896446 0.4915147764 -0.2615833425 0.491201591 -0.2616688178 -0.1427149725 0.0941325928
250298500.0 -0.1411359225 0.1077665127 0.4880029233 -0.2672149005 0.4879249154 -0.2671396733 -0.1422001604 0.0958258048
255298470.0 -0.1399396654 0.108900437 0.4846927284 -0.2721953087 0.4856547407 -0.2726149967 -0.1414144007 0.0967543046
260298440.0 -0.1389360505 0.1106064651 0.4821131613 -0.2783055853 0.4828060106 -0.2779403379 -0.1402038641 0.0980893145
265298410.0 -0.1377261138 0.1125786827 0.4792866908 -0.2837792816 0.479583153 -0.2833182361 -0.1396805083 0.0995950146
270298380.0 -0.1366618063 0.113551969 0.4760344793 -0.2891441668 0.4765699934 -0.2888191117 -0.1385849685 0.1008254079
275298350.0 -0.1353001399 0.1150877033 0.4729538199 -0.2947196072 0.4735688954 -0.2946065318 -0.1376603686 0.1022918244
280298320.0 -0.1338121562 0.1167536146 0.4699552688 -0.2999316231 0.4701306949 -0.2996176606 -0.1367443096 0.1032377728
285298290.0 -0.1328899976 0.1182282145 0.4671013316 -0.3057620613 0.4666150652 -0.30530683 -0.1359900817 0.1046632914
290298260.0 -0.1315451001 0.1196007698 0.4632460737 -0.3104139008 0.4636739591 -0.3104878213 -0.1349216273 0.1063920034
295298230.0 -0.1304206987 0.1207998619 0.4602643491 -0.3155539983 0.459859687 -0.3158730143 -0.133494673 0.10704861
300298200.0 -0.1292226373 0.1223572798 0.4568832974 -0.3209331149 0.4572921135 -0.3211363773 -0.1327399002 0.1083180848
305298170.0 -0.1277789977 0.1235905653 0.4529133407 -0.3266625122 0.4533236117 -0.3264131663 -0.1313510567 0.1096236317
310298140.0 -0.1264937008 0.1250199547 0.4493378279 -0.3314406181 0.4499109386 -0.331252966 -0.1307156629 0.1108938273
315298110.0 -0.1253950108 0.1263199982 0.4462853056 -0.3365760434 0.446032028 -0.336605548 -0.1298358468 0.1119676731
320298080.0 -0.1237917744 0.1276311192 0.4414409377 -0.3422061105 0.4424809974 -0.3414726083 -0.1290955383 0.113178201
325298050.0 -0.1227553969 0.1290376739 0.4381875678 -0.3472160581 0.438492299 -0.3468667493 -0.1285091756 0.1143532264
330298020.0 -0.1214885825 0.1302351225 0.4338264736 -0.3517858118 0.4344398751 -0.3519185772 -0.1276339806 0.1155685756
335297990.0 -0.1202984079 0.1316030313 0.4303265454 -0.3566534706 0.430175442 -0.356586429 -0.127022217 0.1174304577
340297960.0 -0.1194478846 0.1331671757 0.4257318107 -0.3614374877 0.4262165562 -0.3615333582 -0.1255538561 0.1185351104
345297930.0 -0.1181009451 0.1351295724 0.4222816624 -0.3662881453 0.4218008523 -0.3663930121 -0.1249526498 0.1195265711
350297900.0 -0.1167843008 0.1358904215 0.4174028826 -0.3708470147 0.4177613834 -0.370810156 -0.1241743178 0.121000228
355297870.0 -0.1150787391 0.1377900433 0.4133458531 -0.3754920621 0.4139733386 -0.3753669179 -0.1230034338 0.121959281
360297840.0 -0.113822455 0.1389915613 0.409989021 -0.3796532568 0.4099682141 -0.3795137093 -0.1220201672 0.1237872129
365297810.0 -0.1127109857 0.1404226527 0.405089036 -0.3843279436 0.4056950813 -0.3847025286 -0.1205850056 0.1247786115
370297780.0 -0.1106307494 0.1415542821 0.400850683 -0.3883036506 0.4013323742 -0.3885837944 -0.1196924338 0.1262413379
375297750.0 -0.1090996556 0.1430921571 0.3967704165 -0.3931959575 0.3972260273 -0.3932901078 -0.1184525284 0.1273329657
380297720.0 -0.108005305 0.1442608945 0.3922279263 -0.3976310224 0.392402606 -0.3971208296 -0.1174405689 0.1285685988
385297690.0 -0.1065945195 0.1457242705 0.3876347447 -0.401855652 0.3881416769 -0.4015988785 -0.1160828775 0.1299523507
390297660.0 -0.1049129776 0.1469430929 0.3834095707 -0.4062700996 0.3835938192 -0.4058728783 -0.115101961 0.1309956781
395297630.0 -0.1032314143 0.1484729251 0.3791130769 -0.4105663772 0.3793353076 -0.4104272108 -0.1131544611 0.1322238729
400297600.0 -0.1018940327 0.1497522188 0.3742541082 -0.4147740959 0.3746999134 -0.4144211214 -0.1120259556 0.1337335584
405297570.0 -0.1004180712 0.1508854977 0.3698481918 -0.4183861354 0.3701744529 -0.4181905557 -0.1110710549 0.1350330008
410297540.0 -0.0984746262 0.1521892836 0.3654554341 -0.4227241434 0.3658415866 -0.422567325 -0.1098091762 0.1362718809
415297510.0 -0.0967557648 0.152890408 0.360332296 -0.4265374792 0.3610541311 -0.4265859012 -0.1086036372 0.1373399012
420297480.0 -0.0952803838 0.1546638053 0.355613007 -0.4305689939 0.3561939402 -0.4308826238 -0.1072680942 0.1383639969
425297450.0 -0.0934205949 0.1553797772 0.3513769666 -0.4344799525 0.3516451277 -0.4344761682 -0.1062260731 0.1399924286
430297420.0 -0.0920400533 0.1562934405 0.3464214411 -0.4371833109 0.3464523551 -0.4375520806 -0.1048025268 0.1406708161
435297390.0 -0.0904540241 0.1578763247 0.3413215788 -0.4418092595 0.3415224664 -0.4416634202 -0.1031200437 0.1420536424
440297360.0 -0.0886818612 0.159220541 0.337106251 -0.445321395 0.3371698092 -0.4456453213 -0.1023464106 0.1429865413
445297330.0 -0.0869282043 0.1598116754 0.3322916125 -0.4489544134 0.331996276 -0.4488616611 -0.1005545 0.1437502156
450297300.0 -0.0849785662 0.1608264759 0.3273516558 -0.4527081873 0.327081966 -0.4530122164 -0.0993588944 0.1450499521
455297270.0 -0.083157304 0.1622942235 0.3221166708 -0.4563128635 0.3222640285 -0.4565231567 -0.0980614819 0.1460428679
460297240.0 -0.0818865765 0.163292862 0.3166911537 -0.4599330076 0.3173724983 -0.4598447281 -0.096864791 0.147575523
465297210.0 -0.0798161626 0.1643576041 0.312179029 -0.4630946804 0.3123760922 -0.4638436473 -0.0950323183 0.1486072768
470297180.0 -0.0780516703 0.1652194065 0.3067416591 -0.466560711 0.3068577956 -0.4665728935 -0.0937629273 0.1499770183
475297150.0 -0.0761138609 0.1660083409 0.3014723131 -0.4692158968 0.3020579985 -0.4695249737 -0.0922769622 0.1507674207
480297120.0 -0.0742336286 0.1675354397 0.2964677333 -0.4733829496 0.2964868384 -0.4733956205 -0.090665387 0.151813355
485297090.0 -0.0725683856 0.1684728463 0.2918598244 -0.4759801731 0.2917348837 -0.4759865728 -0.0893235734 0.1529051646
490297060.0 -0.0710002298 0.1696080432 0.2866148397 -0.479696335 0.2864510752 -0.479746922 -0.0877342583 0.1542146012
495297030.0 -0.0687840363 0.1700225533 0.2808338703 -0.4822934874 0.2814687133 -0.4823980341 -0.086658525 0.1548375691
500297000.0 -0.0667136977 0.1709757598 0.2754530848 -0.4849750891 0.2755217858 -0.4854490656 -0.0850236578 0.1564528582
505296970.0 -0.0648235544 0.1720106979 0.2700055966 -0.4882947085 0.2701203119 -0.4884635558 -0.08370467 0.1569472478
510296940.0 -0.0631031956 0.1729948348 0.2654143739 -0.4916212226 0.2652898373 -0.4914156775 -0.0821176836 0.157933627
515296910.0 -0.061459854 0.1736771218 0.2596480279 -0.4942440375 0.2598498773 -0.494122282 -0.0807204939 0.1588049073
520296880.0 -0.0593073078 0.1745522245 0.2543232734 -0.4973384156 0.2547111951 -0.4966083557 -0.0791580228 0.1595960142
525296850.0 -0.0571823775 0.1747496646 0.2486969829 -0.4993370774 0.2491842554 -0.4998997694 -0.0776566745 0.1604396656
530296820.0 -0.0551331541 0.1759096496 0.2431139533 -0.5025111356 0.2437809063 -0.5027654556 -0.075919089 0.1615902974
535296790.0 -0.0536557332 0.1768655777 0.2382246126 -0.50504187 0.2381620673 -0.5044983688 -0.0746308744 0.1619007625
540296760.0 -0.0518118607 0.1776195299 0.2323040948 -0.5078847691 0.2322995675 -0.5076793383 -0.0730037689 0.1635579471
545296730.0 -0.0500194383 0.1782600914 0.2265438845 -0.5098699179 0.226931487 -0.5097781412 -0.0715943526 0.1636453676
550296700.0 -0.0476742461 0.1788880593 0.2211972121 -0.5122298466 0.2214354283 -0.5122261171 -0.0700524612 0.1646217034
555296670.0 -0.0460511091 0.1794544327 0.2158181152 -0.5147058622 0.2160417363 -0.514548244 -0.0683237804 0.165729598
560296640.0 -0.0437882049 0.1804398262 0.2101831675 -0.517049507 0.2103506862 -0.5172438827 -0.0665508784 0.1662554308
565296610.0 -0.0419391621 0.1807959224 0.2043157835 -0.5193233117 0.2047681285 -0.5193449089 -0.0652402722 0.1665458202
570296580.0 -0.0404030102 0.1816325482 0.1987142343 -0.5219310374 0.1984759911 -0.5212819825 -0.0638528256 0.168231174
575296550.0 -0.038400976 0.1824328925 0.1934116273 -0.52388301 0.1926869676 -0.5235777532 -0.0615217433 0.1687413816
580296520.0 -0.0357898544 0.1825002371 0.1870778659 -0.5254467588 0.1873643037 -0.5254778402 -0.0599122213 0.1691419361
585296490.0 -0.0341304711 0.1826493846 0.1817918484 -0.5271630058 0.1819153153 -0.5273018043 -0.0582961278 0.1700619604
590296460.0 -0.0318133971 0.1835153704 0.17620604 -0.5288203039 0.1764921932 -0.5292237941 -0.0573449189 0.1709540931
595296430.0 -0.0298395243 0.1840397053 0.1698956221 -0.5314364734 0.1702385615 -0.5313923928 -0.0552369081 0.1713171824
600296400.0 -0.0281270275 0.1846814865 0.1646279031 -0.5329607961 0.164801549 -0.5328422375 -0.0539087301 0.1720371907
605296370.0 -0.0259114077 0.1851453894 0.1583446636 -0.5348008226 0.1589852435 -0.5348582781 -0.0518190466 0.1727759271
610296340.0 -0.0238449116 0.185161881 0.152352533 -0.5359055514 0.1530617956 -0.5364239299 -0.0502367878 0.173702468
615296310.0 -0.0213842377 0.1855740283 0.1467026562 -0.5372378187 0.1468702571 -0.5385245343 -0.0480022559 0.1744593848
620296280.0 -0.0197097826 0.1858378829 0.1409757531 -0.5396158441 0.1412541059 -0.5396639603 -0.0469813424 0.1749467917
625296250.0 -0.0178139168 0.1860244826 0.1358744127 -0.5412572974 0.1352330168 -0.541143117 -0.0445118954 0.1756221007
630296220.0 -0.0150997117 0.1865123196 0.1289592066 -0.542309621 0.1292829059 -0.5424189748 -0.0432952905 0.1763455628
635296190.0 -0.0139886148 0.1868836434 0.1238908893 -0.5434784218 0.1238648043 -0.5440231613 -0.0413796925 0.1766220997
640296160.0 -0.0116749733 0.1874377689 0.1179790648 -0.5448738808 0.118401609 -0.5450123537 -0.0399201093 0.1774175904
645296130.0 -0.0095240565 0.188013388 0.1119994751 -0.5457073366 0.1120188292 -0.5462826118 -0.0382227223 0.178118463
650296100.0 -0.0070977619 0.187564154 0.1058027466 -0.5472408031 0.1062204009 -0.5475128141 -0.0361175521 0.1778904334
655296070.0 -0.0055173835 0.1880416284 0.0999146009 -0.5483344835 0.1004140029 -0.5482997656 -0.034230956 0.1789513774
660296040.0 -0.0035495696 0.1880367206 0.094172038 -0.5491629496 0.0942347032 -0.5494829108 -0.0326127842 0.1794821226
665296010.0 -0.001148426 0.188019616 0.0879090914 -0.5502099123 0.0881731911 -0.5502261048 -0.0309096217 0.1805901001
670295980.0 0.000448318 0.1885194341 0.0821529709 -0.551457567 0.0823228726 -0.551192837 -0.0300292319 0.1802389238
675295950.0 0.0027726436 0.1888059172 0.076195589 -0.5518890797 0.0764218974 -0.5516587972 -0.0280842854 0.1811255585
680295920.0 0.004737442 0.1886728618 0.0702350783 -0.5526021993 0.0696399956 -0.5530004844 -0.0261317288 0.1816937299
685295890.0 0.0071408743 0.1893578622 0.0641543103 -0.5535441874 0.0641254153 -0.5539250692 -0.0242940622 0.1818843325
690295860.0 0.0091935378 0.1892474619 0.0579770969 -0.553472622 0.0583658713 -0.5545632627 -0.0225990873 0.1829080352
695295830.0 0.0111419957 0.1889941615 0.0525639418 -0.5547269673 0.0520609939 -0.5544728475 -0.0206431173 0.1825882216
700295800.0 0.013229028 0.1886788368 0.045867777 -0.5548141633 0.0460431479 -0.5547184593 -0.0193321375 0.1834182021
705295770.0 0.0150797307 0.1893864452 0.0398336874 -0.5557617778 0.0406771184 -0.5558218373 -0.0175274942 0.1838259407
710295740.0 0.0173132332 0.1890605328 0.0342398056 -0.5564423603 0.0348751618 -0.5563307149 -0.0156263931 0.1830711885
715295710.0 0.0190737403 0.1888324555 0.0284066433 -0.5562748389 0.0281375466 -0.5562497832 -0.0137008076 0.1839763051
720295680.0 0.0215648926 0.1886867217 0.022316034 -0.5563948843 0.0228213735 -0.5564798341 -0.0117432737 0.1842326678
725295650.0 0.023628364 0.1889567746 0.0164071633 -0.5567041005 0.016428227 -0.5566469155 -0.0106537642 0.1850092037
730295620.0 0.0258935323 0.189276423 0.0104191053 -0.5569603839 0.0104550587 -0.5566995697 -0.0086216052 0.1846900961
735295590.0 0.0278123347 0.1886267905 0.0045484838 -0.5570566014 0.0043708682 -0.5567714432 -0.0070883699 0.1847817471
740295560.0 0.0297729599 0.1887063689 -0.0017894142 -0.5568998729 -0.0014593181 -0.5571867327 -0.0045664621 0.1852804332
745295530.0 0.0315896659 0.1885262906 -0.0078946425 -0.5564748808 -0.0078453362 -0.5569125799 -0.0027796292 0.1850715602
750295500.0 0.0339949981 0.1879553353 -0.0135426877 -0.5561970866 -0.0131108757 -0.5566177899 -0.0012307936 0.185538971
755295470.0 0.0362223694 0.1875521981 -0.0196779759 -0.5565870763 -0.0194402684 -0.5569737257 0.0011271301 0.1851275329
760295440.0 0.0378832524 0.1877812725 -0.0255307079 -0.5568796402 -0.0258252868 -0.5565560613 0.0028056341 0.1853429297
765295410.0 0.0400166607 0.1873271665 -0.0318431452 -0.555535341 -0.0319952122 -0.5560812382 0.0045854512 0.1858048827
770295380.0 0.0416952038 0.1867817606 -0.0376134664 -0.555765917 -0.0379428237 -0.5552626677 0.0063424725 0.1859905497
775295350.0 0.0437750769 0.1862272832 -0.0437252981 -0.5545563642 -0.0434270332 -0.5551270997 0.0071946927 0.1863743186
780295320.0 0.0459881135 0.1859237533 -0.0495406338 -0.5540956974 -0.049081861 -0.5542191425 0.0096543658 0.1858916444
785295290.0 0.04777944 0.1852371696 -0.0558483818 -0.5532128247 -0.0554321398 -0.5533599568 0.0119862492 0.1862681926
790295260.0 0.050580081 0.1858569536 -0.0614690096 -0.553162255 -0.0607933693 -0.5529192855 0.013462309 0.186650261
795295230.0 0.0522924875 0.1847376504 -0.0675095299 -0.5519988923 -0.0670427072 -0.5523928023 0.0155563328 0.1864120572
800295200.0 0.0540138236 0.1847542895 -0.0740718844 -0.5514565905 -0.0733370644 -0.5514774022 0.0173343823 0.1862045798
805295170.0 0.0563926552 0.1840185082 -0.0793234984 -0.5505228004 -0.079392243 -0.5509913219 0.0192777658 0.1867411484
810295140.0 0.0582380411 0.1830985036 -0.0847677744 -0.5491592854 -0.0851715298 -0.549836409 0.0211848096 0.1865569126
815295110.0 0.0604961598 0.1825293338 -0.0914840951 -0.5483788467 -0.0911154616 -0.5489532241 0.0227155575 0.1865197829
820295080.0 0.0621739349 0.1826490654 -0.0971298302 -0.5471281482 -0.0961638656 -0.5478555905 0.0247237227 0.1867059685
825295050.0 0.0647946702 0.1817367541 -0.1026934772 -0.545966824 -0.1027092897 -0.5465364778 0.0267470469 0.1866272135
830295020.0 0.0662317185 0.1814608061 -0.1088836952 -0.545300956 -0.1084589786 -0.5451250165 0.028929095 0.1863239589
