!Created with skrf (http://scikit-rf.org).
# Hz S RI R 50.0 
!freq ReS11 ImS11 ReS21 ImS21 ReS12 ImS12 ReS22 ImS22
300000.0 -0.2393067743 -0.091693381 0.4708394478 0.0610983368 0.4699975669 0.0577458528 -0.2395210017 -0.0980855253
5299970.0 -0.2450069124 0.0063625024 0.474932465 0.0051624208 0.4747210985 0.0050610943 -0.2410318484 0.0074597749
10299940.0 -0.241760987 0.0178504511 0.4767086968 0.0060725757 0.4766771867 0.0061587172 -0.2376597441 0.0203612527
15299910.0 -0.2374122338 0.026686542 0.4803427919 0.0074932864 0.480304445 0.0078164383 -0.2331558871 0.0300516682
20299880.0 -0.2327859836 0.0339255177 0.4852179843 0.0081800963 0.4848984968 0.0082265287 -0.2279871241 0.0378865425
25299850.0 -0.2278686055 0.040197556 0.4901788741 0.0070547769 0.4901269218 0.0076131944 -0.2218405543 0.0447979807
30299820.0 -0.2225133429 0.045192498 0.4956832393 0.004665232 0.4954067882 0.0047332016 -0.2160260387 0.0502107296
35299790.0 -0.2173431673 0.049039595 0.5010904786 0.0016981882 0.5008646819 0.0016955371 -0.2106820839 0.0543913783
40299760.0 -0.2127523661 0.0524356509 0.5059961873 -0.002366893 0.5058402735 -0.0021702027 -0.205174188 0.0574541538
45299730.0 -0.2078730863 0.054973809 0.5105441872 -0.0068902502 0.5106774311 -0.006802585 -0.2002288422 0.0601491993
50299700.0 -0.203927981 0.0567665485 0.5149554739 -0.0126263874 0.5147294783 -0.0121017384 -0.1955720472 0.062297698
55299670.0 -0.2000090595 0.0583643827 0.5188828387 -0.018777941 0.5184316132 -0.0184577329 -0.1914135576 0.0642072245
60299640.0 -0.1960035472 0.0601091216 0.5219732022 -0.0253755859 0.522347887 -0.0245941093 -0.187380913 0.0654535444
65299610.0 -0.1931375937 0.0611756925 0.5249467897 -0.0311580152 0.5249165204 -0.0310160191 -0.1838990567 0.0666514756
70299580.0 -0.1899841119 0.0620713859 0.5273180898 -0.0377883766 0.5270526649 -0.0378668911 -0.1804492876 0.0678182925
75299550.0 -0.1872041317 0.0629078878 0.5289501499 -0.044448399 0.5289317058 -0.0446754732 -0.1777124092 0.0684712997
80299520.0 -0.1846350625 0.063673241 0.5307859214 -0.0515897307 0.5311766327 -0.0514409273 -0.1751402855 0.0691186172
85299490.0 -0.1823644588 0.0640911354 0.5315202912 -0.0583872874 0.5321085175 -0.0578456112 -0.1727604861 0.0696347213
90299460.0 -0.1804085436 0.0647524862 0.5330664553 -0.0653286417 0.5336330888 -0.0654934373 -0.1705477841 0.0705531011
95299430.0 -0.1780540868 0.0652199924 0.5342088046 -0.0720463167 0.5342469956 -0.0721463547 -0.1682659778 0.0710922479
100299400.0 -0.1766402229 0.0662519132 0.5340093543 -0.0793985394 0.5340401832 -0.0791998989 -0.1658317005 0.0715750254
105299370.0 -0.1746788262 0.0669780229 0.5345970938 -0.086352211 0.5347470361 -0.0860356056 -0.1638055402 0.0724066362
110299340.0 -0.1733261675 0.0675754865 0.5349728906 -0.0921893246 0.5347592716 -0.0924743114 -0.1629694474 0.0727735148
115299310.0 -0.1720112582 0.0681645604 0.5344947283 -0.0998072185 0.5348470834 -0.0994511542 -0.161193426 0.0737482648
120299280.0 -0.17066609 0.0686039415 0.5343536112 -0.1063969179 0.534433979 -0.1064236502 -0.1594729928 0.0745331137
125299250.0 -0.1694568905 0.0691066028 0.5343174935 -0.1124532379 0.5344863777 -0.1125934764 -0.1584213105 0.0748902697
130299220.0 -0.1687188082 0.0703713158 0.5335660127 -0.1198181019 0.5335695028 -0.1196109981 -0.1570233208 0.0759657205
135299190.0 -0.1674193013 0.0713595477 0.5330791217 -0.1266058896 0.5328208143 -0.1257913802 -0.1556683551 0.0768679247
140299160.0 -0.166630278 0.072117187 0.531855297 -0.1328168811 0.532310997 -0.1332236525 -0.1544332134 0.0781250933
145299130.0 -0.1656006458 0.0728749162 0.5314698611 -0.1397396606 0.5307473861 -0.1394604617 -0.1536104603 0.0789044952
150299100.0 -0.164197765 0.0738294917 0.5298533829 -0.1456192436 0.5301103939 -0.1456208747 -0.1522367085 0.0800743332
155299070.0 -0.1637201942 0.0747013221 0.5287520651 -0.152957699 0.5284339325 -0.1523477391 -0.1511891184 0.0814799763
160299040.0 -0.1627088695 0.0758468943 0.5274327249 -0.1592323088 0.5273168265 -0.1591830821 -0.1505052455 0.0822448129
165299010.0 -0.1619069497 0.0769201858 0.5260378538 -0.1656786521 0.526065529 -0.1653761272 -0.1493318065 0.08350697
170298980.0 -0.1614955605 0.0777563588 0.5244165165 -0.1718197526 0.5246541233 -0.1718243026 -0.1483871929 0.0847106848
175298950.0 -0.1608739031 0.0789914216 0.5228812696 -0.1780588142 0.5229080104 -0.1780922185 -0.1475688032 0.0861198496
180298920.0 -0.1600528045 0.080167651 0.5210846061 -0.1843383931 0.5207843748 -0.1839834601 -0.1465328075 0.0874195294
185298890.0 -0.1587610449 0.0812216146 0.5193260948 -0.1906013397 0.5191007757 -0.1902449259 -0.1455863848 0.0889207952
190298860.0 -0.1585168347 0.0824669224 0.5175321741 -0.1969649091 0.5177714677 -0.1965849811 -0.144651036 0.0895772992
195298830.0 -0.1577212065 0.0833601557 0.5152115617 -0.202952684 0.5153156325 -0.2027721706 -0.1436415208 0.0912091914
200298800.0 -0.1568710325 0.0845517125 0.5133984084 -0.2086706125 0.5133863203 -0.2091420038 -0.1428787836 0.0926111791
205298770.0 -0.1563853599 0.0859348566 0.5109505536 -0.215007234 0.5105639526 -0.2148602566 -0.1418366431 0.0929377592
210298740.0 -0.1553429234 0.0869720251 0.508643884 -0.2209893822 0.5087241783 -0.2206672539 -0.1410699888 0.0953736118
215298710.0 -0.1549584418 0.0884172691 0.5066583577 -0.2269984959 0.5063380633 -0.226948887 -0.1403952027 0.0962158562
220298680.0 -0.1540547119 0.0891574579 0.5037398056 -0.2327407207 0.50388141 -0.2328679766 -0.1397666283 0.0975575254
225298650.0 -0.1535299013 0.0907731002 0.5015129442 -0.2384964223 0.5019705114 -0.2387146941 -0.1390302694 0.0988781087
230298620.0 -0.1527462258 0.0922524975 0.4992308153 -0.2441539163 0.4993800132 -0.2442681866 -0.1380855776 0.1001005728
235298590.0 -0.1515938754 0.0937422096 0.4963037914 -0.2501640874 0.4965146134 -0.2498409408 -0.1367971076 0.1017714542
240298560.0 -0.1508974952 0.0948978522 0.4937519435 -0.2558630443 0.493603205 -0.2560598573 -0.1358545735 0.1032225315
245298530.0 -0.1501277438 0.0961584513 0.4911847603 -0.2615260659 0.4909940781 -0.2613018258 -0.1348822418 0.1038802625
250298500.0 -0.1490530953 0.0976327357 0.4877165583 -0.2672406886 0.487794608 -0.2668586439 -0.1339111552 0.1056097307
255298470.0 -0.1484555263 0.098604652 0.4848557929 -0.2724604039 0.4853290618 -0.2726845145 -0.1329061111 0.1068513479
260298440.0 -0.1478583071 0.0999806397 0.4819791402 -0.2783261438 0.4824085457 -0.2778371777 -0.1314491779 0.1081393244
265298410.0 -0.1466908879 0.1017867743 0.4789543625 -0.2839719037 0.4792731319 -0.2835961151 -0.1301268765 0.1098031692
270298380.0 -0.1458879092 0.1027497798 0.4761590811 -0.2889706248 0.4766344634 -0.2888381973 -0.1296887987 0.1111033026
275298350.0 -0.1448602076 0.104428448 0.4726780575 -0.2946886038 0.4729355252 -0.2942961897 -0.1281825583 0.1124339897
280298320.0 -0.1436968296 0.1058458486 0.4697238827 -0.3003449154 0.4699768426 -0.29995756 -0.126746521 0.113744627
285298290.0 -0.1428668093 0.1072007303 0.4668090969 -0.3051189344 0.4663121038 -0.3054279953 -0.1258650783 0.1150138197
290298260.0 -0.1419657727 0.1086811917 0.4629967171 -0.3101281678 0.4634746974 -0.3105851143 -0.1242713039 0.1166739748
295298230.0 -0.1409205555 0.109637938 0.4600372009 -0.3156112129 0.4599327462 -0.31554634 -0.1224963704 0.1176158506
300298200.0 -0.1402136196 0.1109827407 0.4564869792 -0.3210135034 0.4567453133 -0.3211691122 -0.1216269047 0.1192212362
305298170.0 -0.1388427122 0.1119700855 0.4525664842 -0.3265086567 0.4529986284 -0.3260955996 -0.1201255556 0.1199982428
310298140.0 -0.1382861788 0.1136054114 0.4495560428 -0.3312770239 0.4496143434 -0.331209479 -0.1187885532 0.1215661374
315298110.0 -0.1371466967 0.1146297022 0.4464636014 -0.3362923393 0.4458604249 -0.336607371 -0.1178322748 0.1228025856
320298080.0 -0.1358157456 0.116113833 0.4415139018 -0.3420726027 0.442157854 -0.3417048442 -0.1163093886 0.1241008944
325298050.0 -0.1349641533 0.1172457834 0.4380254711 -0.3467044496 0.4385645314 -0.3465308992 -0.1155833382 0.1255370018
330298020.0 -0.1341388491 0.1182441121 0.4337116571 -0.3521094831 0.4341703915 -0.3520168003 -0.1141568467 0.1267071627
335297990.0 -0.1329283025 0.1194266141 0.4301117729 -0.3563816351 0.4299361124 -0.3566558766 -0.113323894 0.1288043966
340297960.0 -0.1325909914 0.1214116376 0.4260769786 -0.3613229044 0.4256122807 -0.3617743046 -0.1113902243 0.1297143683
345297930.0 -0.1315571772 0.1226477944 0.4220174674 -0.3661394168 0.4213620647 -0.3664272116 -0.1103423402 0.1306096296
350297900.0 -0.1306287445 0.1236719371 0.4172273225 -0.3709285619 0.4174924037 -0.3705136254 -0.10941424 0.1326170322
355297870.0 -0.1291553895 0.1257703393 0.4132443304 -0.3753754959 0.4138077241 -0.3750601539 -0.1082360543 0.1339268059
360297840.0 -0.1282752356 0.126904823 0.4099007658 -0.3797563433 0.4099063211 -0.3793608595 -0.1066145718 0.1353241778
365297810.0 -0.127227719 0.1285691292 0.4054341188 -0.3845242719 0.4056693005 -0.3844048777 -0.1051845013 0.1367545101
370297780.0 -0.1257229579 0.1294667314 0.4009839601 -0.3887237195 0.4014171573 -0.3881681845 -0.1037569563 0.13811032
375297750.0 -0.1244950982 0.131129451 0.3968766396 -0.3933436055 0.3972056517 -0.3930736896 -0.1021946088 0.1391228792
380297720.0 -0.123651521 0.1320826988 0.392471104 -0.3974532498 0.3925591139 -0.3966232175 -0.1012979534 0.1403532173
385297690.0 -0.1224517323 0.1336747895 0.3877223564 -0.4015686705 0.3880292422 -0.4015429123 -0.0997505238 0.1418455774
390297660.0 -0.1211149533 0.1351560341 0.3836943809 -0.4061396808 0.3837088233 -0.4053145223 -0.0984080171 0.1431464155
395297630.0 -0.1199660497 0.1365951725 0.3792868831 -0.4102267964 0.3793667587 -0.410205131 -0.0962240239 0.1442893369
400297600.0 -0.118903856 0.1380321124 0.3743703074 -0.4148495987 0.374817845 -0.4142279706 -0.0949509402 0.1455262864
405297570.0 -0.117454465 0.1389677901 0.3700366886 -0.4182351143 0.3704400772 -0.4183509198 -0.0939303455 0.1470155113
410297540.0 -0.1160540958 0.1399801664 0.3654788767 -0.4221123334 0.3660686655 -0.4223592681 -0.0921016868 0.1479642276
415297510.0 -0.114596216 0.1410730318 0.3605094118 -0.4265631448 0.3612028749 -0.4268057411 -0.0905042185 0.1493410437
420297480.0 -0.1134243886 0.1428413658 0.3556112654 -0.4306962463 0.3563257417 -0.4305952037 -0.0891703803 0.1503043871
425297450.0 -0.1121670705 0.1436235769 0.3516563943 -0.4341339722 0.3518276441 -0.434366455 -0.087949164 0.1517596015
430297420.0 -0.1108668105 0.1448926407 0.3464238096 -0.4379275277 0.3467103452 -0.437632223 -0.0862845348 0.1524532964
435297390.0 -0.1094589143 0.1460305495 0.3414195133 -0.441428713 0.3414770365 -0.4417704701 -0.0837351623 0.1534831781
440297360.0 -0.1078878181 0.1472817956 0.3367602347 -0.4450377749 0.3369619224 -0.4453842298 -0.0825278869 0.1541855989
445297330.0 -0.1066401826 0.1482751554 0.3322440266 -0.44923726 0.3323087039 -0.4481639906 -0.0806797155 0.1550471172
450297300.0 -0.1049827517 0.1494344296 0.3273360851 -0.4528785393 0.3272569922 -0.4528536758 -0.0788124213 0.1562144764
455297270.0 -0.1037622626 0.1507789054 0.3221389569 -0.4562244841 0.322535833 -0.4560193324 -0.0770555333 0.1572614292
460297240.0 -0.1022382687 0.1517504037 0.3168434313 -0.4596090973 0.3175574705 -0.4594317157 -0.0755066358 0.1585905126
465297210.0 -0.1005371054 0.1529732635 0.312019858 -0.4629469746 0.3119950898 -0.4633003624 -0.0738435511 0.1590851411
470297180.0 -0.0993891568 0.1540694697 0.3068461961 -0.4662281301 0.3071497066 -0.4663396193 -0.0716199691 0.1603999366
475297150.0 -0.0978494128 0.1547531381 0.3016589681 -0.4690159612 0.3019768334 -0.4694256496 -0.0696038354 0.1606912227
480297120.0 -0.0965320368 0.156531061 0.2968710195 -0.4730507539 0.296566215 -0.4732885323 -0.0678780352 0.1621940711
485297090.0 -0.0949283193 0.157418115 0.2915172898 -0.4761284029 0.2919039487 -0.4753921273 -0.0661248234 0.1628957611
490297060.0 -0.093977445 0.1585038886 0.2869318052 -0.4795963667 0.2868439398 -0.4790559741 -0.0644269902 0.1639443679
495297030.0 -0.0921050059 0.1593889888 0.2808341356 -0.4822414643 0.2818520193 -0.4822184668 -0.0626729543 0.1649381826
500297000.0 -0.0905040241 0.1602503235 0.2757210282 -0.4852418698 0.2758503721 -0.4849841138 -0.060773887 0.1663724087
505296970.0 -0.0887014781 0.1614004635 0.2704439024 -0.4881883592 0.2703343626 -0.4886297228 -0.0589368773 0.1668410104
510296940.0 -0.0871188215 0.1622824345 0.2648905629 -0.4912253858 0.2649824024 -0.4914712124 -0.057006357 0.1677195303
515296910.0 -0.085738291 0.1635582254 0.2593962219 -0.4938411268 0.2602058072 -0.4938203513 -0.0554100181 0.1685738419
520296880.0 -0.0843016248 0.1644230155 0.2547701815 -0.4970091544 0.2544718169 -0.4966667994 -0.0531925949 0.169047351
525296850.0 -0.0821533469 0.164698462 0.2485628685 -0.4991586365 0.2491943325 -0.4998180819 -0.0514185685 0.1700092173
530296820.0 -0.0806423769 0.1663393425 0.2436888783 -0.5022045738 0.2437154399 -0.5023131343 -0.0495726977 0.1707718246
535296790.0 -0.0795766839 0.1672770285 0.2384092264 -0.5047151922 0.2386319605 -0.5045592714 -0.0480848258 0.1713489155
540296760.0 -0.0779133721 0.1685001248 0.2328017085 -0.5074111589 0.2323761386 -0.5075281541 -0.046266357 0.1721518205
545296730.0 -0.0762501774 0.1689909557 0.2267834501 -0.5093846813 0.2270952422 -0.5096727238 -0.0445799232 0.1727678629
550296700.0 -0.0743591515 0.1701822541 0.2214714954 -0.5118637502 0.2214245677 -0.5123516652 -0.0425170591 0.1735509813
555296670.0 -0.0729162452 0.1706530939 0.2160181932 -0.5143954659 0.216280246 -0.5145417898 -0.0405818127 0.1742419089
560296640.0 -0.0709704762 0.1719672054 0.2101286692 -0.5172322643 0.2101417408 -0.517044237 -0.0383773846 0.1749569278
565296610.0 -0.0698253547 0.1726402768 0.2048028307 -0.5190499246 0.2051301162 -0.5189916945 -0.0370442408 0.1752062516
570296580.0 -0.0681412487 0.1732879107 0.1993276679 -0.5216106112 0.1988829395 -0.5208348079 -0.0352652275 0.1760090707
575296550.0 -0.0667905617 0.1743873891 0.1936415649 -0.5234979299 0.1933205656 -0.5235811525 -0.0327050236 0.1766705038
580296520.0 -0.0643537483 0.1751170011 0.1876087821 -0.5256513942 0.1876256363 -0.5258148077 -0.0310557981 0.1768707992
585296490.0 -0.0629906474 0.1755000698 0.1822018802 -0.5269597083 0.1821810041 -0.5275896672 -0.0290841409 0.1774126189
590296460.0 -0.0609479208 0.1762275838 0.1762025022 -0.5286562816 0.1766628139 -0.529118238 -0.0277513507 0.1777020655
595296430.0 -0.0594928498 0.1771875899 0.1703622094 -0.531241528 0.1704434741 -0.5311013056 -0.025137668 0.1776682109
600296400.0 -0.0579304276 0.1778577092 0.1643989682 -0.5331205663 0.1648762892 -0.5326576175 -0.0234199478 0.1784439753
605296370.0 -0.0561960044 0.1784860474 0.1590883457 -0.5345081841 0.1592985377 -0.5345405531 -0.0213270268 0.1788094702
610296340.0 -0.0542552611 0.1793109063 0.1528213046 -0.5362456621 0.1536466753 -0.5362268533 -0.0188371796 0.1794331866
615296310.0 -0.0524007783 0.179937113 0.1467574608 -0.5376585365 0.1473730836 -0.5384882082 -0.0168194579 0.1795938166
620296280.0 -0.0508249403 0.1802590974 0.1415296626 -0.5393225461 0.1413301976 -0.5391414397 -0.0153758525 0.1800004667
625296250.0 -0.0493290536 0.1806520319 0.1358106143 -0.5412051171 0.1359917144 -0.5410149341 -0.012924199 0.1801766724
630296220.0 -0.0468363845 0.1815544233 0.1294326974 -0.5420897534 0.1295203985 -0.5422491053 -0.0110837732 0.1806707905
635296190.0 -0.0460441876 0.1820450254 0.124095806 -0.5437573038 0.1241046843 -0.5434769308 -0.0087602431 0.1808390765
640296160.0 -0.0441336622 0.1828287931 0.1180679822 -0.5444407704 0.1184781193 -0.5450121757 -0.006820099 0.1811386607
645296130.0 -0.0422697704 0.1833158404 0.1117350245 -0.5460195061 0.1125382383 -0.546154105 -0.0051694599 0.1812878012
650296100.0 -0.0402927074 0.1840976942 0.106280814 -0.546862152 0.1063853836 -0.5470179195 -0.0026099372 0.180992189
655296070.0 -0.038640191 0.184175051 0.1002851775 -0.5481924219 0.1005987762 -0.5479679575 -0.0005933838 0.1814717545
660296040.0 -0.0371042781 0.1845328615 0.0945818047 -0.5492932926 0.0948462859 -0.5495590199 0.0016319517 0.1816196998
665296010.0 -0.034807509 0.1849054869 0.0883098398 -0.5500599066 0.0886577981 -0.5500614514 0.0038924536 0.1823926105
670295980.0 -0.0339567122 0.185894425 0.0827340444 -0.5508861132 0.082839752 -0.5510591652 0.0053052569 0.1822174915
675295950.0 -0.0317278176 0.1864178724 0.0769668715 -0.5518874929 0.0769185305 -0.5512978223 0.0070112588 0.1824434864
680295920.0 -0.0300401239 0.1866312067 0.0706526617 -0.552285419 0.0703529079 -0.5528469685 0.009318161 0.1829599736
685295890.0 -0.0277726113 0.1875236046 0.0645320104 -0.5534835496 0.0645588683 -0.5534312445 0.0114331437 0.1825494145
690295860.0 -0.0259537345 0.187809003 0.0586691417 -0.5534876116 0.0588622103 -0.5542000501 0.0133440407 0.1833328975
695295830.0 -0.0243379807 0.1878486038 0.0530623235 -0.5544896321 0.052755907 -0.5544726948 0.0153869171 0.1828758083
700295800.0 -0.0222512924 0.188107898 0.0464609651 -0.5549264703 0.0466764984 -0.5547130759 0.0171920317 0.183367764
705295770.0 -0.0206251996 0.1890822344 0.0404199202 -0.5555195148 0.0407789973 -0.5556905032 0.0191547957 0.1834359113
710295740.0 -0.0186107337 0.1891418023 0.0350049931 -0.5562910578 0.0352246687 -0.5562564876 0.0215074532 0.1828507316
715295710.0 -0.017353689 0.1893084463 0.0295245321 -0.5560796364 0.0287679069 -0.5562292037 0.023366655 0.1829731061
720295680.0 -0.0152761699 0.1898579167 0.0230553036 -0.5568601025 0.0231142794 -0.5567015432 0.0255012472 0.183056445
725295650.0 -0.0132065449 0.1900480643 0.0168887098 -0.5565603704 0.0170785748 -0.55692417 0.0268549152 0.1830916527
730295620.0 -0.011359656 0.1907389274 0.0107271841 -0.5568303485 0.0109584186 -0.5569108163 0.0289314108 0.1824364313
735295590.0 -0.009824441 0.1906889819 0.0048928506 -0.5571969498 0.0046901027 -0.5570541651 0.0311536039 0.1822079031
740295560.0 -0.00800437 0.191163718 -0.0011584049 -0.5567995044 -0.0009888389 -0.5567034639 0.0336109051 0.1822824477
745295530.0 -0.006046182 0.1913445383 -0.007138021 -0.5564496495 -0.0071112657 -0.5566595228 0.0351194871 0.1818528848
750295500.0 -0.0041804433 0.1914355646 -0.0131459985 -0.556142944 -0.0131093741 -0.5566951476 0.0371018901 0.18168064
755295470.0 -0.0019917134 0.1912688604 -0.0187542089 -0.5562237637 -0.0188282521 -0.5563164231 0.0394749242 0.1806513166
760295440.0 -0.0008292072 0.1917897285 -0.0244962371 -0.55628447 -0.0249798625 -0.5563902174 0.0410435518 0.1805854346
765295410.0 0.0015262509 0.1919027354 -0.0311907891 -0.5557675791 -0.0313896075 -0.5561894027 0.0433468733 0.1807953848
770295380.0 0.0031310997 0.1915278176 -0.0374764844 -0.5552569702 -0.0372492736 -0.5553692966 0.045242822 0.1799431592
775295350.0 0.0048114705 0.1916526866 -0.0432043353 -0.5548672541 -0.0426228777 -0.5545873727 0.046762994 0.1798577342
780295320.0 0.0067868659 0.1922173473 -0.0491736739 -0.5540051598 -0.0482692587 -0.5544669556 0.0490243433 0.1790698537
785295290.0 0.0084586247 0.1915817279 -0.0552950691 -0.5530859752 -0.0546810021 -0.5538465021 0.0515040772 0.1789882935
790295260.0 0.0109962126 0.1922301929 -0.0604328361 -0.5530486341 -0.0598896556 -0.5530629921 0.0534011361 0.1782499784
795295230.0 0.012566515 0.1920532791 -0.0666944551 -0.5521513412 -0.0666701564 -0.5520177254 0.0555867665 0.178098239
800295200.0 0.014505564 0.1921910756 -0.0732662135 -0.5516264077 -0.0728588534 -0.5514016587 0.0576353986 0.1775529263
805295170.0 0.0163581553 0.1919552241 -0.0789477822 -0.5503786431 -0.0790951408 -0.5506692846 0.0594516776 0.1770859793
810295140.0 0.0178647789 0.1918027672 -0.0842613723 -0.5494587008 -0.0844530777 -0.5495725974 0.06166532 0.176683253
815295110.0 0.0199200176 0.1916271295 -0.0905125373 -0.5484730573 -0.0901848126 -0.5487977585 0.0633867814 0.1760876864
820295080.0 0.0213777868 0.1921371346 -0.0963337414 -0.5473893619 -0.0958930207 -0.5476413231 0.0654162571 0.1758614286
825295050.0 0.0239696378 0.1919112398 -0.1018884109 -0.5463412257 -0.1020760437 -0.5466179813 0.0676203901 0.1751907197
830295020.0 0.0257713474 0.1920000432 -0.108028766 -0.545494216 -0.1081865843 -0.5453828306 0.0703893291 0.1744851162
