!Created with skrf (http://scikit-rf.org).
# Hz S RI R 50.0 
!freq ReS11 ImS11 ReS21 ImS21 ReS12 ImS12 ReS22 ImS22
300000.0 -0.7750272123 -0.1762331295 -0.0006177851 0.0020837795 0.0009412885 0.0011491739 -0.2064915107 -0.1050258564
5299970.0 -0.7859004979 -0.009245691 -2.85927e-05 0.0001023923 0.000218727 5.21293e-05 -0.2159854075 0.0060741431
10299940.0 -0.7893381581 -0.0057338035 -0.0001936541 5.72145e-05 4.9294e-05 -0.0001958323 -0.2119618221 0.0188888527
15299910.0 -0.7942128722 -0.0029880657 5.78218e-05 0.0001095369 -0.0001233574 -5.5769e-05 -0.2074268283 0.0282131416
20299880.0 -0.801121423 0.0006208721 8.30118e-05 -4.24636e-05 -9.20182e-05 -2.85451e-05 -0.202515024 0.0356550309
25299850.0 -0.8075835125 0.0065061517 -3.91452e-05 -8.7837e-06 -0.00019969 -3.32186e-05 -0.196803473 0.0416389209
30299820.0 -0.8137191182 0.0142934568 8.3905e-06 9.5956e-05 -4.4456e-06 0.0001244919 -0.1908110716 0.0466236685
35299790.0 -0.8186458168 0.0232170432 -0.0001143754 6.51006e-05 -5.74279e-05 -2.45751e-05 -0.1851341031 0.0503030762
40299760.0 -0.8235193063 0.0317608017 1.11345e-05 -0.0002684028 0.0001141445 1.86651e-05 -0.1795767615 0.0533005329
45299730.0 -0.8265210531 0.0415679839 7.89175e-05 3.32746e-05 2.18101e-05 -4.2857e-05 -0.1743208035 0.0553280907
50299700.0 -0.8292255903 0.052172826 -8.28135e-05 -0.0001160211 6.00235e-05 0.000187964 -0.1694154426 0.0571207237
55299670.0 -0.8312867904 0.0614615786 0.0001083551 -1.87562e-05 8.58524e-05 0.0001664245 -0.1653659587 0.0578464412
60299640.0 -0.8326827201 0.0713693418 0.0001093404 1.58072e-05 -0.0001254196 0.0001303179 -0.1612764117 0.058738277
65299610.0 -0.8333617511 0.0816692385 0.0002260792 7.13254e-05 -0.0001976186 7.01563e-05 -0.1576834063 0.0593909115
70299580.0 -0.8339421803 0.0920445213 -1.4416e-06 -1.27779e-05 0.0002802578 -0.0001075306 -0.1545815499 0.0595639792
75299550.0 -0.833621454 0.1015502727 0.0001149867 8.33888e-05 -0.0001241329 0.0001252802 -0.1514127627 0.0597909532
80299520.0 -0.8337873078 0.112193934 7.89415e-05 0.0002926264 -8.66651e-05 0.0001436615 -0.1489395516 0.0599409433
85299490.0 -0.8325502147 0.1213691292 5.4498e-05 0.0001534727 -0.0001418211 -6.57314e-05 -0.146437086 0.0596284293
90299460.0 -0.8323664895 0.1315981197 0.0001083613 0.0001004505 -0.0001543201 7.55762e-05 -0.1441936619 0.0598590016
95299430.0 -0.831476233 0.141065185 6.9457e-06 0.0002488608 2.30369e-05 0.0002416027 -0.1420841569 0.0600028904
100299400.0 -0.8303929054 0.1503838704 0.0001086189 6.1967e-05 -2.9227e-06 9.14196e-05 -0.1405105978 0.0601946289
105299370.0 -0.8289547104 0.158868774 -0.0001551857 2.98457e-05 -0.0001969546 -0.0001229215 -0.1386322741 0.0598277545
110299340.0 -0.8276931998 0.1685798248 1.035e-05 3.21697e-05 6.16015e-05 -1.12993e-05 -0.1377736599 0.0598450406
115299310.0 -0.8256920813 0.1775712392 3.76006e-05 -9.51553e-05 -0.0002732864 0.0002437683 -0.1360409937 0.0601089736
120299280.0 -0.824298943 0.1866816626 -0.000107638 7.09306e-05 3.47926e-05 0.0001360789 -0.1349042051 0.0600154444
125299250.0 -0.8225423527 0.1958260122 0.0003103663 0.0003042271 0.0001013725 -8.506e-06 -0.1339777568 0.0598801831
130299220.0 -0.8208971998 0.2051290988 -0.0001155139 8.51579e-05 -3.81754e-05 -2.84701e-05 -0.1326919055 0.0599438206
135299190.0 -0.818722828 0.2137461841 0.000177612 5.20412e-05 4.6911e-06 -4.37053e-05 -0.1319249798 0.0604064676
140299160.0 -0.8169892872 0.2233617205 0.0002394846 0.0002376376 -7.22656e-05 0.0001961652 -0.1310650893 0.0606806665
145299130.0 -0.8149269363 0.2318977711 -5.79381e-05 -3.4503e-06 0.0002406496 7.89132e-05 -0.1303730289 0.0610445806
150299100.0 -0.8120777677 0.2414644056 9.86686e-05 0.000157942 -6.9753e-06 0.000127799 -0.1298282196 0.0613898908
155299070.0 -0.8099282543 0.2501090292 0.0001094887 -0.0001503094 8.2468e-05 -1.53598e-05 -0.1289354997 0.0619713559
160299040.0 -0.8080317391 0.2590872599 -2.12276e-05 9.103e-05 0.0001283932 -3.68898e-05 -0.1284117102 0.0621457301
165299010.0 -0.8047248695 0.2673863019 -0.0002012472 1.22217e-05 -0.0001003461 0.0002182222 -0.1274451855 0.062466676
170298980.0 -0.8016287595 0.2760947675 -0.0001263035 -2.4358e-06 -0.0001897887 0.0001113695 -0.1273981184 0.0632279761
175298950.0 -0.7989497721 0.2845221705 0.0001249641 0.0002245073 0.000140766 -0.0001043805 -0.1265747805 0.0640151699
180298920.0 -0.7959894091 0.293351978 0.0001403998 0.0001231118 3.83871e-05 0.0001453078 -0.1257605046 0.0643085664
185298890.0 -0.7925603607 0.3022775842 0.0002614457 -4.58304e-05 0.000146766 -4.62647e-05 -0.1253023318 0.0650237294
190298860.0 -0.7898073333 0.3113125796 3.17011e-05 0.0001087724 7.5929e-06 4.37729e-05 -0.1251542966 0.0656312811
195298830.0 -0.7862409202 0.3189343164 -3.51398e-05 0.0002058198 0.0001026104 -0.0001013795 -0.1250019107 0.0663170951
200298800.0 -0.7828408945 0.3278237736 0.0002758991 -2.63169e-05 0.0001368063 6.97201e-05 -0.1239046145 0.0667798225
205298770.0 -0.7789410767 0.3369263821 0.0001662009 2.74197e-05 5.3775e-06 6.1897e-06 -0.1237062531 0.0678766739
210298740.0 -0.7757947304 0.3448200417 0.000134592 2.57728e-05 0.0002492879 -4.59133e-05 -0.1232394458 0.068463323
215298710.0 -0.7720842693 0.3532184366 0.0001376405 4.86457e-05 0.0002503062 5.70828e-05 -0.1228967056 0.0691431781
220298680.0 -0.7685470292 0.3607346489 -8.49007e-05 0.0001372339 2.37159e-05 9.5025e-05 -0.1223942074 0.0700539241
225298650.0 -0.7644518954 0.3694400823 0.0002413717 5.8711e-05 0.0001985029 0.0002498173 -0.1220286737 0.0711043644
230298620.0 -0.7610265577 0.3776073073 0.0001851358 8.75467e-05 -9.48491e-05 0.0001750876 -0.1214173681 0.071750952
235298590.0 -0.7570648296 0.3858492247 0.0002314153 7.3188e-05 0.0001690029 0.000103415 -0.1209684233 0.0724923476
240298560.0 -0.753296388 0.3933441213 0.0001550403 2.28576e-05 5.28105e-05 0.0002324197 -0.1206505441 0.0734719987
245298530.0 -0.7488467205 0.4014590528 7.08674e-05 0.0001569759 -5.7221e-06 -7.4274e-06 -0.1202523409 0.0744085426
250298500.0 -0.7447446504 0.4091796644 0.0001419284 0.000221576 -0.0001267577 -7.79827e-05 -0.1197502795 0.0755403588
255298470.0 -0.7401798852 0.4172658883 5.72885e-05 -0.0001082327 0.0002185363 0.0001613229 -0.1190571462 0.0761265532
260298440.0 -0.7363442539 0.4250563854 0.000150138 0.0001763257 2.49451e-05 0.0001627 -0.1187617148 0.0771829955
265298410.0 -0.7319489112 0.4324810572 6.76499e-05 -0.0001069758 0.0001904997 8.92369e-05 -0.1178163013 0.0782135622
270298380.0 -0.7275131761 0.4405863676 0.0003013397 0.0001392431 9.87069e-05 0.0001024178 -0.1173747586 0.0790615453
275298350.0 -0.723336762 0.4482627654 7.34441e-05 0.0002506846 5.7451e-06 6.29961e-05 -0.116584466 0.0801277654
280298320.0 -0.7181667215 0.4554189303 9.64561e-05 0.0001371356 0.0001265841 6.21679e-05 -0.1165449047 0.081290185
285298290.0 -0.7136587182 0.463262363 0.0002466768 -8.41769e-05 0.0001675518 5.7234e-06 -0.1160821528 0.0825905289
290298260.0 -0.708488979 0.4709881597 0.0001427278 0.0001829166 0.0002267057 0.0001108917 -0.1155501159 0.0833904362
295298230.0 -0.7040440238 0.4780164114 4.37713e-05 7.50055e-05 0.0002473995 0.0001813054 -0.1146646685 0.0842297739
300298200.0 -0.6996091822 0.4853521308 7.85946e-05 8.14211e-05 -1.70526e-05 0.0001389235 -0.1138908809 0.0855606786
305298170.0 -0.6946673987 0.4922476649 0.000106828 0.0001613474 0.0001117966 -6.04825e-05 -0.1132544273 0.0864677552
310298140.0 -0.6889019744 0.4997366531 -2.87892e-05 0.0001314943 0.0002377944 0.0002936916 -0.1128375994 0.0872479103
315298110.0 -0.684366022 0.5071397742 -0.0001148521 0.000228874 -6.28046e-05 8.45662e-05 -0.1119291581 0.0884810272
320298080.0 -0.6783609434 0.5142527372 1.85715e-05 0.0002933458 -5.4729e-05 0.0002243496 -0.111586359 0.0892905056
325298050.0 -0.6732038473 0.5209337945 3.27044e-05 -2.72401e-05 0.0001824666 0.0002733731 -0.1108074055 0.090095504
330298020.0 -0.6677930921 0.5279753719 6.29438e-05 0.000300628 -4.9105e-06 0.0001336394 -0.1102800067 0.090746742
335297990.0 -0.6628047465 0.5347683742 0.0003235011 0.0001845381 0.0001649663 0.0001207323 -0.1094453138 0.0922911168
340297960.0 -0.6576439844 0.5416179061 0.0002746112 5.19147e-05 7.45321e-05 4.17611e-05 -0.1090162549 0.09329551
345297930.0 -0.6516688334 0.5482900574 -1.02497e-05 -0.000116442 9.82915e-05 0.0001871586 -0.1085128613 0.0942226257
350297900.0 -0.6459940654 0.5545409601 0.0001306216 8.43872e-05 -6.5019e-06 0.0002562842 -0.1080940431 0.0950926233
355297870.0 -0.6410069852 0.5609074595 0.0001659936 -9.46183e-05 0.0001643732 4.51818e-05 -0.107163796 0.0967460202
360297840.0 -0.6349056438 0.5677511377 0.0001779503 -2.69836e-05 1.15391e-05 0.0001924394 -0.1063883254 0.097607431
365297810.0 -0.6297551346 0.5743038569 0.0001634535 -0.0001046333 0.0001502442 6.82841e-05 -0.1058261406 0.098596774
370297780.0 -0.6229817003 0.5807095422 -3.41414e-05 0.0002797099 4.92333e-05 0.0001216049 -0.1050966765 0.0995685732
375297750.0 -0.6176511383 0.5866557143 0.0001946485 3.21729e-05 0.0001460183 6.41325e-05 -0.1044123543 0.1008442153
380297720.0 -0.6121035371 0.5931729579 0.0001649392 -1.40065e-05 9.63658e-05 0.000123205 -0.103565883 0.1021677805
385297690.0 -0.6057667049 0.5993193361 0.0002984443 -5.2634e-05 0.00016516 2.24118e-05 -0.1028870322 0.1034743037
390297660.0 -0.5984336123 0.6054773843 0.0001684478 8.93924e-05 0.0002928191 0.0001779794 -0.1020303884 0.1040032228
395297630.0 -0.5925205941 0.6113234895 9.58921e-05 0.0002850081 2.63956e-05 5.3035e-06 -0.1010315575 0.1050119008
400297600.0 -0.5867297735 0.6180569283 0.0001903277 0.0001114594 5.65321e-05 0.0001643005 -0.1003119644 0.1063079147
405297570.0 -0.5802865655 0.6232569087 0.0001326341 -4.16403e-05 9.59149e-05 0.0002350958 -0.0991765055 0.1070614981
410297540.0 -0.5733426864 0.6293703386 1.72155e-05 0.0002227663 0.0002932246 -2.37659e-05 -0.0984605449 0.1086631338
415297510.0 -0.5675979419 0.635736781 0.0002565696 0.0001472074 0.0001023051 0.0002007844 -0.0975419822 0.1096032789
420297480.0 -0.5606414972 0.6410555533 7.17365e-05 4.38172e-05 -5.79612e-05 5.33028e-05 -0.0962425881 0.1110411005
425297450.0 -0.5540391757 0.6461560495 0.0002438618 9.50808e-05 0.0001449951 0.0001721399 -0.0959644122 0.1114776148
430297420.0 -0.5478919074 0.6518816252 0.0002303963 -0.0002495589 0.0002340317 -0.0001033705 -0.0947195861 0.1125631177
435297390.0 -0.5405749115 0.6573607928 0.0002955242 1.62615e-05 1.95367e-05 5.07142e-05 -0.0945048248 0.1141135826
440297360.0 -0.5337950498 0.6625516938 0.0001516043 7.69805e-05 0.000180528 0.0001255075 -0.092865371 0.1148672224
445297330.0 -0.5265480868 0.6682450707 0.0003118492 4.27055e-05 0.0001570072 8.65503e-05 -0.0917453332 0.1158360662
450297300.0 -0.5199393457 0.673602358 0.0001614963 4.50414e-05 9.02324e-05 0.0001321483 -0.0904940423 0.116625718
455297270.0 -0.5133228079 0.6781647884 5.71835e-05 0.0001422775 0.0003197802 -5.1312e-06 -0.0902866358 0.1176364534
460297240.0 -0.5054153328 0.6842552363 0.0002335891 0.0002534478 3.83095e-05 -0.0001341055 -0.088939007 0.1186861766
465297210.0 -0.4994484525 0.689253218 0.0001496109 4.5594e-05 1.131e-06 9.70912e-05 -0.0878719015 0.1200826014
470297180.0 -0.4920857289 0.694019611 0.0002691891 0.0002463588 6.65868e-05 9.22374e-05 -0.086869011 0.120941702
475297150.0 -0.4844676372 0.6987299327 6.38054e-05 0.0001118815 0.0002316423 2.3516e-05 -0.0857276258 0.1217407032
480297120.0 -0.4768839871 0.7033906564 0.0002502349 0.0002181848 0.0001057064 0.0001933199 -0.0852550909 0.122908561
485297090.0 -0.4695142545 0.7084201413 4.20328e-05 -1.41569e-05 0.0001745219 3.872e-06 -0.0841041194 0.123647286
490297060.0 -0.4620266172 0.7137715388 0.0001696181 5.0904e-06 0.0002139123 0.0001107006 -0.0828114871 0.1248658376
495297030.0 -0.4545500793 0.7182615877 0.0001657822 -3.64648e-05 0.0002205737 0.0001980985 -0.0815462177 0.125654766
500297000.0 -0.4473014523 0.722695374 0.0002693571 -8.0897e-06 0.0002572255 0.0002313318 -0.0806351324 0.1263670478
505296970.0 -0.4394071656 0.7272649214 0.0001646983 -0.0001303724 0.0001335689 5.01853e-05 -0.0794095508 0.1275471088
510296940.0 -0.4319013312 0.7314847762 0.0001495296 -1.42051e-05 4.24084e-05 1.80827e-05 -0.0780669046 0.1286518116
515296910.0 -0.4244031926 0.7355326936 9.76058e-05 9.3937e-06 0.00014323 -7.42665e-05 -0.0771754226 0.1291128686
520296880.0 -0.4159884788 0.7398424321 0.0003127482 -2.20666e-05 0.000171471 -3.66763e-05 -0.0755037334 0.1304806021
525296850.0 -0.4087190105 0.7438363434 0.000231009 0.0001721473 0.0001258941 9.11273e-05 -0.0750516694 0.1311515251
530296820.0 -0.4013953906 0.7479791688 0.0002260172 -9.67779e-05 0.0002621214 -7.98179e-05 -0.0740229881 0.1317089287
535296790.0 -0.3924986221 0.75201203 0.0001771779 0.0001483006 2.97631e-05 2.29509e-05 -0.0723277101 0.1330167594
540296760.0 -0.3847692304 0.7561255108 0.0002747164 0.0001026338 0.0001706789 -8.89274e-05 -0.0716352485 0.1338584589
545296730.0 -0.3775776159 0.7601965616 0.0001248448 6.32366e-05 0.0001956954 0.000112436 -0.0702463897 0.1348650247
550296700.0 -0.3694076143 0.763822794 0.0002980661 0.0002106443 0.0004240277 6.80958e-05 -0.0689204255 0.135430031
555296670.0 -0.3613370398 0.7672690008 7.7797e-05 5.10896e-05 0.0001070681 -0.0001514815 -0.0678082094 0.1361954721
560296640.0 -0.352947265 0.7702026359 0.0001658944 -0.0002866395 0.0002030416 0.0002095837 -0.0669132099 0.1370528604
565296610.0 -0.3458970598 0.7741263837 0.00025708 0.0001466199 0.0001751604 0.0001595547 -0.0654999439 0.1377008669
570296580.0 -0.3371199526 0.7783041269 0.000264343 -3.04113e-05 0.0005360839 9.79201e-05 -0.0642920956 0.1386659657
575296550.0 -0.3282601222 0.781199333 9.70233e-05 -3.59913e-05 0.0003392284 -5.08834e-05 -0.0629451712 0.1394684047
580296520.0 -0.3209388841 0.7846316379 0.000350205 -2.04731e-05 0.0003276752 -3.66539e-05 -0.0616961242 0.1401824609
585296490.0 -0.3124668341 0.7875976409 0.0002690696 8.67799e-05 0.000294572 0.0001217862 -0.0602290718 0.1412401709
590296460.0 -0.3039581646 0.7911683154 0.0002491945 -6.83156e-05 4.83873e-05 1.59022e-05 -0.0590109337 0.1417866507
595296430.0 -0.2960448818 0.7936928738 0.0003300241 0.0001073511 0.0002625171 5.7635e-05 -0.0578503501 0.1422898373
600296400.0 -0.2881632761 0.7966372452 0.0003609677 -0.0001384405 0.0001703309 0.0002076704 -0.0568021929 0.1430421343
605296370.0 -0.2802253629 0.7992909638 2.50294e-05 1.65206e-05 0.0002404765 1.59179e-05 -0.055309131 0.1440745546
610296340.0 -0.2709973273 0.8029306551 0.0002816802 0.0001672507 0.0001449803 4.10411e-05 -0.0540124609 0.1448046661
615296310.0 -0.2629012424 0.8057645547 8.89293e-05 0.0001758681 0.0002840744 -0.0001211538 -0.0523140559 0.1452907716
620296280.0 -0.255030831 0.8086377123 0.000428841 -0.0001774786 0.0002121647 6.63081e-05 -0.0513835068 0.1462570555
625296250.0 -0.2477118648 0.8100166299 0.0003045317 6.07634e-05 0.0004851967 -7.96264e-05 -0.0498147937 0.1466251852
630296220.0 -0.2388201099 0.8131976609 0.0001845342 -0.0001304423 0.0002652723 -8.92044e-05 -0.0484466075 0.147317069
635296190.0 -0.2305458126 0.8156019888 0.0002947388 0.0001156306 0.0002078051 -6.61542e-05 -0.0472495543 0.1479246003
640296160.0 -0.2220853565 0.8176877408 9.88462e-05 0.0001250003 0.0002042565 0.0001365555 -0.0459306651 0.1487918928
645296130.0 -0.2135938139 0.8207084098 0.0005150552 8.5857e-06 0.0002341079 0.0002452608 -0.0445667852 0.1492671325
650296100.0 -0.2054315609 0.8219811624 0.0002626416 -5.06604e-05 0.0002925953 -0.000186379 -0.0430798123 0.1498990628
655296070.0 -0.1978277867 0.8243387517 0.0002690188 0.0001300175 0.0002417516 9.39067e-05 -0.0418397866 0.1505927978
660296040.0 -0.1886987299 0.8260863603 0.000234849 -7.32914e-05 0.0003213498 -7.34723e-05 -0.0403571978 0.1508417196
665296010.0 -0.1807298864 0.8282694066 0.0002851446 -6.84743e-05 0.0004210176 -0.0001192612 -0.0388728341 0.1518034291
670295980.0 -0.1722991509 0.8306871356 0.000367238 -4.713e-07 0.0003392852 0.0002195443 -0.037198973 0.1523897595
675295950.0 -0.1640608803 0.831822664 0.0003125415 -3.18052e-05 0.0001068096 -0.000206362 -0.0361650669 0.1530454918
680295920.0 -0.1564304495 0.8331122102 0.0002434277 -3.9364e-05 0.0003091469 -8.12407e-05 -0.0349694776 0.1531305562
685295890.0 -0.1476218793 0.8352712312 0.0002031473 -0.0001058739 8.79828e-05 7.05518e-05 -0.0332756666 0.1539670068
690295860.0 -0.1392458325 0.8368230392 0.0002559695 -0.0002661042 0.0002405161 -5.89049e-05 -0.031756119 0.1545803876
695295830.0 -0.1306402783 0.8382599094 0.0004097648 -4.04276e-05 -5.57466e-05 -0.0001327453 -0.0305859406 0.1549427129
700295800.0 -0.1222753878 0.8401784123 0.0001643309 -0.0002654189 0.0002124491 -2.3535e-05 -0.0288821065 0.1556077912
705295770.0 -0.114470472 0.8416144144 -1.52293e-05 -8.61251e-05 0.000231105 9.53751e-05 -0.0273767867 0.1562598007
710295740.0 -0.1066949207 0.8421059035 0.0003001684 8.05607e-05 0.000258305 -7.753e-06 -0.0259083534 0.1565170697
715295710.0 -0.0979393407 0.8435846409 0.0003703503 -3.6952e-06 0.000188053 -4.88675e-05 -0.0245782908 0.1564565281
720295680.0 -0.089058267 0.8442711844 -8.05088e-05 4.22409e-05 0.0003518011 -0.0001144105 -0.0232068488 0.1572879564
725295650.0 -0.0812191653 0.8457813064 0.0003501109 -0.0001171897 0.000195104 0.000108239 -0.0216171185 0.1578663588
730295620.0 -0.073639329 0.8464037212 0.0004245957 -0.0001631287 0.0003759193 -0.0001199777 -0.0203670381 0.1583235321
735295590.0 -0.0655347628 0.8473813416 0.0002429511 -0.0001916977 0.0001822639 8.17098e-05 -0.0186744961 0.1581052823
740295560.0 -0.0572931349 0.8470050251 0.0003672922 5.439e-05 0.0002403613 -6.5736e-06 -0.0171938596 0.1589138857
745295530.0 -0.0489155044 0.8485600393 0.0002309258 0.0001622784 0.0002748854 -1.9806e-06 -0.0159073703 0.1593296507
750295500.0 -0.041092647 0.8492613051 0.0002986106 0.0001545066 0.0003449605 9.95034e-05 -0.0142821105 0.1593650663
755295470.0 -0.0324015986 0.8497767272 0.0001726669 -0.000313118 0.00040337 -0.0001367362 -0.0127616931 0.1601458977
760295440.0 -0.0235938755 0.8507411871 0.0001544969 1.49299e-05 0.0002973664 7.95401e-05 -0.0112199295 0.1601429091
765295410.0 -0.0160584607 0.8504153065 0.0006371852 -0.0001398036 0.0002480078 -1.14358e-05 -0.0095779707 0.1606634799
770295380.0 -0.0082606645 0.8509803091 0.0003701329 -4.05228e-05 0.0001698308 -0.0001877009 -0.0084753289 0.160762295
775295350.0 0.0001793183 0.8507996408 0.0002147072 -0.0002982489 0.0005080294 0.0001006195 -0.0066244681 0.1610327289
780295320.0 0.0086087358 0.8515551637 0.0001870503 -5.97147e-05 0.0003695575 2.01607e-05 -0.0050926817 0.1614295521
785295290.0 0.0171740838 0.8508585708 0.0002037762 -4.85592e-05 0.0002551209 -4.57121e-05 -0.0039758448 0.1615284782
790295260.0 0.0251242153 0.8508093939 0.0003222687 -0.0002330354 7.06889e-05 0.00015008 -0.0022675673 0.1621896945
795295230.0 0.0332728627 0.8505459546 0.0002001133 0.0001009302 0.0002307988 6.78482e-05 -0.0009553861 0.161918111
800295200.0 0.0411135523 0.8504289215 0.0002187848 -5.26342e-05 0.0002695967 -4.08954e-05 0.0006624257 0.1621379701
805295170.0 0.0490906891 0.8504001327 0.000382722 -2.61464e-05 0.0003470135 -6.71025e-05 0.0025029385 0.1625218461
810295140.0 0.0577117834 0.8501566495 0.0001832395 -0.0002331259 0.0004105811 1.448e-07 0.0040945367 0.1626713367
815295110.0 0.0654403163 0.8499854899 0.000252582 -0.0001648217 0.0002027 5.56742e-05 0.0051362121 0.1626013724
820295080.0 0.073263279 0.8487910488 0.0003946997 5.55277e-05 0.0004887255 0.0001354743 0.0067048778 0.1631937245
825295050.0 0.0821171615 0.8483426648 0.0003085005 -0.0002082501 0.000238784 -2.39778e-05 0.0089059847 0.1631397218
830295020.0 0.0907909565 0.8476583045 0.0002988553 5.6602e-06 0.0003107796 -0.0001011609 0.0099698451 0.1630890588
835294990.0 0.0979304692 0.8464441348 0.0002077854 -0.0001448209 0.0002467312 -4.12502e-05 0.0116474251 0.1633523013
840294960.0 0.1068638297 0.8449756694 0.0003217343 -6.75474e-05 0.0003245187 -0.0002442186 0.0133348982 0.1632718392
845294930.0 0.1149006811 0.8442233189 0.0003485903 -0.0002472101 0.00017352 -7.09238e-05 0.0150318855 0.1635967138
850294900.0 0.1242643682 0.8429599001 0.0003006053 3.83033e-05 0.0001929359 5.00782e-05 0.0160781391 0.1635157152
