!Created with skrf (http://scikit-rf.org).
# Hz S RI R 50.0 
!freq ReS11 ImS11 ReS21 ImS21 ReS12 ImS12 ReS22 ImS22
300000.0 -0.7789769283 -0.1093350707 -0.001562083 -0.0004520998 -0.0007513649 0.0001224257 -0.0505283231 -0.0640428341
5299970.0 -0.7848553587 -0.0063315045 7.963e-06 4.12957e-05 -0.0002295084 -8.86816e-05 -0.049878998 0.0152371366
10299940.0 -0.7875330112 -0.0044104554 1.72526e-05 0.0001458997 -1.64027e-05 0.0001784122 -0.0439129731 0.0336099072
15299910.0 -0.793291416 -0.0022303404 -7.87475e-05 5.1788e-06 -0.0002153988 8.71358e-05 -0.0354938644 0.0479771522
20299880.0 -0.7997518446 0.0022559224 -0.0001139971 -1.47165e-05 8.47497e-05 -0.0001183424 -0.0252815104 0.0598173331
25299850.0 -0.8063931158 0.0075943308 -0.0001110991 3.48794e-05 9.46525e-05 5.81004e-05 -0.0139943664 0.0693451353
30299820.0 -0.8124098959 0.0152306309 0.0001565971 -0.0001151543 5.08011e-05 2.83153e-05 -0.0021416871 0.0760807685
35299790.0 -0.8174269918 0.0247199334 -4.00972e-05 2.4326e-05 -4.8061e-05 0.0001799488 0.0092954518 0.081322888
40299760.0 -0.8207639708 0.033795127 9.65995e-05 -0.0001483542 4.6616e-05 3.40188e-05 0.0208466164 0.0833951331
45299730.0 -0.8245957337 0.0429606097 0.0001019798 -3.62259e-05 0.0001978638 0.0002393216 0.0314367722 0.0850686112
50299700.0 -0.8273056366 0.0532251545 8.84176e-05 -5.46113e-05 -6.2728e-05 8.8415e-06 0.0414127095 0.084649315
55299670.0 -0.8290828651 0.0629727445 9.22492e-05 3.48292e-05 -0.0001180943 -1.01042e-05 0.0505637192 0.0837899112
60299640.0 -0.8299899291 0.0736638253 8.3005e-05 2.87022e-05 -5.38661e-05 -0.000174402 0.0594777072 0.0819105536
65299610.0 -0.8315291147 0.0834125377 8.23704e-05 4.14208e-05 -0.0001700854 7.8111e-05 0.0671361866 0.0789197329
70299580.0 -0.8315856604 0.0937315157 2.0527e-06 0.0002814675 3.69253e-05 2.13077e-05 0.0741500506 0.0761529465
75299550.0 -0.8322173473 0.1043400436 -2.29834e-05 -2.08824e-05 -0.0001092839 -6.5971e-06 0.0803817078 0.0724192572
80299520.0 -0.8319206737 0.1135822794 -1.67231e-05 8.58505e-05 -6.73329e-05 3.6348e-05 0.0859600797 0.0689830383
85299490.0 -0.8309400901 0.1225700809 5.57497e-05 -3.13581e-05 8.76316e-05 3.87011e-05 0.0908907894 0.0649001844
90299460.0 -0.8305444761 0.1326168079 0.0001997274 0.0002171877 0.0003195193 7.21128e-05 0.0955981978 0.0610610349
95299430.0 -0.8293522576 0.1417977795 -0.0001125482 -0.0002495059 1.9211e-05 -2.12974e-05 0.0995509967 0.0570902
100299400.0 -0.8283615952 0.150865439 -7.92341e-05 0.000108851 0.0001020181 8.90269e-05 0.1037304549 0.0526759523
105299370.0 -0.8271720208 0.1604916598 -0.0002015271 1.00457e-05 0.0001187262 -0.0002046556 0.1070384864 0.0488409502
110299340.0 -0.8255163969 0.1693648934 0.0001235454 0.0001014235 -5.2213e-05 0.000100219 0.1095265396 0.0447420046
115299310.0 -0.8239571087 0.1784117866 0.0001004359 0.0001802001 2.85321e-05 2.77679e-05 0.1123166093 0.0407049223
120299280.0 -0.821971484 0.1871517731 4.0699e-06 -0.000114707 -7.60323e-05 -0.0001494741 0.1145378878 0.0368867422
125299250.0 -0.8206286328 0.196195902 0.0001856668 3.27339e-05 6.5038e-05 0.0002213591 0.1165773239 0.0325548231
130299220.0 -0.8189371163 0.2056648903 6.5756e-06 -2.75807e-05 -0.0002305505 9.80044e-05 0.1180695807 0.0287566755
135299190.0 -0.8168844431 0.2140788759 0.0001783949 -9.97419e-05 0.0001149926 7.62267e-05 0.119783813 0.0250481589
140299160.0 -0.8151832914 0.2233027129 -3.01847e-05 -1.49827e-05 2.4261e-06 0.0001889549 0.1210227511 0.0215597956
145299130.0 -0.8127854637 0.2321789767 0.0001564287 6.84672e-05 8.58028e-05 2.9551e-05 0.1221039838 0.0179222454
150299100.0 -0.8098862645 0.240832647 -4.22746e-05 0.0002400116 -6.25998e-05 -0.0001501749 0.1230338062 0.0149796569
155299070.0 -0.8079397492 0.2491509784 0.0001263577 0.0001023176 -0.0001963092 -8.24118e-05 0.1238918597 0.011323142
160299040.0 -0.8052975924 0.2582503566 -4.16185e-05 3.56549e-05 3.64653e-05 9.90057e-05 0.1240980561 0.0083735546
165299010.0 -0.8031297794 0.2669313765 -2.53112e-05 3.04681e-05 4.04478e-05 -3.68627e-05 0.1250281635 0.0048928391
170298980.0 -0.7995803142 0.2750889193 1.37824e-05 7.26094e-05 -0.0001461453 -0.000175254 0.1250038255 0.0017759808
175298950.0 -0.7968180749 0.2842500779 0.0001478594 1.53534e-05 -4.21944e-05 -0.0001016448 0.1252942751 -0.0014807515
180298920.0 -0.7946820102 0.2925197066 0.000207518 -1.10063e-05 -3.14566e-05 -8.35205e-05 0.1255922144 -0.0044552637
185298890.0 -0.7906771771 0.3005897833 -0.0001191344 0.0002087073 5.00167e-05 -5.59527e-05 0.1255842117 -0.0072753696
190298860.0 -0.7884588987 0.3097627819 7.43803e-05 0.0002315383 3.8018e-06 0.0002816279 0.1253514772 -0.0098031568
195298830.0 -0.7853675119 0.3180541986 0.0001563739 -3.62935e-05 -1.46493e-05 3.88829e-05 0.1255188134 -0.0127714274
200298800.0 -0.7814406887 0.3261440513 8.29589e-05 4.26717e-05 0.0001215265 1.74453e-05 0.1248107763 -0.0157529189
205298770.0 -0.7786062116 0.3343038799 1.6151e-05 0.0004171917 0.0001495937 8.04745e-05 0.1245505719 -0.018369774
210298740.0 -0.7747952585 0.3425814014 0.0001251615 -0.0001632344 -0.0001668547 0.0002277497 0.1241712347 -0.0208793077
215298710.0 -0.771927218 0.350493076 0.0001887009 1.38697e-05 0.0001656336 -1.81332e-05 0.1235273919 -0.0237454569
220298680.0 -0.7676737276 0.3589840443 0.0002707457 -0.0001188207 3.25599e-05 -2.89608e-05 0.1228868984 -0.026144762
225298650.0 -0.7645490798 0.3668525747 5.1206e-06 7.47342e-05 -6.42993e-05 0.0002052455 0.1221655673 -0.0287717665
230298620.0 -0.7599848607 0.3746708579 -4.94206e-05 -5.37579e-05 1.00955e-05 5.33177e-05 0.1214000013 -0.0311164177
235298590.0 -0.7561989378 0.3834899553 -4.16168e-05 0.000198249 -3.74479e-05 -6.16491e-05 0.1210631087 -0.0338014566
240298560.0 -0.7526738016 0.3916676282 2.4963e-06 -1.02923e-05 0.0001893937 0.0001156901 0.1203290815 -0.0359033112
245298530.0 -0.7486636428 0.3988012759 -4.9224e-06 6.28191e-05 -0.0001558151 -8.26839e-05 0.1195731787 -0.0387562595
250298500.0 -0.7441703169 0.4073618888 -2.74445e-05 2.58564e-05 8.8712e-05 5.05318e-05 0.1183531413 -0.0407338225
255298470.0 -0.7393173946 0.413542274 -6.2286e-05 0.0001665025 0.00010884 9.73938e-05 0.1177522962 -0.0433408374
260298440.0 -0.7359882261 0.4217897965 -1.0689e-06 0.0002043164 0.0002061864 0.0001372392 0.1170673591 -0.0453565743
265298410.0 -0.7314361079 0.4299873806 -4.51958e-05 -2.12542e-05 8.63006e-05 -4.01041e-05 0.1162901195 -0.0470577964
270298380.0 -0.7272040888 0.4372321333 4.20875e-05 -0.0001436242 3.1601e-05 0.0001782565 0.115418039 -0.0493355693
275298350.0 -0.7218074287 0.4447612251 -0.000280075 -0.0001749891 2.28409e-05 9.63775e-05 0.1145337846 -0.0513969781
280298320.0 -0.7168884523 0.4523704983 -0.000134419 0.0001145506 -6.23786e-05 0.0001151525 0.1139305307 -0.0537419276
285298290.0 -0.7127784353 0.4599637545 4.94252e-05 0.0001448879 1.16011e-05 -4.02624e-05 0.1129422386 -0.0557029971
290298260.0 -0.7078082737 0.4675076827 2.40948e-05 3.98924e-05 0.0001644053 0.0002213266 0.1123098607 -0.0574039056
295298230.0 -0.7026296453 0.474562663 0.000250674 5.18989e-05 9.40876e-05 -8.53797e-05 0.1113474445 -0.0596121409
300298200.0 -0.6979699063 0.4815365101 0.0001463393 -9.3122e-06 3.93416e-05 -3.26408e-05 0.1103711916 -0.0612287692
305298170.0 -0.6927967673 0.4883751449 0.0001712475 -0.0001462428 3.8238e-06 -1.20012e-05 0.1095823985 -0.0639478133
310298140.0 -0.6877453249 0.4957910744 -1.8905e-06 -0.000124357 -2.37372e-05 -0.0001567043 0.1080291165 -0.0656630016
315298110.0 -0.6830901798 0.5032978788 -0.0002380764 -3.95848e-05 -0.000151718 0.0001922576 0.1069189065 -0.0671393515
320298080.0 -0.6775898131 0.5104553555 4.27391e-05 -8.82163e-05 0.0001696493 0.0001148461 0.1060445364 -0.0693103999
325298050.0 -0.672292584 0.5172232854 -3.22959e-05 -3.72359e-05 -7.87881e-05 0.0001297533 0.1040853464 -0.0711520556
330298020.0 -0.6662625757 0.5235313901 -4.73128e-05 9.80317e-05 7.24297e-05 8.5401e-05 0.1028065709 -0.0725149145
335297990.0 -0.6608870258 0.5306993493 -1.22928e-05 5.80175e-05 6.7311e-05 0.0001228993 0.1014537391 -0.0737959197
340297960.0 -0.6561160039 0.5374161032 0.0002650427 9.45754e-05 1.74238e-05 -7.18674e-05 0.1008028846 -0.0750190421
345297930.0 -0.650239262 0.5441766079 0.0001872034 3.58942e-05 0.0001914594 0.0001337973 0.0989002453 -0.0768255213
350297900.0 -0.6445090924 0.5508999725 0.0001569051 -0.0001954313 -7.04969e-05 0.0001614302 0.0972662865 -0.0775174306
355297870.0 -0.6380376816 0.5582614105 1.50183e-05 6.05818e-05 0.0002981125 -1.49626e-05 0.0957689648 -0.0790528301
360297840.0 -0.6328099136 0.5638448906 0.0001363434 3.43689e-05 2.37617e-05 -0.0002296495 0.0944545392 -0.0805834149
365297810.0 -0.6271973056 0.5709188233 0.0001949611 1.32234e-05 0.0001209675 2.88523e-05 0.0931267003 -0.0819490659
370297780.0 -0.6208833274 0.5769996866 4.99456e-05 3.31803e-05 0.0001220079 -2.11586e-05 0.091881337 -0.0830447459
375297750.0 -0.6143955164 0.583507034 0.0001773664 7.69912e-05 0.000123235 6.19848e-05 0.0901322821 -0.0846736512
380297720.0 -0.609032963 0.5887340619 0.0002684406 7.63412e-05 -5.60006e-05 2.32556e-05 0.0884647835 -0.0855664471
385297690.0 -0.6035839029 0.5951848109 0.0001291052 -0.0001631544 0.0001750719 -9.87032e-05 0.0873337675 -0.0866985064
390297660.0 -0.5967094561 0.6016360506 -2.18931e-05 -0.0001082954 1.25548e-05 0.0002217375 0.0853470887 -0.087783391
395297630.0 -0.5899983228 0.6084255046 -0.0001915042 8.67897e-05 9.3169e-06 -0.0003316472 0.0844702691 -0.0888520063
400297600.0 -0.58415674 0.6144230991 -7.38764e-05 7.79097e-05 0.0002239829 3.53948e-05 0.0828923312 -0.0903118823
405297570.0 -0.5781134139 0.6193763379 0.0002484187 6.41695e-05 0.0001959453 0.0001153624 0.0812102142 -0.0915199754
410297540.0 -0.5715909292 0.6254537671 -0.0001011752 -2.40099e-05 6.37292e-05 -1.44288e-05 0.0795586528 -0.0926432646
415297510.0 -0.564396792 0.6309038902 0.0001177328 4.32044e-05 8.37062e-05 0.00010994 0.077964481 -0.0937186909
420297480.0 -0.5592884534 0.6376595066 8.28472e-05 7.32796e-05 -0.0001017019 -0.0001088554 0.0768525008 -0.0948264913
425297450.0 -0.5516651599 0.6426733021 0.0003660774 0.0001769302 0.000142676 -3.03062e-05 0.0752602855 -0.09588661
430297420.0 -0.5455962298 0.6484303626 0.000262299 6.91524e-05 2.03544e-05 0.0001326161 0.0732350481 -0.0973331618
435297390.0 -0.5389216423 0.6530070221 0.0001564217 -1.36419e-05 5.25796e-05 -0.0001570473 0.0723041445 -0.098349023
440297360.0 -0.531936565 0.6591834915 7.77045e-05 0.0001589072 0.0001464128 0.0002414102 0.0709026614 -0.0991177353
445297330.0 -0.5250548068 0.664508669 0.000108411 2.42067e-05 5.72288e-05 -1.2222e-06 0.0691748354 -0.1005601727
450297300.0 -0.5183755473 0.6691243831 0.0001377892 0.0003333782 9.95237e-05 -5.00968e-05 0.0675735033 -0.1013072556
455297270.0 -0.5116410065 0.6745486117 0.0001235744 -0.0001717188 0.0001419825 5.04236e-05 0.0660015729 -0.10250572
460297240.0 -0.5053805555 0.6798126434 -0.000124991 -0.0002250344 0.00011695 5.47942e-05 0.0643972043 -0.1025804465
465297210.0 -0.4980164112 0.6845582738 0.0001059439 1.96047e-05 8.49542e-05 3.48653e-05 0.0631991815 -0.1038659824
470297180.0 -0.4898906443 0.690167395 3.13769e-05 0.000229927 4.14979e-05 2.7758e-06 0.0620168433 -0.1044480827
475297150.0 -0.4835114135 0.6945878391 0.0001081579 -0.0001159206 0.0002969818 -0.0001017349 0.060180989 -0.1056398236
480297120.0 -0.4767808779 0.6995207139 0.0001037796 0.000142048 0.0001090425 -1.0778e-05 0.0587148154 -0.1062269267
485297090.0 -0.46925712 0.7042534837 0.0001206492 2.39156e-05 9.60837e-05 5.32071e-05 0.0572591152 -0.1067316844
490297060.0 -0.4621439977 0.7084743076 0.0001628167 4.94871e-05 0.0001707238 0.0002355173 0.0556801354 -0.1075960764
495297030.0 -0.4546827913 0.7129319737 0.0004158547 0.0003843477 0.0001481421 -1.93732e-05 0.0535587776 -0.1078932967
500297000.0 -0.4475129206 0.7181000488 0.0001527177 7.15792e-05 0.0001688661 0.0001080124 0.0523868341 -0.1084736313
505296970.0 -0.4403972747 0.7227702332 6.90598e-05 5.21589e-05 1.5288e-06 -2.15451e-05 0.0506178349 -0.1094942404
510296940.0 -0.432973344 0.7267077433 0.0003374999 -0.0002518685 -6.92648e-05 -0.0001778724 0.0490432417 -0.1099838519
515296910.0 -0.4244968068 0.7304621026 2.7723e-06 -0.0001851074 6.83604e-05 -4.82795e-05 0.047862997 -0.1103381628
520296880.0 -0.4177296698 0.7353544336 9.62281e-05 2.10438e-05 0.0001726633 9.98373e-05 0.0459893614 -0.1108909553
525296850.0 -0.4101771032 0.73908119 0.0002138437 -0.0001517349 -2.75375e-05 3.93454e-05 0.0442303769 -0.1107623741
530296820.0 -0.4028786097 0.7437150995 -0.0002950158 -0.0001363895 -0.0001444414 -1.06989e-05 0.042381009 -0.1114983434
535296790.0 -0.3958970394 0.7469884887 0.0002260435 -7.89937e-05 5.94757e-05 -1.77308e-05 0.040390493 -0.1123690393
540296760.0 -0.3885528647 0.7507567465 9.50857e-05 5.09671e-05 0.0002724733 4.9829e-05 0.0387600523 -0.1122181266
545296730.0 -0.3806265861 0.7552185255 0.0001654715 -0.000151886 0.0002552755 -0.0001304263 0.0369057344 -0.1128582819
550296700.0 -0.3734392825 0.7589504457 0.0001050239 0.0002139627 0.0002298482 -6.22771e-05 0.0353487565 -0.1134887104
555296670.0 -0.3643152674 0.7617740001 0.000213443 -7.9642e-06 0.0001313333 4.6148e-05 0.0339161351 -0.1132559814
560296640.0 -0.3577967088 0.7664171371 0.000198369 -7.28684e-05 0.0003180039 1.64472e-05 0.0320338894 -0.1139083034
565296610.0 -0.3495608449 0.7698264778 0.0002559626 3.62826e-05 -9.31016e-05 -7.59459e-05 0.0302897813 -0.1143581044
570296580.0 -0.3423030264 0.7722831359 0.0003649815 -0.0003009692 0.0003078926 0.0001598236 0.0282503395 -0.1143740697
575296550.0 -0.3342237501 0.7766717431 8.98347e-05 -0.0001118122 0.0001178415 -0.0001372006 0.0267220939 -0.1146652218
580296520.0 -0.3260293273 0.7799479749 6.17999e-05 6.18994e-05 0.0001240267 0.0001709521 0.0251878857 -0.1151352216
585296490.0 -0.319244169 0.7824508397 0.0001933022 -0.0001252012 0.0003590403 0.0001270023 0.0234847023 -0.1153994956
590296460.0 -0.3106052369 0.785791823 6.85308e-05 7.05304e-05 0.0003483216 -2.53067e-05 0.0211650569 -0.1157055738
595296430.0 -0.3028143728 0.788160932 -5.93411e-05 -9.90457e-05 0.0001424788 -6.72188e-05 0.0198638404 -0.1161081236
600296400.0 -0.2948323148 0.791964859 1.64939e-05 -6.95753e-05 0.0002288806 -7.3746e-05 0.0181786474 -0.1164146477
605296370.0 -0.2875836205 0.7947602513 0.0002285088 0.000122997 0.0004720782 -7.67933e-05 0.0165700175 -0.1168169572
610296340.0 -0.2792479982 0.7975355684 0.000311433 -2.75964e-05 0.000286213 1.06154e-05 0.0147765467 -0.1163116436
615296310.0 -0.2703811971 0.7998130911 0.0002856901 0.0001737099 0.0001233146 -2.20564e-05 0.0132353209 -0.1169187867
620296280.0 -0.2628598875 0.802117929 -0.0001204145 -0.0001479594 1.28449e-05 0.0001125423 0.0115379122 -0.1169070771
625296250.0 -0.2546336957 0.8050983316 1.08006e-05 6.56727e-05 9.05317e-05 0.0001351004 0.0101840871 -0.1168638968
630296220.0 -0.2463242155 0.8081603024 7.2098e-06 -0.000103419 0.0002765656 3.01068e-05 0.0082766229 -0.1167314841
635296190.0 -0.2388029923 0.8106277785 6.91065e-05 0.0002181551 0.0002296061 -8.72945e-05 0.006996899 -0.1169329892
640296160.0 -0.2310440536 0.8122308601 0.0003306482 9.51811e-05 0.00014033 4.58381e-05 0.0052243666 -0.1170629591
645296130.0 -0.2226991707 0.8150076896 6.2278e-05 -0.000132773 0.0002149146 -4.02959e-05 0.0036201358 -0.1166583336
650296100.0 -0.2142431091 0.8167142125 4.18624e-05 3.56719e-05 0.0001087902 9.28672e-05 0.0019852088 -0.1170395253
655296070.0 -0.2062258892 0.819142379 0.0002530008 0.0001613957 6.48724e-05 -0.0001443515 0.0007472505 -0.1166917878
660296040.0 -0.1980010692 0.8208130189 1.71032e-05 7.12315e-05 0.0001131721 -2.93542e-05 -0.0009982862 -0.1165149247
665296010.0 -0.1897071443 0.8222799726 0.0002229271 -2.76047e-05 0.0003850798 -5.94819e-05 -0.0027505826 -0.1160766522
670295980.0 -0.1817485079 0.8240190573 1.44784e-05 -0.0001253946 0.000239293 8.35757e-05 -0.0046155978 -0.1159265064
675295950.0 -0.1734534513 0.8259918845 0.0002243883 -0.0001149938 0.0001738406 1.75474e-05 -0.0063511556 -0.1156334668
680295920.0 -0.1647563577 0.8280247357 2.87057e-05 0.0001315806 0.0001913024 0.0001409086 -0.0077521694 -0.1151537356
685295890.0 -0.156145456 0.8306182651 0.0002660394 -9.28896e-05 0.000165734 -0.0001256311 -0.0095602278 -0.1149246889
690295860.0 -0.1488970277 0.8310008176 0.0002362961 -0.0001152649 -7.84411e-05 9.7656e-05 -0.0111840076 -0.114287757
695295830.0 -0.1403324469 0.831814653 0.0003969053 -0.0001851974 9.7114e-06 8.11998e-05 -0.0128940901 -0.1141850251
700295800.0 -0.1314259533 0.8338413094 0.000278833 -1.28094e-05 0.0003423128 -3.25249e-05 -0.0145152944 -0.1140149278
705295770.0 -0.1238907594 0.8355879439 -4.4208e-05 2.19768e-05 0.000185736 -0.0001032978 -0.0160862578 -0.1132180892
710295740.0 -0.1151180554 0.8363997361 0.0001246647 7.77418e-05 0.0002745847 2.47792e-05 -0.0179841423 -0.1130064598
715295710.0 -0.1074751453 0.8373229595 0.0002452935 3.23935e-05 0.0001710658 -0.0001693596 -0.019676345 -0.1127240813
720295680.0 -0.0987139981 0.8382730571 4.72182e-05 -9.50521e-05 0.0001136311 -5.22968e-05 -0.0211944214 -0.112090187
725295650.0 -0.0907196108 0.839822405 0.0001477619 -0.0001694758 0.0001370403 -7.7341e-05 -0.0231270794 -0.1114331196
730295620.0 -0.0824415711 0.8402835748 2.50729e-05 2.96089e-05 0.0001715458 -6.18155e-05 -0.025089543 -0.1114702858
735295590.0 -0.0738321408 0.8415813107 0.0001332817 -7.7325e-05 0.0001828519 -2.94047e-05 -0.0267866663 -0.1111941678
740295560.0 -0.0656320107 0.8423811892 0.0001046969 5.0672e-06 4.25543e-05 -0.0001121181 -0.0278764623 -0.1104261185
745295530.0 -0.057183432 0.8422954294 5.7759e-05 -0.0001321839 1.40859e-05 -6.30688e-05 -0.0296213854 -0.1100236099
750295500.0 -0.048697393 0.8432580676 0.0002758199 -3.20721e-05 -4.25833e-05 1.51232e-05 -0.0311235517 -0.1095280349
755295470.0 -0.0405830884 0.8432179308 0.0002299412 -4.47671e-05 0.0003501833 -0.0002762215 -0.0328983434 -0.1093807687
760295440.0 -0.0323956463 0.8435186368 0.0001064149 3.92901e-05 0.0001595794 -0.0001517909 -0.0345580293 -0.108686982
765295410.0 -0.0240497861 0.8437418612 0.0001577101 9.61614e-05 -4.33074e-05 0.0001757025 -0.0359249158 -0.1080518023
770295380.0 -0.0160954548 0.8442214422 0.000201754 -7.91211e-05 0.0001584785 -0.0001238178 -0.0379142312 -0.1076637338
775295350.0 -0.0070329677 0.8442630375 0.0002628958 -0.0003360116 0.0004287595 -0.0002047527 -0.0393790507 -0.1066826964
780295320.0 0.0008252687 0.844284772 0.0002123448 -0.0001771905 6.71064e-05 -0.0001333272 -0.0409018144 -0.1063939253
785295290.0 0.009101233 0.8438687902 0.0003155673 1.09587e-05 0.0001325769 2.24708e-05 -0.0419205706 -0.1057217428
790295260.0 0.0179564689 0.8434815172 0.0001678022 -3.7678e-05 0.0001171189 -0.0002359284 -0.0435749004 -0.105134924
795295230.0 0.0255387395 0.8432514845 0.0003015525 -7.60521e-05 3.4992e-06 -0.0001032216 -0.044925871 -0.1045841439
800295200.0 0.034150123 0.8426946318 0.0003139571 -0.0002121628 0.0001368621 0.0001058292 -0.0465226976 -0.1032076653
805295170.0 0.0430442686 0.8427136205 0.0001087248 7.01686e-05 0.0003502898 -2.566e-06 -0.0479274463 -0.1027951323
810295140.0 0.0512769145 0.8425238568 0.0002083389 -2.27202e-05 0.0001934144 -1.09935e-05 -0.0490478908 -0.1022451394
815295110.0 0.0592833466 0.8418201138 4.35196e-05 -0.00013545 6.71455e-05 -3.49329e-05 -0.0509335758 -0.1012764591
820295080.0 0.0671661041 0.8413725432 0.0002646624 -0.0001728856 0.000148375 8.47442e-05 -0.0518307335 -0.1004462518
825295050.0 0.0769048883 0.8407223977 0.0002172837 -0.0001535373 4.83341e-05 0.0001242799 -0.0535778112 -0.0996964986
830295020.0 0.0839605229 0.8398890021 0.0002595442 4.14982e-05 0.0001459209 -8.72558e-05 -0.0543952297 -0.0986116378
835294990.0 0.0920683512 0.8389888132 1.26698e-05 0.0001910807 0.0001044671 -2.96258e-05 -0.0563734606 -0.0978107053
840294960.0 0.1005181716 0.8384121071 0.000261548 0.000217209 0.0001861552 3.72777e-05 -0.0575546715 -0.0967540095
845294930.0 0.1083315894 0.8370657258 0.0001156494 -0.000106968 0.0002162479 -6.55161e-05 -0.0591878344 -0.0957847805
850294900.0 0.1168399829 0.8364521828 0.0002188189 -0.0002230548 0.0001061777 -7.59575e-05 -0.0605096703 -0.094627827
