!Created with skrf (http://scikit-rf.org).
# Hz S RI R 50.0 
!freq ReS11 ImS11 ReS21 ImS21 ReS12 ImS12 ReS22 ImS22
300000.0 -0.2399773961 -0.089582329 0.4715864933 0.0601616254 0.4704377197 0.0571764394 -0.240464862 -0.099238751
5299970.0 -0.2448570247 0.0066171601 0.4748077346 0.0050616945 0.474844926 0.0051716587 -0.2414865492 0.0071904923
10299940.0 -0.2417704167 0.0178786919 0.4764676783 0.0060309559 0.4767919571 0.0063565874 -0.2374988614 0.0203440108
15299910.0 -0.2373795803 0.0268002834 0.4802588761 0.007348117 0.4806249768 0.0075877433 -0.2331991272 0.030199425
20299880.0 -0.2326914086 0.0339131274 0.4848654147 0.0080977378 0.485146201 0.0080493392 -0.2278919788 0.0380073208
25299850.0 -0.2276656366 0.0402154646 0.4901610671 0.0073801033 0.490229977 0.0072492725 -0.2219204831 0.0447179964
30299820.0 -0.2226386057 0.0450118232 0.4956255948 0.0047133345 0.4955097602 0.0050657034 -0.2160220332 0.05015948
35299790.0 -0.2174636647 0.0491498174 0.5011522446 0.0013391825 0.5010641999 0.0017590169 -0.210592488 0.0542240257
40299760.0 -0.2127595643 0.0523498998 0.5057786555 -0.002331537 0.50590208 -0.0021953711 -0.2052908932 0.0573097121
45299730.0 -0.208083888 0.054740458 0.510530003 -0.0069104939 0.5105987682 -0.0070305501 -0.200380938 0.0602214991
50299700.0 -0.2037875174 0.0570219412 0.5145517875 -0.0124147818 0.5149950461 -0.0120801965 -0.1956284366 0.0622753032
55299670.0 -0.2000395503 0.0586524389 0.5187695225 -0.0187358372 0.5183672612 -0.0183477018 -0.1913367541 0.06429384
60299640.0 -0.1960245125 0.0600508027 0.5219160713 -0.0252122048 0.5221197312 -0.0244379542 -0.1876846997 0.065392669
65299610.0 -0.1928900826 0.0608019731 0.5247742541 -0.031337489 0.5247517851 -0.0310068449 -0.1841643197 0.0664751189
70299580.0 -0.1900141446 0.0621464641 0.5272600614 -0.0377081683 0.5271634782 -0.0374653459 -0.1805442768 0.0673532416
75299550.0 -0.1869497242 0.0631440403 0.5289985934 -0.0445557173 0.5288858795 -0.0445825171 -0.1777669329 0.068346284
80299520.0 -0.1847903726 0.0636024173 0.5311813138 -0.0514955018 0.5311027777 -0.0514342133 -0.1751366068 0.0691011399
85299490.0 -0.1825239131 0.0639537279 0.5317009263 -0.0577490874 0.532137532 -0.0577188522 -0.1729309418 0.069572122
90299460.0 -0.1803479613 0.0649357981 0.5329648432 -0.0653502023 0.5336561634 -0.0649855122 -0.1703202004 0.0702657634
95299430.0 -0.1781658196 0.0651613392 0.5341092953 -0.0720033488 0.5339420765 -0.072098496 -0.1680638159 0.0711388245
100299400.0 -0.1764264251 0.0660413057 0.5337670316 -0.0788766602 0.5340938725 -0.0788847389 -0.1659861758 0.0714136276
105299370.0 -0.17508798 0.067179676 0.5347634954 -0.0860401807 0.5348038948 -0.0858343782 -0.1636887037 0.072178207
110299340.0 -0.1734191898 0.0675064641 0.5349073251 -0.0925339645 0.5346534513 -0.092552209 -0.1626924079 0.0729027052
115299310.0 -0.1718782408 0.0681682727 0.5349081687 -0.0995315766 0.5347406627 -0.0994889073 -0.1612566725 0.0739158977
120299280.0 -0.1704987838 0.0685356943 0.5342743982 -0.106214452 0.5346877397 -0.1063470796 -0.1595721439 0.0746659698
125299250.0 -0.1696142764 0.0691835294 0.5341609192 -0.1130922625 0.5345040599 -0.112890517 -0.1585918163 0.0749354828
130299220.0 -0.1686404122 0.0703349724 0.5333041764 -0.1199243811 0.5335068065 -0.1194398141 -0.1569826127 0.0758485791
135299190.0 -0.1677499104 0.0711452951 0.5330042947 -0.1263278394 0.5329470693 -0.1261134742 -0.1557421388 0.0767742711
140299160.0 -0.1666305562 0.0721329331 0.5317906557 -0.1331797575 0.5324412355 -0.1331291072 -0.1545918564 0.0783405628
145299130.0 -0.1655947327 0.0725681163 0.5316440122 -0.1392671929 0.5307450681 -0.1392706897 -0.1534841803 0.0789392999
150299100.0 -0.1643521387 0.0739837482 0.5301256243 -0.1458340008 0.5302261124 -0.1456919495 -0.1524402607 0.0802078998
155299070.0 -0.1640080027 0.0747861916 0.5289940277 -0.1531517062 0.5286319151 -0.1523472254 -0.1510132836 0.0813142958
160299040.0 -0.1627814149 0.0757673826 0.5275106101 -0.1587610347 0.5271680743 -0.1588804466 -0.1508610864 0.0823822088
165299010.0 -0.1619995163 0.0771705712 0.5260027837 -0.1658164445 0.526304303 -0.165576609 -0.149199262 0.0837466657
170298980.0 -0.1615284263 0.0778617941 0.5245512573 -0.1718473213 0.5247939745 -0.1714933737 -0.1482458273 0.0848487909
175298950.0 -0.1608821081 0.0787433223 0.5233953217 -0.1778145908 0.52267399 -0.1780012724 -0.1476440035 0.0859596554
180298920.0 -0.1600337223 0.0798878251 0.5209576539 -0.1843363417 0.5208693445 -0.1842768533 -0.1466291148 0.0874026176
185298890.0 -0.1585909152 0.0813689845 0.5193318849 -0.1906272297 0.5192912214 -0.1905173422 -0.1456856299 0.088758018
190298860.0 -0.1585590161 0.0823197357 0.5174538177 -0.1968047624 0.517581749 -0.1963889252 -0.1446554069 0.0897851273
195298830.0 -0.1578466863 0.0833412234 0.5156132343 -0.2025532353 0.5152874502 -0.2024612539 -0.1434179751 0.091119694
200298800.0 -0.1568611534 0.0846587853 0.5130299382 -0.2090555674 0.513427099 -0.2088462256 -0.143347112 0.0928264753
205298770.0 -0.156084392 0.0858542221 0.5108325561 -0.2156075862 0.5108813484 -0.2149031951 -0.1419168441 0.0933256738
210298740.0 -0.1551209263 0.0869183448 0.5083405569 -0.2205776941 0.5090028891 -0.2206511761 -0.1409266166 0.0954668912
215298710.0 -0.1551473867 0.0883598684 0.5068585796 -0.2271045054 0.5061550719 -0.2271803147 -0.1404544878 0.0965607014
220298680.0 -0.1540984177 0.0892086596 0.5035221991 -0.2324527129 0.5040991373 -0.2325538225 -0.1398473771 0.097787563
225298650.0 -0.1535163271 0.0906529673 0.5016059069 -0.2388666154 0.5018419635 -0.2385214747 -0.1389373618 0.0988522309
230298620.0 -0.1523717673 0.0922604126 0.4989615731 -0.2442448593 0.4995797502 -0.2443148992 -0.1379588352 0.1002773726
235298590.0 -0.1519355339 0.0938293057 0.4965781636 -0.2501590971 0.4964567899 -0.2497523201 -0.136893485 0.1015393308
240298560.0 -0.1510137703 0.0952276295 0.4939184238 -0.2560699041 0.4935230821 -0.2561052885 -0.1359077661 0.1036266922
245298530.0 -0.150472215 0.0962857389 0.4910721582 -0.2615840832 0.4907195766 -0.2614677718 -0.1345431354 0.1040013601
250298500.0 -0.1491358769 0.0977193155 0.4872912813 -0.2671963849 0.4877852454 -0.2667668347 -0.1338323921 0.1057532602
255298470.0 -0.1484516022 0.0987066229 0.4846023498 -0.2724125068 0.4850071739 -0.272167036 -0.1325353622 0.1064632595
260298440.0 -0.1478255546 0.0999672576 0.4818580348 -0.2782427279 0.4820754563 -0.2781471424 -0.1313315228 0.1084166591
265298410.0 -0.1468796345 0.1016416658 0.4790935597 -0.2840368416 0.4796141907 -0.2834988838 -0.1305253095 0.1099237636
270298380.0 -0.1459257858 0.1032840722 0.4764763272 -0.2892983783 0.476298853 -0.2888437364 -0.1294169003 0.1110741228
275298350.0 -0.1449687756 0.1044637688 0.4731301386 -0.2948944346 0.4733661615 -0.2945240832 -0.1281357114 0.1123055968
280298320.0 -0.1439424149 0.1057810379 0.4698800368 -0.3000464136 0.4697210173 -0.2997124797 -0.1267111202 0.1138178366
285298290.0 -0.1431764002 0.1071908405 0.466879074 -0.3053195632 0.4666122369 -0.3054811922 -0.1256119173 0.1151419796
290298260.0 -0.1420498151 0.1084027657 0.4631820256 -0.3100765764 0.4636349249 -0.310603099 -0.124601575 0.1167859545
295298230.0 -0.1408089748 0.1097106758 0.4598700361 -0.3156378311 0.4602573877 -0.3153732987 -0.1227470179 0.1174996954
300298200.0 -0.1401002423 0.1111517814 0.4568399092 -0.320682348 0.4567464152 -0.3210761329 -0.121718037 0.119225097
305298170.0 -0.1389498059 0.1121196544 0.4524984386 -0.3263295691 0.4530435748 -0.3260307987 -0.1199096036 0.1200936494
310298140.0 -0.1381629707 0.1137666488 0.4493553164 -0.3315213213 0.4498559483 -0.3310948347 -0.1190671181 0.1215317075
315298110.0 -0.1372415546 0.1147304738 0.4459642668 -0.3363817202 0.4459633647 -0.3365298315 -0.1176724317 0.1227002334
320298080.0 -0.1359049343 0.1158216819 0.4411066298 -0.3420087642 0.4419831337 -0.3418727748 -0.1163823734 0.1240235627
325298050.0 -0.1350282214 0.1172116825 0.4382529637 -0.3469757923 0.438613621 -0.3465670801 -0.1155077461 0.1254042121
330298020.0 -0.134079896 0.1184144081 0.4339876302 -0.3517547996 0.434136531 -0.3518124935 -0.1141711962 0.1265329375
335297990.0 -0.133261101 0.1191651983 0.430196215 -0.356056572 0.4302086084 -0.356748159 -0.1132368175 0.1284604221
340297960.0 -0.1325548346 0.1212520526 0.4257202091 -0.3614054053 0.4256156811 -0.3613271029 -0.1114722102 0.1297802861
345297930.0 -0.1311562249 0.1226844984 0.4214527702 -0.3661712015 0.4216527438 -0.3658187799 -0.1106605175 0.1308832983
350297900.0 -0.1305068781 0.1238753944 0.4174246569 -0.3708387286 0.4175733714 -0.3709116985 -0.1094690255 0.1324836363
355297870.0 -0.129230439 0.1256848639 0.4135362602 -0.3752923618 0.4138396014 -0.3750814887 -0.1081005544 0.1339471072
360297840.0 -0.1282954739 0.126985734 0.4096517706 -0.3795452218 0.4097933159 -0.3794817246 -0.1068861289 0.1352954016
365297810.0 -0.1271445021 0.1285307196 0.4051302238 -0.3844011455 0.4056895764 -0.3845197071 -0.1051257262 0.1368152027
370297780.0 -0.1258369622 0.129321974 0.4006082466 -0.3886731581 0.4012093197 -0.3883544617 -0.1037589079 0.1379983512
375297750.0 -0.1245132009 0.1308428321 0.3964670894 -0.3932678063 0.3973300011 -0.3929281163 -0.1025513074 0.1393583553
380297720.0 -0.1233308801 0.1321161871 0.392432805 -0.3974564835 0.3923543507 -0.3969963483 -0.1010279758 0.1405158943
385297690.0 -0.1225368242 0.1336975908 0.3879629988 -0.4017075219 0.3879270832 -0.4014834617 -0.0997135122 0.1418343673
390297660.0 -0.1213248057 0.1349499729 0.3837885914 -0.4059061846 0.383494632 -0.4053538795 -0.0982956142 0.1431963085
395297630.0 -0.1197308677 0.1364632935 0.379189252 -0.4103085638 0.3792382375 -0.4103731858 -0.0961332169 0.1442762819
400297600.0 -0.1184207318 0.1378396147 0.374275771 -0.4147009115 0.3746355851 -0.4143996977 -0.0949512582 0.1454372703
405297570.0 -0.1177331419 0.1387952911 0.370186466 -0.4180982935 0.3699849537 -0.4181775768 -0.0937918828 0.1468763677
410297540.0 -0.1160273922 0.1401711125 0.3654735308 -0.4224823178 0.3658416595 -0.4225255657 -0.0922175899 0.1482485421
415297510.0 -0.1143272323 0.1410283199 0.3604650964 -0.4266615466 0.3614173493 -0.4265008716 -0.0907112095 0.1497395186
420297480.0 -0.1134835582 0.1426462446 0.3560026156 -0.4301151432 0.3559852642 -0.4305293277 -0.0891579435 0.1503116505
425297450.0 -0.1118424052 0.1434873451 0.3515115506 -0.4344681515 0.3519945815 -0.4342321498 -0.0879368818 0.1516859097
430297420.0 -0.1107014844 0.1447557793 0.3466174442 -0.4374902251 0.3465757737 -0.4375328558 -0.0860096027 0.1522662224
435297390.0 -0.1094147492 0.1461461155 0.3412604531 -0.4417307058 0.3413399063 -0.4418830154 -0.0837049102 0.1534110309
440297360.0 -0.1078325973 0.1475212332 0.3367852611 -0.4454116448 0.3371527759 -0.4452155596 -0.0824813824 0.1541866744
445297330.0 -0.1067575064 0.1483700206 0.3324507665 -0.4490830639 0.3324293565 -0.448601563 -0.0805560665 0.1552145551
450297300.0 -0.1049364058 0.14942319 0.3270785051 -0.4526284214 0.3270191053 -0.4528280967 -0.0787786915 0.1561612874
455297270.0 -0.1037172933 0.1505701821 0.3217183755 -0.4562907534 0.3222876417 -0.4560357574 -0.0772682135 0.1573026085
460297240.0 -0.1023586005 0.1519091165 0.3170463999 -0.4597902298 0.3173221099 -0.4595179064 -0.0755480002 0.1584465331
465297210.0 -0.1006604042 0.1531783615 0.3123188193 -0.4630719268 0.3123051483 -0.4635286987 -0.0734060687 0.1590360922
470297180.0 -0.0992961653 0.1538894622 0.3068227353 -0.4667681341 0.3070213726 -0.4663003725 -0.0717586651 0.160455262
475297150.0 -0.0978345483 0.1549517134 0.301611198 -0.4692296774 0.3021114451 -0.4694320688 -0.0696727002 0.1610966593
480297120.0 -0.0961910437 0.1564194082 0.2964333447 -0.4732393557 0.2968787 -0.4731222714 -0.0678543097 0.162335004
485297090.0 -0.094959928 0.1573584334 0.2914419501 -0.4760984229 0.2916234299 -0.4759674793 -0.0662271313 0.1628233604
490297060.0 -0.0937382204 0.1585063584 0.2868421828 -0.4796111679 0.2867765545 -0.479117279 -0.0644401893 0.1638497553
495297030.0 -0.0919812441 0.1594637191 0.2810907095 -0.4824279824 0.2814876655 -0.4820890572 -0.0629086004 0.1647751274
500297000.0 -0.0904007928 0.1604436919 0.2757017471 -0.4852211698 0.2757530086 -0.4849941856 -0.060576496 0.1662192612
505296970.0 -0.0886169119 0.1612708009 0.2706466954 -0.4877825479 0.2704672873 -0.4883251785 -0.0587959425 0.1667830615
510296940.0 -0.0873176664 0.1623463521 0.2653023359 -0.4908866201 0.2651771446 -0.4912479407 -0.0569909546 0.1677269359
515296910.0 -0.0858638391 0.1635096981 0.2599224837 -0.4942442904 0.2602431548 -0.4937800419 -0.0552502587 0.1684083886
520296880.0 -0.084407444 0.1642927715 0.2543684511 -0.4970916276 0.2545855818 -0.4964580483 -0.0534859873 0.1690197488
525296850.0 -0.0824336872 0.1649747996 0.2489831179 -0.4994530592 0.2493819951 -0.4994714607 -0.0515750544 0.1698917328
530296820.0 -0.0807886918 0.1665235268 0.2433518713 -0.5024737559 0.2437424223 -0.502028549 -0.0497217055 0.1707413416
535296790.0 -0.0795548299 0.1673200818 0.2384029916 -0.5047622471 0.2384724747 -0.5039190114 -0.047828219 0.1713392563
540296760.0 -0.0780023692 0.1683196735 0.232511405 -0.507450554 0.2331053144 -0.5072677628 -0.0464321446 0.172509998
545296730.0 -0.0762744447 0.169234553 0.2263053367 -0.5096398755 0.2271824789 -0.5099244591 -0.0444900609 0.1729189533
550296700.0 -0.0742079017 0.1699228504 0.2212212062 -0.5118577066 0.2218576342 -0.5124408563 -0.0426248573 0.1737095655
555296670.0 -0.0729430038 0.1707570555 0.2161809157 -0.5143393121 0.216285358 -0.5142860343 -0.040608342 0.1742411073
560296640.0 -0.0709747276 0.1720386381 0.2104548042 -0.5168862853 0.2104282486 -0.516718215 -0.0386594005 0.1747002479
565296610.0 -0.0696843866 0.1723887357 0.2049126591 -0.5187868302 0.2048939146 -0.5188547504 -0.0368945453 0.1751595248
570296580.0 -0.0680562762 0.1731958169 0.1990227207 -0.5218038701 0.1985699769 -0.5212554892 -0.0351312182 0.1762411995
575296550.0 -0.0664632338 0.1745817619 0.1937718399 -0.5236863249 0.1933956463 -0.5232608051 -0.0329266128 0.1764500453
580296520.0 -0.0649137606 0.1749729844 0.1879815554 -0.5256488371 0.1878677262 -0.5253293968 -0.0310064649 0.1769217263
585296490.0 -0.0631857119 0.175425759 0.1824772186 -0.5268508591 0.1820682436 -0.5276949069 -0.0290625572 0.1776814113
590296460.0 -0.0611232187 0.1764599473 0.1764320069 -0.5288990633 0.1767145373 -0.5289107425 -0.0274434016 0.1778994651
595296430.0 -0.0593470644 0.1771872629 0.1702479814 -0.5310880316 0.1705919869 -0.5312857878 -0.0252317056 0.1779757796
600296400.0 -0.0580342658 0.1779192977 0.1642775878 -0.5331325465 0.164839248 -0.5326432514 -0.0233792292 0.1785080028
605296370.0 -0.0560966732 0.1786091487 0.1590771373 -0.5346699992 0.1595875054 -0.5347200413 -0.0211337478 0.1788990743
610296340.0 -0.0543573736 0.1792794817 0.1527371396 -0.5362725576 0.153639663 -0.5360683558 -0.0191736475 0.1789922702
615296310.0 -0.0524518497 0.1796479919 0.147197993 -0.5376346694 0.1474522687 -0.537689754 -0.0168497137 0.179484865
620296280.0 -0.0508350304 0.1801667006 0.1414898359 -0.5393119361 0.1417600949 -0.5391577002 -0.0151792957 0.1799567406
625296250.0 -0.0492625579 0.1806431277 0.1361434606 -0.5406246952 0.1357950075 -0.5410574729 -0.0129011117 0.1802261704
630296220.0 -0.0467292655 0.1816409807 0.1296208172 -0.5423984663 0.1296887978 -0.5420220779 -0.0108019929 0.1806010454
635296190.0 -0.0459160453 0.1819569269 0.1242047013 -0.5433311918 0.1240701829 -0.5435915988 -0.0088158477 0.1806666459
640296160.0 -0.0442562879 0.1825826268 0.1182487477 -0.5447077743 0.1186473164 -0.5447151981 -0.0069226118 0.1807820563
645296130.0 -0.0420518727 0.1834402262 0.1116195228 -0.5456951367 0.1129100187 -0.5460821848 -0.00482612 0.1814425197
650296100.0 -0.0401086671 0.1838946021 0.106146201 -0.5468897777 0.1068806841 -0.5473486193 -0.0022189307 0.1809728972
655296070.0 -0.0386186847 0.1840721522 0.1002361634 -0.5483439059 0.1007802352 -0.5483565877 -0.0007832243 0.1814373647
660296040.0 -0.0372361935 0.1845035608 0.0946298843 -0.5494218156 0.0947789099 -0.5491047671 0.0015305483 0.1819023114
665296010.0 -0.0347945155 0.1849462336 0.0882250608 -0.5499073561 0.0886214547 -0.5501008956 0.003585929 0.1822384707
670295980.0 -0.0338084452 0.185848005 0.0825472018 -0.5511118932 0.0825690742 -0.550748591 0.0052424652 0.1819998128
675295950.0 -0.0316335472 0.1863884318 0.0769543739 -0.5516210339 0.0771361621 -0.5514727997 0.0073294909 0.1825211615
680295920.0 -0.0299582118 0.1866679525 0.0704349187 -0.5523716569 0.0704512483 -0.5532052444 0.009328285 0.1829904984
685295890.0 -0.0279352146 0.1876584178 0.0649550373 -0.5530937234 0.0645191164 -0.5532674151 0.0113858702 0.1826258723
690295860.0 -0.0260548931 0.1874660996 0.0588929297 -0.5534801098 0.0585378794 -0.5542586723 0.0133783688 0.1831145171
695295830.0 -0.0243033686 0.1879395135 0.053113715 -0.5542787253 0.0526781763 -0.5543594347 0.015516464 0.183015587
700295800.0 -0.0221898866 0.1883912063 0.0468596401 -0.5550536538 0.0468232032 -0.5546433399 0.0172593039 0.1835652623
705295770.0 -0.020899156 0.1892027168 0.0406783732 -0.5555095728 0.0411913651 -0.5555595553 0.0194790767 0.1830838982
710295740.0 -0.0188240367 0.1890043451 0.0351239264 -0.5560890271 0.0350836 -0.556187521 0.0215425367 0.1827189808
715295710.0 -0.0170996544 0.1895675668 0.0294925304 -0.5563560244 0.0290044232 -0.5561857846 0.0233617008 0.182918533
720295680.0 -0.015191316 0.1898328123 0.0227308739 -0.5563570943 0.0233690435 -0.5564031183 0.025167953 0.1831535061
725295650.0 -0.0133705962 0.1899759495 0.0167367214 -0.5564665431 0.0169706695 -0.5569657253 0.0271299135 0.1833255509
730295620.0 -0.0112039193 0.1905305614 0.0109921786 -0.556670012 0.0110546007 -0.5568452829 0.0290948846 0.1825262692
735295590.0 -0.0096134829 0.1907764346 0.0050810902 -0.5572167518 0.0049875588 -0.5567097834 0.0309635756 0.1818791052
740295560.0 -0.0080466367 0.1909954846 -0.0011695507 -0.5566047947 -0.0010796398 -0.5568751402 0.0335041122 0.1823341171
745295530.0 -0.006195003 0.1912494844 -0.007131076 -0.5562454942 -0.0071632716 -0.5567926907 0.0353090644 0.1817228312
750295500.0 -0.0040014844 0.1914330566 -0.0133772608 -0.5564006501 -0.0129637754 -0.5567604738 0.03706836 0.181644268
755295470.0 -0.0021769237 0.1913525448 -0.0189103526 -0.5561029647 -0.0189505523 -0.5563829563 0.0396820143 0.1808041188
760295440.0 -0.0003251292 0.1919286993 -0.0250628228 -0.5564423773 -0.0251901117 -0.5563817924 0.0413829692 0.1808364344
765295410.0 0.0015361536 0.1921788732 -0.0311839751 -0.5558379671 -0.0314646388 -0.5559608628 0.0435899916 0.1807688161
770295380.0 0.0031014354 0.192013666 -0.0373425495 -0.555486364 -0.0372297262 -0.555206712 0.0451385567 0.1799086978
775295350.0 0.0049206924 0.1914528571 -0.0436578655 -0.5541655623 -0.0424987526 -0.5548178092 0.0468426716 0.17994695
780295320.0 0.006932109 0.1922529236 -0.0487549063 -0.5542218438 -0.0483708891 -0.5543396789 0.0487602913 0.1791350791
785295290.0 0.0083627396 0.1916120451 -0.0550244678 -0.5532746266 -0.0547154887 -0.5536773687 0.0516821888 0.179006132
790295260.0 0.0109756052 0.1922491756 -0.0606885006 -0.5525633767 -0.0600498668 -0.5526832232 0.0536118059 0.1786668735
795295230.0 0.0128632729 0.1920690095 -0.0669008321 -0.5524867147 -0.06650092 -0.5522395323 0.0555252094 0.1784128893
800295200.0 0.0141843958 0.1924183078 -0.0733340471 -0.5512891183 -0.0728954107 -0.551588956 0.0575200446 0.1771992284
805295170.0 0.0163592002 0.1921409682 -0.0790264507 -0.5504733058 -0.0785178459 -0.5508826137 0.0591062631 0.1774049728
810295140.0 0.0180245447 0.1917485043 -0.0847220306 -0.5495725795 -0.0845643824 -0.5500795253 0.0616431227 0.1768281485
815295110.0 0.020128771 0.1915497448 -0.0900402882 -0.5480662609 -0.0900843669 -0.5491631446 0.0633885639 0.1761949603
820295080.0 0.0217455912 0.1923609647 -0.0964926567 -0.5475046743 -0.0958854833 -0.5475941225 0.0654327036 0.1756190972
825295050.0 0.0239276463 0.1916100604 -0.1018264468 -0.5462412525 -0.1019706837 -0.5468026933 0.0677820438 0.1750965958
830295020.0 0.0256092163 0.1917068611 -0.1081227656 -0.5452373558 -0.1079765583 -0.5451532696 0.0702108677 0.1746285842
