!Created with skrf (http://scikit-rf.org).
# Hz S RI R 50.0 
!freq ReS11 ImS11 ReS21 ImS21 ReS12 ImS12 ReS22 ImS22
300000.0 -0.2395656669 -0.0825430763 0.4717230727 0.0563901918 0.4681374235 0.0548819205 -0.2410272314 -0.095647697
5299970.0 -0.2441378731 0.0069742575 0.4735105502 0.0054763782 0.4737199496 0.005255614 -0.2440835248 0.007232614
10299940.0 -0.2410431973 0.0187026621 0.4752995687 0.0060411864 0.475539538 0.0066377443 -0.2410135147 0.0202035395
15299910.0 -0.2368174407 0.0279418826 0.4795212656 0.0077073429 0.4792211575 0.0076978081 -0.2363598235 0.0296320593
20299880.0 -0.2321194187 0.035238634 0.4839424344 0.0085629748 0.4840061195 0.0082452893 -0.2308218002 0.03754943
25299850.0 -0.2268566874 0.0421128955 0.489061098 0.007179649 0.4890699479 0.0074084042 -0.2251176204 0.043987234
30299820.0 -0.2215087044 0.0470989211 0.4946273417 0.0054251788 0.4945246805 0.0056552628 -0.2193355102 0.0492840096
35299790.0 -0.2163152157 0.0514050754 0.4995545375 0.0017449274 0.5000032308 0.0020979668 -0.2136843315 0.0534386826
40299760.0 -0.2113895961 0.055088421 0.5047195033 -0.0016041529 0.5053695621 -0.0017678011 -0.208161376 0.0561608194
45299730.0 -0.2064614258 0.0577028421 0.5095562058 -0.0065908193 0.5100200445 -0.0062748897 -0.203334013 0.0590717418
50299700.0 -0.2024810733 0.0599927787 0.5142616698 -0.0117070282 0.5142193333 -0.0115738548 -0.1986871912 0.060680527
55299670.0 -0.1984433772 0.061656765 0.5181022214 -0.0182601846 0.5178025156 -0.0179561384 -0.1944162191 0.0623618824
60299640.0 -0.1943599953 0.0635164268 0.5213677468 -0.0242980905 0.5213177568 -0.0237650428 -0.1905118523 0.0630058664
65299610.0 -0.1909735697 0.0648008814 0.523939716 -0.0308508835 0.5241789544 -0.0304654193 -0.1871725241 0.0642944972
70299580.0 -0.1880215384 0.0662098703 0.5266737357 -0.0372948431 0.5265354526 -0.0372083154 -0.1836154944 0.0647692855
75299550.0 -0.1850513366 0.0674739403 0.528403597 -0.0440916538 0.5283182389 -0.0441321925 -0.1808308053 0.0650877939
80299520.0 -0.1826442236 0.0683053841 0.5304857695 -0.0508729621 0.5304825913 -0.0509163026 -0.1783308797 0.0657032196
85299490.0 -0.1802451441 0.0687839125 0.5316724867 -0.0575535409 0.5315807125 -0.0571373332 -0.1761223461 0.0659397312
90299460.0 -0.1777273051 0.0698105644 0.5327142889 -0.0647409014 0.5330765503 -0.0646243829 -0.1735277773 0.0669358209
95299430.0 -0.1755154856 0.0703898309 0.5339187419 -0.0713959049 0.5336285724 -0.0718633068 -0.171543694 0.0671565761
100299400.0 -0.1739380572 0.0717768437 0.533957817 -0.0787093957 0.5337440935 -0.0786148466 -0.1693914921 0.0676186594
105299370.0 -0.1718684262 0.0723076609 0.5344466376 -0.0858092794 0.5346384844 -0.0853334832 -0.1675091346 0.0679109739
110299340.0 -0.1704959897 0.0732425211 0.5348720019 -0.0920246692 0.5341628597 -0.0919860254 -0.1665863737 0.0681950286
115299310.0 -0.1688457638 0.0741261135 0.5347828542 -0.0991170955 0.5345053226 -0.0990402104 -0.1648385752 0.0689249332
120299280.0 -0.1674251047 0.0746309675 0.53393556 -0.1060876439 0.5341793238 -0.1055701617 -0.1634516306 0.0692480154
125299250.0 -0.1661805114 0.0753525844 0.5339849227 -0.1122800754 0.5340659797 -0.1122694955 -0.1624506959 0.0695426796
130299220.0 -0.1651137995 0.0768710785 0.5331196863 -0.1194326441 0.5333137726 -0.1192706041 -0.161185354 0.0705935319
135299190.0 -0.163689639 0.077902002 0.532931869 -0.1261312362 0.5325735274 -0.1259633455 -0.1599176488 0.0711008639
140299160.0 -0.1624907587 0.0787679907 0.5320734497 -0.1326933087 0.5322102351 -0.1329412332 -0.1588076385 0.072207197
145299130.0 -0.1615211271 0.0801120239 0.5315117003 -0.1395943846 0.5307922602 -0.1393794612 -0.1579671777 0.0728784048
150299100.0 -0.1602658374 0.0811731642 0.5297804644 -0.1452662983 0.5300987859 -0.1451100403 -0.156833954 0.0739698
155299070.0 -0.1593886938 0.0822467796 0.5288721711 -0.1527618307 0.5284800712 -0.1521485419 -0.1558938321 0.074855934
160299040.0 -0.1583541543 0.0834852684 0.5272442416 -0.1587728958 0.5269207524 -0.1587963104 -0.1555226522 0.0755290031
165299010.0 -0.1573637965 0.0848319718 0.5258431589 -0.165436113 0.5259447885 -0.165106145 -0.1540724745 0.0767160302
170298980.0 -0.1563886998 0.0858111018 0.5241659007 -0.1717022311 0.5243267072 -0.1714041191 -0.1535162098 0.0774935843
175298950.0 -0.1557069407 0.0869971222 0.5232963799 -0.177738775 0.5225594568 -0.1779206726 -0.1529475248 0.0786038182
180298920.0 -0.1547771783 0.0885026217 0.5210957021 -0.1844471594 0.5205719168 -0.1838274504 -0.1520015632 0.079925561
185298890.0 -0.153380517 0.089510198 0.519218154 -0.1900874001 0.5189402442 -0.1903754963 -0.1513790967 0.0810628647
190298860.0 -0.1526651808 0.0912081269 0.5173794611 -0.1964860501 0.5175323591 -0.1965937629 -0.1505595325 0.0818689217
195298830.0 -0.1516984016 0.0921410474 0.5152207252 -0.2025171569 0.5154459422 -0.2020015625 -0.1497829544 0.0829076328
200298800.0 -0.1507632864 0.0936511154 0.512891868 -0.208862362 0.5130488133 -0.2088591501 -0.1494848188 0.0841597967
205298770.0 -0.1496788252 0.095059545 0.5105080794 -0.21517306 0.5107380689 -0.2146862056 -0.148585283 0.0850950348
210298740.0 -0.1486700513 0.0963400308 0.5085392472 -0.2207303849 0.5085627823 -0.2205116397 -0.147655357 0.0869907614
215298710.0 -0.1481881605 0.097813784 0.5065072 -0.227010483 0.5064235736 -0.2271356467 -0.1470860383 0.0879026536
220298680.0 -0.1471450009 0.0989361373 0.5036175327 -0.2325984142 0.5038358076 -0.2324898707 -0.1467093472 0.0886928295
225298650.0 -0.1461283008 0.1003550573 0.501244827 -0.2386944362 0.5014004198 -0.2384808257 -0.146089045 0.0896861414
230298620.0 -0.1449668225 0.1021540839 0.4991004427 -0.2438617096 0.4994141664 -0.2441698325 -0.1453486925 0.0906228802
235298590.0 -0.143872122 0.1038525319 0.4959808609 -0.2501627559 0.4966915705 -0.2497810103 -0.1447539644 0.0922517715
240298560.0 -0.143231475 0.1052526101 0.4936904532 -0.2562213029 0.4934460843 -0.2560088663 -0.14383232 0.0936795061
245298530.0 -0.1420724635 0.1066520711 0.4912614233 -0.2614895703 0.4912204241 -0.2618160654 -0.1429873857 0.0943310776
250298500.0 -0.1409654746 0.1080431299 0.4874441036 -0.2673637093 0.4874773692 -0.2669158796 -0.1425024223 0.0955599013
255298470.0 -0.1398357835 0.1090439123 0.4843054805 -0.2723351678 0.4850118535 -0.2723550804 -0.14151407 0.0966247203
260298440.0 -0.1392578558 0.110599305 0.4818256056 -0.2784645229 0.4823502255 -0.2780899662 -0.140447348 0.0982097492
265298410.0 -0.1374173813 0.1126674388 0.4793098224 -0.2840072899 0.4791416265 -0.2837249128 -0.1398647401 0.0995787894
270298380.0 -0.1367075995 0.1140421144 0.4764523814 -0.2888513724 0.4762430443 -0.2888392697 -0.1388128957 0.1007507359
275298350.0 -0.1353172054 0.1152738199 0.4727202005 -0.2945606876 0.4731072796 -0.2946113522 -0.1378815704 0.1017447664
280298320.0 -0.1337054983 0.1169387979 0.4695782997 -0.300284119 0.4693308996 -0.2998248205 -0.1365310907 0.1032280617
285298290.0 -0.1329112973 0.118412469 0.4665884873 -0.3050162814 0.4663921385 -0.3054719434 -0.1358081977 0.1043938223
290298260.0 -0.1315561087 0.1197941551 0.4631696011 -0.3102843542 0.4633094757 -0.3104574704 -0.1347531289 0.1057617463
295298230.0 -0.130275114 0.1208424757 0.4596628066 -0.3157167253 0.4597140341 -0.3157480154 -0.1337074366 0.1066331365
300298200.0 -0.1291121373 0.1224008669 0.4563568541 -0.3208071272 0.4566992264 -0.321127597 -0.132728204 0.1081136585
305298170.0 -0.1277234942 0.1237424762 0.4524789685 -0.3265250442 0.4527468327 -0.3264438711 -0.1315782323 0.1093687293
310298140.0 -0.1265097395 0.1254029347 0.4491761424 -0.3320228258 0.4495199113 -0.3313530873 -0.1307436104 0.1102427581
315298110.0 -0.1253764166 0.1262548585 0.4456785763 -0.337005542 0.445940238 -0.3370199943 -0.1298248373 0.1116193811
320298080.0 -0.1236535598 0.1276827924 0.4414629908 -0.342059215 0.4420084088 -0.3417947319 -0.1286078052 0.1127296095
325298050.0 -0.1225729926 0.1291461565 0.4379330433 -0.3471914293 0.4376368871 -0.346848729 -0.1277877185 0.1140594845
330298020.0 -0.1214275775 0.1299179066 0.4340729237 -0.3520564433 0.4339308551 -0.3517747419 -0.1271232222 0.1149987692
335297990.0 -0.1198730182 0.1313100787 0.4298971462 -0.3565409203 0.4295365143 -0.3569260536 -0.1265097375 0.116690809
340297960.0 -0.1189788432 0.132977802 0.4257949489 -0.3613093013 0.4253798513 -0.361767444 -0.1250397458 0.1183822343
345297930.0 -0.1179569802 0.1346302061 0.4210566743 -0.3665652148 0.4215423732 -0.3660563076 -0.1241829854 0.1190231332
350297900.0 -0.1166837544 0.135706709 0.4169914688 -0.3710535851 0.4174005704 -0.3709402052 -0.1235353449 0.1209137539
355297870.0 -0.1152036244 0.1376825213 0.4128435063 -0.3756476488 0.4137010451 -0.3756300498 -0.1225286046 0.1220354837
360297840.0 -0.1135758707 0.138762207 0.4094915109 -0.3797519307 0.4099583353 -0.3799971439 -0.121187576 0.1239847067
365297810.0 -0.1125264794 0.1404698846 0.405236856 -0.3847317933 0.4053558773 -0.3847370117 -0.1200387099 0.124913202
370297780.0 -0.1108562972 0.141383125 0.4006154202 -0.3889259344 0.4011113859 -0.3886150164 -0.1191833494 0.1265942508
375297750.0 -0.109066582 0.1429178878 0.396267232 -0.3934034407 0.3969437979 -0.3930780549 -0.1180974811 0.1272227795
380297720.0 -0.1076975925 0.1443570653 0.3921005811 -0.3978733877 0.3922830426 -0.3967953737 -0.1173318272 0.1284625155
385297690.0 -0.1067431121 0.1456443254 0.3874966037 -0.4015177776 0.3876146528 -0.4018118769 -0.1157634457 0.1300622099
390297660.0 -0.1048774281 0.1468980904 0.3832742047 -0.4061879836 0.3833078181 -0.4059596124 -0.1151325667 0.1313333657
395297630.0 -0.1033672321 0.1484076385 0.3791027924 -0.4103896909 0.3786038611 -0.4108176471 -0.1130544543 0.1327779173
400297600.0 -0.1014693229 0.149746274 0.3737950879 -0.4146193666 0.3746986024 -0.4141908762 -0.1122683535 0.1335362385
405297570.0 -0.1002907583 0.1508314821 0.3698505196 -0.418452971 0.3698783478 -0.4180052907 -0.1112048203 0.135060668
410297540.0 -0.0982446399 0.1519039265 0.3652021491 -0.4226358565 0.3654805186 -0.4226870212 -0.1100007615 0.1362455765
415297510.0 -0.0966978923 0.1532088432 0.3602613076 -0.427043844 0.3607934097 -0.4263051158 -0.1085542552 0.1372956426
420297480.0 -0.095285314 0.1546774099 0.3556386448 -0.430818693 0.3554627183 -0.4307580386 -0.1075179396 0.1384939842
425297450.0 -0.0934225038 0.1553244869 0.3509296368 -0.4343603956 0.3516445743 -0.4340848213 -0.1063978177 0.1401139069
430297420.0 -0.091787175 0.156510482 0.3463817731 -0.4379320138 0.3462005944 -0.4378593269 -0.1053058065 0.1405576877
435297390.0 -0.0903771741 0.157856658 0.341213497 -0.4420364489 0.3413825092 -0.4419140733 -0.1032592565 0.141878799
440297360.0 -0.0884121074 0.1593209997 0.3366268959 -0.4456727822 0.3367107601 -0.4455951421 -0.1023273017 0.1427483673
445297330.0 -0.0867962593 0.1600146856 0.3318319983 -0.4493398409 0.3317117317 -0.4489281288 -0.1008472308 0.1438362455
450297300.0 -0.0848985298 0.1608784065 0.3267945283 -0.4526798454 0.3268870391 -0.4529583125 -0.0993579385 0.1449065117
455297270.0 -0.0830523015 0.1621710543 0.3213907881 -0.4561034606 0.321886402 -0.4560703417 -0.0979897485 0.1459721762
460297240.0 -0.0814835476 0.1631206211 0.3163252755 -0.4594402978 0.3168753218 -0.4596431355 -0.096626709 0.1472212428
465297210.0 -0.079434304 0.1644368779 0.3116613707 -0.4633696586 0.3120079793 -0.4634182961 -0.0950528037 0.1479413176
470297180.0 -0.0777332251 0.165333163 0.3061171316 -0.4666022001 0.306502234 -0.4666259746 -0.093456023 0.1492033575
475297150.0 -0.0759699272 0.1660523153 0.3014448347 -0.469440717 0.3016467391 -0.4691668755 -0.0916429846 0.1499203041
480297120.0 -0.0741813796 0.167662144 0.2960920065 -0.473446596 0.2960663765 -0.47375245 -0.0903956601 0.1513275444
485297090.0 -0.0723004837 0.1683090784 0.291148642 -0.4762817159 0.2914362435 -0.4760505749 -0.088962006 0.1521512675
490297060.0 -0.0707813855 0.1689931697 0.2860408585 -0.4797403376 0.2860693844 -0.4791225564 -0.0874343706 0.1533854195
495297030.0 -0.068904499 0.1699442501 0.2804838536 -0.4824288854 0.2812524642 -0.4825870206 -0.0863694044 0.1542427817
500297000.0 -0.0670071527 0.1710369945 0.2755365117 -0.4852910889 0.2750030734 -0.4849977383 -0.084417271 0.1556919712
505296970.0 -0.0645568863 0.1716574096 0.2699320632 -0.4886117187 0.2701616389 -0.4884357557 -0.0834293546 0.1566673972
510296940.0 -0.0631521532 0.1726552057 0.2644973256 -0.4913777444 0.2642285054 -0.4914018284 -0.0813388043 0.1575107986
515296910.0 -0.0612095554 0.1734578514 0.2591967739 -0.4945539585 0.2592345864 -0.4942442829 -0.080032995 0.1586167972
520296880.0 -0.059358294 0.1743205863 0.2540484508 -0.4975102874 0.2537752967 -0.4964438486 -0.0787847753 0.159147398
525296850.0 -0.0572147497 0.1746200995 0.2481670585 -0.4995247287 0.2485996741 -0.4995387713 -0.0772147252 0.1603346364
530296820.0 -0.0553504456 0.1756189104 0.2424050618 -0.5024594966 0.2430145024 -0.5020646406 -0.0757550322 0.1614755077
535296790.0 -0.0535927787 0.1766982013 0.2376069214 -0.5048040207 0.2380990074 -0.5043392286 -0.0744468527 0.1616922666
540296760.0 -0.0519822549 0.1775792148 0.2323259649 -0.5075837037 0.2320521986 -0.5076890864 -0.0728016974 0.1633305535
545296730.0 -0.0496992262 0.1781528263 0.2260035873 -0.5100075055 0.2267430845 -0.5097706642 -0.0711236115 0.1639913334
550296700.0 -0.0474238403 0.1790109027 0.2208824167 -0.5122786683 0.2211849853 -0.5123402164 -0.0698160872 0.1651232042
555296670.0 -0.0458125661 0.1792479222 0.215654492 -0.5145736469 0.2158423145 -0.5144880355 -0.0683128468 0.1661091442
560296640.0 -0.0434706542 0.1806863686 0.2097318765 -0.5172196006 0.2096854737 -0.5172003343 -0.066268156 0.1664140124
565296610.0 -0.0418820544 0.1808796196 0.2037009023 -0.5192594898 0.2045706584 -0.5191786697 -0.0651026737 0.1671176368
570296580.0 -0.0400154468 0.1813294895 0.1984278934 -0.5217669477 0.1981483806 -0.5215971696 -0.0635176491 0.1687658771
575296550.0 -0.0381579806 0.182199313 0.1930967767 -0.5238161687 0.1928213919 -0.5235396973 -0.0616319521 0.1688682974
580296520.0 -0.0358086419 0.182848335 0.1871519548 -0.5256829175 0.1872562939 -0.5256036176 -0.0600680229 0.1696918681
585296490.0 -0.0341894612 0.182596719 0.1815763321 -0.5270091529 0.1816224105 -0.5272565586 -0.058582907 0.1703486935
590296460.0 -0.0313913106 0.1837057975 0.1756012609 -0.5289947557 0.1759448034 -0.5293527358 -0.0573248514 0.1710389539
595296430.0 -0.02969409 0.1841629796 0.1694261928 -0.5313406624 0.1698402659 -0.5313837351 -0.0551978959 0.1713546178
600296400.0 -0.028054422 0.1845231236 0.1643566076 -0.5328894118 0.1644116728 -0.532624514 -0.053840998 0.172265025
605296370.0 -0.0259135179 0.1850328677 0.1583138663 -0.5345607056 0.1584141653 -0.5349797765 -0.0519694832 0.1729085574
610296340.0 -0.0237602912 0.1850478415 0.1518712259 -0.5360005886 0.1528359861 -0.5360081805 -0.0502358352 0.1732955636
615296310.0 -0.0214157183 0.1856161072 0.1463139319 -0.5376553638 0.1467725823 -0.5383395432 -0.0483500665 0.1742206611
620296280.0 -0.0197185165 0.1857270958 0.1409031372 -0.5393662825 0.1409406258 -0.5391014742 -0.0470483254 0.1746521371
625296250.0 -0.0179378987 0.1859768511 0.1354791904 -0.5408838052 0.1352604542 -0.5411423084 -0.0447887304 0.1749769673
630296220.0 -0.0148975808 0.1865904415 0.1285123861 -0.5422096034 0.1291055096 -0.5420599696 -0.0434907794 0.1759656656
635296190.0 -0.0138840697 0.1867919085 0.123332544 -0.5434590857 0.1234942411 -0.5433980117 -0.0415079998 0.1762003902
640296160.0 -0.0117234316 0.1872190103 0.1176008982 -0.5444800812 0.117599762 -0.5447381911 -0.0397337475 0.176958628
645296130.0 -0.0093789588 0.1877337998 0.1113605119 -0.5458126346 0.1115521542 -0.5461683312 -0.0379045521 0.1776876044
650296100.0 -0.0072535779 0.1874979918 0.1052337663 -0.5470735435 0.1057001212 -0.5470510354 -0.0360520311 0.1773314304
655296070.0 -0.0053501733 0.1877826343 0.0994683369 -0.5480775331 0.0999281093 -0.548038316 -0.0344965596 0.1782513343
660296040.0 -0.0032391112 0.1878247484 0.0937624468 -0.5491660056 0.0939765818 -0.5494285311 -0.0324020409 0.1790999884
665296010.0 -0.0008753678 0.1879036848 0.0871401055 -0.5501687093 0.0877720924 -0.550433088 -0.0307392561 0.1797294994
670295980.0 0.0001350177 0.1883865903 0.0821467129 -0.5505703272 0.0820864279 -0.5512335349 -0.0293804107 0.1799097653
675295950.0 0.0027253679 0.1887094656 0.0756962392 -0.5518807646 0.0757531699 -0.5511526499 -0.0277027169 0.1802986674
680295920.0 0.0045671151 0.1883790661 0.0697369956 -0.5521834972 0.0692822119 -0.5530238931 -0.0257554628 0.181287185
685295890.0 0.0070650999 0.1891438399 0.0637604519 -0.5535862268 0.0638175567 -0.5534805092 -0.0240268238 0.1813517587
690295860.0 0.0091766715 0.1889423406 0.0582230512 -0.5531638195 0.0576506631 -0.5538255571 -0.0225122727 0.1824725069
695295830.0 0.011197583 0.1887940383 0.0521761099 -0.5547399815 0.0517845338 -0.5542240139 -0.0205658455 0.1823213678
700295800.0 0.0134485376 0.1885720684 0.0455536187 -0.554470916 0.0456961881 -0.5547966287 -0.0190880606 0.1833997087
705295770.0 0.0150051589 0.1892761207 0.0399341475 -0.5554022316 0.0400345678 -0.5554431161 -0.0169635378 0.183531585
710295740.0 0.0176238684 0.1888644927 0.034044703 -0.5561550739 0.0343147856 -0.5558071244 -0.0155159284 0.1834284217
715295710.0 0.0189967745 0.1886281114 0.028696601 -0.5561861854 0.0280967054 -0.5561626139 -0.0130790854 0.1842745673
720295680.0 0.0215965711 0.1886145058 0.0221333637 -0.5567152854 0.0223134374 -0.5564439402 -0.0114946617 0.1846330942
725295650.0 0.0238066558 0.1888438399 0.015785713 -0.5564653114 0.0163176651 -0.5567246257 -0.0102207275 0.1847376281
730295620.0 0.0258813483 0.1890526473 0.0100786081 -0.5563849904 0.0095401804 -0.5569494536 -0.0085923828 0.1847180982
735295590.0 0.0278796369 0.1888591469 0.0040744206 -0.5571343792 0.0039182373 -0.5566441385 -0.0066468597 0.1849059412
740295560.0 0.0296625559 0.1884267803 -0.002163545 -0.556762489 -0.0020133702 -0.5566732697 -0.0044914412 0.1851186366
745295530.0 0.0316814864 0.1885603527 -0.0083393562 -0.5563362261 -0.0078187849 -0.5565742921 -0.0030901209 0.1851904228
750295500.0 0.0339665653 0.188167484 -0.0140719947 -0.5562595759 -0.0139903064 -0.5567780631 -0.0014232245 0.1857519909
755295470.0 0.0360095767 0.187521284 -0.0201022988 -0.5559927636 -0.0197170241 -0.5563065324 0.0008458423 0.1853640156
760295440.0 0.0379087141 0.1875452363 -0.0258301664 -0.5564176017 -0.0261148975 -0.556371501 0.0025021306 0.1857117443
765295410.0 0.0401892489 0.1871981632 -0.0319060628 -0.5559832692 -0.0322374325 -0.5559881139 0.0041530437 0.1856945331
770295380.0 0.0417787468 0.1867998192 -0.038210099 -0.5549522889 -0.0378061309 -0.5551391106 0.0059481132 0.1858505053
775295350.0 0.0438904453 0.1861592828 -0.0444946379 -0.5542668468 -0.0435097295 -0.5547084056 0.0071534546 0.1860874764
780295320.0 0.0462225131 0.1856505843 -0.0500878797 -0.5537001715 -0.0490116877 -0.553697033 0.0093586075 0.1855228797
785295290.0 0.0479719349 0.1851653745 -0.0561377492 -0.5529510239 -0.0558977628 -0.5534194568 0.0118300329 0.1859980507
790295260.0 0.050589656 0.1854188605 -0.0613071694 -0.5525509648 -0.0606510236 -0.5528023643 0.0134366924 0.185904033
795295230.0 0.0523082107 0.1846713977 -0.0678108759 -0.5519928296 -0.0671313758 -0.5520634696 0.0155647365 0.1862376323
800295200.0 0.0541522725 0.1844966956 -0.0740854382 -0.5508247402 -0.0738339904 -0.5511087074 0.0172872608 0.1860083867
805295170.0 0.0561476119 0.1838319191 -0.0796433036 -0.5500718746 -0.0794316705 -0.5508099963 0.0189575644 0.1861694594
810295140.0 0.0581479651 0.1830826883 -0.0854141529 -0.5493261183 -0.0855289368 -0.5494226487 0.0213099293 0.1860313337
815295110.0 0.0601670017 0.1824419983 -0.0913360174 -0.5479309398 -0.091215381 -0.5486136288 0.0228856233 0.1859998747
820295080.0 0.0619769284 0.1826124967 -0.0974142623 -0.5471213091 -0.0966897472 -0.547167328 0.0245913121 0.1861412323
825295050.0 0.0647280054 0.181617168 -0.1029126369 -0.5460342314 -0.1030178205 -0.5463763323 0.0264770477 0.1860215164
830295020.0 0.0662787582 0.1814311979 -0.1094034501 -0.5452222374 -0.1092924193 -0.5449939286 0.0292094485 0.1859248926
