!Created with skrf (http://scikit-rf.org).
# Hz S RI R 50.0 
!freq ReS11 ImS11 ReS21 ImS21 ReS12 ImS12 ReS22 ImS22
300000.0 -0.100398808 -0.0738507838 0.6308556879 0.0692849016 0.6237359055 0.0701087705 -0.0992497442 -0.0824522354
5299970.0 -0.1016327315 0.0127915102 0.6303671804 0.0099216406 0.630244315 0.0105910837 -0.1001860433 0.0130941532
10299940.0 -0.0971330053 0.0293585744 0.6336240346 0.0153204896 0.6339989703 0.0156097096 -0.095491774 0.0300901146
15299910.0 -0.0896124183 0.0423858973 0.6402960147 0.0203949692 0.6404112031 0.0207940107 -0.088196682 0.0437258969
20299880.0 -0.0813596896 0.0530150737 0.6486376756 0.0240145609 0.6484958816 0.0241816114 -0.0794242089 0.0548145477
25299850.0 -0.0721737178 0.0622275121 0.6578519491 0.0253224336 0.6574324582 0.0250986528 -0.0693516672 0.0636342722
30299820.0 -0.0620450106 0.0685605765 0.6677963467 0.0241055769 0.6672662393 0.0243095546 -0.0595503427 0.0703653433
35299790.0 -0.0522027635 0.0734932439 0.6771480605 0.0208549959 0.6766845546 0.0211933237 -0.0496759293 0.0751491259
40299760.0 -0.0430003659 0.0772126881 0.6860106672 0.0175564608 0.6863559589 0.0175041043 -0.0401504289 0.0777028837
45299730.0 -0.0339688285 0.0793327623 0.6950683447 0.0113485735 0.6953132835 0.0119352178 -0.0311807762 0.0799541996
50299700.0 -0.0253818721 0.0801891856 0.7032388313 0.0045824127 0.7032312044 0.0049787524 -0.0225859546 0.0808011397
55299670.0 -0.0175447928 0.0803980161 0.7109122239 -0.0035487393 0.7103386812 -0.0029453076 -0.0150586738 0.0808767274
60299640.0 -0.0099578638 0.080061586 0.7171921626 -0.0118960368 0.7174416501 -0.0110814763 -0.0078898782 0.0798319117
65299610.0 -0.0038399661 0.0785736561 0.7229801582 -0.0200704596 0.7232690025 -0.0203321521 -0.0012908868 0.078809965
70299580.0 0.0025386994 0.0775794247 0.7288529157 -0.0298614803 0.7283632178 -0.0293721109 0.0047024394 0.0770310825
75299550.0 0.0079898043 0.0758988852 0.7323553512 -0.0388599717 0.7325172798 -0.039410571 0.0099168454 0.0749433231
80299520.0 0.0128938774 0.0735770208 0.7364697838 -0.0493958535 0.7373189444 -0.0492478329 0.0145543308 0.0728934923
85299490.0 0.0175084279 0.0712422382 0.739978695 -0.0582541818 0.7402470938 -0.0587506119 0.0190474366 0.0698876983
90299460.0 0.0216533407 0.0690786738 0.7425449058 -0.0694194136 0.7432011482 -0.0690676871 0.0231799656 0.0680667151
95299430.0 0.0256959895 0.0667050763 0.74540521 -0.0790061191 0.7455889163 -0.0792067496 0.0272848014 0.0652354225
100299400.0 0.0290413479 0.0647859507 0.7465047749 -0.0893740766 0.746515401 -0.0895714517 0.0309736283 0.0623017847
105299370.0 0.0322423906 0.0620596285 0.7486635264 -0.0997580247 0.7484921144 -0.0995118729 0.0340078751 0.0602465776
110299340.0 0.0349671396 0.0597833793 0.7497925376 -0.1091260441 0.7491813511 -0.109067615 0.0359228058 0.0574154626
115299310.0 0.0375316624 0.0574929326 0.7506368077 -0.1193870731 0.7504425611 -0.119156055 0.0387829415 0.0551705338
120299280.0 0.0398096485 0.0547529627 0.7511684896 -0.1298894334 0.7512784282 -0.1298312637 0.0411908449 0.0527763205
125299250.0 0.0420172196 0.0522334981 0.7511395833 -0.1393611987 0.7512032239 -0.139240803 0.0428322233 0.0498869192
130299220.0 0.0436334016 0.0502029845 0.7511402768 -0.1493395663 0.7510471221 -0.1494009229 0.0450606664 0.0477655704
135299190.0 0.0452749181 0.0482458079 0.7510476832 -0.1590025812 0.7505521693 -0.1588217773 0.0466880402 0.0455918466
140299160.0 0.0469217849 0.0464689311 0.7510288134 -0.1689872439 0.750496166 -0.1692562454 0.0482553141 0.0439951724
145299130.0 0.0485582703 0.0439108744 0.7499784137 -0.1788432591 0.7494557205 -0.1783340104 0.0494912678 0.0417823367
150299100.0 0.0498725746 0.0419835186 0.7483001812 -0.1877963393 0.7488479978 -0.1880440575 0.0511866196 0.039873231
155299070.0 0.0505161571 0.0396202178 0.7476073916 -0.1985797834 0.7475536501 -0.1980173575 0.0522106971 0.0381263315
160299040.0 0.0520295565 0.0379577587 0.7457742812 -0.2072728163 0.7455630507 -0.207800386 0.0524156189 0.035782334
165299010.0 0.0528290137 0.0361130654 0.7442293281 -0.2174110583 0.7446730258 -0.217329729 0.0542479888 0.0349029521
170298980.0 0.0536703942 0.0338064501 0.7427514871 -0.2264293453 0.7428394298 -0.2267641698 0.05463144 0.0328449004
175298950.0 0.0539494364 0.0320333868 0.7416023004 -0.2356972705 0.7405055055 -0.2350964892 0.0550298659 0.0314058415
180298920.0 0.0545110881 0.0306150154 0.7387995719 -0.2451038881 0.7387810873 -0.244712951 0.0557472991 0.0296921866
185298890.0 0.0556565789 0.0285252171 0.7368043595 -0.2540356193 0.7358041892 -0.2536644042 0.0561681679 0.0281542353
190298860.0 0.0554561606 0.027062758 0.7340678266 -0.2636003681 0.7343409015 -0.2632624908 0.0566559098 0.0262699246
195298830.0 0.0562557896 0.0251811835 0.7315292405 -0.2723521154 0.73128048 -0.271946863 0.0573600004 0.0251065051
200298800.0 0.0564734661 0.0238986658 0.7280549959 -0.2815241502 0.7288436977 -0.2813259009 0.0572194276 0.0238873943
205298770.0 0.0568624694 0.0225640044 0.7260933027 -0.2901498866 0.7258981449 -0.2900808512 0.0575626599 0.0215289052
210298740.0 0.0570648115 0.0206929439 0.723315664 -0.2979568419 0.7227328763 -0.298197962 0.0579151792 0.0214342586
215298710.0 0.0570617074 0.019531152 0.7201173629 -0.3075567364 0.7199796494 -0.3076498545 0.0575164182 0.0201575669
220298680.0 0.0574331753 0.0178254463 0.7165411671 -0.3158830892 0.7164352627 -0.3160284875 0.0573166202 0.0181502827
225298650.0 0.057622797 0.0165889451 0.7136970945 -0.3248652232 0.713410723 -0.3247749713 0.0570511173 0.0166389819
230298620.0 0.0576762948 0.0156529246 0.7102148859 -0.3326288009 0.7103096934 -0.3332933812 0.0571250218 0.0151664234
235298590.0 0.0578211917 0.0147032455 0.7069467752 -0.3410942367 0.7060004416 -0.3411234979 0.0574292467 0.0140502002
240298560.0 0.057730023 0.0133463753 0.703214776 -0.3502745511 0.7025694207 -0.3506294392 0.0574569392 0.0132462895
245298530.0 0.0576492477 0.0120121394 0.6999198094 -0.3586642859 0.6991404965 -0.3587472685 0.0580571186 0.0110019793
250298500.0 0.0583786046 0.0109784383 0.6946728116 -0.3669300203 0.6949467424 -0.3660523797 0.0573678207 0.0104571752
255298470.0 0.0583490623 0.0093352013 0.6908780175 -0.3739668237 0.6913755268 -0.3744516295 0.0577654513 0.0091783298
260298440.0 0.0577936694 0.0081566838 0.6875183639 -0.3835879674 0.6874523622 -0.3828307017 0.0580873759 0.0081749986
265298410.0 0.0588799328 0.0079420695 0.6832092572 -0.3907965817 0.6835177031 -0.3904605882 0.0581213047 0.0065880024
270298380.0 0.0584101827 0.0061869064 0.6793593538 -0.3987511975 0.6791680084 -0.3987213413 0.0576150081 0.0056109918
275298350.0 0.0591201165 0.0050640806 0.6744273829 -0.4070544069 0.6751515437 -0.4065716354 0.0580744758 0.0039509861
280298320.0 0.0588240109 0.0042587539 0.6705804697 -0.4149984732 0.670669388 -0.4143289175 0.0584789583 0.0029040239
285298290.0 0.0587075296 0.0032359288 0.6666950095 -0.4228221128 0.6659778185 -0.422501865 0.0582626966 0.0018451757
290298260.0 0.0590035563 0.0020115459 0.6612758097 -0.4301178936 0.6616039643 -0.4299400595 0.0587792387 0.0013222534
295298230.0 0.0591849435 0.000686814 0.6573239822 -0.4375307134 0.6566291353 -0.4374641386 0.0592440943 -3.71615e-05
300298200.0 0.0584933612 -0.0004343222 0.6526765039 -0.4452087386 0.6525441103 -0.4457850003 0.058632108 -0.0011910414
305298170.0 0.0589661366 -0.0015345008 0.6473931425 -0.4535858117 0.6471139974 -0.4529686323 0.059526042 -0.0024926017
310298140.0 0.0586348927 -0.0025492194 0.6427770899 -0.4607080982 0.6430983916 -0.460875487 0.0594741793 -0.0036648994
315298110.0 0.0584395651 -0.0043794098 0.6376714854 -0.4691171558 0.6377622588 -0.4688017841 0.0589936574 -0.0045805468
320298080.0 0.0586652997 -0.0050986211 0.6319196205 -0.4765279169 0.632195516 -0.4759850685 0.058831347 -0.0055362962
325298050.0 0.0579416602 -0.0063944718 0.626873647 -0.4839447296 0.6266189342 -0.4838587605 0.0580944018 -0.006930528
330298020.0 0.0575517251 -0.0076182492 0.6212355772 -0.4907825824 0.6211360788 -0.4910771658 0.0575420215 -0.007983195
335297990.0 0.0571799419 -0.0087684236 0.615398936 -0.4976258152 0.6151243662 -0.4985070108 0.0570349304 -0.008037157
340297960.0 0.056227866 -0.009503236 0.6098637671 -0.5052352031 0.6088806469 -0.5054923075 0.0572063741 -0.0086856893
345297930.0 0.0557059254 -0.0097402893 0.6038973106 -0.5123409148 0.6036277789 -0.5119925043 0.0566050664 -0.0098956899
350297900.0 0.055002213 -0.0109883261 0.5970380293 -0.5188041157 0.5976780536 -0.5183863732 0.0557628056 -0.0099103724
355297870.0 0.0546557479 -0.010835243 0.5921809274 -0.5255932006 0.5928791819 -0.5249822789 0.0554265996 -0.0109760773
360297840.0 0.0546432665 -0.0118898683 0.5865417363 -0.5315160492 0.5867594642 -0.53192799 0.0551819933 -0.0111196292
365297810.0 0.054006689 -0.0122282656 0.5802651457 -0.5390105241 0.5809884138 -0.5388707188 0.0547917656 -0.011745661
370297780.0 0.0542065608 -0.0133681481 0.5742410278 -0.544723193 0.5748356825 -0.5442255593 0.0544298624 -0.0119971538
375297750.0 0.053622761 -0.014070866 0.568278764 -0.5510776707 0.5693580124 -0.5513611606 0.0543197732 -0.0128284394
380297720.0 0.0534645226 -0.0143449665 0.561840982 -0.5578843644 0.5624114249 -0.5568055687 0.0534224542 -0.0138719084
385297690.0 0.0528058057 -0.0151692228 0.555832619 -0.5640611047 0.555812861 -0.5635778181 0.0534574932 -0.0137308993
390297660.0 0.0525853568 -0.0152035648 0.5501156395 -0.5701952466 0.5495654167 -0.5698997598 0.0526351157 -0.014929412
395297630.0 0.0518147206 -0.0162384449 0.543914507 -0.5764652843 0.5434463725 -0.5763470163 0.0528704436 -0.0155036313
400297600.0 0.0516714061 -0.0167360512 0.5366691214 -0.5828445872 0.537139663 -0.5820094042 0.0521417493 -0.0158430563
405297570.0 0.0511995505 -0.0174121256 0.5302536689 -0.5881050788 0.5304886774 -0.5878989241 0.0513180141 -0.0166206871
410297540.0 0.0513103804 -0.0179571412 0.5243248347 -0.5943278725 0.5246887033 -0.5940627844 0.0510363979 -0.0169137411
415297510.0 0.0511607699 -0.018670662 0.5175795352 -0.6002949424 0.5180025047 -0.59980011 0.050765326 -0.0177817693
420297480.0 0.0510544076 -0.0189012437 0.5106796676 -0.6061304171 0.5110818739 -0.6061120915 0.050185974 -0.0190884153
425297450.0 0.0501131724 -0.0204686179 0.5046422841 -0.6115491535 0.504558797 -0.6114342626 0.0489480085 -0.0188559324
430297420.0 0.0498757463 -0.0207970783 0.4977538375 -0.6164192724 0.4975206162 -0.6162628463 0.0490452187 -0.0200921816
435297390.0 0.0493133917 -0.0214816198 0.4902500448 -0.622553239 0.4904773519 -0.6226959032 0.0496460087 -0.0208362536
440297360.0 0.0494411951 -0.0215040708 0.4836174442 -0.6278053781 0.4835684331 -0.6276123478 0.0486614294 -0.0216955954
445297330.0 0.0488135722 -0.0226081623 0.4769654422 -0.6330872166 0.4770213368 -0.6325693943 0.0485903019 -0.0224664664
450297300.0 0.0488791974 -0.0230319282 0.4703715717 -0.6384838124 0.469710483 -0.6391331561 0.0480119399 -0.0233410278
455297270.0 0.048489149 -0.0238165153 0.4629319304 -0.6436192677 0.4632656086 -0.6434223738 0.0480586955 -0.0235327565
460297240.0 0.0478236139 -0.0244882665 0.4556141363 -0.6491187283 0.4558587962 -0.6491915725 0.0474854632 -0.0238375695
465297210.0 0.0477610567 -0.0249642518 0.4485990377 -0.6541921938 0.4483597116 -0.6544001647 0.0474236641 -0.0253021501
470297180.0 0.0470408137 -0.0260185416 0.4413580158 -0.6588237739 0.4415404842 -0.6585551339 0.0468122828 -0.0252987863
475297150.0 0.0468651808 -0.0264695046 0.4341725406 -0.6630730882 0.4343670106 -0.6632089699 0.0473084462 -0.0262762778
480297120.0 0.0457812599 -0.0264032479 0.4267406892 -0.6685808593 0.4267453151 -0.6684528999 0.0470485555 -0.0265160336
485297090.0 0.0454029267 -0.0272571057 0.4198322679 -0.6729405227 0.4195659987 -0.6730338504 0.0462370433 -0.0273690964
490297060.0 0.0448200583 -0.0281617833 0.4123294886 -0.6782255188 0.4125401962 -0.6768464399 0.0461797944 -0.0268546434
495297030.0 0.0446572908 -0.0282977418 0.4044546703 -0.6825130342 0.4048532159 -0.6825424746 0.0453841034 -0.0282210499
500297000.0 0.0439569621 -0.0292252311 0.3966004349 -0.6857301061 0.3964802967 -0.6860733385 0.0449296443 -0.0277311532
505296970.0 0.0437717361 -0.0296874107 0.389556503 -0.6911209954 0.3897125742 -0.6906633743 0.0445259361 -0.028443412
510296940.0 0.0430186369 -0.0299113837 0.3813623465 -0.6954831651 0.3817942371 -0.695555074 0.0444537298 -0.0284834361
515296910.0 0.0424514384 -0.0300061814 0.3743426699 -0.6992138837 0.373823533 -0.6991494253 0.0439902354 -0.028835204
520296880.0 0.0420851424 -0.0308981669 0.3663885796 -0.7041840076 0.366787173 -0.7031460544 0.0434914061 -0.0294876463
525296850.0 0.0419209626 -0.0317617937 0.358818979 -0.7075816495 0.3591669432 -0.7065604547 0.0425486046 -0.0297177886
530296820.0 0.0413822467 -0.0315307947 0.350887732 -0.7117810475 0.3509141305 -0.7112971698 0.0427241125 -0.0298173877
535296790.0 0.0404501941 -0.0317370482 0.3436061792 -0.7154071616 0.3434638239 -0.7144849372 0.0420977139 -0.0309808587
540296760.0 0.0400614133 -0.0320245734 0.3353550152 -0.7193476015 0.334978145 -0.7187604231 0.0409887657 -0.0305520612
545296730.0 0.0397216518 -0.032767663 0.3270744641 -0.7225966188 0.3272922062 -0.7226450342 0.0404880269 -0.0311264837
550296700.0 0.0396791518 -0.0323662767 0.3192176678 -0.7255407475 0.319317677 -0.7264415345 0.0394102583 -0.031010127
555296670.0 0.0386316818 -0.0329941716 0.3119070177 -0.7295136022 0.3117908616 -0.7290010374 0.0394123842 -0.0316947945
560296640.0 0.0384135517 -0.0332200845 0.3034849607 -0.7332506056 0.3035220491 -0.73289763 0.0389376521 -0.0320142245
565296610.0 0.0373577502 -0.0337467226 0.2954335208 -0.73644316 0.2959967809 -0.7365612522 0.0374787166 -0.0328002686
570296580.0 0.0371589012 -0.0339985467 0.2874944406 -0.7400292688 0.2868946294 -0.7395771511 0.0374377567 -0.0325064578
575296550.0 0.035967234 -0.03415676 0.2789881795 -0.7430801922 0.2787800025 -0.7428849523 0.0373566809 -0.0332932265
580296520.0 0.0361235769 -0.0344797626 0.2706924866 -0.7464384995 0.271055923 -0.745725875 0.0362235168 -0.0336924869
585296490.0 0.0353665245 -0.0357423911 0.2631055763 -0.7483012789 0.2630552604 -0.748391624 0.0358744006 -0.0338086261
590296460.0 0.0352700891 -0.0354694986 0.2548667959 -0.7506317723 0.2547650086 -0.7509795428 0.0345538601 -0.0344582069
595296430.0 0.0350401717 -0.0355819135 0.2464931971 -0.7544874925 0.2464119998 -0.7541034355 0.0345064275 -0.0353392209
600296400.0 0.0339107592 -0.0363216927 0.2379505197 -0.7568934154 0.2384310027 -0.7561838286 0.0339158248 -0.035496165
605296370.0 0.0336275367 -0.0365895605 0.2302600571 -0.7595434482 0.2303075788 -0.7590876905 0.0334762215 -0.0358078408
610296340.0 0.0331203972 -0.0369351453 0.221138879 -0.7615715805 0.2217821129 -0.7617183316 0.033232017 -0.0364873752
615296310.0 0.0329608374 -0.037657496 0.2129800052 -0.7635924986 0.2130737504 -0.7645533136 0.0328443142 -0.0361891995
620296280.0 0.032058652 -0.0382827103 0.2050536595 -0.7664253997 0.2048362805 -0.7659903826 0.0318759848 -0.0370708985
625296250.0 0.0309205234 -0.0387275422 0.1973309494 -0.7687253213 0.1969558304 -0.7687367331 0.0323646642 -0.0374984236
630296220.0 0.0318184427 -0.038611065 0.1876047615 -0.7706416133 0.1875433692 -0.7703171234 0.0314540134 -0.0372574016
635296190.0 0.0296641181 -0.0394894053 0.1794549311 -0.7725294257 0.1798433314 -0.7726957565 0.0311271323 -0.0379050079
640296160.0 0.0295021474 -0.0392209173 0.1716804163 -0.7741672486 0.1715697583 -0.7746402972 0.0303396531 -0.0385977058
645296130.0 0.0290392112 -0.0392901399 0.1623908889 -0.7758516125 0.1631048272 -0.7763257383 0.0298682329 -0.0384825715
650296100.0 0.0284924106 -0.0398190908 0.1538913005 -0.7780209588 0.1550780424 -0.778166938 0.0301515808 -0.0394704836
655296070.0 0.0274011489 -0.0404349083 0.1457074133 -0.7800391583 0.1458713741 -0.7797205691 0.0293011286 -0.039027202
660296040.0 0.0264895921 -0.0410209011 0.1373597651 -0.7817285535 0.1378645181 -0.7814608318 0.0290563856 -0.0388915489
665296010.0 0.0265482952 -0.0407353639 0.1281396429 -0.7825223284 0.1288022045 -0.7824764526 0.0285010816 -0.0389456431
670295980.0 0.0248496756 -0.0408948967 0.1200952935 -0.7842536594 0.120207215 -0.783945812 0.0271810216 -0.0392397096
675295950.0 0.0247447487 -0.0407314145 0.1121211847 -0.7853628105 0.1116194135 -0.7847633721 0.0266852268 -0.0396333387
680295920.0 0.0236606131 -0.0412713856 0.1029773217 -0.7858804746 0.1027091423 -0.7866993708 0.0264089779 -0.038712295
685295890.0 0.0234155447 -0.0405772096 0.094587931 -0.7871728175 0.0937253039 -0.7875050365 0.0256703812 -0.0391618961
690295860.0 0.0233379419 -0.0413064573 0.0861814892 -0.7879777565 0.0855878907 -0.7887121559 0.0251018549 -0.0383543421
695295830.0 0.0226548053 -0.0413836274 0.0782639907 -0.7893232694 0.0770613555 -0.7889751676 0.0242533652 -0.0389275058
700295800.0 0.021913288 -0.041787798 0.0684091082 -0.7898984173 0.0677737812 -0.7897197166 0.0238301042 -0.0386136549
705295770.0 0.0211296975 -0.0406796545 0.0602811124 -0.7905234312 0.060002574 -0.7907099813 0.0230057619 -0.0389085582
710295740.0 0.0211393891 -0.0411726963 0.0523673351 -0.7919035825 0.051798207 -0.7921010862 0.022877429 -0.0396590834
715295710.0 0.0195814556 -0.0418873807 0.0434208287 -0.7922149768 0.0424007776 -0.7919656926 0.0224444474 -0.0393712242
720295680.0 0.0197253771 -0.0417754907 0.0344913934 -0.7926080416 0.0349666471 -0.7921389988 0.0214003449 -0.0388029753
725295650.0 0.0192878528 -0.0417257757 0.0255614926 -0.7925032312 0.0257829366 -0.7921619687 0.0201899358 -0.0389047851
730295620.0 0.0187586979 -0.0414119599 0.0171052462 -0.7921446952 0.0170931031 -0.793112178 0.0194502604 -0.0397718467
735295590.0 0.0180592663 -0.0413193254 0.0085525805 -0.7932557793 0.0081709828 -0.7928675261 0.0188865828 -0.0396825792
740295560.0 0.0168613697 -0.0415582195 -0.000188492 -0.7927985468 -0.0007653471 -0.7931198546 0.0186829673 -0.0390735781
745295530.0 0.0165873209 -0.0415341952 -0.0088930611 -0.7922985014 -0.0087172374 -0.7927169888 0.0178553388 -0.0397641287
750295500.0 0.0161922732 -0.041856718 -0.017361749 -0.7923921835 -0.0175825864 -0.792535273 0.017226621 -0.0399362952
755295470.0 0.0158339281 -0.042206818 -0.0253124876 -0.7926925693 -0.0255376083 -0.7926507661 0.0171738988 -0.0404753598
760295440.0 0.0148551979 -0.0417526521 -0.0346327086 -0.7929152194 -0.0347755037 -0.7924580504 0.0162027125 -0.0403216909
765295410.0 0.0144315466 -0.0420935313 -0.0431065788 -0.7914164364 -0.0438694761 -0.7918085606 0.0154506313 -0.0400453771
770295380.0 0.013253534 -0.0425662543 -0.0520662939 -0.7912173279 -0.0519598046 -0.7906841687 0.0147069346 -0.0405905456
775295350.0 0.0126627695 -0.0428338307 -0.0611657871 -0.7899937455 -0.0601476124 -0.7902258399 0.0133114062 -0.0403016235
780295320.0 0.012255981 -0.0424581336 -0.0691863071 -0.7893083245 -0.0683068531 -0.7900182421 0.013240808 -0.0414175371
785295290.0 0.0113618114 -0.043150164 -0.0782996386 -0.7887347848 -0.0773214021 -0.788558034 0.0133431952 -0.0407612479
790295260.0 0.0117610922 -0.0421720924 -0.0857166876 -0.7878493423 -0.0854777951 -0.7875319292 0.0124023484 -0.0409784424
795295230.0 0.0103071281 -0.0427952577 -0.0947502437 -0.7868369779 -0.0946010153 -0.7869914649 0.0122425575 -0.0404526526
800295200.0 0.0092840195 -0.042280535 -0.1040646024 -0.7858259402 -0.1032991839 -0.7854500343 0.0115783504 -0.0412507135
805295170.0 0.0088350822 -0.0425270341 -0.1119098896 -0.7844266627 -0.112267494 -0.7850080516 0.010890158 -0.0411441487
810295140.0 0.0078944549 -0.0428769215 -0.1200633173 -0.7832537787 -0.1206138293 -0.7831577151 0.0108390627 -0.0407129545
815295110.0 0.0076565088 -0.0430752731 -0.1287321497 -0.7817172268 -0.1286845936 -0.7815656875 0.00974007 -0.0406751921
820295080.0 0.0065338648 -0.0419410944 -0.1369784868 -0.7799272353 -0.1367873517 -0.7803172862 0.0094339157 -0.0407363981
825295050.0 0.0066718752 -0.0421477631 -0.1451682679 -0.7785141932 -0.1459990677 -0.7789928425 0.0092618745 -0.0407955928
830295020.0 0.005586586 -0.0420303546 -0.1542439632 -0.7772665948 -0.1544096306 -0.776971804 0.009399833 -0.0403817288
