!Created with skrf (http://scikit-rf.org).
# Hz S RI R 50.0 
!freq ReS11 ImS11 ReS21 ImS21 ReS12 ImS12 ReS22 ImS22
300000.0 -0.0434561042 -0.0606819623 -0.0014960449 -0.0003265627 0.0004228239 0.0016205117 -0.7680773624 -0.1725245072
5299970.0 -0.0450493655 0.0153454498 7.53708e-05 0.0001507659 -0.0002037874 8.66379e-05 -0.7844008906 -0.0091800202
10299940.0 -0.0388868245 0.0333829038 -1.8584e-06 6.15849e-05 2.38827e-05 -5.41328e-05 -0.7878461081 -0.0048917179
15299910.0 -0.0308629982 0.0479092362 0.0001255588 0.0001395419 0.0001253042 1.66204e-05 -0.7932276316 -0.0028291015
20299880.0 -0.0204353728 0.0597822715 0.0001384601 3.25014e-05 -4.42189e-05 -9.22818e-05 -0.7998860143 0.0014599586
25299850.0 -0.0090729062 0.0691901731 0.0001701244 -4.50086e-05 9.7954e-06 -5.8341e-05 -0.8065263289 0.0071319855
30299820.0 0.0026516076 0.0757412292 1.14974e-05 -4.8972e-06 0.0001257765 0.0001112203 -0.812225677 0.014982303
35299790.0 0.0144715659 0.0809332063 1.61139e-05 6.28984e-05 0.0001040911 -4.81212e-05 -0.8172288044 0.0241320087
40299760.0 0.0258108944 0.0836968325 5.8261e-06 3.73125e-05 9.10498e-05 -0.0001925726 -0.8211571216 0.0332385475
45299730.0 0.0365166812 0.0851370205 -3.6693e-06 2.4096e-05 -0.0001360318 6.16283e-05 -0.8253458266 0.0423608602
50299700.0 0.0470457496 0.0849008363 -0.0001744809 0.0002476111 8.33369e-05 -2.8834e-06 -0.8273334603 0.0530352456
55299670.0 0.0557470467 0.0842665976 -9.21398e-05 0.000143469 4.71589e-05 0.0001263949 -0.8296711894 0.0630735315
60299640.0 0.0642320409 0.0819906785 -0.0001439039 0.000222036 0.0002828556 -8.80494e-05 -0.8305178744 0.0731696572
65299610.0 0.0723029297 0.0802078615 4.02775e-05 -4.64185e-05 -6.11831e-05 2.7073e-05 -0.8314375872 0.0834457919
70299580.0 0.0792109479 0.0768516706 5.96771e-05 -2.5694e-06 -5.96934e-05 2.81424e-05 -0.832088392 0.0925983392
75299550.0 0.0858903563 0.0733810238 -0.000125156 2.1059e-06 -8.19056e-05 1.81331e-05 -0.8326221511 0.1023341364
80299520.0 0.0909791534 0.0704742168 0.0002010229 -6.02954e-05 0.000183444 0.0001261295 -0.8320664651 0.1124781339
85299490.0 0.096550789 0.0662934469 0.0002570411 -0.0002519437 -4.69315e-05 8.86079e-05 -0.8318600463 0.1222118944
90299460.0 0.1009406687 0.0628803778 8.63125e-05 0.0004232224 -9.9669e-06 3.18429e-05 -0.8303852239 0.1314683237
95299430.0 0.1050392228 0.0588906838 4.73651e-05 4.78102e-05 -9.53594e-05 5.89615e-05 -0.8301262642 0.1415729407
100299400.0 0.1083973996 0.055131838 -0.0001923863 3.33813e-05 -1.31759e-05 6.174e-06 -0.8291743151 0.1496357824
105299370.0 0.1118689566 0.051332203 0.0002801898 0.0002066596 0.0001211501 -0.0001553587 -0.8273598937 0.1591503957
110299340.0 0.1146077296 0.0473475832 -6.717e-06 6.02321e-05 4.87841e-05 5.48302e-05 -0.8269947586 0.1684803509
115299310.0 0.117358686 0.0429572368 -2.4638e-06 -0.0002889068 2.40069e-05 5.98431e-05 -0.8250431172 0.1776107768
120299280.0 0.1194112625 0.0398449316 -3.46702e-05 4.19714e-05 2.19426e-05 0.000215375 -0.8234777095 0.1862531548
125299250.0 0.1212513103 0.0356564746 0.0001630076 0.0001604843 0.0001084867 0.0001701444 -0.8217857422 0.1956296977
130299220.0 0.1231717303 0.0322736277 1.37858e-05 0.0001375103 -0.0002087613 -4.50883e-05 -0.8201422721 0.2039826449
135299190.0 0.1243767439 0.0285064111 -8.7777e-05 -4.67929e-05 3.41445e-05 0.0001729383 -0.8181703898 0.2128330086
140299160.0 0.1257288553 0.025157797 0.0001117495 5.6091e-06 0.000132973 9.63326e-05 -0.8157550835 0.2219615188
145299130.0 0.1269775881 0.0215700195 6.95757e-05 6.83152e-05 5.44651e-05 0.0001283664 -0.8139039374 0.2300597641
150299100.0 0.1280296071 0.0180666568 0.0002081463 3.07545e-05 -3.30493e-05 0.0001954393 -0.8117961101 0.2385426464
155299070.0 0.1288994036 0.014902722 -3.91298e-05 1.35879e-05 0.0001671234 0.0001864339 -0.8093518186 0.2476785243
160299040.0 0.1295238076 0.0115577776 0.0002823709 -4.98285e-05 -0.0001149861 0.000177893 -0.8075325502 0.2568421182
165299010.0 0.1298101566 0.0085565887 7.19958e-05 9.1563e-05 0.0001133147 -5.38168e-05 -0.8042885024 0.265295002
170298980.0 0.1301716086 0.0054634658 1.42e-05 0.0001773393 0.0003892375 0.0001738319 -0.8022326844 0.2731256907
175298950.0 0.1306438411 0.0028482411 0.0001864596 4.56586e-05 0.0001332925 1.6911e-05 -0.7989449042 0.2824786465
180298920.0 0.1307648599 -0.0004434247 4.85243e-05 -2.93793e-05 -7.97372e-05 0.0001999217 -0.7954007978 0.2904787282
185298890.0 0.1307030519 -0.0033801101 -0.0001586403 1.91098e-05 0.0001219966 0.0001947924 -0.7932961923 0.2986574287
190298860.0 0.1312652209 -0.0060750847 -7.26351e-05 -5.886e-07 8.47966e-05 0.0001189106 -0.7896660085 0.3075599033
195298830.0 0.1312369055 -0.0090275446 0.0002137011 -3.86168e-05 1.90068e-05 6.64833e-05 -0.7869905678 0.3152683776
200298800.0 0.1309702611 -0.0115451702 -2.40118e-05 -0.0001228955 0.0001160412 0.0001370526 -0.7833427278 0.3238352271
205298770.0 0.1308205662 -0.0141757602 0.000182352 5.32457e-05 2.61058e-05 0.0001170972 -0.7799337921 0.3321843001
210298740.0 0.1306406568 -0.0165369855 0.0001507326 -0.0001213514 7.20324e-05 0.0001975443 -0.7769053302 0.3405626903
215298710.0 0.1301117892 -0.019137319 0.0002972937 0.0002440853 5.55369e-05 2.0875e-05 -0.7732445643 0.348161786
220298680.0 0.129770603 -0.021669921 -6.19904e-05 0.0001533514 8.4205e-06 2.49634e-05 -0.7691905773 0.3564805423
225298650.0 0.1295012169 -0.0239427971 -0.000116805 0.0002393524 -1.19868e-05 -0.0001205999 -0.7656741173 0.3644282593
230298620.0 0.1290336237 -0.0262192155 0.0001033162 0.0001127494 -4.57163e-05 -4.4015e-05 -0.7616115063 0.372659627
235298590.0 0.1283515985 -0.0285698566 5.83394e-05 8.2054e-06 -7.2016e-06 2.35278e-05 -0.7578035434 0.3804998277
240298560.0 0.1279530413 -0.0308446703 0.0001510679 0.0001525465 0.0001267749 4.37035e-05 -0.753785109 0.3884504237
245298530.0 0.1275091512 -0.0327992845 0.0001436999 0.0002662332 0.0002166039 0.0002918473 -0.7497249746 0.3968433422
250298500.0 0.1270411991 -0.0351224466 7.4597e-05 0.0002056485 0.0001678149 0.0001776971 -0.7459854865 0.4048209007
255298470.0 0.1263172019 -0.0371147398 8.10992e-05 0.0001538246 4.14753e-05 0.0001146771 -0.7404841599 0.411998398
260298440.0 0.1255814747 -0.0391819366 1.15255e-05 0.0003305966 0.0001668793 0.0002397563 -0.7364590079 0.4196025019
265298410.0 0.1248442947 -0.0411095397 0.0002295022 -0.0001513961 -9.22861e-05 6.96836e-05 -0.7319944229 0.4274133876
270298380.0 0.1242392593 -0.0430181895 2.18662e-05 9.26756e-05 -3.70172e-05 3.56706e-05 -0.7273175044 0.4352822213
275298350.0 0.1234407422 -0.0450435474 -1.77127e-05 9.18225e-05 0.000134197 9.35533e-05 -0.7223110252 0.4431790488
280298320.0 0.1227140559 -0.0468986447 -0.0001077557 0.0001789023 0.0002188257 1.39076e-05 -0.7183157921 0.4503875521
285298290.0 0.1219642858 -0.0487058054 0.0001841009 3.3445e-05 6.81267e-05 0.000249692 -0.7131982933 0.4575238952
290298260.0 0.1214397398 -0.050562458 0.0001650669 0.0001651789 0.0001778928 0.0001217575 -0.708637978 0.4653962159
295298230.0 0.1204059235 -0.0527435789 9.7479e-06 0.000226411 4.7294e-05 0.0002140769 -0.7034580765 0.4731207505
300298200.0 0.1197268754 -0.0548969808 0.0001227024 4.72018e-05 -2.41624e-05 0.000177994 -0.6982296837 0.4795396656
305298170.0 0.1190269483 -0.0562757507 0.0003232869 0.0001711341 0.0001585566 5.3148e-06 -0.6929153938 0.4876408258
310298140.0 0.1179670342 -0.0583929235 0.0001326255 0.0002589419 0.0003299004 0.0001137187 -0.6880788935 0.4951717002
315298110.0 0.1166579535 -0.060396779 -5.76443e-05 0.0001148804 9.06012e-05 4.33708e-05 -0.6829230031 0.5021754911
320298080.0 0.1158670991 -0.0620174491 0.0001892377 7.98321e-05 5.98212e-05 0.0002823108 -0.6777206654 0.5096028066
325298050.0 0.1141889957 -0.0640930731 0.0003893319 0.0002271988 0.0001963763 0.0002226343 -0.6722221681 0.5156501885
330298020.0 0.1133294613 -0.065436975 -4.93415e-05 -0.0001310846 7.79119e-05 -4.44878e-05 -0.6665088238 0.5232462221
335297990.0 0.112145645 -0.066610945 2.42478e-05 4.80495e-05 0.0002183077 8.42969e-05 -0.6612247643 0.5296390435
340297960.0 0.1106251624 -0.0681882964 0.0001893194 0.0002066639 2.386e-07 6.01614e-05 -0.6549426729 0.5374007482
345297930.0 0.1093735344 -0.06974426 0.0002188808 -3.25156e-05 1.50607e-05 0.0001566118 -0.6495582285 0.5440836818
350297900.0 0.1087150066 -0.0710894637 8.9553e-05 6.13044e-05 0.0001522314 8.79706e-05 -0.6438604616 0.551170604
355297870.0 0.1071065029 -0.0725401906 0.0001997828 7.76334e-05 0.0001290209 2.67187e-05 -0.6378091334 0.5575089397
360297840.0 0.1060460884 -0.0736367872 0.0001537799 2.7009e-06 0.0002078255 0.0002044623 -0.6325663978 0.5636216597
365297810.0 0.1048795245 -0.0750756077 0.000126378 0.000284054 0.0003801332 0.0001235241 -0.6267121297 0.5706377967
370297780.0 0.1035265444 -0.0766938565 0.0001284015 0.0001986385 0.0001314157 0.000295112 -0.6203505432 0.5768386803
375297750.0 0.1025459675 -0.0773690156 0.0003167485 6.65165e-05 0.0002271061 -2.18932e-05 -0.6140762204 0.5830271177
380297720.0 0.1017454493 -0.0790010213 -4.76272e-05 0.0002539617 9.49691e-05 0.0002302689 -0.6076945709 0.5900210973
385297690.0 0.100395857 -0.0800074135 -3.80715e-05 9.56854e-05 0.000205618 0.0001135603 -0.6022534836 0.5962349398
390297660.0 0.0990399475 -0.0814926209 0.0002357212 0.0002447005 0.0002323227 1.47583e-05 -0.595133103 0.601981719
395297630.0 0.0980325894 -0.082712192 0.0001045204 0.0001454491 0.000209131 4.45613e-05 -0.5893419028 0.6082877278
400297600.0 0.0967023203 -0.0836358784 0.0001168045 -3.28989e-05 0.0002921026 0.0002905141 -0.5832417618 0.6141472179
405297570.0 0.0955452814 -0.0847791431 8.52105e-05 -6.39213e-05 0.0002958459 0.0001412139 -0.5769272038 0.6200755333
410297540.0 0.0942763029 -0.0859401551 0.0003020467 0.0001529322 0.0003549303 8.02935e-05 -0.5698819158 0.6255550469
415297510.0 0.0930016792 -0.0868999557 0.0001975341 0.0001514616 0.0002280178 0.0002427025 -0.563679409 0.6320209302
420297480.0 0.0916178716 -0.0881116263 0.0002736983 0.0001211297 0.0001960388 -5.0306e-06 -0.557119096 0.6370862952
425297450.0 0.0903830664 -0.0891620618 0.0002510013 5.2413e-05 4.74743e-05 6.83434e-05 -0.5505694274 0.6434741968
430297420.0 0.0889915922 -0.09013394 0.0001485419 0.0003170843 0.0001163385 0.0002775544 -0.5435943174 0.6488297035
435297390.0 0.0878149046 -0.0911756533 0.0002755067 0.0001775566 0.0001833763 1.93218e-05 -0.5371281139 0.6535308616
440297360.0 0.0868017981 -0.0922264261 0.000161495 6.35693e-05 0.0001347934 0.0001539173 -0.5302565358 0.6591482804
445297330.0 0.0852712967 -0.0931586695 0.0002847742 0.000401643 0.0001953529 0.0001195598 -0.5235656094 0.6644429871
450297300.0 0.083852261 -0.0942029239 0.0001907291 0.0001783745 0.0002128745 4.69139e-05 -0.5172223804 0.6698694937
455297270.0 0.0827381264 -0.094742867 0.0002084262 -0.0001921541 0.0003320425 0.0001232684 -0.5101532574 0.6748973544
460297240.0 0.0812733738 -0.0958206736 0.0001818198 0.0003174024 0.0002158279 -3.4565e-06 -0.5026981642 0.6801482131
465297210.0 0.0800807156 -0.0968517279 0.000145551 5.57032e-05 0.0002184934 4.82231e-05 -0.4964897882 0.6849340235
470297180.0 0.0785772133 -0.0976542218 0.0002453798 8.0992e-06 4.5414e-06 -6.85401e-05 -0.4891188879 0.689655477
475297150.0 0.0772846845 -0.0983566284 0.0002681045 0.0001663635 6.63921e-05 -4.48325e-05 -0.4818251396 0.6944745332
480297120.0 0.0758184762 -0.0992251058 0.0001608899 0.000103459 0.0002759608 -0.0001558381 -0.4753227975 0.7000673663
485297090.0 0.0746525616 -0.0999424925 0.0001682035 0.0001339783 5.30782e-05 0.0001362905 -0.4678212853 0.7040705005
490297060.0 0.0732398507 -0.1008322547 0.0001233856 -2.75343e-05 8.83937e-05 0.0001519804 -0.4610278479 0.7083305697
495297030.0 0.0718550023 -0.1017486735 9.97464e-05 0.0001857359 -1.59336e-05 0.000103781 -0.4529706317 0.7124094699
500297000.0 0.0705896618 -0.1025322173 0.0001153451 0.000123848 0.0002785684 0.000199422 -0.4465156819 0.7174897895
505296970.0 0.0687235623 -0.1028567583 -3.21601e-05 5.6609e-06 9.98842e-05 7.35519e-05 -0.4405156361 0.7217431677
510296940.0 0.0676201588 -0.1034731948 0.0004743967 9.59051e-05 0.0001833177 2.83465e-05 -0.4316442233 0.7262224987
515296910.0 0.0661118923 -0.1043774593 0.000230691 9.00129e-05 0.0003975463 0.0001455183 -0.4244608837 0.7303624696
520296880.0 0.064821716 -0.1051397648 0.0002913349 0.0001390988 0.000363419 -2.20085e-05 -0.4171715311 0.7347491109
525296850.0 0.0633878894 -0.1058358663 0.0003422219 0.0001808009 0.0001484714 0.0002195065 -0.409651423 0.7390669422
530296820.0 0.0619364428 -0.1063658694 0.0003238981 -0.0001313778 0.0001303197 1.41023e-05 -0.4032215789 0.7424952505
535296790.0 0.0607554747 -0.1066218508 0.000190594 3.02212e-05 0.0001859504 5.43899e-05 -0.3954938808 0.7462028213
540296760.0 0.0590718252 -0.1076889728 0.0002874671 3.25756e-05 0.0001431617 0.0001407785 -0.3881718718 0.7504869739
545296730.0 0.0577658652 -0.1077454887 0.0002998347 -1.48943e-05 0.0003515622 0.0001111948 -0.3809058425 0.7536975172
550296700.0 0.0561719342 -0.1084164361 0.0004928458 3.94185e-05 0.000393278 -3.11572e-05 -0.3731032803 0.757931264
555296670.0 0.0548528756 -0.1089634769 6.37732e-05 0.0001083682 0.0003070507 -1.29134e-05 -0.3654529546 0.7608056255
560296640.0 0.0534681438 -0.1095337154 -2.69114e-05 1.51813e-05 0.0002074946 8.60532e-05 -0.3576627578 0.7650693836
565296610.0 0.0520095883 -0.109782298 0.0002010594 0.000231494 0.0002058863 1.79165e-05 -0.3502339633 0.768368687
570296580.0 0.0506493817 -0.1104322915 0.0001840527 1.16559e-05 0.0001373262 -0.0001163282 -0.3427507703 0.77222052
575296550.0 0.0494173205 -0.1106210666 0.0003299494 0.0001038566 0.000332584 9.10131e-05 -0.334564869 0.7755068938
580296520.0 0.0478976955 -0.1111698598 0.000413698 0.0003552045 0.0002927367 -8.67605e-05 -0.3271737512 0.7789155791
585296490.0 0.0461837985 -0.111834623 0.0002637396 -6.95346e-05 0.0002587928 5.17676e-05 -0.3191535593 0.7816817551
590296460.0 0.0445600393 -0.1120441322 0.00019597 -7.61821e-05 0.0003296535 6.81484e-05 -0.3115379912 0.7849205871
595296430.0 0.0433364877 -0.1123075878 0.0005195781 -2.44914e-05 0.0001903363 3.49188e-05 -0.3033986498 0.7869992765
600296400.0 0.0420740779 -0.1124252776 0.000240701 0.0001025364 0.0003909872 -7.88381e-05 -0.2958323009 0.7912454726
605296370.0 0.0405637478 -0.1128119161 0.0004485102 7.12612e-05 0.0003118652 0.0001273595 -0.2885631754 0.7938633805
610296340.0 0.0391508249 -0.113348206 8.57394e-05 0.0001692787 0.0002358862 7.6504e-05 -0.2799546832 0.7966112541
615296310.0 0.0375575013 -0.1135094856 0.0005441351 -6.12078e-05 0.0001225695 8.25666e-05 -0.2726605417 0.7994169999
620296280.0 0.0360084099 -0.1136297403 0.0004618606 -0.00015099 0.0004574884 -3.79961e-05 -0.2647206178 0.8018118755
625296250.0 0.0345141493 -0.1140495219 0.0003491082 6.54793e-05 0.0002009892 1.06334e-05 -0.2566825982 0.8040530667
630296220.0 0.0332674106 -0.1141795305 0.0002711673 -6.5636e-06 7.26385e-05 0.0001971846 -0.2482927813 0.80730266
635296190.0 0.0317145178 -0.1145973846 0.0002684119 0.0003574329 0.000470891 0.0001182096 -0.2407292472 0.808701889
640296160.0 0.0301084839 -0.1145812855 0.0003518133 0.0001152221 0.0004117994 -8.31032e-05 -0.2323533941 0.8113212123
645296130.0 0.0287366261 -0.1145864028 0.0002722877 -9.79574e-05 0.0003004552 3.19487e-05 -0.225265808 0.8141791615
650296100.0 0.0271705653 -0.1146765688 0.0003260212 0.0001740574 0.0003937029 -0.0002299799 -0.2168321324 0.8163818047
655296070.0 0.0260648526 -0.1151162594 0.0004230094 0.0001309254 0.0004150689 -0.0001733723 -0.2080991278 0.8179143329
660296040.0 0.0243365109 -0.1147976642 0.0002414407 6.426e-06 0.0003097008 0.0001360849 -0.200322421 0.8200116348
665296010.0 0.0228095791 -0.1153170256 0.0002389502 3.24015e-05 0.0004928417 1.63428e-05 -0.1922819493 0.8218950232
670295980.0 0.0214695511 -0.1154897634 0.000498599 9.73572e-05 0.0003006808 5.85455e-05 -0.1850532401 0.8239348442
675295950.0 0.0199044876 -0.1152490471 0.0001517472 4.78494e-05 0.0004470239 6.39997e-05 -0.1764937761 0.8264508832
680295920.0 0.018388236 -0.1151695963 0.0002575646 7.18976e-05 0.0001907448 -0.0001016819 -0.1677436889 0.8274210373
685295890.0 0.0172666147 -0.1151311464 0.0003024201 6.0176e-05 0.0003413958 -8.66256e-05 -0.1598939512 0.8291130884
690295860.0 0.0159849837 -0.115199947 0.0002692228 0.0003289702 0.0005407832 8.98141e-05 -0.1515098177 0.8308463253
695295830.0 0.0144640413 -0.1153727952 0.0003161968 -0.0003161027 0.000291874 -0.0001284728 -0.1437578914 0.832295687
700295800.0 0.0127611207 -0.1150405808 0.000372687 -0.0001376735 0.0004536142 -0.0001859116 -0.1351871283 0.8332022534
705295770.0 0.0115622995 -0.1152791962 0.0003736277 -0.0002062031 0.0002645934 5.45911e-05 -0.1272545132 0.8350560184
710295740.0 0.010013604 -0.1149195077 0.0001847024 0.0001459574 0.0004040957 7.4618e-05 -0.1194498603 0.8367043787
715295710.0 0.0082167944 -0.1148408126 0.0003743161 -0.0001248545 0.0001542781 -3.94194e-05 -0.1108129701 0.8371450254
720295680.0 0.0069742591 -0.1147548415 0.0002617643 -0.0001341197 0.0004523924 1.07078e-05 -0.1021696738 0.838342774
725295650.0 0.0058088695 -0.1144572816 0.0001936897 3.29059e-05 0.0002267437 0.0001879673 -0.0935097392 0.8394203116
730295620.0 0.0040634167 -0.1144137428 0.0002623719 -3.978e-07 0.000392488 8.43384e-05 -0.0857453318 0.84035171
735295590.0 0.0029921768 -0.1143634375 0.0002654772 -9.68552e-05 0.000431316 -6.87165e-05 -0.0766916797 0.8407497838
740295560.0 0.001385715 -0.113896116 0.0003309184 -0.0001927666 0.0003633292 0.000144848 -0.0687598455 0.8414098482
745295530.0 2.38127e-05 -0.113798463 0.0002953359 0.0001190783 0.000304384 4.77589e-05 -0.0611065211 0.8421874319
750295500.0 -0.0015854073 -0.1135198704 0.000496103 -0.0002368472 0.0003005776 -5.45205e-05 -0.0522227548 0.8423577874
755295470.0 -0.0027435468 -0.1132483171 0.0003231326 4.92112e-05 0.0002886841 -0.0002315709 -0.0442654714 0.8436187818
760295440.0 -0.0043058569 -0.11285114 0.000424009 -0.0001507318 0.0003359331 5.60971e-05 -0.0359981717 0.8436905316
765295410.0 -0.0055839237 -0.1129276544 0.0005404514 -8.8037e-06 0.0002618637 -4.80432e-05 -0.0274215362 0.8440310679
770295380.0 -0.0070351622 -0.1124006316 0.0003365891 0.0001315686 0.0003424692 0.000114919 -0.019212648 0.8440137419
775295350.0 -0.0085686124 -0.112052562 0.0002154695 6.27203e-05 0.0003759885 -6.66369e-05 -0.0114120203 0.8437883418
780295320.0 -0.0098878407 -0.1119624526 0.0005243991 2.36595e-05 6.13039e-05 -9.39003e-05 -0.0028256339 0.8442310577
785295290.0 -0.0112500071 -0.1116225841 0.0003873157 -0.0001340886 0.0004838008 8.28617e-05 0.0050868202 0.8441025588
790295260.0 -0.0124861766 -0.1111657872 0.0004683949 0.0001082836 0.0003082554 -0.0001427364 0.0142935153 0.8443037324
795295230.0 -0.0140323067 -0.110596036 0.0004122406 -7.40372e-05 0.0004307929 -0.0001367018 0.0224548626 0.8443209893
800295200.0 -0.0150019987 -0.1101278153 0.0003951093 0.0002079677 0.0004273298 -8.95007e-05 0.0304183786 0.8435258772
805295170.0 -0.0165860569 -0.1097625995 0.0003008262 0.0001185383 0.0003805038 0.0001154879 0.0383194998 0.8432873094
810295140.0 -0.0177098393 -0.109228729 0.0003878396 -0.0001865624 0.0004887432 -0.0002137144 0.0465881571 0.8434597761
815295110.0 -0.0192830867 -0.1087221355 0.0003620462 -0.0002031288 0.0003541719 -0.0001400118 0.054994683 0.8426129956
820295080.0 -0.0206977973 -0.1085176022 0.0004904572 -0.0001345585 0.0003052128 -9.01015e-05 0.0628187634 0.841565397
825295050.0 -0.021972693 -0.1078282263 0.0001878813 0.0001401848 0.0003987499 -0.0002587173 0.0712658804 0.8413141695
830295020.0 -0.0232634008 -0.1073674235 0.0003747046 -0.0002362389 0.0002483365 -0.0002566535 0.0796559229 0.8399193307
835294990.0 -0.0245911943 -0.1067411937 0.0003106477 -0.0002170761 0.0003526479 -0.000267259 0.0880690255 0.8394789084
840294960.0 -0.0258787297 -0.1064152476 0.0004251777 -0.0002667324 0.0001861885 8.87418e-05 0.0962205059 0.8386117342
845294930.0 -0.0271941392 -0.105619612 0.0003347343 -0.0002274991 0.0004676479 -0.0003341316 0.1040561482 0.8375871275
850294900.0 -0.0283465991 -0.105193208 0.0005960581 -0.0004035437 0.0005071487 -9.05061e-05 0.1126226458 0.836916704
