!Created with skrf (http://scikit-rf.org).
# Hz S RI R 50.0 
!freq ReS11 ImS11 ReS21 ImS21 ReS12 ImS12 ReS22 ImS22
300000.0 -0.7751658731 -0.0861809387 0.0008080235 0.0020319588 -0.000594991 0.0017408259 -0.7777152195 -0.1360298497
5299970.0 -0.7851337654 -0.0053190094 4.00159e-05 -1.6098e-06 -6.05619e-05 -0.000170731 -0.7846209632 -0.0072377909
10299940.0 -0.7880511462 -0.0035900481 -3.58293e-05 -0.0001514615 -3.19539e-05 0.0001804075 -0.7876887983 -0.0033766401
15299910.0 -0.7936295931 -0.0016681135 -1.8516e-06 0.0001515448 4.91221e-05 -5.83e-06 -0.7931306042 -0.0018172425
20299880.0 -0.7999930251 0.0022258988 8.3184e-06 -4.54723e-05 -0.0002389459 -3.99095e-05 -0.7998524483 0.0022012454
25299850.0 -0.8066213611 0.0078566787 -0.0001186098 -0.000227541 5.38383e-05 -5.54978e-05 -0.8058338879 0.0081172489
30299820.0 -0.8125932171 0.0154578305 -0.0001587006 -0.0001593818 -7.0638e-06 7.62476e-05 -0.8119745602 0.0160199694
35299790.0 -0.8175831221 0.0244743031 -0.000212659 5.2255e-06 -9.76991e-05 2.92846e-05 -0.8174581533 0.0251807334
40299760.0 -0.8212208645 0.0335263589 -0.0001071408 -2.49794e-05 -8.23354e-05 -5.06457e-05 -0.8214617773 0.0344010402
45299730.0 -0.8246809045 0.0431329273 0.0001191245 1.67936e-05 9.84237e-05 0.0001267237 -0.8253282794 0.043980558
50299700.0 -0.8274242904 0.0533607973 0.0001208796 4.2165e-06 5.37424e-05 -0.0002439667 -0.8271719953 0.0538046473
55299670.0 -0.829504803 0.0630827132 1.58887e-05 -4.17697e-05 0.0001644841 6.21171e-05 -0.829811663 0.0642747959
60299640.0 -0.8301480763 0.0737917327 5.61553e-05 -4.02794e-05 7.16288e-05 -7.3196e-05 -0.8299774818 0.0738244284
65299610.0 -0.8314397788 0.0833619924 -0.0001171201 6.92561e-05 -0.000144853 0.0001143821 -0.8323056035 0.0840787582
70299580.0 -0.8318357922 0.0934145524 -6.93606e-05 3.99124e-05 5.64126e-05 0.0001104111 -0.8313501353 0.0942312815
75299550.0 -0.8320180854 0.1037889625 0.000137555 -3.076e-06 0.0001120433 2.50114e-05 -0.8323767345 0.1039131398
80299520.0 -0.8320056866 0.1131729212 3.9884e-06 -2.1986e-06 4.50164e-05 6.49638e-05 -0.8322419532 0.113564769
85299490.0 -0.8310899415 0.1225926601 0.0001858283 -7.47751e-05 -7.99265e-05 3.42758e-05 -0.8317757221 0.1234481684
90299460.0 -0.8298427676 0.1320541436 0.0001109574 -7.7416e-05 9.06991e-05 0.0001086757 -0.831055241 0.1330622919
95299430.0 -0.8293464232 0.1420067848 6.62169e-05 -0.0001000155 -0.0001676487 2.56099e-05 -0.8294498882 0.1429075904
100299400.0 -0.8284546975 0.1510074931 0.0001021033 -0.0001123377 -1.68447e-05 -0.0001021087 -0.8288355467 0.1528416671
105299370.0 -0.8269091839 0.1604225536 3.92293e-05 -8.42749e-05 -7.34035e-05 -0.0001185195 -0.8273412673 0.1610307194
110299340.0 -0.8250684756 0.1697182718 0.000185859 -6.3025e-05 -0.0001193311 0.0001193645 -0.8258867233 0.1704374297
115299310.0 -0.8241682841 0.1788462536 -4.75931e-05 0.0001603859 -8.78038e-05 1.34215e-05 -0.8235979883 0.1801014227
120299280.0 -0.822605926 0.187343482 -3.4111e-06 -7.50384e-05 1.502e-07 -0.0001270314 -0.8223620582 0.1888328855
125299250.0 -0.8203309624 0.1963983196 7.10008e-05 2.5749e-06 -0.0001577349 -5.11518e-05 -0.8214241742 0.1976041174
130299220.0 -0.8187004792 0.2052827193 0.0002829419 0.0001334965 -6.15012e-05 3.38072e-05 -0.81921735 0.206915921
135299190.0 -0.8167955868 0.2141242537 -5.95425e-05 -7.86734e-05 -0.0001516712 0.0002837749 -0.8162822485 0.2159569461
140299160.0 -0.8145282999 0.2232279816 -0.0001074924 -0.0002237263 -5.20948e-05 -9.13756e-05 -0.8141062997 0.2252134542
145299130.0 -0.8126809393 0.232453987 1.86425e-05 -7.08704e-05 0.0002006628 -9.06931e-05 -0.8120309079 0.2340063902
150299100.0 -0.8101597065 0.2410272086 -3.08773e-05 -5.7875e-05 3.33211e-05 -9.84433e-05 -0.8108287007 0.2429495237
155299070.0 -0.8076431991 0.2494488498 8.8596e-06 -5.69303e-05 -0.0001115267 1.04636e-05 -0.8071854739 0.2521404704
160299040.0 -0.8053012795 0.2582730988 -0.0001167196 5.24973e-05 4.57046e-05 -4.61545e-05 -0.8055489332 0.2604834765
165299010.0 -0.8028121485 0.2669597888 2.00941e-05 -9.73257e-05 -7.53215e-05 -0.0001501508 -0.802681878 0.2695591145
170298980.0 -0.8003167468 0.2751452528 -0.0002416607 -0.0001081364 -2.29165e-05 -9.27004e-05 -0.7993186959 0.2781892864
175298950.0 -0.7972189683 0.2841795558 -4.17349e-05 2.69139e-05 -0.0001128891 0.0001183228 -0.7969786327 0.2865716449
180298920.0 -0.794293014 0.2927609126 -7.8868e-05 -0.0001546659 -0.0001619387 -7.97034e-05 -0.7937095334 0.2953018969
185298890.0 -0.7912864001 0.3005784644 9.047e-07 -0.0001768885 -0.0001406597 -8.67006e-05 -0.7902733299 0.3041091658
190298860.0 -0.788307996 0.309758504 -2.4284e-06 0.0001990715 2.12919e-05 7.87201e-05 -0.788190619 0.3125151817
195298830.0 -0.7854286386 0.3175454947 -0.0002175357 0.0001176996 8.1643e-06 -0.0001144156 -0.7845852262 0.321315197
200298800.0 -0.781257144 0.3261381187 -1.15918e-05 0.0001145839 0.0001361984 -3.79681e-05 -0.7813998976 0.3291676202
205298770.0 -0.778507383 0.3344591532 0.0001128772 0.0002274135 6.36456e-05 7.6501e-06 -0.7778665922 0.3374064605
210298740.0 -0.7750740468 0.342715062 -0.0001274554 -8.35423e-05 -0.0001086912 -4.6979e-05 -0.7745795248 0.3456502348
215298710.0 -0.7718582354 0.3505621104 0.0001306814 -6.71652e-05 5.81335e-05 0.0001876214 -0.7710420306 0.3538364978
220298680.0 -0.7675682129 0.3587156032 -0.0002077056 1.22004e-05 9.02326e-05 -4.3992e-05 -0.76720621 0.3621329384
225298650.0 -0.7643847045 0.366909421 0.0003276667 0.0002010028 5.1347e-06 -2.55462e-05 -0.7638529881 0.3703006014
230298620.0 -0.7601549653 0.3750017391 0.0002411807 3.26305e-05 5.36192e-05 -0.0001727674 -0.7597657532 0.3786326815
235298590.0 -0.7558448017 0.3832774392 -0.0001741451 0.0002011333 3.6109e-06 4.24802e-05 -0.7554419419 0.3869612312
240298560.0 -0.7523556532 0.3910364973 1.17273e-05 -4.46067e-05 0.0001865507 -0.0001456604 -0.751294193 0.3951014527
245298530.0 -0.7483126884 0.3989018867 7.39557e-05 0.0001064846 0.0001691482 -3.17202e-05 -0.7479075427 0.4022390321
250298500.0 -0.7439615913 0.4071075878 -0.0001184234 -0.0001498206 -6.96503e-05 -1.9167e-05 -0.7436410549 0.4100277087
255298470.0 -0.7395941441 0.4138942226 -3.48764e-05 0.000200526 -0.000257539 9.79796e-05 -0.7386269925 0.418406075
260298440.0 -0.7352041058 0.4216906861 7.3587e-05 7.84676e-05 -0.0001417743 4.88279e-05 -0.7348389517 0.4264314403
265298410.0 -0.7314238966 0.4298593247 -0.000246478 -8.13375e-05 8.9586e-06 -4.40585e-05 -0.7302270746 0.4336364478
270298380.0 -0.7269150957 0.4370328321 -6.0778e-06 -7.80712e-05 5.97007e-05 -0.0001296946 -0.7256360277 0.4412367697
275298350.0 -0.7220768679 0.4448118435 0.0003934433 -8.69485e-05 -0.0001791188 -0.0001952135 -0.7208757957 0.4482408751
280298320.0 -0.7171282565 0.4526646106 -2.96502e-05 0.0001380273 -4.72004e-05 -3.59416e-05 -0.7160193182 0.4560575151
285298290.0 -0.7128368448 0.4601606433 -8.9677e-06 0.0001152619 8.81e-08 0.000200683 -0.710843651 0.4639156715
290298260.0 -0.7076210514 0.4677849136 -5.1999e-06 -0.0001544044 5.21245e-05 0.0001207016 -0.7060990472 0.47135158
295298230.0 -0.7022253284 0.4748105232 -3.10273e-05 -1.84669e-05 6.20521e-05 0.0001295115 -0.7015204485 0.4782251936
300298200.0 -0.6977687629 0.481906377 -8.13e-07 6.01339e-05 -7.77171e-05 -1.39276e-05 -0.6961039608 0.4857159035
305298170.0 -0.6926807534 0.488305552 -1.05229e-05 0.000129621 -0.0001531082 -0.0002166202 -0.6905097192 0.4929763633
310298140.0 -0.6873567976 0.4962466775 4.50338e-05 -1.98215e-05 -0.0001197164 0.0002182415 -0.6860932295 0.4998547716
315298110.0 -0.6827092747 0.5033073747 7.06511e-05 2.14511e-05 -5.50429e-05 -0.0001645445 -0.6803302539 0.507131982
320298080.0 -0.6776062843 0.5103182403 -9.4511e-06 3.28436e-05 4.10888e-05 -1.7811e-05 -0.675006142 0.5145679627
325298050.0 -0.6717232073 0.5173238587 -1.0718e-06 -7.28124e-05 -5.53916e-05 0.000183907 -0.6691398853 0.5212531456
330298020.0 -0.6663645289 0.5237371314 0.0001800771 -0.0001236371 -7.36377e-05 -5.9522e-06 -0.6636477318 0.5285013596
335297990.0 -0.6604520419 0.5309007154 6.71724e-05 0.0001134368 2.17839e-05 -6.19733e-05 -0.6584294975 0.535848684
340297960.0 -0.6560646042 0.5373533295 5.05904e-05 0.0001328726 -2.7048e-05 -0.0001919412 -0.6526978213 0.5423044409
345297930.0 -0.6498501617 0.5441708477 2.18296e-05 -0.0001691371 -5.5405e-06 -0.0001525416 -0.6468304814 0.5484391594
350297900.0 -0.6444248631 0.5512343644 5.30775e-05 -0.0001541408 -0.0001153699 -7.7627e-06 -0.6412857935 0.5557862714
355297870.0 -0.6376073201 0.5579595192 -0.0001749199 9.57004e-05 -0.0001326928 0.000155384 -0.6352915774 0.562186941
360297840.0 -0.6324968258 0.5634224308 5.16774e-05 0.0001192194 -0.0002364749 4.29218e-05 -0.6295766972 0.5691804855
365297810.0 -0.6272547618 0.5705928651 4.61208e-05 -3.47174e-05 0.0001357624 -4.2616e-06 -0.6230328786 0.575765928
370297780.0 -0.6206839113 0.5771891163 -0.0001685694 0.0001217487 -4.83555e-05 -0.0001603796 -0.6172596321 0.5815785186
375297750.0 -0.6141659741 0.5832304208 5.30862e-05 3.58759e-05 7.47531e-05 6.05039e-05 -0.6114969518 0.5879451089
380297720.0 -0.608408458 0.5886793443 0.0002259442 -1.60163e-05 8.4047e-06 -0.0001255728 -0.6058464395 0.5942308999
385297690.0 -0.6038029381 0.5955367892 9.46689e-05 -0.0004084289 -0.0001188102 0.000167676 -0.5991804616 0.6003721165
390297660.0 -0.5964543072 0.6012803539 0.0001325312 -7.84195e-05 6.33652e-05 6.93875e-05 -0.593662738 0.6070694265
395297630.0 -0.5901157368 0.6079698959 -0.0001202418 -0.0001396719 -0.0002083713 0.0001083638 -0.5860702704 0.6132071439
400297600.0 -0.5838493884 0.6143169822 7.90698e-05 0.0001460771 -4.69905e-05 0.0001024444 -0.5809261928 0.6187542661
405297570.0 -0.5776159298 0.6195575246 0.0001300608 0.0002331699 9.1359e-06 0.0001218444 -0.5738952954 0.6248901375
410297540.0 -0.5707459714 0.6254663903 -8.10494e-05 3.3269e-06 -6.67252e-05 -0.0001124065 -0.5676673454 0.6307956138
415297510.0 -0.5637816445 0.6314704637 -0.0001407146 1.6194e-05 0.0001700578 2.53824e-05 -0.5614068983 0.6362688877
420297480.0 -0.5589884653 0.6372080457 -0.0001591094 0.0001016512 0.0001453099 -3.34955e-05 -0.5542133022 0.6422201863
425297450.0 -0.551844653 0.6428755592 4.72409e-05 -0.0001511077 -9.59926e-05 3.34863e-05 -0.5478915876 0.6477090042
430297420.0 -0.5451473344 0.6483367602 3.58535e-05 -2.81832e-05 3.26163e-05 2.99754e-05 -0.5414127509 0.6529538642
435297390.0 -0.5383568413 0.6534083686 -0.0002501309 -1.13935e-05 7.38695e-05 -8.85641e-05 -0.5338270418 0.6587195873
440297360.0 -0.5318659248 0.6589527564 0.0001362391 4.29024e-05 0.0002391426 -9.57118e-05 -0.5274632026 0.6636040529
445297330.0 -0.5248049459 0.6644029562 -5.01208e-05 -0.0001617857 -0.0001463407 -2.68846e-05 -0.5205133106 0.668603832
450297300.0 -0.5180589749 0.6693362701 0.0001777612 -8.6429e-06 4.8708e-05 -0.0002160918 -0.5131294599 0.674479469
455297270.0 -0.5110249904 0.6746297853 0.0001707783 -0.0002955269 -0.0002312245 0.0001723663 -0.5061871722 0.678578452
460297240.0 -0.5050245508 0.6796805531 -0.0002081551 -7.07073e-05 -0.0001405504 0.0001629141 -0.4998357534 0.684060102
465297210.0 -0.497444845 0.6852561876 -0.000209835 0.0001372261 -9.08923e-05 0.0002097437 -0.4915678825 0.688884237
470297180.0 -0.4901022844 0.6896050839 6.80742e-05 -7.06553e-05 -0.000130137 -7.88295e-05 -0.4844037414 0.6948546592
475297150.0 -0.4834909546 0.6944347793 0.0001679008 -5.8862e-06 -8.35255e-05 -1.93634e-05 -0.47777566 0.6987802415
480297120.0 -0.4769084342 0.6994518115 -9.507e-05 -7.38e-05 -0.0001157953 -1.86988e-05 -0.4703776475 0.7035448876
485297090.0 -0.4684010231 0.7041276062 -0.000113073 0.0002851557 0.0002326358 3.54373e-05 -0.462795611 0.7083827021
490297060.0 -0.4622575782 0.7088150884 0.0002465901 0.0001216043 0.0001619757 -0.0002133204 -0.4559842263 0.7128317597
495297030.0 -0.4553838125 0.7130938446 -0.0001122374 -9.19786e-05 -0.0001149981 -5.35151e-05 -0.4484103826 0.717745383
500297000.0 -0.4475125659 0.7181251901 -0.0003103433 0.0001680086 -3.0014e-06 4.25852e-05 -0.4409033375 0.7223415572
505296970.0 -0.4399110927 0.7226392715 -4.95559e-05 0.0001167804 0.0001351293 -0.0001822881 -0.4337193479 0.7267499909
510296940.0 -0.4330771179 0.7263807281 -7.33806e-05 7.1677e-06 3.24979e-05 1.87296e-05 -0.4261973135 0.730883093
515296910.0 -0.4244849185 0.7300937027 -0.0003877163 -7.48576e-05 0.000121677 -5.6914e-05 -0.4185615334 0.7357338957
520296880.0 -0.4182112504 0.7355347341 -0.0001851189 2.40863e-05 0.0001758071 -0.000113567 -0.4112356218 0.7392048246
525296850.0 -0.4098769283 0.7390753549 -0.000164072 2.68717e-05 -5.44687e-05 -0.0001915744 -0.4039852703 0.7438395601
530296820.0 -0.4027332711 0.7435049912 0.0001597893 5.54936e-05 -2.67298e-05 7.16247e-05 -0.3961686907 0.7478652457
535296790.0 -0.3955823501 0.7469374217 7.8816e-06 -0.0001921963 -6.95031e-05 -6.10255e-05 -0.3892879889 0.751452906
540296760.0 -0.3885138054 0.751044824 -0.0001313234 0.0002242066 9.22647e-05 -0.0001682425 -0.3808779186 0.7559316491
545296730.0 -0.3802954603 0.7547380753 -8.37145e-05 -8.46846e-05 5.7096e-06 0.0001723932 -0.3735010057 0.7595441232
550296700.0 -0.3730557926 0.7590570387 7.05479e-05 1.72972e-05 -5.06975e-05 3.57054e-05 -0.3657313687 0.7628224852
555296670.0 -0.3648453448 0.7617120877 -0.0001069102 3.21876e-05 -7.71901e-05 -0.0001191163 -0.3581608816 0.7668822445
560296640.0 -0.3573741121 0.7660190416 -1.96422e-05 1.20614e-05 1.12387e-05 6.43349e-05 -0.3498955664 0.770464163
565296610.0 -0.3493855898 0.7696020269 4.91584e-05 -8.03769e-05 0.0001272298 4.47961e-05 -0.3426319988 0.7734283177
570296580.0 -0.3420154731 0.7721588774 -0.0001875836 -4.42629e-05 -7.1178e-05 0.0002056101 -0.3349045058 0.7780372177
575296550.0 -0.3342251462 0.7764417563 -0.0001487092 0.0001151666 -3.23022e-05 9.70843e-05 -0.3267930447 0.7812607116
580296520.0 -0.3260026389 0.7790898871 7.13438e-05 1.5923e-05 -2.80398e-05 -4.81131e-05 -0.3181445942 0.7836582015
585296490.0 -0.3183004868 0.7825168825 -4.94603e-05 5.43364e-05 -0.00015165 9.18158e-05 -0.310203094 0.7873621294
590296460.0 -0.3104932526 0.7860052622 -1.22336e-05 -0.0001586888 8.0735e-06 -8.2368e-06 -0.3030092409 0.7904467772
595296430.0 -0.3027614261 0.7886228935 -1.293e-05 2.26673e-05 -8.57085e-05 7.78693e-05 -0.2946541436 0.7927022706
600296400.0 -0.2947933062 0.7921936968 5.48609e-05 -6.72748e-05 0.000153448 0.0001056641 -0.2868258689 0.7958056154
605296370.0 -0.2869570125 0.7947297695 -3.63414e-05 -0.0003408051 -2.48701e-05 0.0001191056 -0.278278661 0.7989836385
610296340.0 -0.2784544376 0.7972312822 -7.67394e-05 -1.14943e-05 -2.0198e-05 8.0184e-06 -0.2699721649 0.8008971985
615296310.0 -0.2703340496 0.8001382976 -0.0001725292 -1.63171e-05 -0.0001630983 -5.4619e-05 -0.2616510496 0.8033799593
620296280.0 -0.2626745563 0.8020083876 -4.5587e-06 0.0001175326 -0.0001145583 3.36088e-05 -0.2540679926 0.8062405465
625296250.0 -0.2543557065 0.8053487483 0.0001013713 8.59771e-05 -4.69091e-05 0.0001090879 -0.2452173016 0.8080272602
630296220.0 -0.2459117939 0.8079273064 -8.88665e-05 -2.90754e-05 -0.0001675747 8.25664e-05 -0.2375852262 0.8113126681
635296190.0 -0.2381426535 0.8104350723 9.12155e-05 0.000195292 4.11237e-05 0.0001783043 -0.2296215172 0.8127479031
640296160.0 -0.2305971629 0.8124623537 4.1749e-06 -0.0001039854 -9.40992e-05 4.78318e-05 -0.2210005769 0.8156961379
645296130.0 -0.2223393451 0.815439057 -9.36765e-05 -0.0001144996 0.0002018874 0.0001596782 -0.2130059458 0.8175806911
650296100.0 -0.2141257699 0.8169853474 3.55488e-05 6.42105e-05 1.2154e-06 0.0003016643 -0.2049573725 0.8184586262
655296070.0 -0.2058928427 0.8189584108 0.0003188485 0.0001600192 -0.0001533435 -4.91742e-05 -0.1963506808 0.8207563468
660296040.0 -0.1978685888 0.8204098598 2.34219e-05 0.0001002574 0.0001983984 8.70814e-05 -0.187629874 0.8230722796
665296010.0 -0.1888244732 0.8219654592 -1.9195e-05 -0.0001108882 -5.50767e-05 -2.6748e-06 -0.1794166538 0.8251986394
670295980.0 -0.1820042386 0.8243697324 0.0001518799 -0.0001627445 4.18653e-05 3.74916e-05 -0.1717049149 0.8269179902
675295950.0 -0.1734900732 0.826051593 0.000126409 1.31639e-05 -0.0001706521 -0.000225915 -0.1636305231 0.8287425218
680295920.0 -0.1642495526 0.8275794606 8.61366e-05 3.44047e-05 0.0001056386 4.96694e-05 -0.1549685568 0.8312247028
685295890.0 -0.1564991184 0.8307409119 5.659e-05 3.52754e-05 6.29775e-05 8.73005e-05 -0.1462144712 0.8316015902
690295860.0 -0.1488429589 0.8303851114 -6.7237e-06 5.41459e-05 -8.66383e-05 6.75977e-05 -0.1382874878 0.8335045984
695295830.0 -0.1406334209 0.8320503914 1.67112e-05 -4.41393e-05 -6.82946e-05 -5.62938e-05 -0.1289912502 0.8346617088
700295800.0 -0.1321963965 0.8338586466 -4.8348e-06 -0.0001091425 5.27436e-05 -0.0002283751 -0.1221113814 0.8362677688
705295770.0 -0.1238044768 0.8354380525 -9.25094e-05 -0.000178992 -0.0001658813 -2.54997e-05 -0.1128588174 0.8378356862
710295740.0 -0.1148379667 0.8362480112 6.375e-05 -0.0001135364 0.0002239721 -8.60288e-05 -0.1041924725 0.8386431696
715295710.0 -0.1071512298 0.8373432076 6.46033e-05 -4.26929e-05 -1.9235e-06 8.45067e-05 -0.0965886634 0.8399194197
720295680.0 -0.0987664008 0.8384737845 -0.00013444 -0.0001591273 -3.4352e-06 0.0001162621 -0.0875689531 0.8410930794
725295650.0 -0.0905556365 0.8395054514 -0.0004178946 0.0001881969 -0.0001064591 -0.0002009581 -0.0795310474 0.8423249758
730295620.0 -0.0816436393 0.8402851659 3.34829e-05 8.69352e-05 -1.80959e-05 9.65226e-05 -0.0715275403 0.8419578797
735295590.0 -0.0740977535 0.8409389722 0.0001606919 0.0002291482 0.0001198093 6.61456e-05 -0.062809434 0.842650269
740295560.0 -0.0650456043 0.8423468333 3.25745e-05 6.45666e-05 -5.16307e-05 -9.25264e-05 -0.0538295636 0.8442526919
745295530.0 -0.0566020405 0.8428563283 -0.0001073766 0.0001424197 -5.04035e-05 -1.10817e-05 -0.0456098915 0.8437443265
750295500.0 -0.0483236799 0.842787737 -0.0001319136 0.0001050213 3.02105e-05 -0.0003065661 -0.0377064854 0.844153126
755295470.0 -0.0406078091 0.8429378747 -0.0001486873 -7.13237e-05 -5.70747e-05 0.0001533864 -0.028967109 0.8438080069
760295440.0 -0.032071947 0.843079479 0.000126199 -8.3366e-06 -8.75946e-05 0.0001416292 -0.0203517296 0.8445266028
765295410.0 -0.0239081337 0.8443786341 4.09602e-05 -5.25807e-05 -0.0002035973 0.0001095314 -0.0124006033 0.8451690167
770295380.0 -0.0156760336 0.8445669293 -6.70517e-05 -0.0002208891 -0.0002868591 -9.55318e-05 -0.0040562981 0.8447422146
775295350.0 -0.0073055765 0.8439335721 -0.0002834068 -5.87834e-05 1.92752e-05 8.24829e-05 0.0039957429 0.8440612867
780295320.0 0.0014635389 0.8442466703 -9.41733e-05 0.0001806647 -0.0002100907 1.1581e-06 0.0126799593 0.8443777234
785295290.0 0.0092951956 0.8440165254 0.0001468261 2.18476e-05 0.0001627267 7.71169e-05 0.0211924493 0.8435240119
790295260.0 0.0185776814 0.8437338915 -5.85659e-05 -3.55025e-05 -0.0001609427 -3.52733e-05 0.0302440352 0.8439676806
795295230.0 0.0260658808 0.8430946512 0.0001914968 -0.0003214681 -0.0002037981 4.92868e-05 0.038704832 0.842997934
800295200.0 0.0340995185 0.8432391661 -0.0002607866 0.0001514134 0.0001919379 5.9468e-05 0.0474953813 0.8429780626
805295170.0 0.0432728001 0.8429328838 -7.65905e-05 0.0001491297 0.0001071592 0.0001849507 0.0549996004 0.8423372632
810295140.0 0.0515855449 0.842277141 0.0001022393 -9.34185e-05 -7.38397e-05 -0.0001621209 0.0641344129 0.8418719273
815295110.0 0.0597084927 0.8417459142 7.66478e-05 -4.98586e-05 -0.000134851 -0.000284783 0.0723319002 0.8405936607
820295080.0 0.067928856 0.8410939562 0.0001346064 -4.6423e-05 6.53312e-05 0.0002165266 0.0804193505 0.8405618826
825295050.0 0.076794546 0.8402682379 7.7652e-06 0.0001647456 -0.0002950455 0.0001434106 0.0893777332 0.8393851445
830295020.0 0.0843885409 0.8400623011 -9.74502e-05 0.0001704535 0.0001280805 0.0001031359 0.0979155073 0.8389818205
835294990.0 0.0925490719 0.8389687859 -0.0005330328 1.6475e-05 0.0001882842 -4.91849e-05 0.105576902 0.8377196704
840294960.0 0.1003933687 0.8380875937 -5.53799e-05 7.42277e-05 7.5071e-05 -1.03888e-05 0.1135922859 0.8367320605
845294930.0 0.1091153933 0.8365451935 -0.0003179156 -6.2647e-06 -9.51739e-05 -1.56428e-05 0.1215679174 0.8352797992
