!Created with skrf (http://scikit-rf.org).
# Hz S RI R 50.0 
!freq ReS11 ImS11 ReS21 ImS21 ReS12 ImS12 ReS22 ImS22
300000.0 -0.7758463477 -0.0841105994 -0.0009702852 -0.0006753504 0.0006476008 0.001449991 -0.2152546903 -0.0750930621
5299970.0 -0.7847184017 -0.0050523254 -0.0002098693 -8.22047e-05 -8.8833e-05 -0.0001481203 -0.215030836 0.0084897175
10299940.0 -0.7881135065 -0.0040561893 -0.000113416 -1.69208e-05 0.0001535824 9.19036e-05 -0.2115788444 0.0216205263
15299910.0 -0.7930517534 -0.001710971 -4.84324e-05 -0.0001260681 -9.35299e-05 -1.0867e-05 -0.2062458172 0.0311805356
20299880.0 -0.8002676205 0.0021408491 -6.33608e-05 -0.0001809728 4.26404e-05 -8.82474e-05 -0.2001481347 0.0389539733
25299850.0 -0.8066252681 0.0075779601 7.58219e-05 2.37585e-05 -7.18709e-05 -5.50612e-05 -0.1939721804 0.0455295738
30299820.0 -0.8128778732 0.0155739832 5.99007e-05 0.000149338 7.21225e-05 -0.0001263832 -0.1871212961 0.050724932
35299790.0 -0.8174117454 0.0249237149 6.72072e-05 -9.1708e-06 -0.0001599687 2.79388e-05 -0.1811894541 0.0544522182
40299760.0 -0.821389798 0.0336982358 6.69567e-05 5.66453e-05 0.0001040025 -3.3662e-06 -0.1751200273 0.057141751
45299730.0 -0.824682613 0.0430693109 5.16555e-05 7.67398e-05 -6.33742e-05 7.32729e-05 -0.1694700131 0.0596407568
50299700.0 -0.8272351122 0.0527699673 -8.09244e-05 -8.3585e-06 -4.44899e-05 3.45708e-05 -0.1642006844 0.0609144099
55299670.0 -0.8298288515 0.0630668149 -7.68712e-05 -4.58003e-05 3.44654e-05 0.0002005861 -0.1595110046 0.0616111236
60299640.0 -0.830531184 0.0732583841 -0.0001143716 3.82751e-05 -3.23778e-05 1.80883e-05 -0.1549823646 0.0618062646
65299610.0 -0.8312270217 0.0833388588 -0.000146162 4.4238e-06 1.70195e-05 -9.6499e-06 -0.1515608845 0.0624601993
70299580.0 -0.8317007558 0.0935119022 -4.85258e-05 -7.01307e-05 -2.80975e-05 -6.77413e-05 -0.1476291488 0.0627786921
75299550.0 -0.8318356665 0.1035505166 0.0002353283 2.40773e-05 8.83e-06 3.86832e-05 -0.1444462492 0.0624600363
80299520.0 -0.8318670433 0.1133551015 -5.72259e-05 4.23079e-05 2.53415e-05 0.0002263898 -0.1417532236 0.0625822156
85299490.0 -0.8312703823 0.1224421456 9.1251e-05 7.96976e-05 -0.0001200879 3.58857e-05 -0.1393816432 0.0621231097
90299460.0 -0.8303752318 0.1323225518 -0.0001585054 -0.0002879603 6.25581e-05 -0.0001173932 -0.1368758822 0.0619453501
95299430.0 -0.8290611174 0.1415609485 0.0001530419 0.0002813605 6.52669e-05 9.25321e-05 -0.1345128697 0.0619824231
100299400.0 -0.828135046 0.1503382881 -2.41264e-05 -8.49912e-05 1.74952e-05 1.63499e-05 -0.1325593681 0.0617134764
105299370.0 -0.8271693899 0.1602153241 -0.0001222393 1.20728e-05 -6.63123e-05 3.31679e-05 -0.130706344 0.0616985702
110299340.0 -0.8252341004 0.1694276807 -7.502e-05 -7.57483e-05 -0.0001337551 -6.9005e-06 -0.1294465488 0.0616925307
115299310.0 -0.8236925299 0.1782707098 -8.0301e-06 4.70404e-05 0.0001497835 2.70218e-05 -0.1279428267 0.0614730923
120299280.0 -0.8220487384 0.1871077506 1.2985e-05 -9.41038e-05 -6.11149e-05 8.96005e-05 -0.126688776 0.0614900401
125299250.0 -0.8205617488 0.1961141626 -0.0001300831 -0.000163433 4.55545e-05 0.0001625877 -0.1257708299 0.0609778392
130299220.0 -0.8186687471 0.2052590974 0.0001360139 -4.06451e-05 4.20407e-05 0.0002031983 -0.1248956846 0.0609204348
135299190.0 -0.8170209275 0.214272724 -9.17891e-05 9.88455e-05 -0.0001251854 -6.91575e-05 -0.1232706496 0.0609866219
140299160.0 -0.8148947945 0.2229114032 7.02139e-05 3.59152e-05 -5.61938e-05 8.63723e-05 -0.1225286792 0.0616810125
145299130.0 -0.812730773 0.232037255 6.03314e-05 -4.29622e-05 0.0001517294 -3.97637e-05 -0.1219385668 0.061647903
150299100.0 -0.8103467251 0.2406028937 9.37698e-05 -3.4284e-05 3.832e-06 0.0001156501 -0.1212911148 0.0623019805
155299070.0 -0.8077728545 0.2494748611 6.73975e-05 0.000214604 5.25234e-05 -6.01858e-05 -0.1203522339 0.0624818754
160299040.0 -0.8053954465 0.2575786755 -0.0002148397 -7.66054e-05 -7.66175e-05 2.89994e-05 -0.1200520401 0.0627013567
165299010.0 -0.8025752045 0.2666795283 5.16842e-05 6.78866e-05 -2.1857e-06 7.7787e-06 -0.1189915471 0.063161848
170298980.0 -0.8007916516 0.2751670139 0.0002025859 0.0001214782 3.84001e-05 -0.0001232053 -0.1186147827 0.0633517434
175298950.0 -0.7974152919 0.2838760958 0.0002965161 2.39158e-05 1.7797e-06 4.18554e-05 -0.1180826612 0.0638500581
180298920.0 -0.7950429399 0.2923027817 -0.0001178499 -2.17627e-05 -6.66542e-05 -8.1723e-06 -0.117327924 0.0646601192
185298890.0 -0.7915369104 0.3001003579 0.0001641481 -4.58397e-05 1.00227e-05 0.0002145031 -0.1167517462 0.0649982768
190298860.0 -0.7891272915 0.3094449914 -0.00011665 0.0001694857 0.0001494529 0.0001384266 -0.1165586261 0.0656621028
195298830.0 -0.7857064669 0.31774113 0.0001319098 -8.43237e-05 0.0001073458 -3.13995e-05 -0.1159692951 0.0656290307
200298800.0 -0.7818331322 0.3259196582 -1.1655e-05 -3.51952e-05 8.12448e-05 0.0001025221 -0.1154139075 0.0668047179
205298770.0 -0.778905664 0.3337986756 0.0001716591 -1.91955e-05 4.91178e-05 0.0001556106 -0.1149454564 0.066959767
210298740.0 -0.7754608488 0.3421697351 2.9462e-06 -0.0001400861 0.0001231967 0.0001228271 -0.1144186159 0.0680463457
215298710.0 -0.7718245823 0.3503757897 -1.773e-05 0.0002083121 8.19692e-05 8.6351e-06 -0.1142583216 0.0683457301
220298680.0 -0.7672949658 0.3584550574 0.0001618668 1.2834e-06 0.0002496582 9.35405e-05 -0.1136086881 0.0687862644
225298650.0 -0.764271396 0.3661909147 -8.8548e-05 0.0001613578 0.0001070597 3.67986e-05 -0.1132191335 0.0696381108
230298620.0 -0.7605830839 0.3742102839 0.0001526206 1.7031e-05 0.0001131172 0.0001598401 -0.113046826 0.0707482769
235298590.0 -0.7566510313 0.3827884952 0.0001431535 -2.27615e-05 0.0001694723 4.98032e-05 -0.1125356788 0.0716435574
240298560.0 -0.752867987 0.3910071326 -0.0001378421 0.0001421352 3.76363e-05 2.1383e-06 -0.1118969649 0.0722357665
245298530.0 -0.7488216653 0.398288542 9.1564e-06 4.50167e-05 0.0001737027 8.93795e-05 -0.111627219 0.0727554022
250298500.0 -0.7447825721 0.4063407916 -0.0002212304 0.0001434852 -4.24648e-05 4.45197e-05 -0.1111399376 0.0737068863
255298470.0 -0.7398983139 0.4133413423 1.8492e-06 9.21422e-05 -6.417e-05 2.43467e-05 -0.1105790785 0.0741364309
260298440.0 -0.7358340017 0.4209753742 0.0001560408 6.61318e-05 -1.82034e-05 0.0001133069 -0.1099353731 0.0753939642
265298410.0 -0.7317634359 0.4293651128 3.49323e-05 -3.07076e-05 -7.87664e-05 0.0002237834 -0.1095239595 0.0765318116
270298380.0 -0.7273846901 0.4368257463 6.51259e-05 8.11705e-05 5.51711e-05 1.64991e-05 -0.1089188193 0.077241691
275298350.0 -0.7222518705 0.4444816807 -0.0002430974 1.06844e-05 2.21413e-05 9.19942e-05 -0.1082062378 0.0782868893
280298320.0 -0.7170182381 0.4521877662 -1.29096e-05 -0.0001004171 -3.92614e-05 -0.0001024946 -0.1073388551 0.0790779346
285298290.0 -0.7132528039 0.4600086417 9.64469e-05 -0.0001104095 -0.0001797608 0.000111317 -0.1070815072 0.0798286505
290298260.0 -0.7084571692 0.4672738331 8.24113e-05 0.0002963527 1.34872e-05 0.0001787828 -0.1063635465 0.0810736134
295298230.0 -0.7029031409 0.4742107603 -0.0001053562 2.3227e-05 0.0001801463 -7.40799e-05 -0.1059684194 0.0814040556
300298200.0 -0.6981763472 0.4813928332 -7.67585e-05 -5.5747e-05 -3.7388e-06 -2.74925e-05 -0.1053128823 0.0827118365
305298170.0 -0.6929087388 0.4884982135 7.98224e-05 -5.12086e-05 1.913e-05 0.0001136853 -0.1042772171 0.0835587533
310298140.0 -0.6878191095 0.4961563105 0.0002665846 5.46431e-05 0.0001116432 8.5165e-05 -0.1043983672 0.0843509159
315298110.0 -0.6829790136 0.5032837719 -6.2887e-06 1.35514e-05 0.0001103298 3.28887e-05 -0.1038099459 0.0850976439
320298080.0 -0.6779581755 0.5098969009 -5.74011e-05 0.000105739 2.73277e-05 0.0001763874 -0.1031092544 0.0859763208
325298050.0 -0.6720542946 0.5172249087 1.40975e-05 9.88098e-05 -1.54866e-05 0.0001544314 -0.1025728033 0.0870254376
330298020.0 -0.6665383739 0.5241340776 4.72526e-05 0.0001265306 0.000228124 0.0002777757 -0.1021937332 0.0880344608
335297990.0 -0.6607537604 0.5306372357 0.0003137817 0.0002966335 1.37152e-05 1.28368e-05 -0.101835274 0.0894415718
340297960.0 -0.6561796542 0.5375417377 0.0001949684 0.0001021423 -2.86334e-05 -9.86183e-05 -0.1007980946 0.0902130317
345297930.0 -0.6510386061 0.5443937623 0.000185446 0.0003532297 -2.45226e-05 0.0001300136 -0.1004829317 0.0909925997
350297900.0 -0.6450903431 0.5510277439 5.08411e-05 0.0002458935 0.0001904817 7.32487e-05 -0.099743435 0.0924645152
355297870.0 -0.6382335672 0.557712795 -3.9313e-05 5.55564e-05 9.82607e-05 -0.0001061218 -0.0996336294 0.0932003518
360297840.0 -0.6328970014 0.5637078873 0.00016334 0.0001445593 0.0001208273 -3.4716e-05 -0.0988873726 0.0943673391
365297810.0 -0.6276487764 0.5705680903 0.0001225382 -3.83087e-05 0.0003752997 0.0001037569 -0.0979470817 0.095211403
370297780.0 -0.6217350698 0.5771290514 0.000276272 -3.94936e-05 8.14842e-05 4.03394e-05 -0.0968990457 0.0963177548
375297750.0 -0.6146061842 0.5833872347 6.31882e-05 8.95149e-05 -6.90335e-05 0.0002167868 -0.0967418768 0.0973958155
380297720.0 -0.6092340029 0.5890490777 -1.2423e-06 0.0001378955 0.000137398 5.08648e-05 -0.0960769491 0.0983009354
385297690.0 -0.6039624745 0.5948593745 5.47107e-05 6.02161e-05 0.0001552538 1.47662e-05 -0.0948998086 0.0993231703
390297660.0 -0.5975085885 0.6006922017 2.70125e-05 -3.49783e-05 9.19782e-05 0.000178625 -0.0941726968 0.1003672806
395297630.0 -0.5908044655 0.6082022903 7.82578e-05 0.000268691 0.0002719212 5.39896e-05 -0.0931199073 0.1017817364
400297600.0 -0.5841743076 0.6139466887 0.0001279991 0.0002758651 0.0003266151 -2.4471e-06 -0.0926125508 0.1026025263
405297570.0 -0.5783086372 0.6195484259 0.0002134047 -9.77843e-05 0.0001130238 2.58912e-05 -0.0920341878 0.1033321672
410297540.0 -0.5714292326 0.6246305977 -7.34326e-05 -0.0002470658 9.25661e-05 0.0001351465 -0.0910390165 0.1047781426
415297510.0 -0.56448335 0.6307761798 3.55435e-05 -9.4391e-05 0.000159575 0.0001673298 -0.0901308405 0.1053057762
420297480.0 -0.5591304477 0.6370145001 0.0003610842 -0.0003371178 -1.2818e-06 -7.7798e-05 -0.0891996368 0.1062377368
425297450.0 -0.552487568 0.642161865 3.8155e-06 7.6969e-05 0.0001583006 -2.24921e-05 -0.0885263089 0.1072492596
430297420.0 -0.5460822513 0.648224602 0.0003198036 1.72319e-05 0.0001536433 8.7665e-06 -0.0877421648 0.1081875503
435297390.0 -0.5392746673 0.6532279908 0.0002794635 1.36839e-05 0.0001585988 5.59081e-05 -0.0863429724 0.1090256259
440297360.0 -0.5322809124 0.6589725447 0.0002566053 0.0002087934 -9.47745e-05 0.0001212603 -0.0856995443 0.1102978798
445297330.0 -0.5254604577 0.6645445474 0.0002124795 -5.07787e-05 -4.84991e-05 -0.0001383375 -0.0847539897 0.1108608414
450297300.0 -0.5186859231 0.6688267922 7.94258e-05 0.0001250004 4.87651e-05 0.0001961911 -0.0835245699 0.1120209888
455297270.0 -0.5119083117 0.6746090303 0.0001347966 -7.90977e-05 0.0003074565 -9.48732e-05 -0.0829004485 0.112759314
460297240.0 -0.5051789201 0.6796170083 5.59577e-05 2.0482e-05 0.0001787654 0.0002129637 -0.0818252626 0.1139763307
465297210.0 -0.4984319195 0.685465574 3.09139e-05 -1.10781e-05 7.79381e-05 0.0002319821 -0.0808410934 0.1146797476
470297180.0 -0.4907261793 0.6896362168 0.0002835223 0.0002431622 0.0002295568 0.0001086014 -0.0799926898 0.1158403634
475297150.0 -0.4837399423 0.6945659804 0.0001721312 6.5368e-06 -2.40033e-05 -6.021e-07 -0.0784984753 0.1165552707
480297120.0 -0.4771336566 0.6993257259 9.82196e-05 5.4016e-05 -9.38637e-05 9.92619e-05 -0.0777207466 0.117547641
485297090.0 -0.4692767458 0.7040651805 4.13111e-05 -4.3856e-06 0.0002299025 -6.4258e-06 -0.0768737726 0.1187099162
490297060.0 -0.462731149 0.708580356 0.0002573118 9.34206e-05 4.46614e-05 0.0001994419 -0.0758299456 0.1191895188
495297030.0 -0.4554386164 0.7130030618 0.0002737444 0.0002036641 7.31992e-05 6.84308e-05 -0.0747733655 0.12060014
500297000.0 -0.4480662016 0.7183872384 0.0001405668 0.000216443 -6.43442e-05 -3.02651e-05 -0.0734144543 0.121543764
505296970.0 -0.4402078831 0.7222225266 0.0002939604 0.0001908946 6.53692e-05 0.0002406004 -0.0731181885 0.1222900651
510296940.0 -0.4334066459 0.7262859319 0.0001920239 0.0001139989 0.0002225487 0.000255324 -0.0716090946 0.1231097694
515296910.0 -0.4252251395 0.7309341865 0.0004067773 6.07089e-05 0.0001097207 0.0001959946 -0.0704061438 0.1239869569
520296880.0 -0.4188126218 0.7352453803 0.0001894217 -5.47826e-05 0.0002035607 -8.51572e-05 -0.0695734787 0.1246298128
525296850.0 -0.410465217 0.7388843729 0.0001593575 -8.76652e-05 0.0001323784 0.0001331812 -0.0684971543 0.1258514719
530296820.0 -0.4035850288 0.7437854444 5.6875e-06 3.3874e-06 0.0004660746 -5.06044e-05 -0.0673862514 0.126547864
535296790.0 -0.3962284516 0.7470973483 0.0001329731 9.55381e-05 0.0002711693 0.0002043957 -0.0665187141 0.1268887043
540296760.0 -0.3888494588 0.7506722818 -0.000133613 0.0001758099 0.0002153374 0.0001808412 -0.0652629465 0.1281482666
545296730.0 -0.3809850701 0.7553367772 0.0002503828 3.902e-07 0.0003509966 -0.0001378678 -0.0641779269 0.1288797695
550296700.0 -0.3738454065 0.7589593413 5.13162e-05 1.905e-07 0.0001021023 0.0001446517 -0.0630815643 0.1294835503
555296670.0 -0.3654869912 0.7615757953 0.0002151711 0.0001041592 5.7923e-06 2.51165e-05 -0.0618965433 0.1307450768
560296640.0 -0.3582299995 0.7665372392 4.56409e-05 3.29793e-05 0.0002840544 0.0001576604 -0.0608811424 0.1309915473
565296610.0 -0.3498315624 0.7696171194 3.2384e-06 -7.45212e-05 9.18027e-05 5.07879e-05 -0.0597129624 0.1319798387
570296580.0 -0.3432312691 0.7723992474 0.0002407747 0.0001858695 0.0002634389 -3.16203e-05 -0.0584199067 0.1328948012
575296550.0 -0.3349592777 0.7766435657 0.0001564556 0.0001152734 0.0002027862 -1.07973e-05 -0.0569924692 0.1335169965
580296520.0 -0.3266147996 0.779661029 0.0002856513 -0.000114021 0.0003331451 6.15597e-05 -0.0557341192 0.1341744333
585296490.0 -0.3195693205 0.7820381052 0.0001775554 9.45482e-05 0.0001994418 0.0001061431 -0.0544369818 0.134894694
590296460.0 -0.3109009501 0.7856471633 0.0004475786 8.8135e-06 0.000142279 0.0003478053 -0.0536193695 0.1356348223
595296430.0 -0.3032241191 0.7888903983 4.28224e-05 1.72435e-05 0.0002105174 0.0002203972 -0.0523740589 0.136293541
600296400.0 -0.2955436102 0.7922751521 0.000382166 -3.2246e-05 0.0002801809 -2.37283e-05 -0.0513825165 0.1367315924
605296370.0 -0.2878596828 0.7946787061 0.0002547654 -0.0002534692 0.0002372018 0.0002720976 -0.0493074283 0.1375280778
610296340.0 -0.2793449165 0.7977313312 -5.66405e-05 0.0001099522 0.000258108 2.06194e-05 -0.0483155675 0.1382109057
615296310.0 -0.2711351432 0.8004793994 0.0004405675 -1.7796e-06 0.0002550582 4.31878e-05 -0.0467635875 0.1386286036
620296280.0 -0.2634451543 0.8018842634 0.0003332039 0.0004089491 0.0001850065 0.0001843035 -0.0459414781 0.1396268122
625296250.0 -0.2553108733 0.8054658323 0.000188843 0.0001110337 0.0002357981 1.60237e-05 -0.0442627616 0.1401558704
630296220.0 -0.2467040948 0.8078824581 -4.04473e-05 -1.694e-07 0.0002028863 0.000123575 -0.0429974024 0.1410679872
635296190.0 -0.2392670308 0.8106410917 0.0003017174 -4.72483e-05 0.0002566503 0.0001596402 -0.0418507283 0.1412416052
640296160.0 -0.2314033523 0.8124770308 0.0002618421 -5.53521e-05 0.0002790821 5.74208e-05 -0.0407764847 0.142223666
645296130.0 -0.2232945061 0.8153010741 0.0001875478 0.0001204814 0.0002442202 2.54794e-05 -0.0390399437 0.1428535849
650296100.0 -0.2146821075 0.8168023285 -5.24181e-05 5.6259e-06 0.0001267637 6.82653e-05 -0.0379666201 0.1428727911
655296070.0 -0.206769638 0.8190101795 0.0001718207 -8.7272e-06 0.0001913253 0.0001681386 -0.03670513 0.1436999466
660296040.0 -0.1984385834 0.820699721 5.28328e-05 -1.92751e-05 6.08594e-05 0.0001318515 -0.0351231926 0.1443131624
665296010.0 -0.1899793775 0.8224997128 7.50783e-05 0.0001472747 9.55422e-05 -9.93e-07 -0.033730633 0.1447830614
670295980.0 -0.1823892786 0.8246062498 0.0002336778 8.93094e-05 0.0002273241 7.0474e-06 -0.0328215128 0.1456922954
675295950.0 -0.1736561573 0.8262124078 4.02567e-05 0.0001379114 0.0001828334 -9.4713e-05 -0.0312786412 0.1460338928
680295920.0 -0.1656672345 0.828426528 9.38333e-05 -0.0001188844 0.0002896674 -7.99756e-05 -0.029653481 0.1469292118
685295890.0 -0.1571225249 0.830322319 0.0001455256 0.0001412778 0.0001135314 8.91951e-05 -0.0285227002 0.1472224686
690295860.0 -0.14929485 0.8311568992 0.0004097673 -1.5114e-06 0.0002182751 0.0001514731 -0.0270745437 0.1476730217
695295830.0 -0.1409599943 0.8322783422 0.0002558589 -0.000235104 0.0002732983 0.0001486833 -0.0257968502 0.1482239497
700295800.0 -0.1319331517 0.8341351231 0.0001110929 0.0001431837 0.000236845 -2.66102e-05 -0.0247772817 0.1487170089
705295770.0 -0.1245426409 0.8359507436 0.0004183635 5.51809e-05 0.0003820226 -0.0001016798 -0.0229765239 0.1495944699
710295740.0 -0.1162896044 0.8362951654 0.0002412498 3.39664e-05 0.0001577434 2.76714e-05 -0.0218812871 0.1495072217
715295710.0 -0.1075393108 0.8372780328 0.0001968233 0.0001227117 0.0002561153 0.0001910274 -0.0203709694 0.1499233152
720295680.0 -0.0998717572 0.8387735871 0.0001574482 3.99592e-05 0.0002160108 -8.04998e-05 -0.0188968474 0.1500049122
725295650.0 -0.0916572705 0.839935274 0.000443461 -3.31346e-05 8.7358e-05 -0.0001748709 -0.0178841209 0.1509707201
730295620.0 -0.0825270938 0.8403529292 0.0001854863 8.04943e-05 0.0001742879 6.768e-07 -0.0162346502 0.1513244762
735295590.0 -0.0742545232 0.8412573839 0.0004619442 -2.2469e-06 2.54575e-05 8.26762e-05 -0.0153172497 0.1511335902
740295560.0 -0.0664158169 0.8423480746 0.0002915377 -9.79416e-05 0.0003297277 9.65152e-05 -0.0131119999 0.1518574119
745295530.0 -0.0576270035 0.8426353809 0.0001985935 -0.0001939201 0.0001773494 5.97774e-05 -0.0117758392 0.1521684799
750295500.0 -0.0496963725 0.8433466503 0.0004441513 -0.0001099582 0.0001759348 -0.0001087833 -0.0103896263 0.1526108486
755295470.0 -0.0412220558 0.8437820445 0.0002276503 -3.15195e-05 0.0001416479 4.00638e-05 -0.008929366 0.1521241643
760295440.0 -0.0330035729 0.8434798291 0.0003045894 1.62019e-05 0.0005010172 0.0001130175 -0.0078972544 0.1527327674
765295410.0 -0.0246535919 0.8439503959 0.000276325 -0.0001455862 0.0001914134 -0.0001311861 -0.0059156149 0.1532445933
770295380.0 -0.0162530056 0.8440107949 0.0001342875 -5.64682e-05 0.0002080489 5.45871e-05 -0.0051279243 0.1534029955
775295350.0 -0.0081697182 0.8444158515 0.0002135714 -0.0002053304 0.000335421 -0.0001739962 -0.003540503 0.1537216639
780295320.0 0.0003067539 0.844553936 0.0003340013 0.0001091851 0.0002212149 -8.06214e-05 -0.0019966037 0.1536219524
785295290.0 0.0087887614 0.8440580506 0.0002955181 -0.0002502713 0.0002960522 0.000127728 -0.000220571 0.1540912827
790295260.0 0.0174102495 0.8444137971 0.0003661272 -0.0002218581 0.0002051624 -8.77151e-05 0.0014728279 0.1541401148
795295230.0 0.0252354426 0.8437739157 0.0003219377 -3.16737e-05 0.0003530582 -0.0001163602 0.0027832341 0.1544282003
800295200.0 0.0333643475 0.8429833559 0.0003076207 -7.89011e-05 0.0003449871 -2.95034e-05 0.0043758346 0.1548918194
805295170.0 0.0426009682 0.8432804311 0.0005499472 -0.0002097288 0.0001562157 -1.96171e-05 0.0056611156 0.1551756457
810295140.0 0.0506770497 0.8425676877 0.0001106406 -5.07804e-05 0.0003315834 -0.0001304908 0.007614635 0.1551540978
815295110.0 0.0589977331 0.8422679563 0.0003304169 -1.73464e-05 6.10772e-05 4.00127e-05 0.0092163452 0.1551722505
820295080.0 0.0670948363 0.8415298616 0.0002733586 -0.0001943458 0.0002720277 -2.5756e-05 0.0103551379 0.1556954223
825295050.0 0.0761317764 0.8404197624 0.0002512897 -0.0002965363 0.0002838019 -8.36727e-05 0.0114910535 0.1557197893
830295020.0 0.0835815549 0.8403243042 0.0001822241 0.0001949583 0.0003092885 -0.0003531356 0.0136125538 0.1558819626
835294990.0 0.0920058062 0.8395909555 0.0002626878 -0.0001847455 0.0004168892 -5.12197e-05 0.0148301187 0.1559798642
840294960.0 0.0994641844 0.8384458325 0.0002299246 -8.24858e-05 0.0005031021 -5.68412e-05 0.0162060047 0.155766916
845294930.0 0.1079754149 0.837028664 0.0001622225 -9.78034e-05 0.0003204011 -0.0001907509 0.0174531609 0.15574427
850294900.0 0.1164305823 0.8362932185 5.38134e-05 -0.0001262282 0.0002562768 -1.19443e-05 0.0188801719 0.1558708841
