!Created with skrf (http://scikit-rf.org).
# Hz S RI R 50.0 
!freq ReS11 ImS11 ReS21 ImS21 ReS12 ImS12 ReS22 ImS22
300000.0 -0.7714577558 -0.1863732508 -0.0007435843 -0.0002646438 -0.0001614474 2.46667e-05 0.8596393726 -0.0025945731
5299970.0 -0.7866098862 -0.0095647705 9.06492e-05 -0.0001297718 2.52467e-05 -1.78066e-05 0.8597005206 -0.0100986248
10299940.0 -0.7892841893 -0.0058661599 7.01947e-05 0.0001360166 -3.83924e-05 7.1502e-06 0.8583790914 -0.0190343169
15299910.0 -0.7944095426 -0.0030871795 -3.86452e-05 -7.04221e-05 0.0001977213 -1.86466e-05 0.8571065033 -0.027957224
20299880.0 -0.80112544 0.0011339219 -1.35028e-05 4.2198e-05 6.55414e-05 -0.0001109361 0.8565213137 -0.0357633721
25299850.0 -0.8078013252 0.006881095 8.73065e-05 -2.04852e-05 0.0001069993 1.00517e-05 0.8557872188 -0.0439764109
30299820.0 -0.8141612796 0.013733738 -2.86419e-05 0.0001062183 -7.28612e-05 1.268e-06 0.8553914978 -0.0518943516
35299790.0 -0.8186419308 0.0232593355 0.0001111075 -0.0002995361 -4.25807e-05 0.0001884506 0.8543266259 -0.061287805
40299760.0 -0.8236928399 0.0318894816 -0.0001403813 -3.83453e-05 -0.0001901578 -3.91991e-05 0.8539420824 -0.0688241224
45299730.0 -0.8264128001 0.0419422741 0.0001587725 6.49592e-05 8.97704e-05 -5.74373e-05 0.852749135 -0.0777685401
50299700.0 -0.8292759146 0.0524148334 1.16358e-05 -6.75261e-05 5.43718e-05 9.72367e-05 0.8525923535 -0.0854965092
55299670.0 -0.831280066 0.0611895321 5.56525e-05 5.41326e-05 -4.00798e-05 2.21817e-05 0.8510992518 -0.0936396137
60299640.0 -0.8326641729 0.0719784378 -3.48005e-05 4.5045e-06 0.0001802644 8.30416e-05 0.8500012188 -0.1022017407
65299610.0 -0.8336404207 0.0821048873 1.09225e-05 0.0001223643 -4.05634e-05 3.0463e-06 0.8490177075 -0.1106313424
70299580.0 -0.8338779448 0.0912545061 -8.97669e-05 7.69812e-05 0.0002238698 -3.10662e-05 0.8477024569 -0.118705094
75299550.0 -0.834032114 0.1012731599 0.0001247434 -1.68202e-05 -0.0001763591 0.0001956366 0.8463019715 -0.1268403987
80299520.0 -0.8342360242 0.1117992671 -9.48229e-05 -4.23576e-05 -5.10471e-05 -0.0001829909 0.8449354904 -0.1352021878
85299490.0 -0.8325839898 0.1211366215 0.000129248 1.33301e-05 0.0001255453 -0.000187412 0.8438743346 -0.1436229393
90299460.0 -0.8320575146 0.1310631127 3.38959e-05 5.9249e-06 3.10487e-05 -0.0001873474 0.8425076237 -0.1512990285
95299430.0 -0.8317744198 0.140361766 3.2628e-06 -0.0001267539 -8.31543e-05 -6.46487e-05 0.8409953438 -0.1598261312
100299400.0 -0.8303633381 0.1500970578 -0.000122381 -0.0001851094 -4.99242e-05 2.29023e-05 0.8390922893 -0.16803962
105299370.0 -0.8290840977 0.1592863922 -5.62787e-05 2.29594e-05 -1.767e-06 -8.42023e-05 0.8376316346 -0.1761998699
110299340.0 -0.827538302 0.1682347852 4.11586e-05 0.0001051059 -0.0001062841 5.95741e-05 0.8352468738 -0.1850195141
115299310.0 -0.8258401256 0.1775921874 6.56934e-05 0.0001681592 6.31822e-05 -3.2831e-06 0.8330523475 -0.1922180509
120299280.0 -0.8245679073 0.1867847083 0.0001559989 -0.0002058436 -2.80033e-05 -7.6796e-05 0.8317619536 -0.2004916979
125299250.0 -0.8224976813 0.1956984787 9.41366e-05 -4.48174e-05 3.0372e-06 3.4441e-06 0.8297043988 -0.2088374415
130299220.0 -0.8210933567 0.2049636176 6.43094e-05 0.0001384815 -2.33e-07 0.0001854062 0.8279650491 -0.2163698273
135299190.0 -0.8187124926 0.2142711326 4.00229e-05 -0.000160897 -1.4014e-06 -0.0001022036 0.8257544738 -0.2252317461
140299160.0 -0.8167417108 0.2231547787 0.0001785569 -0.0002027497 -3.13517e-05 0.0001608435 0.8227839743 -0.2332721236
145299130.0 -0.8145838135 0.2319223639 6.89954e-05 0.0001845165 0.0001510918 2.31161e-05 0.8207853911 -0.2409730199
150299100.0 -0.8122562373 0.2408863624 -8.43475e-05 -9.86231e-05 -9.96552e-05 -9.88001e-05 0.8183085975 -0.2488090617
155299070.0 -0.8098595773 0.2502715883 0.0001541864 3.32316e-05 -1.32791e-05 -2.03512e-05 0.8157920496 -0.2572450171
160299040.0 -0.8078007414 0.2591644802 -5.00749e-05 1.65586e-05 0.0002578008 -7.9351e-05 0.8129033351 -0.2652665048
165299010.0 -0.8046070281 0.2673173366 -2.48817e-05 -0.0002540384 -6.06649e-05 0.0001398562 0.8108428075 -0.2726928086
170298980.0 -0.8019518455 0.2759107308 -3.20548e-05 -7.90023e-05 -9.49959e-05 0.0001218731 0.8078351517 -0.281080251
175298950.0 -0.7991140831 0.2847060782 0.0001299078 3.81872e-05 8.577e-06 0.0001624123 0.8049293398 -0.2887123338
180298920.0 -0.7960188764 0.2935043101 1.57761e-05 9.75921e-05 9.58011e-05 0.0001911049 0.8021980526 -0.2966394763
185298890.0 -0.7927167465 0.3022880538 -2.25251e-05 0.000280778 9.89246e-05 5.4287e-05 0.7990439304 -0.3044729985
190298860.0 -0.7894099468 0.3112705965 2.46727e-05 -0.0001045255 -3.9762e-06 0.0002371877 0.7959362576 -0.3125042252
195298830.0 -0.786980663 0.3189044647 4.91155e-05 -0.0001077269 0.0001586926 -4.535e-07 0.7932422675 -0.3198492284
200298800.0 -0.7827165317 0.3281184679 0.0001737008 -0.0001886396 3.7316e-05 -2.90824e-05 0.7895283329 -0.3278512571
205298770.0 -0.7795691336 0.3365528535 -1.56512e-05 -0.0003047537 0.0001557283 8.01374e-05 0.7868397794 -0.3358749638
210298740.0 -0.7765567364 0.3449043879 -0.0001848344 -0.0001034406 0.0001136009 -0.0002079695 0.7831032532 -0.3433904801
215298710.0 -0.7726212133 0.3532512952 5.49897e-05 6.85899e-05 0.0001470152 -2.70511e-05 0.7797533353 -0.3510503038
220298680.0 -0.7685104579 0.3608835879 8.32836e-05 0.0001182041 -9.13186e-05 -7.61872e-05 0.7758809138 -0.3585056128
225298650.0 -0.7646671244 0.3697070544 0.0002090998 -0.0001213206 -0.0002085328 -3.20793e-05 0.7720559274 -0.3660677067
230298620.0 -0.7613436155 0.3777150467 6.48472e-05 0.0003149165 -0.0001172937 3.03989e-05 0.768998171 -0.373180068
235298590.0 -0.7576074344 0.3857178753 -9.52688e-05 0.0002792352 2.18385e-05 5.35561e-05 0.7651024098 -0.3807936062
240298560.0 -0.7529947765 0.3937708109 -0.0001583065 2.78748e-05 0.0001276658 0.0001320956 0.7613063793 -0.3886110595
245298530.0 -0.7488055265 0.4011815264 3.20063e-05 0.0001082231 -8.1574e-05 -0.0001065599 0.7574643974 -0.3957412502
250298500.0 -0.7448059177 0.4097216492 0.000102547 -6.02344e-05 0.000196811 -6.22104e-05 0.7533846068 -0.4026680347
255298470.0 -0.7407619825 0.4177305309 -2.37135e-05 -3.68431e-05 8.58121e-05 1.79349e-05 0.7496484742 -0.4106993651
260298440.0 -0.7362245424 0.4251663651 0.0002946585 -0.0001538484 -0.0001331488 6.45079e-05 0.7452369948 -0.4179539615
265298410.0 -0.7319964691 0.4324879703 -8.25358e-05 -9.23741e-05 -0.0002535326 -2.18712e-05 0.7415736798 -0.4249335671
270298380.0 -0.7272362865 0.4404182611 -0.0001285061 -0.0001393325 6.32454e-05 -0.0001860098 0.738040296 -0.4319722515
275298350.0 -0.7236022316 0.4480105327 -7.71148e-05 6.90687e-05 0.00013984 1.22565e-05 0.7326742084 -0.4395177035
280298320.0 -0.7181998603 0.4556476072 -0.0003408206 9.22291e-05 3.8061e-05 -0.0002923597 0.7287261617 -0.4465441183
285298290.0 -0.7133508672 0.4629786647 -2.3881e-05 9.83933e-05 0.0001826724 -0.0001301705 0.7245466896 -0.4536499311
290298260.0 -0.7084592181 0.4709715074 -0.0001563223 4.2995e-06 -9.7986e-05 -7.95927e-05 0.7203698905 -0.4604450706
295298230.0 -0.7041898639 0.4781031145 6.68271e-05 -0.0001042112 3.6073e-05 -0.0002310868 0.7160485709 -0.4675816478
300298200.0 -0.6993314926 0.4853233133 -0.0001340974 -0.0001245416 -5.07982e-05 -0.0002228045 0.7113988412 -0.4750415643
305298170.0 -0.6944210575 0.4923534769 -0.0001356617 -0.0001356219 -6.19162e-05 0.0001089405 0.7061388025 -0.4818829867
310298140.0 -0.6894711086 0.4999992422 0.000160588 5.84762e-05 7.05867e-05 5.04835e-05 0.7026265201 -0.4892106621
315298110.0 -0.6850123278 0.5071024896 8.30104e-05 -5.73345e-05 -4.21809e-05 -0.0001279411 0.6980059162 -0.496653085
320298080.0 -0.6790291004 0.5145313188 3.19715e-05 7.85139e-05 -0.000275289 -4.3481e-06 0.6922834199 -0.5039427134
325298050.0 -0.6740481392 0.5203369846 -3.41651e-05 -7.20189e-05 2.3922e-06 -5.58125e-05 0.6877406401 -0.5117239524
330298020.0 -0.6682284975 0.5279402515 5.34328e-05 0.0001736123 -0.0001423646 0.0001537678 0.6823142353 -0.5191535222
335297990.0 -0.6631394993 0.5350353122 -0.0001025602 -9.3372e-06 1.98135e-05 6.31175e-05 0.6763177804 -0.5259107928
340297960.0 -0.6580205461 0.5413216016 0.0001089024 2.57098e-05 0.0001353311 -1.31663e-05 0.6699478379 -0.5315342906
345297930.0 -0.6520050356 0.5477939206 -1.80369e-05 7.76319e-05 -9.75583e-05 0.0001291941 0.6641896987 -0.5384646192
350297900.0 -0.6462817817 0.5550557597 0.0001268369 0.000211463 -0.0001640334 5.14857e-05 0.6587214463 -0.544998858
355297870.0 -0.6408719995 0.5616995973 -0.0002418052 -0.0001044753 3.06208e-05 1.49714e-05 0.6528509061 -0.5511501541
360297840.0 -0.6346470624 0.5680912814 -2.61232e-05 4.68013e-05 -7.48926e-05 0.000156424 0.647374203 -0.5566310154
365297810.0 -0.6296820425 0.5744454271 -4.88877e-05 -0.0002278708 0.0001172685 4.85036e-05 0.6418396084 -0.5638011235
370297780.0 -0.6236196375 0.5806697449 -0.0001298009 6.66885e-05 0.000102839 -4.6442e-05 0.6358286472 -0.5693858729
375297750.0 -0.6177214652 0.5870833144 0.0001195316 -0.0001059887 -3.32882e-05 -0.000262247 0.6306801345 -0.5755443247
380297720.0 -0.6123506185 0.5931699032 9.96365e-05 -8.6895e-06 -0.0001559711 4.9674e-06 0.6245036273 -0.5812116155
385297690.0 -0.6060250096 0.5991620726 9.0571e-06 -4.42505e-05 4.35126e-05 -3.06397e-05 0.6182399031 -0.5868330266
390297660.0 -0.5984716656 0.6059206831 -7.89557e-05 1.93009e-05 2.86613e-05 -2.63782e-05 0.6126357603 -0.5935280048
395297630.0 -0.592999212 0.6121664386 -3.50901e-05 2.08133e-05 -5.87195e-05 0.0001702475 0.6067705461 -0.5990901566
400297600.0 -0.5869260107 0.6182951268 0.0001349968 -0.0001628984 -9.72049e-05 -0.0001847417 0.6005551286 -0.6046608968
405297570.0 -0.5807558594 0.6231757065 1.53105e-05 -6.10061e-05 0.0001541667 0.0002700629 0.5947875256 -0.6108582345
410297540.0 -0.5740624509 0.6297623496 2.6215e-05 -8.96046e-05 -0.0001424736 9.97199e-05 0.5882535474 -0.6168870963
415297510.0 -0.5678618519 0.6354561568 -1.70364e-05 -6.82608e-05 7.48578e-05 -0.0001038853 0.5822798481 -0.622378455
420297480.0 -0.5608885623 0.6410485773 1.42553e-05 -2.13817e-05 2.33718e-05 -7.9344e-05 0.576200264 -0.627169802
425297450.0 -0.5547503905 0.6464890839 8.8811e-06 0.0002283707 -0.0001301495 1.49584e-05 0.5705971479 -0.633749326
430297420.0 -0.5482359673 0.6514185634 -7.1282e-05 -0.0002784571 5.5775e-05 3.4244e-05 0.5634687615 -0.6389846914
435297390.0 -0.5421681563 0.6576073174 -7.73335e-05 -0.0001135386 -0.0001281433 -0.00017763 0.5569319659 -0.6445411862
440297360.0 -0.5338729138 0.6629480977 -5.82932e-05 -7.85273e-05 -0.0001246267 -0.0001942524 0.5509515987 -0.6495396436
445297330.0 -0.5271457869 0.668155122 0.0001610347 -0.0001374417 0.0001925025 -0.0001161196 0.5443117302 -0.6544876126
450297300.0 -0.5202428065 0.6736407246 8.1007e-06 -2.6418e-05 0.0001380248 0.0001194497 0.5381478436 -0.6598623129
455297270.0 -0.5133835949 0.6787627586 0.0002702282 0.0001084366 -2.02309e-05 0.0001617283 0.5317913618 -0.6645717383
460297240.0 -0.5061408306 0.6839584896 -0.0001720632 0.000138634 -0.0002574286 -1.2246e-06 0.5245092588 -0.6704029865
465297210.0 -0.4990629659 0.6889746921 -0.0001680382 -8.94995e-05 -0.0001715011 -7.4245e-06 0.5182485226 -0.674876617
470297180.0 -0.4921983893 0.694217437 2.74457e-05 -0.0002429083 -0.000124799 2.19627e-05 0.5113398322 -0.680045038
475297150.0 -0.4848108842 0.6994105556 -0.0001461864 0.0003154355 8.35995e-05 -8.49697e-05 0.5050028616 -0.6850463559
480297120.0 -0.4772190474 0.7041312016 2.964e-05 -6.3283e-05 -0.0001666411 -0.0001303243 0.4977509811 -0.6899356443
485297090.0 -0.4700238392 0.708700315 -3.03091e-05 -0.0001923058 0.0001367573 0.0001188645 0.4913096973 -0.6950207531
490297060.0 -0.462218614 0.7136457254 1.86794e-05 -8.5428e-06 -9.68163e-05 5.11382e-05 0.4840356924 -0.6996085898
495297030.0 -0.4548792715 0.7180791125 7.18723e-05 0.000124935 0.0001909495 -6.56699e-05 0.4769506825 -0.7042548639
500297000.0 -0.4474038784 0.722532003 -0.0001367959 1.08727e-05 0.0001101977 -0.0002122402 0.4702590166 -0.7084349048
505296970.0 -0.4397842991 0.7272250924 9.81827e-05 -4.22099e-05 -7.9259e-06 5.7322e-06 0.4626525245 -0.7131948234
510296940.0 -0.4321117831 0.7316332077 8.66412e-05 -2.3018e-05 -0.0001664463 -3.98349e-05 0.4554978978 -0.7171873879
515296910.0 -0.4243528339 0.7356737089 4.90364e-05 -0.0001218821 0.0001308154 -0.0002254102 0.4480876023 -0.7222194212
520296880.0 -0.4166815905 0.7398762008 3.40276e-05 -0.0001604165 -2.24314e-05 5.42479e-05 0.4413664605 -0.7266384704
525296850.0 -0.4084244946 0.7446267554 -0.0001257852 0.0001172927 -2.90578e-05 7.85058e-05 0.4342304948 -0.7303268658
530296820.0 -0.4015428926 0.7481296795 -6.27656e-05 5.82959e-05 -2.5763e-05 6.07847e-05 0.42697502 -0.735010278
535296790.0 -0.3933934771 0.7514295334 3.03069e-05 -2.10453e-05 -6.95715e-05 -6.2355e-05 0.4201444502 -0.7385037852
540296760.0 -0.3851010094 0.7561398786 -0.0002674798 -0.0002383654 -6.54305e-05 -1.44311e-05 0.4125946434 -0.7426793515
545296730.0 -0.3774155845 0.7599834402 -0.0001000201 -7.20231e-05 0.0001956587 -9.67717e-05 0.4047931814 -0.7469010851
550296700.0 -0.3690142062 0.7637609649 -7.13735e-05 4.14032e-05 7.0291e-06 -0.0001184987 0.397366093 -0.7506707163
555296670.0 -0.3615414117 0.7675334906 -0.0001244578 -0.000129693 -1.4769e-05 -3.92261e-05 0.389714806 -0.7545578996
560296640.0 -0.3533941965 0.7708147929 -9.8405e-06 -6.66032e-05 6.19497e-05 -7.4623e-05 0.3820599853 -0.758403597
565296610.0 -0.3455191226 0.77402818 -7.07112e-05 5.54302e-05 -0.0001747169 1.31796e-05 0.3750845582 -0.7613648958
570296580.0 -0.3372704882 0.7786066564 -2.29156e-05 0.0001574999 0.0002148088 -0.0002042593 0.3666167247 -0.7661942499
575296550.0 -0.3282376133 0.7810903532 -0.0001438249 4.8565e-06 9.9609e-06 -0.0002011221 0.3599088498 -0.7692173615
580296520.0 -0.3210251554 0.784333186 -0.0002713061 0.0001047955 -2.0585e-06 -0.0001366189 0.3515249381 -0.7722990463
585296490.0 -0.3129691903 0.7877157072 -3.48391e-05 4.47636e-05 0.0003184899 -8.46134e-05 0.343762283 -0.7750989249
590296460.0 -0.3043048644 0.7908271428 0.0001040519 -3.70396e-05 -4.96011e-05 5.83676e-05 0.3358826589 -0.7786747216
595296430.0 -0.29622184 0.7940300975 -6.78779e-05 -3.20425e-05 -4.45414e-05 0.0001056101 0.3289887821 -0.7817071981
600296400.0 -0.2884355498 0.7968017441 8.7412e-06 0.0001180528 -0.0001521224 -0.000121303 0.3210538426 -0.7849939316
605296370.0 -0.2797136791 0.7993199965 -0.0002333055 0.0002286705 3.2665e-05 0.0001574239 0.3131290428 -0.788439802
610296340.0 -0.2716773231 0.8031133609 1.41811e-05 -0.0001045632 0.0001852252 0.0001091128 0.3043241837 -0.7909587494
615296310.0 -0.2630853328 0.8057474831 0.0002335565 -0.0001853389 -8.2197e-06 1.0302e-06 0.2973020702 -0.7938461909
620296280.0 -0.2552960195 0.8086666841 0.0002937299 -0.000249755 0.0001621889 -8.86536e-05 0.2898261525 -0.7960671465
625296250.0 -0.2472307986 0.8100704522 4.35107e-05 -2.85588e-05 -9.37612e-05 0.0002026135 0.2810531385 -0.7994617593
630296220.0 -0.2388745028 0.8132260601 0.0001457995 0.0001306589 2.96047e-05 -0.0002649707 0.2734459021 -0.8020786334
635296190.0 -0.2304803921 0.8154944739 -6.08874e-05 2.32152e-05 4.52375e-05 -0.0001063236 0.2655531137 -0.8045535605
640296160.0 -0.2219233429 0.8176563573 -6.738e-07 -0.0001792616 0.000108634 4.13335e-05 0.2570087789 -0.8067857217
645296130.0 -0.2138018747 0.8205556332 -9.32204e-05 0.0001693407 -0.0003579021 -0.0002288281 0.2489780843 -0.809601383
650296100.0 -0.2056032351 0.822106874 5.40943e-05 1.3004e-06 0.0002674122 -0.0001599071 0.2412210142 -0.8117746011
655296070.0 -0.1975842017 0.824527837 -0.0001999274 -5.7876e-05 -3.46303e-05 0.0001389778 0.2328775043 -0.8145880481
660296040.0 -0.1891388295 0.8263586171 0.0002182592 -0.0001570037 6.38e-07 -8.3226e-05 0.2247108355 -0.8163368684
665296010.0 -0.1813427787 0.8286703979 -0.0002161689 9.27304e-05 0.0001632419 4.58513e-05 0.2170420406 -0.8176775875
670295980.0 -0.1726418449 0.8305844864 0.0001201015 -0.0001190652 -6.97978e-05 7.23879e-05 0.2081511642 -0.8205440665
675295950.0 -0.1638398692 0.832198375 -3.79435e-05 0.0002045137 0.0001342475 -0.0001100695 0.1997926067 -0.8220670184
680295920.0 -0.156577731 0.8337534654 -1.79105e-05 -0.0001583038 0.0001730863 -0.000135308 0.1917313666 -0.823675113
685295890.0 -0.1476211775 0.8359916073 -0.0002584809 -2.54464e-05 -0.0001405832 -3.98045e-05 0.1836987921 -0.8258101172
690295860.0 -0.1394653451 0.8367926272 6.1969e-06 -0.000170176 -7.36145e-05 -0.0001955246 0.1755522845 -0.8281117823
695295830.0 -0.1307015705 0.8386380169 4.13332e-05 -0.0002948348 5.59198e-05 4.7015e-05 0.1675582682 -0.8283193883
700295800.0 -0.1229401611 0.8398049974 -0.0001029503 -0.000128814 4.11595e-05 9.07775e-05 0.1590205697 -0.829875547
705295770.0 -0.11527858 0.841445286 -5.71527e-05 -1.32144e-05 5.18341e-05 -4.87238e-05 0.1504469551 -0.8310950964
710295740.0 -0.1068527076 0.8416937962 0.0001441938 5.75009e-05 6.07049e-05 0.000151787 0.1429492985 -0.8333619182
715295710.0 -0.0978956146 0.8438374289 2.15233e-05 8.39596e-05 -6.17262e-05 9.37666e-05 0.1346662215 -0.8342181047
720295680.0 -0.0892518746 0.8442901929 2.61072e-05 5.43193e-05 -0.0001088274 5.63587e-05 0.1263395406 -0.8356707213
725295650.0 -0.0813789845 0.845724564 0.0001021692 6.72841e-05 -1.16954e-05 4.45708e-05 0.1178887911 -0.8363334266
730295620.0 -0.0739375542 0.846515402 8.65183e-05 2.83792e-05 1.21518e-05 -1.77469e-05 0.1094175903 -0.8375380786
735295590.0 -0.0658907928 0.8479665122 -0.0003920962 -5.60049e-05 -0.000115066 3.26914e-05 0.1007953979 -0.8378787786
740295560.0 -0.0573656931 0.8480125055 1.35746e-05 5.09734e-05 0.0001208442 -0.0002587531 0.0926809562 -0.8391337296
745295530.0 -0.0492121541 0.8486566833 -0.000185681 -0.0001824707 7.07414e-05 -0.0001719418 0.0836326193 -0.839674303
750295500.0 -0.0413568387 0.8496185807 1.47287e-05 0.0001689859 -0.0001698232 5.86714e-05 0.0756341458 -0.8401863285
755295470.0 -0.0326307376 0.8499412479 4.58301e-05 -3.7181e-06 8.54278e-05 -0.0002482362 0.0672621164 -0.8400724657
760295440.0 -0.0243201989 0.8508961061 -2.78106e-05 -3.37182e-05 -4.1807e-06 -1.1499e-05 0.0597363059 -0.8416224647
765295410.0 -0.0163888979 0.8506484546 0.0002027682 8.41807e-05 -8.73817e-05 -9.84165e-05 0.0503834802 -0.8418391816
770295380.0 -0.0083321671 0.8509679918 -3.788e-07 1.90327e-05 4.08071e-05 6.47366e-05 0.0424657408 -0.841599155
775295350.0 -0.0001128763 0.8512701936 1.41749e-05 0.0001497745 9.2129e-06 5.39613e-05 0.0344135796 -0.8426416864
780295320.0 0.0085999472 0.8514724001 -9.43145e-05 -2.1016e-05 0.0001180055 -0.0001834969 0.0258542023 -0.8429590971
785295290.0 0.0168598681 0.8512381406 0.0001290457 -8.87097e-05 7.80605e-05 6.70875e-05 0.0171282805 -0.8427376185
790295260.0 0.0248402178 0.8509603778 0.0001933609 -1.01689e-05 2.62625e-05 7.049e-06 0.0088017115 -0.8422827882
795295230.0 0.0326607394 0.850336087 -7.61668e-05 -6.01677e-05 3.13707e-05 3.54937e-05 7.05207e-05 -0.843076077
800295200.0 0.0411674933 0.8509627727 -2.30635e-05 -4.35627e-05 2.6623e-06 -0.0001386307 -0.0079474113 -0.8423163365
805295170.0 0.0486929193 0.8506091645 0.0001160783 5.35498e-05 0.0001047535 0.0001616679 -0.0159345638 -0.8424516331
810295140.0 0.0578205986 0.8506810388 0.0001667703 0.0001115258 -3.88171e-05 -9.7703e-05 -0.0249859028 -0.841579765
815295110.0 0.0650518276 0.8493518452 4.92556e-05 -0.0002085268 -0.0001234918 -0.0001580199 -0.0334295418 -0.8415835285
820295080.0 0.0736168495 0.8490696833 0.0002260688 -7.6786e-05 -8.79796e-05 1.65885e-05 -0.0421674322 -0.8405643537
825295050.0 0.0816991278 0.8483410273 0.0001593577 0.0001832763 8.6413e-05 2.61228e-05 -0.0495257371 -0.8402941252
830295020.0 0.0909441015 0.8471277826 0.000185141 7.1254e-06 1.96655e-05 9.93422e-05 -0.0589435205 -0.8394502445
835294990.0 0.0976566968 0.8467961925 0.0001646666 3.6426e-05 8.84208e-05 2.54841e-05 -0.067067126 -0.8382280806
840294960.0 0.1065436816 0.845241289 4.73681e-05 8.49464e-05 -5.30924e-05 -8.34083e-05 -0.0754052832 -0.8373951622
845294930.0 0.1147523517 0.8446490304 7.22846e-05 0.0001104522 5.43457e-05 -1.60299e-05 -0.0836352121 -0.8366228937
