!Created with skrf (http://scikit-rf.org).
# Hz S RI R 50.0 
!freq ReS11 ImS11 ReS21 ImS21 ReS12 ImS12 ReS22 ImS22
300000.0 -0.3165391199 -0.125530414 0.3706075285 0.0628440407 0.3714616997 0.063270257 -0.3130289725 -0.1268472314
5299970.0 -0.3249911705 0.0030532476 0.3785291306 0.0029972784 0.3786173802 0.0031078697 -0.3262601372 0.00207524
10299940.0 -0.3225688931 0.0143026111 0.3802223197 0.0025952583 0.3798824248 0.0032272453 -0.3234900076 0.0126362943
15299910.0 -0.3190842939 0.0224461637 0.3820099154 0.0026161424 0.3826814281 0.0027169635 -0.3207133404 0.020152343
20299880.0 -0.3157214697 0.029186611 0.3853345262 0.0016253094 0.3854213828 0.0020292112 -0.3180659483 0.025897632
25299850.0 -0.3114258247 0.0350256569 0.388576824 0.0004809638 0.3886555215 0.0003928706 -0.314824622 0.0313569556
30299820.0 -0.308151271 0.0392856184 0.3919381496 -0.0020491065 0.3921209992 -0.0022578464 -0.3119784143 0.0358681031
35299790.0 -0.3044566555 0.0434805092 0.3950578414 -0.0049726903 0.395354208 -0.0051405013 -0.3093665452 0.0400475711
40299760.0 -0.3014266502 0.0466984866 0.3983926961 -0.0085706602 0.3986278654 -0.0086023219 -0.3067342843 0.0431371022
45299730.0 -0.2982810491 0.0498115831 0.4014038966 -0.012080898 0.4017425752 -0.0127298873 -0.3037700396 0.0465398926
50299700.0 -0.2949067978 0.0525401592 0.4037507134 -0.0170255165 0.4039236132 -0.0171889603 -0.301500121 0.0495136215
55299670.0 -0.2920867582 0.0553649237 0.4058694173 -0.0214771823 0.4060267968 -0.0221556848 -0.2993941812 0.0522712059
60299640.0 -0.2896159589 0.0578928863 0.4079644691 -0.0269653558 0.4079195323 -0.0268378112 -0.2973247547 0.054735759
65299610.0 -0.287572034 0.0599379504 0.4101542984 -0.0315089069 0.4098644385 -0.031634803 -0.2950934722 0.0574226029
70299580.0 -0.2853093189 0.0618741631 0.4104047307 -0.0363246052 0.4110014185 -0.037007263 -0.2937422098 0.059814465
75299550.0 -0.2835137224 0.0643997164 0.411711131 -0.0424362931 0.4122228024 -0.0421474066 -0.2922037205 0.062497018
80299520.0 -0.2820597205 0.0665458331 0.4128048941 -0.0473405488 0.4132105528 -0.0472239626 -0.2906832175 0.0649673687
85299490.0 -0.279840619 0.0684908571 0.413181918 -0.0524303061 0.4135266853 -0.0527863149 -0.2891931753 0.0668482065
90299460.0 -0.2782057102 0.0709425648 0.413524292 -0.0575088148 0.4139984845 -0.057560226 -0.2876806737 0.06923541
95299430.0 -0.2767957978 0.0728016599 0.4141728556 -0.0629951067 0.4143523378 -0.0631977161 -0.2867120256 0.0719694082
100299400.0 -0.2753124164 0.0748788886 0.4139730259 -0.0679115059 0.4143817003 -0.0684251394 -0.2855189967 0.0745224027
105299370.0 -0.2739871231 0.0764757092 0.4138256848 -0.0731630752 0.4139526289 -0.0733950188 -0.2840106764 0.0763160195
110299340.0 -0.2726916598 0.0788115458 0.4138493478 -0.0781476818 0.4139512106 -0.0784294918 -0.2834386411 0.0784848215
115299310.0 -0.271575329 0.0812527626 0.4135551825 -0.0835380014 0.4137038911 -0.0835245675 -0.2822613714 0.0812825689
120299280.0 -0.2703644202 0.0831471912 0.413366762 -0.0891222824 0.4130604822 -0.0889592326 -0.2811304954 0.0831550584
125299250.0 -0.2693972932 0.0851693291 0.4125985762 -0.0936875337 0.4127444909 -0.0937665198 -0.2801954198 0.0860168406
130299220.0 -0.2680112938 0.0872965312 0.411925279 -0.0990693835 0.4121611918 -0.0994847999 -0.2792147103 0.0883388925
135299190.0 -0.2677362754 0.089938137 0.411643904 -0.1039571435 0.4114009805 -0.1044435611 -0.2783426082 0.0908150472
140299160.0 -0.2663887321 0.0923767568 0.410686599 -0.1092726584 0.4106150979 -0.1086507539 -0.2780431541 0.0932898251
145299130.0 -0.2654786984 0.0945371798 0.4094250472 -0.1137602035 0.4095870357 -0.1139874286 -0.2766556373 0.0957872467
150299100.0 -0.2641474686 0.0970232459 0.4081666801 -0.1189268257 0.4086081051 -0.1191225411 -0.2757999028 0.0985303133
155299070.0 -0.2632200676 0.099437041 0.4069829809 -0.1238323167 0.4074888445 -0.1240170457 -0.2750058514 0.1011823207
160299040.0 -0.262103059 0.1021357977 0.4060511949 -0.1287725987 0.406198057 -0.1286356849 -0.2739419265 0.1038347186
165299010.0 -0.261086612 0.1044055854 0.4048971653 -0.1336062932 0.4048641533 -0.1337316653 -0.2727307892 0.1060265141
170298980.0 -0.2602937812 0.1066438905 0.4032460187 -0.1382563615 0.4034679275 -0.1385710503 -0.2718188632 0.1087321567
175298950.0 -0.2590203312 0.1094200304 0.4022776408 -0.1428406125 0.4025172294 -0.1435151777 -0.2709943372 0.1115856737
180298920.0 -0.2583976388 0.1119661633 0.4005436568 -0.1482710204 0.4007796766 -0.1482495447 -0.2699118979 0.113917059
185298890.0 -0.2571238837 0.1143583308 0.3992573234 -0.1527161376 0.39939529 -0.1524962354 -0.2689724504 0.1165067271
190298860.0 -0.2559232432 0.1171992991 0.3972354941 -0.1572837543 0.3980091708 -0.1573080671 -0.2681369843 0.1195098478
195298830.0 -0.2548321806 0.1195623425 0.3959634394 -0.1619171397 0.395932687 -0.1619169788 -0.2668985116 0.1217000954
200298800.0 -0.2534603588 0.1218994307 0.3941561798 -0.1666118959 0.3945670189 -0.1663551491 -0.2658357497 0.1243923548
205298770.0 -0.2527710453 0.1246551265 0.3923985874 -0.1710814688 0.3923884937 -0.1710562294 -0.2646170779 0.127434878
210298740.0 -0.2514732715 0.1275022395 0.3904359104 -0.1759421007 0.3905761563 -0.1758669362 -0.2636040671 0.1298967752
215298710.0 -0.2504730272 0.130025802 0.3886843189 -0.1798557074 0.388766801 -0.1800954164 -0.2625463777 0.1325921369
220298680.0 -0.2489502419 0.1325208105 0.3865537999 -0.1846142541 0.3865520326 -0.1848736224 -0.2611845939 0.1353940099
225298650.0 -0.2477362306 0.135424661 0.3843989534 -0.1891284589 0.3848983412 -0.1886951921 -0.2601495946 0.1380047049
230298620.0 -0.2465444827 0.1381544083 0.3826192958 -0.1936064713 0.3831965649 -0.1938210765 -0.2586596736 0.1406594145
235298590.0 -0.2457908991 0.14059898 0.3808348443 -0.1979959305 0.3807018208 -0.1979919866 -0.2575935255 0.1435950689
240298560.0 -0.244346498 0.1433991411 0.3783292637 -0.2023208467 0.3785746866 -0.2022064828 -0.2564105783 0.1458034351
245298530.0 -0.2428359212 0.1456623397 0.3761715781 -0.2065692237 0.376183391 -0.2065711387 -0.2548778783 0.1485854316
250298500.0 -0.2413560246 0.1484218735 0.3738808113 -0.2109470054 0.3738461009 -0.2107168842 -0.2536485805 0.1515879732
255298470.0 -0.2402940903 0.151029106 0.3716742706 -0.2147326201 0.3720272786 -0.215365029 -0.2517840858 0.1544184696
260298440.0 -0.238607463 0.1535115354 0.3694315766 -0.2186919798 0.3692769107 -0.2190089821 -0.2507696576 0.1567006182
265298410.0 -0.2373582693 0.1563078462 0.3669767885 -0.2236064619 0.3668882245 -0.2235788606 -0.2487893721 0.1592505586
270298380.0 -0.2361727898 0.1588442849 0.3641748747 -0.2276316153 0.3645011999 -0.2277185704 -0.2475468751 0.1621469191
275298350.0 -0.2343686545 0.1615807839 0.3615470242 -0.2313730991 0.3620138956 -0.2314695743 -0.2460150019 0.1650537175
280298320.0 -0.233077016 0.1640779154 0.3595374579 -0.2355444859 0.3594080466 -0.2358367483 -0.2443925512 0.167299184
285298290.0 -0.2315923921 0.166678195 0.3570728483 -0.2393743569 0.3569237342 -0.2394214618 -0.2430114647 0.1701421807
290298260.0 -0.2300145706 0.1691738141 0.3547429456 -0.2436472539 0.3542892993 -0.243676461 -0.2412681472 0.1727701835
295298230.0 -0.2284383514 0.1715221407 0.3515996023 -0.2479244761 0.3516087288 -0.2479125616 -0.2395683277 0.1752860289
300298200.0 -0.2267329737 0.1745942886 0.3486240387 -0.2518599685 0.3489085588 -0.2516397679 -0.2378362881 0.1781147012
305298170.0 -0.2251603769 0.1764923337 0.3460465971 -0.2557815873 0.346307478 -0.2558124691 -0.2356226709 0.1803439462
310298140.0 -0.2233299069 0.1787438517 0.3432704123 -0.2593308372 0.3435224238 -0.2592637993 -0.2339567953 0.1830381786
315298110.0 -0.2219137801 0.1813007095 0.3407756843 -0.26350328 0.3404966188 -0.2639211271 -0.2320828679 0.1857580466
320298080.0 -0.2202202024 0.1838225739 0.3371626022 -0.2675526402 0.337971725 -0.2677625867 -0.2307299247 0.1879059462
325298050.0 -0.2184761961 0.1855492563 0.3339822527 -0.2712598109 0.3347189049 -0.2713572043 -0.2283846748 0.1902596284
330298020.0 -0.2170173494 0.1885721113 0.3314841518 -0.2749567949 0.3316246267 -0.2750061929 -0.2270170179 0.1924466048
335297990.0 -0.2154218663 0.1909653493 0.3281102675 -0.2785932833 0.3285599494 -0.2785452475 -0.225235384 0.195296482
340297960.0 -0.2137916822 0.1933220463 0.3248694995 -0.282392181 0.324807543 -0.2822257518 -0.2232212773 0.1979125224
345297930.0 -0.2118668213 0.1957242251 0.3219569238 -0.2860654868 0.3220465253 -0.2861453437 -0.2210651811 0.2006162776
350297900.0 -0.2100675539 0.1978741254 0.3191605534 -0.2892996124 0.3192482459 -0.2893478415 -0.2195334783 0.2023948777
355297870.0 -0.2080126289 0.2000453636 0.3154695724 -0.2926159307 0.3156879586 -0.2925819008 -0.2169283489 0.2053311053
360297840.0 -0.2062309403 0.2027408898 0.3119906177 -0.296207505 0.3122775938 -0.2964882683 -0.2154540079 0.2080163541
365297810.0 -0.2044684332 0.2052729841 0.3091515068 -0.2999798923 0.3089185673 -0.299629027 -0.2135342665 0.210239575
370297780.0 -0.2022535718 0.2075594799 0.3054231859 -0.3033012245 0.3059043909 -0.3027078462 -0.2111814959 0.2124105798
375297750.0 -0.2004221004 0.2096167043 0.3022474935 -0.306355854 0.3021610115 -0.30641163 -0.2088805178 0.2149296537
380297720.0 -0.1986862985 0.2118824881 0.2990100268 -0.3099689125 0.2985309886 -0.3099328063 -0.20677273 0.2175518431
385297690.0 -0.196474762 0.2139654996 0.2953803032 -0.3128488121 0.2954628656 -0.3135157238 -0.2045551779 0.2199532848
390297660.0 -0.1943040288 0.2162435396 0.2919188925 -0.3158041037 0.2921997084 -0.3159532132 -0.2021539909 0.2217002246
395297630.0 -0.1919387821 0.2184820156 0.2888242852 -0.319265547 0.2884503642 -0.3191778138 -0.1999078485 0.224110591
400297600.0 -0.1897565759 0.2208868904 0.2848120284 -0.3226611364 0.2855838385 -0.3224844878 -0.1978957438 0.2267614159
405297570.0 -0.1877337297 0.2224676017 0.2813085694 -0.3255401456 0.2814406648 -0.3256975132 -0.1952013917 0.2288028139
410297540.0 -0.1855281104 0.2247911898 0.27806977 -0.328832481 0.2780345845 -0.3285733961 -0.1931412237 0.2313870135
415297510.0 -0.1835518872 0.2268836111 0.274254563 -0.3315645446 0.2746400639 -0.3318618114 -0.1903992792 0.2333467986
420297480.0 -0.181272051 0.2287945715 0.2706461027 -0.3351225709 0.270615205 -0.3348344411 -0.1878129151 0.2356489102
425297450.0 -0.1783924587 0.2309103568 0.2667749929 -0.3375579301 0.26682049 -0.3374928742 -0.1856970408 0.2373689637
430297420.0 -0.1765998397 0.2327888367 0.2632496728 -0.3405979848 0.2635003882 -0.3402127432 -0.1828962904 0.239394235
435297390.0 -0.1741282481 0.2344000075 0.259525517 -0.3435797705 0.2592690679 -0.3432887685 -0.1807775545 0.2420541797
440297360.0 -0.1713592159 0.2365828794 0.2550384847 -0.3461159165 0.2554446198 -0.346341305 -0.1780546431 0.2442230729
445297330.0 -0.1690654517 0.2383813383 0.2515100521 -0.3489629311 0.2519685803 -0.3492824672 -0.1754121636 0.2460421408
450297300.0 -0.1666444865 0.2402333519 0.247974306 -0.3515293822 0.2481082828 -0.3515659631 -0.1726003625 0.2481891803
455297270.0 -0.164599054 0.2421408776 0.2442822344 -0.3545364498 0.2438561953 -0.3542894977 -0.1700087807 0.2499357418
460297240.0 -0.1617944377 0.2440369467 0.2402102586 -0.357470263 0.2401499561 -0.3574044644 -0.1677549305 0.2521824231
465297210.0 -0.158980741 0.245759294 0.2359872263 -0.3595374516 0.2359113348 -0.359816863 -0.1647666568 0.2543200405
470297180.0 -0.1564002385 0.2476623137 0.2321021007 -0.3618545631 0.2321943223 -0.362063882 -0.1624141875 0.2557405496
475297150.0 -0.1541103965 0.249535232 0.2283516515 -0.3645145129 0.2281029101 -0.3648407759 -0.1595832286 0.2576947175
480297120.0 -0.15109898 0.251208 0.2241137188 -0.3673566539 0.2242981322 -0.3669231076 -0.1572133843 0.2595004835
485297090.0 -0.1484074857 0.2526995554 0.2198792812 -0.3695638742 0.2201032128 -0.3696188208 -0.1542983452 0.2616445929
490297060.0 -0.1452691115 0.2546784161 0.2155390774 -0.3720481564 0.2159328881 -0.3720926068 -0.151266412 0.263193215
495297030.0 -0.1430679303 0.2562224824 0.2121810354 -0.374256032 0.2117681997 -0.374280118 -0.1482630147 0.26459827
500297000.0 -0.140414355 0.2577366047 0.2079043882 -0.3761117081 0.2078070313 -0.3767166378 -0.145729895 0.2666763269
505296970.0 -0.137348417 0.2595009409 0.2036334218 -0.3788027955 0.2036825124 -0.3784172805 -0.1427744387 0.2679928785
510296940.0 -0.1345522464 0.2611138207 0.1994611957 -0.3812966418 0.1998750795 -0.381279097 -0.1397871361 0.2700892314
515296910.0 -0.1317866188 0.2628515711 0.194736388 -0.3830305621 0.1947531456 -0.3831390022 -0.1371749711 0.2714479925
520296880.0 -0.1287076191 0.2642558802 0.190798911 -0.38512648 0.1910616466 -0.3848792555 -0.1340077133 0.2731481665
525296850.0 -0.1258545332 0.2653190068 0.1864602457 -0.3868725715 0.1865105241 -0.3870158184 -0.1314511696 0.2746416076
530296820.0 -0.1234341999 0.2672145899 0.1824177342 -0.3890510205 0.1822905133 -0.3891227996 -0.1281925506 0.2758306324
535296790.0 -0.1196375884 0.2685683228 0.1781662806 -0.3909473965 0.1781943776 -0.391075946 -0.1254030288 0.2780664569
540296760.0 -0.1171301017 0.2700363506 0.1735115985 -0.3931320891 0.1735893301 -0.3927477041 -0.1225376904 0.2788929673
545296730.0 -0.114547719 0.271574138 0.1692581361 -0.394338227 0.1695783948 -0.3946266187 -0.1194991363 0.2807116235
550296700.0 -0.1110899216 0.2731080506 0.1653533468 -0.3966009014 0.1650598179 -0.3967548004 -0.1164740376 0.2822127573
555296670.0 -0.1081535573 0.2742360111 0.1609444713 -0.3983894548 0.1606413395 -0.3980601986 -0.1135516772 0.2825249881
560296640.0 -0.1048565159 0.2752322256 0.1560820668 -0.400003466 0.1564945061 -0.4002131182 -0.1104752636 0.2847362633
565296610.0 -0.1028327533 0.2767401844 0.1522381423 -0.4019008771 0.152011295 -0.4013908184 -0.1074865876 0.2859692769
570296580.0 -0.0995708269 0.2784060902 0.1477108303 -0.4028532371 0.1475721125 -0.4030693319 -0.1045363051 0.2868986406
575296550.0 -0.0963741398 0.279247376 0.1435088572 -0.4049070267 0.1428483255 -0.4048736347 -0.1013444035 0.2887317484
580296520.0 -0.0935536719 0.2806400938 0.1390516063 -0.4060059752 0.1386025157 -0.4062868145 -0.098378846 0.2895792092
585296490.0 -0.0902345035 0.2817495174 0.1348044696 -0.4075937579 0.1340188438 -0.4075414547 -0.0952619064 0.2911582858
590296460.0 -0.0867466666 0.2830239591 0.1297880317 -0.4091364729 0.1299393558 -0.4091808274 -0.09237378 0.291889696
595296430.0 -0.0838939718 0.2842100664 0.12500641 -0.4104699779 0.1249363911 -0.4104445128 -0.0890870773 0.293094718
600296400.0 -0.0808560159 0.2852638749 0.1206891797 -0.4116359466 0.1207230394 -0.4117032271 -0.0862611022 0.2939803337
605296370.0 -0.0779396507 0.2865833827 0.1166692762 -0.4129109423 0.1161729121 -0.4130856767 -0.0831128201 0.2951737602
610296340.0 -0.0744811797 0.2878350888 0.1115787901 -0.4139852934 0.1121558354 -0.4142182883 -0.0799297869 0.2962602672
615296310.0 -0.0711043561 0.2886597829 0.1071829981 -0.415564491 0.1068584629 -0.4154976578 -0.07671045 0.2971078785
620296280.0 -0.0685186421 0.2898609653 0.1024271983 -0.416751171 0.1022636985 -0.4164317379 -0.0736547768 0.2983028962
625296250.0 -0.0657550913 0.2905170022 0.0984335068 -0.4175987351 0.0982113213 -0.4175138754 -0.0704288016 0.2987715212
630296220.0 -0.0623072071 0.2918016741 0.0933784116 -0.4187006482 0.0933844947 -0.4182471001 -0.0672217986 0.2999357147
635296190.0 -0.0595072752 0.2925343016 0.0893213292 -0.419109677 0.0888830833 -0.4195117106 -0.0642485137 0.3006511927
640296160.0 -0.0558423479 0.2933212966 0.0844914806 -0.4206492709 0.0843902004 -0.4204203312 -0.0610319057 0.3014108045
645296130.0 -0.0527016998 0.2944454654 0.0799612399 -0.4211599113 0.0800330474 -0.4207995945 -0.058086965 0.301961841
650296100.0 -0.0496672448 0.29503395 0.0756525664 -0.4222951111 0.075096626 -0.4218447555 -0.0543608144 0.3029636409
655296070.0 -0.0466590472 0.2958591566 0.0707036952 -0.4225643154 0.0704915193 -0.4225469739 -0.0517426036 0.3040124018
660296040.0 -0.0435141363 0.296491001 0.0660603436 -0.4236774807 0.0661389717 -0.4235289761 -0.0480733899 0.304151366
665296010.0 -0.0404307355 0.2971642624 0.061461528 -0.4237850938 0.061304854 -0.4238340344 -0.0451960232 0.3048073877
670295980.0 -0.0371413491 0.2983050054 0.05698579 -0.4247886627 0.0570465039 -0.4242096498 -0.0421120491 0.3053253363
675295950.0 -0.0340033052 0.2988492005 0.0521156462 -0.4252260623 0.0523074978 -0.4252591783 -0.0390299334 0.3062078288
680295920.0 -0.0314283107 0.2995135636 0.0479828129 -0.4258173102 0.0475775204 -0.4255059541 -0.0352017539 0.3067424857
685295890.0 -0.0277080406 0.3000283291 0.0429746362 -0.4264279358 0.042971534 -0.4264403541 -0.0322205633 0.3076585881
690295860.0 -0.0248606805 0.3005078789 0.0387807002 -0.4266088378 0.0383707439 -0.4266388928 -0.0290530634 0.3077579613
695295830.0 -0.0217603766 0.3008565379 0.0343560167 -0.4267854175 0.0336301216 -0.4269477404 -0.0258529 0.3082347656
700295800.0 -0.0185039365 0.3015785303 0.0297680824 -0.4273284497 0.0289464099 -0.4271464249 -0.0224332776 0.3087321344
705295770.0 -0.0157482653 0.302185248 0.0251498568 -0.4278416151 0.0247117167 -0.4273593345 -0.0196019096 0.3090614223
710295740.0 -0.0123530328 0.3023635946 0.0203311127 -0.4278080528 0.0200752222 -0.4282079221 -0.0161089084 0.3093043681
715295710.0 -0.0091421124 0.3033377534 0.0155309765 -0.428279389 0.0154415419 -0.4278410287 -0.0127141833 0.3093307831
720295680.0 -0.0057511208 0.3031007676 0.0108267117 -0.4278613004 0.0106494886 -0.4280600643 -0.0094315835 0.3094184196
725295650.0 -0.0030816127 0.3038497864 0.0065058224 -0.4280309632 0.0062493708 -0.428032537 -0.006530802 0.3105989355
730295620.0 -0.0001428824 0.3038667611 0.001685071 -0.4276860127 0.0016885568 -0.4277742857 -0.0032653902 0.3109179845
735295590.0 0.0030416699 0.3043189915 -0.0029278073 -0.4280444953 -0.0033673475 -0.4278892245 0.0001974261 0.3105117277
740295560.0 0.0057593094 0.3041345389 -0.0075585427 -0.4277972319 -0.0068676081 -0.4281173284 0.0028110836 0.3108815145
745295530.0 0.0092499498 0.3046675511 -0.0117659129 -0.4272648288 -0.0115231092 -0.4278528351 0.0063119816 0.3110169239
750295500.0 0.0119366239 0.3048159693 -0.0162706938 -0.4274019744 -0.0170036517 -0.4276965321 0.0096176351 0.3109796011
755295470.0 0.0151369061 0.3047186733 -0.0210472893 -0.4273964121 -0.0214579243 -0.4278390203 0.0130720305 0.3116606242
760295440.0 0.018395429 0.3053122341 -0.026157238 -0.4269759169 -0.0259802564 -0.4267548192 0.0164940826 0.3105219648
765295410.0 0.0215759415 0.3048896254 -0.0304845072 -0.4263746056 -0.0304356894 -0.4267915973 0.0196340737 0.3110004796
770295380.0 0.0244831274 0.305135266 -0.0346020959 -0.4257798317 -0.0350796481 -0.4268513902 0.0225685883 0.3112373704
775295350.0 0.0275121101 0.3049473538 -0.0395164822 -0.4258147493 -0.039713031 -0.4255409104 0.0259635026 0.310997677
780295320.0 0.030578586 0.3049286706 -0.0438548628 -0.4251315164 -0.044331769 -0.4255569692 0.029647343 0.3106735725
785295290.0 0.0337683552 0.3047366445 -0.0488465465 -0.4248597276 -0.0487845379 -0.4250889935 0.0325573043 0.3107222798
790295260.0 0.0368650194 0.3044803591 -0.0532845906 -0.4241554183 -0.0532750395 -0.4247687237 0.0357259323 0.3106565761
795295230.0 0.0397013248 0.3043080031 -0.0578494403 -0.4236282045 -0.0581956607 -0.4240036454 0.0390813022 0.3098215803
800295200.0 0.0425890093 0.3042918073 -0.0620384502 -0.4227480566 -0.0624204456 -0.4232659915 0.0419263917 0.3096181856
805295170.0 0.0455181159 0.303820423 -0.0666394629 -0.4221034975 -0.0670912859 -0.4223768076 0.0458399659 0.3093127511
810295140.0 0.0488616845 0.3040152709 -0.071361386 -0.4216189252 -0.0718263965 -0.4216648312 0.0490461941 0.3090478205
815295110.0 0.0518519883 0.3035888995 -0.075592208 -0.4209568642 -0.0759142307 -0.4209349533 0.0520615045 0.3089555973
820295080.0 0.0548763479 0.3031094979 -0.0801910368 -0.4198114484 -0.0802347225 -0.4202284403 0.0547150509 0.3089291075
825295050.0 0.0577752978 0.3026342841 -0.0852757334 -0.4192175338 -0.0851315275 -0.4192568761 0.0588042971 0.3081770675
830295020.0 0.0610748421 0.3023608465 -0.089600655 -0.4181127759 -0.0895421836 -0.4183378319 0.0614804362 0.307247251
