!Created with skrf (http://scikit-rf.org).
# Hz S RI R 50.0 
!freq ReS11 ImS11 ReS21 ImS21 ReS12 ImS12 ReS22 ImS22
300000.0 -0.0932453982 -0.1061825551 0.6218558088 0.0967152429 0.6204986275 0.0984670599 -0.0956521565 -0.1102283282
5299970.0 -0.1012277997 0.0111663441 0.6303486247 0.0113296279 0.6308772497 0.011134159 -0.1013002249 0.0110271471
10299940.0 -0.0967704722 0.0284409366 0.6342249981 0.016132057 0.6345048255 0.0164903501 -0.0961893001 0.0282651793
15299910.0 -0.0890476581 0.0422101465 0.6403605697 0.0213549045 0.6406127172 0.0213894946 -0.0896561383 0.0416576346
20299880.0 -0.0803143892 0.0534755943 0.649204258 0.024302134 0.6491711961 0.0245828924 -0.0807653732 0.0526217312
25299850.0 -0.0704333196 0.0622686313 0.6581413998 0.0259904353 0.6582914381 0.0256533157 -0.0714859656 0.0618934272
30299820.0 -0.0604607559 0.0689767857 0.6676741556 0.0247194131 0.6679774468 0.0241658002 -0.0615156319 0.0683580521
35299790.0 -0.0504746607 0.0733310785 0.6766600094 0.0218449652 0.6775687844 0.0219770913 -0.0519049124 0.0735612547
40299760.0 -0.0410238778 0.076408491 0.6869321606 0.0178821074 0.6871553147 0.0175756995 -0.0422838038 0.0768954681
45299730.0 -0.0316251091 0.0783104356 0.695742927 0.012449722 0.696187582 0.0120715496 -0.0331892623 0.0793035486
50299700.0 -0.0227869603 0.0789808157 0.7035560995 0.0050553873 0.7040217192 0.0054059178 -0.0241736791 0.0802437076
55299670.0 -0.0150728233 0.0789743007 0.7113268263 -0.0025480774 0.7110744743 -0.0025843253 -0.0171347544 0.0804271984
60299640.0 -0.0073569809 0.0789020217 0.7182759832 -0.01085475 0.7180316746 -0.0111063667 -0.0095011638 0.0796220512
65299610.0 -0.0010582756 0.0771943997 0.7239927023 -0.0196240763 0.7243869273 -0.0197343128 -0.002392653 0.0786179578
70299580.0 0.00544203 0.0752435052 0.7292431317 -0.0287915635 0.7291389749 -0.0288018597 0.0031362209 0.076870638
75299550.0 0.0106523839 0.0732424622 0.7332977934 -0.0393193802 0.7333203609 -0.0385481124 0.0090855682 0.0753106089
80299520.0 0.0155999508 0.0714857209 0.7377636704 -0.0488502063 0.7381495022 -0.0487206852 0.0138627756 0.0734883474
85299490.0 0.020122114 0.0690483548 0.740972803 -0.058452554 0.7410613543 -0.0585750824 0.0181724149 0.0709317146
90299460.0 0.0240530206 0.0665856424 0.7431682363 -0.0689390904 0.7436691867 -0.0685942565 0.0229087633 0.0691108391
95299430.0 0.0280211187 0.0642926152 0.7460693207 -0.0787792303 0.7465410468 -0.0791565388 0.0263180103 0.0666080189
100299400.0 0.0316586201 0.0614528814 0.747663888 -0.0883142801 0.7474989716 -0.0889833945 0.0292111817 0.0646441602
105299370.0 0.0344288932 0.0591214727 0.7492901423 -0.0987844181 0.7498957214 -0.0988155919 0.0329571439 0.0617131513
110299340.0 0.0374929436 0.0563919736 0.7504431059 -0.1089050214 0.7506453935 -0.108421203 0.03508387 0.0596468962
115299310.0 0.0398164563 0.0542038098 0.751413314 -0.1191651193 0.7508135179 -0.1187933024 0.037360413 0.057476276
120299280.0 0.0417135444 0.0520168503 0.7519345799 -0.1296177735 0.7514665872 -0.1292315363 0.0399117694 0.0547083359
125299250.0 0.0439055023 0.049668074 0.7524993051 -0.1389833943 0.752021969 -0.1384327795 0.0421686469 0.0528382186
130299220.0 0.0458962756 0.0471945562 0.7520011003 -0.1491941247 0.7517691383 -0.1493614832 0.0439391655 0.0507007792
135299190.0 0.0470783909 0.0452785809 0.7520126719 -0.1583054764 0.7518670496 -0.1588562118 0.0456504933 0.047881386
140299160.0 0.0489349953 0.0430398353 0.7515928993 -0.1688698507 0.7512820741 -0.1681107773 0.0464015123 0.0455519022
145299130.0 0.0495441418 0.0410454805 0.7504784029 -0.1782719992 0.750850524 -0.178149293 0.0482337228 0.0439055507
150299100.0 0.0509944602 0.0392012301 0.7494307483 -0.1878708705 0.7492648307 -0.187914003 0.0493371384 0.0420466644
155299070.0 0.052611398 0.0369245808 0.7475701043 -0.1976948386 0.748574829 -0.1978241305 0.0506498572 0.0397180499
160299040.0 0.0534320286 0.0354547159 0.7468867228 -0.2072120412 0.7466642226 -0.2069218965 0.0510872457 0.0383113378
165299010.0 0.0544064182 0.033409859 0.7454405726 -0.2164262422 0.7448095628 -0.2166830467 0.0523067468 0.036041366
170298980.0 0.0551388285 0.0317720765 0.7432094826 -0.2255160732 0.7432936191 -0.2260480723 0.0529634002 0.0341271279
175298950.0 0.0559502886 0.0301513724 0.7412769368 -0.2352924478 0.742000911 -0.2354261144 0.0535356672 0.0326394554
180298920.0 0.0562576985 0.0288381412 0.7396333588 -0.2446141198 0.7393925804 -0.2444921958 0.0540769822 0.030920916
185298890.0 0.0567584707 0.0269970862 0.7374735733 -0.2535271773 0.7372590982 -0.2535921662 0.0555418719 0.0291492426
190298860.0 0.0578306637 0.0256859121 0.7343302707 -0.2623868175 0.7350907493 -0.2624381496 0.0554583096 0.0275432022
195298830.0 0.0579802374 0.0241672174 0.7327960997 -0.2714680772 0.732835764 -0.271426215 0.0559245128 0.0261722603
200298800.0 0.0587984274 0.0223130055 0.7296769808 -0.2812407413 0.7296632953 -0.2809231402 0.0564073186 0.0242119322
205298770.0 0.0585160146 0.0207089514 0.7271570248 -0.2897772555 0.7274586099 -0.2887591927 0.0570976614 0.0229180003
210298740.0 0.0590502595 0.0199620893 0.7243251373 -0.2986823979 0.7236963863 -0.2983201497 0.0567685807 0.0212956277
215298710.0 0.0593757273 0.0186071435 0.7210906595 -0.3065903275 0.7205945269 -0.3071980408 0.0575496465 0.0197705378
220298680.0 0.0597812709 0.0176192657 0.717159942 -0.3153096324 0.7171627188 -0.3158723296 0.0574668363 0.0182634057
225298650.0 0.0597191896 0.0159720312 0.7142171366 -0.3240970664 0.7143442301 -0.3238524887 0.0578177959 0.016562713
230298620.0 0.0603135958 0.0149435411 0.7114036721 -0.332889027 0.7111828229 -0.3330178538 0.0574301046 0.0155497617
235298590.0 0.0600744882 0.013899316 0.7079661754 -0.3416648145 0.7077097259 -0.3415076519 0.0581978042 0.0144038167
240298560.0 0.0604628427 0.0127151273 0.7041135005 -0.3493560324 0.7038327153 -0.3494368125 0.0579899031 0.0129884013
245298530.0 0.0604078021 0.0110852613 0.7002648642 -0.3583069672 0.7002456444 -0.3579152797 0.0581019965 0.0119393443
250298500.0 0.0601342567 0.0102653492 0.6970426621 -0.3660888739 0.6966636246 -0.3658479927 0.0581020522 0.0108480581
255298470.0 0.0606483439 0.0097100598 0.6930717096 -0.3738093236 0.6931675095 -0.3742733249 0.0582470733 0.0102630683
260298440.0 0.0605722714 0.0082434306 0.6891428347 -0.3819154023 0.6887960631 -0.3820480395 0.0577452165 0.0078792019
265298410.0 0.0600297368 0.0071651105 0.6843670593 -0.3905848176 0.6843942963 -0.3907638299 0.0590266044 0.0069719827
270298380.0 0.0603452057 0.0062595654 0.6805468413 -0.3983977645 0.6807329339 -0.3983543241 0.058398212 0.0060850299
275298350.0 0.060491423 0.0056806707 0.6755791162 -0.4060722678 0.6756264901 -0.4060615384 0.0579232161 0.0052173672
280298320.0 0.0600397137 0.0045880731 0.6721641071 -0.4136665494 0.6721784559 -0.4140562595 0.0584987578 0.0040380404
285298290.0 0.0601714049 0.0032110488 0.6674529119 -0.4222668946 0.6677487239 -0.4215115297 0.0582623376 0.0030633345
290298260.0 0.0598523439 0.0025334552 0.6632965188 -0.4292605732 0.6636035675 -0.4297859245 0.0584207689 0.0016436476
295298230.0 0.059808574 0.0011828542 0.6582423953 -0.4379916759 0.6583017129 -0.4380067179 0.0580355402 0.0007106078
300298200.0 0.0603369781 0.0007020152 0.653485803 -0.445064643 0.6534155802 -0.4449137677 0.0580207463 -0.0006834444
305298170.0 0.0601599369 -0.0006557307 0.649237073 -0.4530848155 0.6493043502 -0.4531936773 0.0579622665 -0.0019810658
310298140.0 0.0603317336 -0.001721884 0.6443609333 -0.4603096389 0.6444203479 -0.4601715894 0.058360431 -0.0034422023
315298110.0 0.0598322938 -0.0033215664 0.6393856945 -0.4690298958 0.6385051556 -0.4682488848 0.0579316156 -0.0042129834
320298080.0 0.0595614292 -0.0038155261 0.6332496957 -0.4756775866 0.634575432 -0.4765917268 0.0572947187 -0.0051691406
325298050.0 0.0585938981 -0.0052771014 0.6285785247 -0.4826573514 0.6287923521 -0.483410715 0.0571032342 -0.0064389981
330298020.0 0.0574712586 -0.0058940576 0.6221206679 -0.4907705209 0.6232470929 -0.4906232735 0.056108189 -0.00761108
335297990.0 0.0576078231 -0.006574068 0.6170411829 -0.497335558 0.6175288832 -0.4977663778 0.0555753274 -0.0086443246
340297960.0 0.0570821234 -0.0078513986 0.6108238297 -0.5052458019 0.6109121914 -0.504676849 0.055447878 -0.0089992702
345297930.0 0.0562136662 -0.0084929966 0.6055106024 -0.5123018959 0.605449326 -0.5116366276 0.0552677642 -0.0101699244
350297900.0 0.0558582336 -0.0090183912 0.6002547547 -0.5179514095 0.6005613442 -0.5182769142 0.0546854112 -0.0111885402
355297870.0 0.055586832 -0.00993062 0.5944394908 -0.5246503455 0.5943604886 -0.5241955674 0.0544129427 -0.0117155678
360297840.0 0.0555116688 -0.0104386312 0.5881886785 -0.5315947966 0.5884808314 -0.531916635 0.0535631821 -0.012055665
365297810.0 0.054543628 -0.0110153985 0.5826182244 -0.5381248475 0.5822149592 -0.538253067 0.0528985239 -0.012771132
370297780.0 0.0547149902 -0.0115436147 0.5761050634 -0.5445011297 0.5766742346 -0.5444932537 0.0530654059 -0.0138972066
375297750.0 0.0543595938 -0.0122986529 0.5706281261 -0.550953186 0.5703697992 -0.5506417677 0.052907519 -0.0146406866
380297720.0 0.0533236947 -0.0128000923 0.5644355933 -0.5572223157 0.563852484 -0.5575990469 0.0522200241 -0.0147162436
385297690.0 0.0531960934 -0.01362736 0.5578250241 -0.5637133184 0.5586802651 -0.564036283 0.0520136514 -0.0155378348
390297660.0 0.0528954713 -0.014178276 0.5526291988 -0.5691291887 0.5525335597 -0.5696095734 0.0520270333 -0.0165331711
395297630.0 0.0531685846 -0.0149631016 0.5459998992 -0.5752809301 0.5457196779 -0.5759404617 0.0514759109 -0.0171367353
400297600.0 0.0518606739 -0.0157657842 0.5390342072 -0.581603893 0.5398628187 -0.5821890747 0.0515483095 -0.0174089951
405297570.0 0.0520327186 -0.016696779 0.5332732764 -0.586813497 0.5331575525 -0.5878282214 0.051046188 -0.0178027455
410297540.0 0.0514475457 -0.0166870893 0.5268252618 -0.593946358 0.5267436331 -0.5939146134 0.0504783329 -0.018445236
415297510.0 0.0509679652 -0.0173512136 0.5199140414 -0.599401004 0.5204746454 -0.5999426643 0.0503927785 -0.0191141979
420297480.0 0.0506653007 -0.0186108622 0.5128435873 -0.6056363999 0.5138949663 -0.6055413455 0.0505610183 -0.0191028701
425297450.0 0.0506841254 -0.0187800872 0.5073685796 -0.6112063601 0.5064393819 -0.6111244481 0.0499779783 -0.0201875268
430297420.0 0.050041802 -0.0195089482 0.5005320139 -0.6166871535 0.5004633918 -0.6164650654 0.0500317622 -0.0206069502
435297390.0 0.0496362114 -0.0200606727 0.4932165426 -0.6235878772 0.4932973146 -0.6223867242 0.0485983409 -0.0210247074
440297360.0 0.0497605183 -0.0211323084 0.4863713595 -0.6281422981 0.4860230639 -0.6280946651 0.0486967701 -0.0215617668
445297330.0 0.0492606626 -0.0220948096 0.4798972002 -0.6325279847 0.4793642471 -0.6330227545 0.0484660314 -0.0218551705
450297300.0 0.0487803594 -0.0222477505 0.4729035566 -0.6378887402 0.4726422802 -0.6380494894 0.0481216353 -0.0225493427
455297270.0 0.0479786521 -0.0230956022 0.4657743609 -0.643276903 0.4661134602 -0.6435479317 0.0476813582 -0.0232042871
460297240.0 0.0481416144 -0.023380244 0.458629346 -0.6494131885 0.4584050139 -0.6489780313 0.0476219424 -0.0237098075
465297210.0 0.0476947804 -0.0239660831 0.4507796314 -0.6537015354 0.4508189916 -0.6540520516 0.047714011 -0.0235793175
470297180.0 0.047223855 -0.0250565639 0.4438421154 -0.6584989076 0.4447036772 -0.6592137565 0.0471064146 -0.0249446312
475297150.0 0.04637767 -0.0249254787 0.4366111417 -0.6633956978 0.4369109793 -0.6636167976 0.0467097622 -0.0255550863
480297120.0 0.0466311577 -0.0251394621 0.4295178469 -0.66852752 0.4296247486 -0.668394875 0.0458227523 -0.0260091568
485297090.0 0.0462718055 -0.0267222718 0.4219194338 -0.6738392535 0.4223753165 -0.6727922853 0.0459185761 -0.026301231
490297060.0 0.0462984298 -0.0267694953 0.4141083223 -0.6778841975 0.4150532625 -0.6778529177 0.0452577327 -0.0269662735
495297030.0 0.045055666 -0.0278493503 0.4078622455 -0.6826593467 0.4075508831 -0.6826670858 0.045386911 -0.0274707087
500297000.0 0.0448722234 -0.0277812345 0.400011419 -0.6862636792 0.3997899946 -0.6866841406 0.0448176705 -0.0278115773
505296970.0 0.0450573924 -0.0283730961 0.3923386335 -0.6912173823 0.3924458567 -0.6913732567 0.0443674967 -0.028875749
510296940.0 0.0442931118 -0.0290192978 0.3847436515 -0.6965064831 0.3855795556 -0.6965302321 0.0443888844 -0.0286977853
515296910.0 0.0437755577 -0.0290334183 0.3768277667 -0.6997225172 0.3762659732 -0.6998719115 0.0437069888 -0.0301579432
520296880.0 0.043654276 -0.0295663125 0.3693543018 -0.703522633 0.3695152373 -0.7036009938 0.043733685 -0.0295336623
525296850.0 0.0433754233 -0.0303411578 0.3618031264 -0.7075271873 0.36152658 -0.7076732881 0.0435050782 -0.0304284234
530296820.0 0.0426795505 -0.0311404269 0.3533456922 -0.7122240861 0.3541646942 -0.7117566801 0.0428861077 -0.0315803495
535296790.0 0.0427920467 -0.0312344908 0.3463626077 -0.715569483 0.3460855681 -0.715727721 0.0430672324 -0.0309895473
540296760.0 0.0421911782 -0.0314130245 0.3383875885 -0.7195442238 0.3384262603 -0.7193475891 0.0421398154 -0.032139324
545296730.0 0.0408492515 -0.0319820549 0.3305341918 -0.7227399349 0.330059059 -0.7229192949 0.0417028924 -0.032282174
550296700.0 0.0416254003 -0.032169152 0.3226104113 -0.7264655735 0.3217718027 -0.7273641743 0.0416125014 -0.0327461703
555296670.0 0.0404244583 -0.0327747914 0.3142216449 -0.7306900773 0.3149241562 -0.7303935712 0.0409756184 -0.0340188575
560296640.0 0.0411752037 -0.0332998779 0.3059921428 -0.7330663137 0.3071550263 -0.7339650043 0.0402492745 -0.0335226234
565296610.0 0.0397660468 -0.0336361606 0.2986411512 -0.7370554926 0.298957161 -0.7368678781 0.040098245 -0.034002433
570296580.0 0.0392657761 -0.033556662 0.2901090805 -0.7404287252 0.2903666638 -0.74050223 0.0396560548 -0.0349037838
575296550.0 0.0390374964 -0.0343193324 0.282413503 -0.7436512971 0.2823553256 -0.743148618 0.0389398492 -0.0349976344
580296520.0 0.0389228039 -0.0345392905 0.2739580807 -0.7459909888 0.2739305477 -0.7468974512 0.0383319625 -0.0354024678
585296490.0 0.0384444075 -0.0350265724 0.2668009871 -0.749604416 0.2658301072 -0.7493444853 0.0386363209 -0.035666552
590296460.0 0.0387235911 -0.0352591182 0.2575931984 -0.75225447 0.2580160827 -0.75249397 0.0372596195 -0.0358240249
595296430.0 0.0377534536 -0.035186464 0.2487550596 -0.7546762615 0.249008965 -0.7553563211 0.0375414062 -0.0369556791
600296400.0 0.0376883132 -0.0354882794 0.2407997294 -0.7573945096 0.2409873752 -0.7577060252 0.0368764039 -0.0372705961
605296370.0 0.0364732377 -0.035920782 0.2335258047 -0.7599974297 0.2326972805 -0.7604510753 0.0361032229 -0.0371942337
610296340.0 0.0368601591 -0.0356466818 0.2243093949 -0.7624954818 0.2250433218 -0.7624697182 0.0349713534 -0.0374805437
615296310.0 0.0361297263 -0.0362407888 0.2162574562 -0.7650273201 0.2157266435 -0.7649226356 0.0355296593 -0.0377329246
620296280.0 0.0349733726 -0.0361224888 0.2071029319 -0.7679262631 0.2075443513 -0.7674334796 0.0342006382 -0.0380212596
625296250.0 0.0347836544 -0.0367163967 0.1991806025 -0.7700200789 0.1997593232 -0.7698713159 0.0336487424 -0.03862012
630296220.0 0.0344475041 -0.0366803855 0.1906264676 -0.7722120455 0.1908122226 -0.7717854423 0.0335357228 -0.0389880191
635296190.0 0.0335419756 -0.0368538837 0.1827624591 -0.7737297564 0.1826289629 -0.7737248744 0.0329401298 -0.0394488127
640296160.0 0.0327639727 -0.037138208 0.1737854525 -0.7758997541 0.1736325797 -0.7761612264 0.0319082392 -0.039606171
645296130.0 0.0330487607 -0.0366944153 0.1656539623 -0.77773695 0.1653694544 -0.7777136879 0.0313961901 -0.0401884777
650296100.0 0.0323290718 -0.0372402099 0.1568336324 -0.7796218554 0.1571382477 -0.7795377416 0.0318425796 -0.0403283791
655296070.0 0.0317036589 -0.037450349 0.148160119 -0.7813943964 0.1486659472 -0.7809025817 0.0302959367 -0.0401563192
660296040.0 0.0311488045 -0.0376061473 0.140091153 -0.7833832973 0.139749819 -0.7828788038 0.0297722261 -0.0412310013
665296010.0 0.0308524137 -0.0378296405 0.1302752301 -0.7839875199 0.1312735109 -0.7841790623 0.0295005819 -0.0407289964
670295980.0 0.0304931969 -0.0378371529 0.1229927232 -0.785907669 0.1225607116 -0.7850778497 0.0283420754 -0.0412614822
675295950.0 0.0295637869 -0.0381878571 0.1140161259 -0.7869747889 0.114446193 -0.7870639077 0.0277224315 -0.0412895041
680295920.0 0.0289930149 -0.0378580585 0.1059605947 -0.7875339805 0.1060901469 -0.7877084776 0.0275711136 -0.0421247578
685295890.0 0.0287385491 -0.0377553509 0.0969018699 -0.7890035242 0.0969587538 -0.7892225158 0.0271388707 -0.0414328455
690295860.0 0.027598516 -0.0380322806 0.0885593203 -0.7897441736 0.0882235391 -0.7903840588 0.0262729544 -0.0422977183
695295830.0 0.0272596395 -0.0384548573 0.0800926551 -0.7913581686 0.0797837138 -0.7913462854 0.0254498473 -0.0419546583
700295800.0 0.0271461467 -0.0381702652 0.0715382274 -0.7918743112 0.071517461 -0.7920323761 0.0250475718 -0.0421487794
705295770.0 0.0259206635 -0.0384231449 0.0625923174 -0.7930962287 0.062890439 -0.7923676855 0.0242371391 -0.0419721666
710295740.0 0.0255698719 -0.0386606082 0.0539813985 -0.793127867 0.0539017358 -0.7936172875 0.0238349029 -0.0420987877
715295710.0 0.0247991178 -0.0380358291 0.0457673847 -0.7937661617 0.0458992292 -0.7938943053 0.0229766601 -0.0428593237
720295680.0 0.0249751956 -0.0385247019 0.036848622 -0.7942778056 0.0368425616 -0.7944266552 0.0226587173 -0.0426422581
725295650.0 0.023278393 -0.0382470255 0.0285475042 -0.7943823833 0.0280054503 -0.7944733126 0.0213855562 -0.0423333247
730295620.0 0.0223948976 -0.0385175344 0.0199465894 -0.7945192521 0.0195052801 -0.7939615014 0.0210200737 -0.0422136656
735295590.0 0.0226331315 -0.0384256225 0.0110494116 -0.7953343771 0.0106857459 -0.7949463349 0.0199143624 -0.0428008263
740295560.0 0.0219693433 -0.0386686848 0.0018378148 -0.7948117196 0.0025560433 -0.7950334755 0.018873845 -0.0423275934
745295530.0 0.0208967252 -0.0385257396 -0.0062234448 -0.7941635422 -0.0056826727 -0.7946815086 0.0179094779 -0.0428015424
750295500.0 0.0201624236 -0.0383987527 -0.0147877613 -0.7946884689 -0.0150099339 -0.7947805024 0.0178545095 -0.0429983398
755295470.0 0.0192828886 -0.0384435613 -0.0228426625 -0.7951778694 -0.0235455705 -0.7947983634 0.0175412957 -0.0421475873
760295440.0 0.0190465266 -0.0378081056 -0.0332404968 -0.7938737964 -0.0320251963 -0.7934678896 0.0170712056 -0.04350295
765295410.0 0.0186157936 -0.0387394122 -0.0408894728 -0.7934800959 -0.040646853 -0.7937473313 0.0161700547 -0.0428075145
770295380.0 0.0177192199 -0.0379332883 -0.0486350884 -0.7923099257 -0.049007943 -0.793447702 0.0149908293 -0.042748882
775295350.0 0.0174938653 -0.0385744623 -0.0579285695 -0.7923074056 -0.0579507036 -0.7919601451 0.0152718957 -0.0424674521
780295320.0 0.0163300683 -0.0380355928 -0.0665354565 -0.7916043866 -0.0663512862 -0.7916105807 0.0144970907 -0.0427197033
785295290.0 0.0156360854 -0.0383000233 -0.0753767097 -0.7912570711 -0.0749510041 -0.7908316689 0.01304274 -0.0420834156
790295260.0 0.0156344067 -0.0385405716 -0.0829137964 -0.7903161417 -0.0831916131 -0.79041664 0.0124730443 -0.0419341052
795295230.0 0.0147418186 -0.0384928461 -0.0923410737 -0.7893795779 -0.0921824275 -0.789508852 0.01245955 -0.0431009899
800295200.0 0.0134283532 -0.0381536205 -0.1001144385 -0.7879096393 -0.1007534783 -0.7882550719 0.0112047922 -0.0423880244
805295170.0 0.012925017 -0.0383238899 -0.1090879502 -0.7872755397 -0.1083083865 -0.7870689301 0.0114565963 -0.0421432386
810295140.0 0.0128805606 -0.0380846352 -0.1176391687 -0.7853149143 -0.1179831206 -0.7858902055 0.0103024085 -0.0422367358
815295110.0 0.0120399702 -0.037812833 -0.1256118609 -0.784309298 -0.1258690671 -0.7847170135 0.0092676671 -0.0417777599
820295080.0 0.0114253548 -0.0378655493 -0.1340086229 -0.7824564221 -0.1342091149 -0.78311746 0.0079760748 -0.0410129326
825295050.0 0.0103679715 -0.0379759042 -0.1431500182 -0.7814703966 -0.143191872 -0.7813612606 0.008541573 -0.0410812814
830295020.0 0.0098435836 -0.0379303658 -0.1512437904 -0.7802823012 -0.151438341 -0.7800209882 0.0074132241 -0.0417888645
