!Created with skrf (http://scikit-rf.org).
# Hz S RI R 50.0 
!freq ReS11 ImS11 ReS21 ImS21 ReS12 ImS12 ReS22 ImS22
300000.0 -0.7728050976 -0.1704676789 -0.0014477391 0.0008349149 -0.0002255614 0.001581125 -0.760872912 -0.1885265534
5299970.0 -0.7860473855 -0.0094784219 1.5974e-06 0.000108722 -6.47502e-05 -4.6843e-05 -0.7851287861 -0.0089713152
10299940.0 -0.789456049 -0.00578179 3.40683e-05 2.32251e-05 -8.93997e-05 0.0002365239 -0.7875306361 -0.0052288585
15299910.0 -0.7941954104 -0.0033498164 -4.56375e-05 -0.0001785293 -2.58849e-05 -0.0001991427 -0.7928420557 -0.0027195214
20299880.0 -0.8008192746 0.0008443298 -5.28787e-05 -3.43466e-05 4.14799e-05 -4.9741e-06 -0.8001901182 0.0014284414
25299850.0 -0.8077148443 0.0072542668 -3.20776e-05 2.10392e-05 0.0001096332 2.60179e-05 -0.806158918 0.0079703802
30299820.0 -0.8136513239 0.013803129 6.07498e-05 -5.61801e-05 0.0002291593 -8.6512e-05 -0.8119487529 0.0159480606
35299790.0 -0.8184421724 0.0228161621 7.58302e-05 -6.89807e-05 6.31999e-05 7.17759e-05 -0.8172817823 0.0247319099
40299760.0 -0.8237647849 0.032130767 0.0001176918 8.7678e-05 -1.43261e-05 -8.1787e-05 -0.8210844089 0.0340259225
45299730.0 -0.8266560192 0.0418311781 7.83225e-05 0.000185943 6.33473e-05 -2.21564e-05 -0.8244504932 0.0436079708
50299700.0 -0.829208008 0.0519662812 0.0001522464 0.0001140497 -2.71296e-05 0.0001185462 -0.8264981359 0.0537825934
55299670.0 -0.8313258074 0.0613023273 -7.46318e-05 -0.0003268562 -7.51181e-05 8.1421e-06 -0.8290311934 0.06387711
60299640.0 -0.8327784688 0.0723662733 5.48177e-05 -3.079e-05 6.86877e-05 6.291e-06 -0.8298618253 0.0737037401
65299610.0 -0.8338227168 0.0820219467 4.23825e-05 -0.000183036 1.1675e-05 -0.000130308 -0.8304740791 0.0841402857
70299580.0 -0.8334223008 0.091750587 6.78136e-05 -1.72647e-05 -9.6533e-05 -6.87763e-05 -0.8309911582 0.0936770412
75299550.0 -0.8338330489 0.1019225936 3.44255e-05 -0.0002276369 -4.63993e-05 -3.3701e-05 -0.8305852644 0.1041011819
80299520.0 -0.8339696703 0.1113962303 -6.77517e-05 9.65523e-05 1.00854e-05 3.81881e-05 -0.8310688156 0.1139034858
85299490.0 -0.8324716196 0.1209861673 -0.0001760223 -2.55293e-05 -0.0001297259 -8.40025e-05 -0.8301081967 0.1232089101
90299460.0 -0.8321145216 0.1312095298 -0.0001666178 8.29197e-05 -0.0003313356 -0.0001169156 -0.8290943876 0.1329209151
95299430.0 -0.8316125019 0.1406326077 1.91028e-05 -2.66625e-05 -9.89187e-05 -0.0001342958 -0.8285313751 0.1431586261
100299400.0 -0.8301343563 0.1497365252 -0.0001548518 4.9607e-06 0.0001047728 8.7778e-06 -0.8271737824 0.1516868121
105299370.0 -0.8297705287 0.1592294739 -0.000242082 4.45268e-05 -7.39432e-05 3.55316e-05 -0.8260882038 0.1607126492
110299340.0 -0.8275201471 0.1683874868 -0.0002183892 0.0001292633 -0.00011932 -0.0001714169 -0.824433407 0.1699378065
115299310.0 -0.8259930699 0.1772999926 1.144e-06 -0.0001558979 0.0002063527 -0.0001602962 -0.8231328065 0.1793364595
120299280.0 -0.8246712766 0.187246243 0.0001465767 0.0002237775 7.27285e-05 -0.0001347248 -0.8208590502 0.1880159978
125299250.0 -0.8225918991 0.1956860196 0.000123499 0.0001874069 -6.21391e-05 -8.31475e-05 -0.8199457532 0.1969487075
130299220.0 -0.8210516364 0.204505608 -0.0001649524 0.0001348148 9.8334e-05 -6.24483e-05 -0.8172336826 0.2058749282
135299190.0 -0.8187486728 0.2140072014 -0.0002637484 -3.22032e-05 -2.34031e-05 -7.23591e-05 -0.8158807201 0.2152817773
140299160.0 -0.8168915819 0.2229472027 -5.24974e-05 -9.11465e-05 -0.0002895861 -3.95135e-05 -0.8140414599 0.2232963672
145299130.0 -0.8149546917 0.2326574603 0.0001063146 0.0001126182 9.61856e-05 -0.0001866587 -0.8123474209 0.2327471316
150299100.0 -0.8118157259 0.2409493231 -0.0001830277 1.90023e-05 0.0001921527 2.51591e-05 -0.8096428683 0.2414729879
155299070.0 -0.8099482777 0.2500331323 -4.8295e-06 0.0001466455 -5.9519e-05 7.91929e-05 -0.8070411706 0.2504910114
160299040.0 -0.8074171617 0.2590636352 -9.94851e-05 -6.1314e-06 -4.7863e-06 -8.94736e-05 -0.8050360834 0.2589615405
165299010.0 -0.8043233933 0.2677209447 0.0002733197 0.00011026 5.4489e-06 -0.0001342987 -0.8016574034 0.267240197
170298980.0 -0.8018619436 0.2762700818 9.66352e-05 -5.88049e-05 -4.49597e-05 2.52245e-05 -0.7995611568 0.2753517787
175298950.0 -0.7990719001 0.2845140043 -5.35003e-05 0.0001189285 -2.88651e-05 -0.0002652844 -0.7967437786 0.2845969023
180298920.0 -0.7960430871 0.2934890866 1.60591e-05 9.786e-07 7.62863e-05 -2.16037e-05 -0.793337313 0.2936431099
185298890.0 -0.792801435 0.3018684764 -1.63232e-05 2.30374e-05 0.0001233331 8.30433e-05 -0.7904612084 0.3017089269
190298860.0 -0.7897081438 0.310967244 1.39821e-05 -8.2433e-06 -0.0002262544 7.02109e-05 -0.7867860257 0.3098561621
195298830.0 -0.7865898676 0.3188856672 0.0002335911 -9.94377e-05 0.0001549849 3.90606e-05 -0.7837251811 0.317670212
200298800.0 -0.7827974428 0.3280246096 4.76705e-05 -6.32302e-05 -8.31881e-05 -0.0001511209 -0.7810725704 0.3272859852
205298770.0 -0.7789396853 0.3362178667 5.74747e-05 -9.61059e-05 0.0001187919 -0.0001744397 -0.7777096186 0.3351435606
210298740.0 -0.7762635283 0.3445272348 -6.85278e-05 -7.29982e-05 0.0001126633 -4.60188e-05 -0.7742160896 0.3434125107
215298710.0 -0.772426477 0.3534139198 -0.0001143711 -0.000182664 9.99598e-05 -1.81114e-05 -0.7704900996 0.351211462
220298680.0 -0.7686582612 0.3605274092 -0.0001791305 -0.0002759805 -0.0001402135 -0.000122274 -0.7665366888 0.3596744447
225298650.0 -0.7647011773 0.3692260126 -9.56793e-05 0.0001092668 -4.30688e-05 -3.73812e-05 -0.7629708607 0.3672648817
230298620.0 -0.7609926954 0.3776815245 -2.50128e-05 4.81463e-05 3.83149e-05 0.0003443475 -0.7592869175 0.375927473
235298590.0 -0.757658352 0.3860340179 -0.0001244058 1.22907e-05 -4.31242e-05 -7.06855e-05 -0.7546174565 0.3835676184
240298560.0 -0.7530197923 0.3934047828 2.63695e-05 -2.17174e-05 -0.0001665888 1.26072e-05 -0.7513025309 0.391033463
245298530.0 -0.7483536509 0.4019443005 -4.06545e-05 6.08694e-05 0.000205976 0.0001096792 -0.747793448 0.3992997089
250298500.0 -0.7447468189 0.4095592973 6.47687e-05 0.0001296129 -0.0001379359 -0.0001508566 -0.7428254317 0.406916282
255298470.0 -0.7406992227 0.4174962184 6.75549e-05 9.96581e-05 -0.0001216541 -6.56469e-05 -0.7388435223 0.4148464082
260298440.0 -0.7363515263 0.4250167216 4.57899e-05 3.26892e-05 -2.82866e-05 -1.75192e-05 -0.7343260639 0.4222160744
265298410.0 -0.7317647957 0.4330807144 -0.0001570041 0.0001883618 0.0001193945 2.0036e-05 -0.7299904971 0.4303586345
270298380.0 -0.727404206 0.440247354 -0.000138356 3.30182e-05 -6.6993e-05 8.73347e-05 -0.7251299661 0.4384029224
275298350.0 -0.7237949321 0.4479063443 6.27293e-05 2.28838e-05 0.0001137182 0.0001245594 -0.720350554 0.4455062337
280298320.0 -0.7187308586 0.4554978966 0.0001971283 1.31294e-05 -0.0001268546 -3.97094e-05 -0.7162692045 0.4529925656
285298290.0 -0.7135366218 0.4630124207 5.36141e-05 0.0001179607 0.0001347231 -0.0001156475 -0.7120870969 0.4605199208
290298260.0 -0.7086757101 0.4709067808 -7.13776e-05 3.79966e-05 -3.2693e-05 2.96725e-05 -0.7066151727 0.4678515381
295298230.0 -0.7037954887 0.4779726786 5.51102e-05 0.0001426226 -0.0001525525 -1.5576e-06 -0.7018285018 0.4750221764
300298200.0 -0.6999001816 0.4854634914 3.25457e-05 -0.000121181 0.0001301501 4.84371e-05 -0.6965443943 0.4823168027
305298170.0 -0.6946362007 0.4927599249 0.0001046557 -4.96467e-05 0.0002906541 3.3598e-05 -0.6912779873 0.4890516982
310298140.0 -0.6890475706 0.4994796778 -4.64392e-05 -7.35777e-05 5.5842e-05 -8.98875e-05 -0.6860438455 0.4971423355
315298110.0 -0.6844105519 0.5069945507 1.7664e-05 -2.35248e-05 -0.0001184309 9.96345e-05 -0.6814993187 0.5039664737
320298080.0 -0.6790796828 0.5146430255 0.0002030661 0.0001340204 -0.0001113573 1.11636e-05 -0.6761137489 0.5104739019
325298050.0 -0.6733211202 0.5209268726 -7.38489e-05 2.67809e-05 4.70551e-05 8.80801e-05 -0.6696889247 0.5176136072
330298020.0 -0.6679175616 0.5278624942 6.57185e-05 9.72957e-05 -3.85413e-05 -0.0001143564 -0.6651071708 0.524281569
335297990.0 -0.6629089268 0.5351562257 6.39631e-05 0.0001196106 3.02459e-05 -7.74636e-05 -0.6594929525 0.5315365713
340297960.0 -0.657880655 0.5414952434 -0.000115223 0.0001761193 -2.47163e-05 5.26855e-05 -0.6541107226 0.5382823213
345297930.0 -0.6517136531 0.5479544076 2.32094e-05 7.60126e-05 -4.1636e-06 0.0001004801 -0.6491944239 0.5445211704
350297900.0 -0.6466346727 0.5550793058 -0.0001917805 4.45332e-05 -2.4648e-06 4.56723e-05 -0.6431876379 0.5511821999
355297870.0 -0.6410721491 0.5615159948 0.0001302394 8.82123e-05 1.00038e-05 1.11132e-05 -0.6367918104 0.5583630484
360297840.0 -0.6346951193 0.5682358087 -0.0001553379 -0.0002873405 -6.62863e-05 -6.94979e-05 -0.6305341999 0.5650970527
365297810.0 -0.629620059 0.5748641764 6.66901e-05 8.65887e-05 0.0002001446 5.415e-06 -0.6256416828 0.5709876541
370297780.0 -0.623326282 0.5805748944 0.0001030213 -5.6742e-06 -8.23744e-05 -6.06469e-05 -0.6194987205 0.5776598517
375297750.0 -0.6174470293 0.5866214334 -0.0001044096 -8.71679e-05 6.31381e-05 -1.44388e-05 -0.6131161744 0.583859788
380297720.0 -0.6115776898 0.5940360959 0.0001055865 -3.24628e-05 -4.14144e-05 3.01694e-05 -0.6067317513 0.5906958233
385297690.0 -0.6063112588 0.5994733226 2.68041e-05 -8.61769e-05 0.000294353 8.28305e-05 -0.6016524032 0.5967275754
390297660.0 -0.5981301865 0.6052670991 5.40489e-05 -2.59722e-05 -3.73368e-05 -9.9683e-06 -0.5947130159 0.6021988577
395297630.0 -0.5933445827 0.6120650723 3.13103e-05 0.0001285194 3.91202e-05 -8.94035e-05 -0.588285675 0.6080459728
400297600.0 -0.5863238939 0.6181586466 9.49341e-05 -0.0001425764 -0.0001042685 -0.0001949748 -0.5827960078 0.6139935002
405297570.0 -0.5809233325 0.6233241692 -3.80141e-05 -2.51683e-05 8.31406e-05 -8.03875e-05 -0.5757706322 0.6203749252
410297540.0 -0.5737366281 0.6300287848 2.69476e-05 -0.0001067261 -0.0001413392 -4.674e-07 -0.5695981834 0.6260234513
415297510.0 -0.5679658433 0.6358196679 -5.89887e-05 -1.44485e-05 0.0001902101 -0.0001020288 -0.5632507891 0.6317719896
420297480.0 -0.5612773419 0.6410604856 -4.35612e-05 -5.49939e-05 -0.0001543773 4.87099e-05 -0.5563029218 0.6380986221
425297450.0 -0.5544102456 0.646159068 7.17381e-05 7.39466e-05 -1.45164e-05 -5.54902e-05 -0.5495311604 0.6422694474
430297420.0 -0.5478170767 0.652028148 5.2794e-06 -5.45132e-05 0.0001825391 -5.60253e-05 -0.5431142498 0.6483444588
435297390.0 -0.5408631755 0.6576435542 -2.66376e-05 6.99139e-05 -5.43471e-05 4.64327e-05 -0.5364867326 0.6540082652
440297360.0 -0.5340949981 0.663162125 0.0001056477 4.4733e-05 -7.41456e-05 3.97816e-05 -0.5301276266 0.6593746713
445297330.0 -0.5270922561 0.6681022198 -0.0001283758 4.25917e-05 -0.0001271688 -6.60785e-05 -0.522957034 0.6647846026
450297300.0 -0.5205781221 0.6739719915 -1.57304e-05 -4.14494e-05 2.76617e-05 -9.098e-05 -0.5155656755 0.6699729781
455297270.0 -0.5136189461 0.6786947548 0.000117629 -8.73101e-05 8.68109e-05 -8.63552e-05 -0.5093714143 0.6752893981
460297240.0 -0.5059784897 0.6842005988 4.1226e-06 -0.0003148626 9.07718e-05 4.14165e-05 -0.5026216517 0.6799675632
465297210.0 -0.499365665 0.6893512986 -1.00087e-05 4.34603e-05 -0.0001065104 0.0002273881 -0.4951314058 0.6852950977
470297180.0 -0.4917546375 0.694378988 -0.000104739 -0.0001277322 0.0002098971 -8.73745e-05 -0.4882745824 0.6907342272
475297150.0 -0.4850026493 0.6992363693 -3.51726e-05 -3.61048e-05 1.32938e-05 4.29459e-05 -0.4809884682 0.6952119354
480297120.0 -0.4771607307 0.7043710334 6.0268e-05 7.32679e-05 9.70294e-05 -0.0001153704 -0.4746994127 0.7001583165
485297090.0 -0.4700216454 0.7089209104 -5.31838e-05 0.0001033343 -6.76644e-05 -2.2741e-06 -0.4670427203 0.7049696714
490297060.0 -0.4618477591 0.7140654865 0.000130129 0.0001038052 -0.0001513303 -5.94091e-05 -0.4595204347 0.7090401788
495297030.0 -0.4551188759 0.7183980649 9.08667e-05 -5.03621e-05 3.54759e-05 -6.04853e-05 -0.4527030365 0.7134883469
500297000.0 -0.4473219319 0.7224033107 5.3243e-06 -5.23205e-05 5.79148e-05 -9.96942e-05 -0.4451753198 0.7185874768
505296970.0 -0.4393529628 0.727370855 3.23177e-05 0.0001060274 -3.24923e-05 -0.0001880845 -0.4373221687 0.7225197949
510296940.0 -0.4322728857 0.7311842162 9.01864e-05 -6.28222e-05 -0.00017209 8.49684e-05 -0.4302422412 0.7276771926
515296910.0 -0.4242394076 0.7354544455 -0.0001456104 -2.25161e-05 -0.0001459155 1.55619e-05 -0.4232294337 0.7308586001
520296880.0 -0.4164250478 0.7400437636 9.21899e-05 0.0001162984 3.236e-07 -1.28391e-05 -0.4151361543 0.7359404383
525296850.0 -0.4086971445 0.7439715774 9.96739e-05 -0.0001497482 0.0001413871 -2.40593e-05 -0.407965763 0.7398619622
530296820.0 -0.4010482631 0.7478836545 -9.16927e-05 0.0001810855 -3.58431e-05 -0.0001383156 -0.4004291475 0.7432658793
535296790.0 -0.3927262136 0.7513572435 9.14916e-05 1.38567e-05 0.0001130414 4.22136e-05 -0.3931117254 0.7481886488
540296760.0 -0.3849183771 0.7560417825 -5.5309e-06 7.41779e-05 8.67077e-05 -6.5925e-05 -0.3853238366 0.7514333417
545296730.0 -0.3772116736 0.760528689 3.1359e-06 4.44802e-05 0.0001289502 -7.31711e-05 -0.3777750013 0.7555808085
550296700.0 -0.3689527705 0.7637706776 -2.36658e-05 -4.52966e-05 -1.23574e-05 4.68711e-05 -0.3699159029 0.7591358597
555296670.0 -0.3613705084 0.7671427315 7.32031e-05 8.23381e-05 0.0001994135 -2.64952e-05 -0.3627467783 0.762239118
560296640.0 -0.3532011409 0.7709245746 5.4722e-06 -0.0001209767 -0.0002345622 0.0001583199 -0.3545762603 0.766297938
565296610.0 -0.3452764188 0.7741803861 1.424e-07 0.0001560662 -2.20524e-05 -9.46236e-05 -0.3465089239 0.7697703453
570296580.0 -0.3375301924 0.778029822 6.58122e-05 -0.0001423214 -0.0001279908 -0.00013253 -0.3386715411 0.7729408682
575296550.0 -0.3279676037 0.7810230519 5.2698e-06 -8.764e-05 -4.70486e-05 0.0001384086 -0.3311482352 0.7768187528
580296520.0 -0.3210074317 0.7840854877 5.60759e-05 2.69811e-05 7.76754e-05 -9.71718e-05 -0.3235507654 0.7792076871
585296490.0 -0.3128171672 0.7873500555 -0.000179412 1.48287e-05 4.11571e-05 5.5332e-05 -0.3154390143 0.7837169016
590296460.0 -0.3040377747 0.7908177868 7.61682e-05 -8.42826e-05 4.40127e-05 2.71368e-05 -0.3076955516 0.7856884734
595296430.0 -0.2963299368 0.7939677414 5.82456e-05 6.02787e-05 1.72125e-05 -8.12438e-05 -0.3000668402 0.7893249897
600296400.0 -0.2883449144 0.7967678757 -3.45897e-05 4.94904e-05 -2.71401e-05 4.27683e-05 -0.2918919364 0.7916571076
605296370.0 -0.2802259928 0.7991743279 -1.80475e-05 7.0382e-06 2.41886e-05 0.0001006036 -0.2837882508 0.7954389619
610296340.0 -0.2713987222 0.8033619334 3.83738e-05 2.441e-07 0.0001055713 -0.0001562794 -0.2758351805 0.797767635
615296310.0 -0.2630606922 0.8054864781 6.86281e-05 -0.0002578808 -0.0001750512 0.0002509011 -0.2676451999 0.8008296212
620296280.0 -0.2558488628 0.8077566683 -9.3095e-06 -0.000211826 -4.74994e-05 2.6375e-05 -0.2600123707 0.8034888357
625296250.0 -0.2470083576 0.8100437344 -8.26221e-05 0.0001028059 -0.0001743687 0.0002349927 -0.2516458321 0.8051369799
630296220.0 -0.2385874889 0.8133590499 2.27067e-05 -5.32227e-05 7.76424e-05 -8.23722e-05 -0.2431165793 0.8082960831
635296190.0 -0.2306722236 0.8156825067 -0.0002406672 0.000102044 2.51535e-05 5.40308e-05 -0.2355799405 0.8099281391
640296160.0 -0.2215276754 0.817776379 8.34884e-05 -0.0003623896 0.000248642 -1.52438e-05 -0.2271495848 0.8127270808
645296130.0 -0.2131123985 0.8204162416 -0.0002523078 -0.0002116345 -1.23818e-05 -7.68321e-05 -0.2196270192 0.8142266984
650296100.0 -0.2052980802 0.8218435617 0.0001523297 -4.73293e-05 3.53538e-05 0.0001196357 -0.2108125747 0.8166981932
655296070.0 -0.197686963 0.8239413155 -5.6574e-06 -0.0001653507 0.0001193961 1.95792e-05 -0.2029881692 0.8192124045
660296040.0 -0.1895006906 0.8263647761 -1.32223e-05 -0.0002161861 -8.70832e-05 3.35587e-05 -0.1943650827 0.8210756933
665296010.0 -0.180661126 0.8283216478 -4.11097e-05 -0.0001980674 8.9623e-06 0.0001488393 -0.1860591887 0.8221336809
670295980.0 -0.1729745505 0.8306246945 -1.16013e-05 -7.84343e-05 0.0001083338 2.44533e-05 -0.1785749825 0.8242762053
675295950.0 -0.1643099549 0.8322213961 0.0001340744 -0.0001159935 -4.1707e-05 -5.56976e-05 -0.1698692953 0.8266059044
680295920.0 -0.1563422978 0.8340835534 -2.56226e-05 5.76388e-05 -8.85229e-05 -0.000105882 -0.1611701637 0.8275794079
685295890.0 -0.1474525648 0.8355236237 -7.8548e-06 -0.0001506947 3.42814e-05 1.33745e-05 -0.1531022288 0.8292702907
690295860.0 -0.1392877861 0.8368616604 -5.73677e-05 -0.000262728 3.43464e-05 -0.0001624133 -0.145187098 0.830688488
695295830.0 -0.1305324075 0.8388243437 3.61082e-05 0.0002252827 -2.72756e-05 5.27603e-05 -0.1366633293 0.8327098196
700295800.0 -0.1224010624 0.8403037702 0.0001048983 -0.0001034712 6.39424e-05 6.46694e-05 -0.1281224961 0.8336844411
705295770.0 -0.114690278 0.8416208151 3.84462e-05 -2.38267e-05 -0.0001178345 5.66348e-05 -0.1199741842 0.8355057357
710295740.0 -0.1066260048 0.8422605858 -2.30535e-05 0.000180582 -8.60679e-05 0.0001239607 -0.1118918354 0.8363135744
715295710.0 -0.0972577057 0.8434284486 7.06198e-05 1.48608e-05 6.87505e-05 0.0002356972 -0.1034067307 0.8367178769
720295680.0 -0.0886840279 0.8442561802 0.0001039857 4.93859e-05 -2.13247e-05 -4.64581e-05 -0.0945317699 0.8374702972
725295650.0 -0.081348864 0.8461928059 -4.07234e-05 4.79809e-05 -9.8452e-05 5.30826e-05 -0.0869364333 0.838785147
730295620.0 -0.0734441309 0.8469112737 -8.1206e-05 4.8359e-06 4.46558e-05 0.0002117044 -0.0790744109 0.8404726463
735295590.0 -0.0652954797 0.8478010298 4.12527e-05 1.5812e-06 5.50063e-05 -4.5499e-06 -0.0697639936 0.8402178908
740295560.0 -0.0576986297 0.8473613197 -1.4155e-05 -7.55628e-05 0.0002506589 0.0001328464 -0.0612652024 0.8413538475
745295530.0 -0.0493300916 0.8489731621 -7.52749e-05 4.5892e-05 -7.83461e-05 -0.0002089559 -0.0534824277 0.8417404214
750295500.0 -0.0408986879 0.8492615456 0.0002069267 3.32041e-05 0.0001721059 6.248e-07 -0.0450837704 0.8422350483
755295470.0 -0.0321336582 0.8499600699 -0.0001599995 3.172e-07 0.0001675479 -1.6272e-05 -0.0370379195 0.8428720096
760295440.0 -0.0238403141 0.8510674803 -5.23962e-05 1.37204e-05 -9.80006e-05 2.3044e-05 -0.0281042185 0.8424631228
765295410.0 -0.0154058678 0.8503743039 -2.74654e-05 -0.0001632777 0.0001065646 7.46276e-05 -0.019708131 0.8434426446
770295380.0 -0.0086033814 0.8512771167 0.0001632203 -7.90602e-05 -0.0001423908 -1.11231e-05 -0.011788663 0.8433219874
775295350.0 0.0001147656 0.8512091595 6.2137e-06 3.0472e-05 -2.1796e-05 0.0001810529 -0.0034551489 0.8433958783
780295320.0 0.00915221 0.8513605382 6.73201e-05 -5.63607e-05 0.0002016515 -3.81963e-05 0.0055862494 0.8433228271
785295290.0 0.0169221016 0.8509066171 7.8411e-05 -6.98115e-05 -6.63182e-05 -0.0001781489 0.0131848506 0.8438104368
790295260.0 0.0247625835 0.8509139533 -0.0001055561 8.33555e-05 -0.0001001087 -2.445e-05 0.0220385002 0.8432846189
795295230.0 0.0331872993 0.8505897162 -0.0001619399 -8.5356e-05 -9.98849e-05 -1.12445e-05 0.0301859112 0.8423485992
800295200.0 0.0409742622 0.8506452232 0.0001512527 -4.92067e-05 -0.0001532641 -7.904e-05 0.0384849637 0.8421854962
805295170.0 0.0491630768 0.8507279007 -0.0001968037 9.40269e-05 -9.65088e-05 -0.0001381811 0.0473051242 0.8421176738
810295140.0 0.0582373405 0.8502260559 9.97117e-05 0.0003293944 -0.0001142151 -2.8689e-06 0.0557954952 0.8413318386
815295110.0 0.0650749225 0.8496999218 5.11188e-05 -0.0001816817 1.19517e-05 -0.000142073 0.063363842 0.8407412572
820295080.0 0.0736599747 0.848837085 -0.0001506789 -0.000181874 -1.044e-06 -7.11844e-05 0.0716267516 0.840365033
825295050.0 0.0821072266 0.848417232 3.34422e-05 0.0001237841 -7.71239e-05 -6.52921e-05 0.0802725946 0.8392230575
830295020.0 0.0904065837 0.8475040997 -0.0001802566 0.0001357019 1.94537e-05 9.38396e-05 0.0881696473 0.8383317325
835294990.0 0.0980639765 0.8464034594 -2.39615e-05 0.0001533066 -7.18167e-05 -5.01249e-05 0.096658939 0.8380252076
840294960.0 0.1071329718 0.8455566346 -0.0001182536 0.0001018649 0.0001284872 1.09077e-05 0.1054731411 0.8368532238
845294930.0 0.1148538986 0.8442996807 3.29608e-05 -0.0002460374 -5.03351e-05 -8.64931e-05 0.1138100221 0.8354409478
850294900.0 0.124314894 0.8435545804 0.0001233195 0.0001042533 5.37974e-05 -5.93481e-05 0.1211216361 0.8348111706
