!Created with skrf (http://scikit-rf.org).
# Hz S RI R 50.0 
!freq ReS11 ImS11 ReS21 ImS21 ReS12 ImS12 ReS22 ImS22
300000.0 -0.0466567178 -0.0580265852 -0.0006936361 0.0005638415 -0.000193921 0.0006723548 -0.772748598 -0.164468589
5299970.0 -0.0491854935 0.0155757546 7.39121e-05 0.0002067687 9.41074e-05 2.02151e-05 -0.7850023311 -0.0087793701
10299940.0 -0.0432795841 0.0335701828 5.41224e-05 0.0001201707 -2.90731e-05 -6.95039e-05 -0.7884162174 -0.0049161334
15299910.0 -0.0351240571 0.0479608138 0.0002659887 -0.0001642702 -9.04246e-05 6.8537e-05 -0.7938953505 -0.0033224288
20299880.0 -0.0246538758 0.0599528764 -8.40354e-05 -0.0001969391 -1.97168e-05 -0.0002369538 -0.8006352103 0.0015723209
25299850.0 -0.0132302074 0.0689000309 3.01278e-05 4.75107e-05 0.0001434396 0.0001202518 -0.8069717323 0.0071317183
30299820.0 -0.0014706492 0.075562823 -3.12376e-05 -6.47744e-05 2.04867e-05 0.0001815336 -0.812707134 0.0149796265
35299790.0 0.0105067043 0.0804626838 0.0001580024 -0.0001416836 -0.0001704596 -0.0002309282 -0.8183015026 0.0236412626
40299760.0 0.0218545496 0.0831066993 0.0002932197 -7.50484e-05 -0.0001271623 -1.04637e-05 -0.8217088404 0.0333967007
45299730.0 0.032533329 0.0847596701 -7.64036e-05 8.07525e-05 -1.1177e-05 0.0002513668 -0.8254258125 0.0426430909
50299700.0 0.0430472981 0.0844743949 0.0001233283 8.5765e-05 -5.64407e-05 -0.0002224454 -0.8279170402 0.0523716965
55299670.0 0.0518387017 0.0834236274 -0.0002104547 5.08938e-05 0.0002059178 7.75892e-05 -0.8298878769 0.0628777934
60299640.0 0.0607452188 0.0812340177 -0.0002117856 -2.89017e-05 6.1153e-06 8.53621e-05 -0.8310142384 0.0730433567
65299610.0 0.0684421199 0.0789855369 8.87647e-05 5.62621e-05 0.0001276135 4.18038e-05 -0.8312933086 0.0833251946
70299580.0 0.0756500859 0.0757101596 5.6982e-05 0.0001702689 0.0001552713 -4.2978e-06 -0.8324098312 0.0925768464
75299550.0 0.0822733272 0.0719693842 -0.000113339 -5.64209e-05 4.0561e-06 -7.68749e-05 -0.8323663171 0.1023345112
80299520.0 0.087545686 0.068794844 1.82521e-05 7.52308e-05 -1.27469e-05 -8.70716e-05 -0.8315011824 0.1124953228
85299490.0 0.0928525479 0.0646075523 0.0001272355 0.000183042 -5.00329e-05 0.0001154838 -0.8321713823 0.1216839398
90299460.0 0.0971566414 0.0609852287 6.41084e-05 0.0001907329 -0.0001040596 0.000142068 -0.8309362295 0.1311128541
95299430.0 0.101517689 0.0568376196 -1.83454e-05 0.0001079275 9.80303e-05 -6.94245e-05 -0.83048584 0.1412678042
100299400.0 0.1047923521 0.0532314388 -0.0001258717 0.0001565849 1.3019e-05 6.06411e-05 -0.829039962 0.1489852612
105299370.0 0.1079774594 0.0485679712 -2.09778e-05 3.57409e-05 -8.33477e-05 5.74066e-05 -0.8275153551 0.1593026149
110299340.0 0.1108309185 0.0446197322 -9.02182e-05 0.0001921623 4.03421e-05 -4.51836e-05 -0.8270207555 0.1684967434
115299310.0 0.1133327983 0.0403340469 0.0001307842 -5.40619e-05 0.0003190661 0.0002116045 -0.824359515 0.1769206372
120299280.0 0.1155122049 0.036920628 -8.89621e-05 -8.67976e-05 -2.08356e-05 7.5491e-06 -0.8236398807 0.1861859955
125299250.0 0.1173234086 0.0324198105 -0.0002136193 8.00885e-05 9.2732e-05 -3.3067e-06 -0.8219963423 0.1957126588
130299220.0 0.1193262041 0.0292065961 -1.11832e-05 0.0001531611 -4.96367e-05 3.63831e-05 -0.8199431511 0.2041253421
135299190.0 0.1208672594 0.0252026702 7.71496e-05 4.6203e-05 6.31402e-05 8.69229e-05 -0.8176465254 0.212515879
140299160.0 0.1221201301 0.0215643956 -6.24874e-05 -7.51499e-05 -7.7227e-05 0.0001448473 -0.81572646 0.2216172028
145299130.0 0.123095287 0.0178181901 -6.32962e-05 -7.54563e-05 5.87183e-05 0.0001662151 -0.8141925055 0.2297914114
150299100.0 0.1240187304 0.0140517656 -0.0001066653 0.0001005559 -0.0001145162 4.99431e-05 -0.8117915883 0.2384523846
155299070.0 0.1246974086 0.0109837403 1.57683e-05 0.000108502 1.542e-05 -8.2573e-06 -0.8092984301 0.2477159986
160299040.0 0.1249847492 0.0074994257 7.80563e-05 0.0001364444 0.000109871 2.63715e-05 -0.8077544322 0.2564555823
165299010.0 0.1254587947 0.0041750287 0.0002420627 -5.49165e-05 -2.04135e-05 -2.18363e-05 -0.8041964811 0.2647657852
170298980.0 0.1257339987 0.0008786228 0.0001312779 7.18824e-05 8.60585e-05 0.0001418403 -0.8025893164 0.2733357478
175298950.0 0.1261328075 -0.0017009171 -3.14301e-05 0.0001063438 0.0001996588 9.62e-05 -0.7988390645 0.2819946116
180298920.0 0.126020927 -0.0053251872 7.67858e-05 8.8133e-05 0.0002162519 0.0002538516 -0.7957692285 0.2902347202
185298890.0 0.1259823896 -0.008221404 -9.68731e-05 0.0001744535 -3.73507e-05 8.07731e-05 -0.7928401702 0.2981617231
190298860.0 0.1260916602 -0.0111683324 9.6076e-05 7.09157e-05 4.66887e-05 -2.65233e-05 -0.7899265677 0.3070750185
195298830.0 0.126365598 -0.0141559024 4.95626e-05 8.91011e-05 5.78222e-05 -3.93532e-05 -0.7870259547 0.3156256306
200298800.0 0.1257227418 -0.0167132353 -1.68947e-05 0.0001850703 7.57113e-05 1.12492e-05 -0.783225479 0.3239618682
205298770.0 0.1253910198 -0.0195802693 6.08865e-05 9.22094e-05 2.0705e-06 8.93454e-05 -0.7799276777 0.3316352865
210298740.0 0.1252874932 -0.0221761033 4.59497e-05 7.25254e-05 8.52051e-05 4.87457e-05 -0.7768838364 0.3403570812
215298710.0 0.1245342092 -0.0249718155 -1.41791e-05 -2.89364e-05 0.0001185128 1.73941e-05 -0.7734839259 0.3487923347
220298680.0 0.1242039248 -0.0276827243 7.46497e-05 0.0002443203 2.47379e-05 -5.92676e-05 -0.7696603226 0.3568458104
225298650.0 0.1236822371 -0.0300629906 0.0001318154 0.0001373647 6.11294e-05 -3.03453e-05 -0.7654351138 0.3649066539
230298620.0 0.1230865683 -0.0325421116 -2.24125e-05 -0.0001308209 3.18556e-05 3.84389e-05 -0.7613501427 0.3724930275
235298590.0 0.122213953 -0.0351156272 0.0002635479 0.0001729103 9.52696e-05 0.0001072863 -0.7578935741 0.3807055904
240298560.0 0.1216479006 -0.0372606921 1.37223e-05 -2.5405e-06 -0.0001631018 7.65014e-05 -0.7541331662 0.3887071848
245298530.0 0.1210980949 -0.0395964525 0.0001464196 -0.0001893042 -3.8242e-06 0.0001710082 -0.7498309026 0.396663919
250298500.0 0.1199211085 -0.0419035001 -0.0001565651 -0.0002747115 0.0003712112 -7.84101e-05 -0.7460902484 0.4043519626
255298470.0 0.1193044153 -0.0440555675 0.0002478974 -0.0001076774 -2.25891e-05 -0.0001045046 -0.741538985 0.4131651388
260298440.0 0.1186533689 -0.0459462913 -7.08427e-05 0.0002116562 0.0001327621 -5.48345e-05 -0.7367570401 0.4197802669
265298410.0 0.1177688955 -0.048267691 -6.45083e-05 3.22865e-05 -3.16472e-05 -0.0001271426 -0.732642619 0.4274592924
270298380.0 0.1169149058 -0.0502056067 2.92283e-05 -0.0001571938 7.50284e-05 3.78752e-05 -0.7277179994 0.4349004904
275298350.0 0.1160357053 -0.052332056 -0.0001504295 -4.57475e-05 -3.76243e-05 8.6292e-05 -0.7226703812 0.443187362
280298320.0 0.1149724838 -0.0540650635 9.27093e-05 0.000107276 -2.17341e-05 2.98369e-05 -0.7184177299 0.4500086793
285298290.0 0.114185418 -0.0560966536 0.0001040481 5.64718e-05 0.0001539066 0.0002379428 -0.7137132679 0.4577699153
290298260.0 0.1132986954 -0.0579355995 -3.83274e-05 -0.0001327511 0.0001377836 -0.0001008511 -0.7088252042 0.4656072103
295298230.0 0.1121875336 -0.0600938427 6.0789e-05 0.000149031 5.33295e-05 -7.90015e-05 -0.7036810063 0.4725687385
300298200.0 0.1111966185 -0.0625586009 2.73448e-05 3.97896e-05 0.0002424144 0.0001892851 -0.6986312112 0.479887553
305298170.0 0.1104878854 -0.0640848605 0.0001708348 -8.5274e-06 -0.000119447 0.0002384395 -0.6934932118 0.4877230598
310298140.0 0.1093364831 -0.0663320424 5.4661e-05 2.39273e-05 5.19429e-05 0.0003041516 -0.6891307855 0.4950928316
315298110.0 0.1078825446 -0.0681654161 -6.15907e-05 9.24404e-05 6.05532e-05 6.61411e-05 -0.6837575757 0.5022191558
320298080.0 0.1065307018 -0.0700017527 -1.11798e-05 9.34054e-05 0.0001799764 0.0001792614 -0.678226611 0.5092406152
325298050.0 0.1049655732 -0.0719044415 4.87792e-05 0.0001322978 -4.90352e-05 -3.79969e-05 -0.6720899712 0.5158927897
330298020.0 0.1036675369 -0.0733698746 3.84912e-05 -0.000241303 0.0001482378 -0.0001504705 -0.6667736016 0.5231631519
335297990.0 0.1021530944 -0.0749376948 5.45931e-05 3.99044e-05 0.0001712233 5.7642e-06 -0.6616824433 0.5299826995
340297960.0 0.1006029602 -0.0764136863 0.0001802987 -0.000148901 0.0001761723 5.27806e-05 -0.6557752569 0.5372113599
345297930.0 0.0992575838 -0.078057012 -2.54168e-05 -2.59402e-05 4.69321e-05 0.0002051808 -0.6497913553 0.5443545185
350297900.0 0.0980688986 -0.0792449931 0.0001911627 -9.71856e-05 0.000123278 -4.47497e-05 -0.6439448831 0.5507120454
355297870.0 0.0964256372 -0.0808090305 7.28907e-05 0.0002047438 -1.93804e-05 5.88611e-05 -0.6377943297 0.5573315884
360297840.0 0.0952345847 -0.0821077272 0.00013887 0.000235171 -0.0001650635 5.95863e-05 -0.6315144428 0.5640538057
365297810.0 0.0937416326 -0.083662005 4.68544e-05 2.16236e-05 -6.89007e-05 4.79228e-05 -0.6261088828 0.5708009803
370297780.0 0.0924820477 -0.0847318786 4.062e-05 -0.0001599526 -3.22444e-05 1.40802e-05 -0.6202689074 0.5764455921
375297750.0 0.0909728764 -0.0859838993 -3.6777e-05 0.0001507207 0.0002346575 5.2248e-06 -0.6143214014 0.583136082
380297720.0 0.0898624812 -0.0874455306 -1.26156e-05 -0.0001009887 0.0001006775 7.76596e-05 -0.6078855123 0.5903837419
385297690.0 0.0881736882 -0.088559169 4.78712e-05 0.0001902649 -5.32538e-05 0.0002148347 -0.602078121 0.5958841142
390297660.0 0.0868629556 -0.0900735046 8.68426e-05 -8.22109e-05 -5.2764e-06 8.30958e-05 -0.5951098301 0.6017984034
395297630.0 0.0854208288 -0.0910591384 0.0002175466 -5.7515e-06 0.0001790743 1.65994e-05 -0.5891776889 0.6085101074
400297600.0 0.0838945221 -0.0919528959 3.11618e-05 4.80246e-05 8.65205e-05 -2.79234e-05 -0.583281751 0.6139107231
405297570.0 0.0823565883 -0.0933467706 0.0003631062 0.0001739067 2.1917e-06 0.0001832111 -0.577041727 0.6198106294
410297540.0 0.0809919109 -0.0945884007 -6.45995e-05 0.000123703 3.63736e-05 -6.62142e-05 -0.5699337638 0.6257408943
415297510.0 0.0796586612 -0.0955493086 0.0001188261 -3.48827e-05 0.0001071354 0.0001088387 -0.5638888843 0.6324274231
420297480.0 0.0778063097 -0.0967531415 3.7318e-05 -8.82266e-05 7.921e-05 0.0001700244 -0.5566893118 0.6370107029
425297450.0 0.0765193567 -0.0977932241 0.0002341409 5.2045e-06 0.0002719786 0.0001909037 -0.5502343113 0.6430245819
430297420.0 0.0748216297 -0.0987115357 -9.91461e-05 0.0001162303 0.000104724 -6.47901e-05 -0.5438916551 0.6488868556
435297390.0 0.0733459054 -0.0996233041 1.57951e-05 8.23237e-05 0.0003728126 5.4247e-05 -0.537032646 0.6540637905
440297360.0 0.0721257999 -0.1005720561 9.75099e-05 -3.28019e-05 5.43675e-05 0.0002050154 -0.5298256278 0.659122232
445297330.0 0.0704525379 -0.10169683 0.0001974929 -1.06172e-05 1.6382e-06 -2.21676e-05 -0.5230840722 0.6644009127
450297300.0 0.0687231865 -0.1025243596 -6.04352e-05 0.0001583092 7.55058e-05 -2.41167e-05 -0.5170602449 0.6700021943
455297270.0 0.0672540552 -0.1032924863 -5.72919e-05 9.7071e-06 0.0001930475 8.34002e-05 -0.5101250815 0.6748149114
460297240.0 0.065603442 -0.1040596811 7.2116e-05 -0.000137368 4.54743e-05 0.0001310718 -0.5026528538 0.6805197009
465297210.0 0.0643350459 -0.1049931623 0.0001088003 2.4698e-06 0.0001267149 -5.11359e-05 -0.4963650977 0.6854346565
470297180.0 0.0624204181 -0.1057368992 3.42224e-05 4.04792e-05 0.000160991 -2.95425e-05 -0.4894052852 0.6900151317
475297150.0 0.0607035792 -0.10654509 6.58633e-05 1.9892e-06 0.0001026634 -1.11436e-05 -0.4814091286 0.694890853
480297120.0 0.0591772904 -0.1076201791 3.43558e-05 2.22675e-05 0.0002299099 -0.000112764 -0.4757323607 0.7000276827
485297090.0 0.0576664339 -0.1080135285 0.0001161639 0.0001218305 3.54153e-05 0.0001629001 -0.4676802821 0.7039431885
490297060.0 0.056435117 -0.1089287689 -7.2152e-06 -0.0001325677 0.0001559387 8.9383e-06 -0.4610659406 0.7086853256
495297030.0 0.0544786303 -0.1095751389 0.0004223163 -3.1766e-06 -5.1648e-06 8.65972e-05 -0.4533565838 0.7130191418
500297000.0 0.0530081344 -0.1104002044 9.66477e-05 -0.0001630952 0.0001028029 4.62109e-05 -0.4469814687 0.7177784252
505296970.0 0.0510315076 -0.1107252271 8.87716e-05 4.28024e-05 0.000199508 -9.76821e-05 -0.4398344021 0.7221426625
510296940.0 0.0496243906 -0.1113740835 0.0001469139 -5.21576e-05 5.927e-07 -0.0001338008 -0.4318137715 0.7262159618
515296910.0 0.0477474226 -0.1116415974 0.0003140801 7.90333e-05 1.17184e-05 0.0001154093 -0.4246984052 0.7308450721
520296880.0 0.0464017155 -0.1126014394 0.0002218958 0.0001217714 3.85796e-05 0.000135766 -0.4177580454 0.7347696343
525296850.0 0.0445455847 -0.1130624082 6.57857e-05 -3.41936e-05 0.0001096688 -0.0002217746 -0.4098899035 0.739288544
530296820.0 0.0429802952 -0.1135825131 0.0001769913 2.12567e-05 7.04805e-05 5.15197e-05 -0.4033411336 0.7430570462
535296790.0 0.0414278529 -0.1139272882 8.594e-05 -8.21079e-05 0.0001133909 -1.81647e-05 -0.3955354544 0.7466189536
540296760.0 0.0393216701 -0.1147159395 9.28856e-05 9.53945e-05 0.0001951407 7.6874e-05 -0.3878786641 0.7510458331
545296730.0 0.037899669 -0.1148130347 0.0002587953 6.57186e-05 1.09124e-05 -7.01916e-05 -0.3808784594 0.75395392
550296700.0 0.0358873295 -0.1149802651 0.0002312535 -4.48797e-05 0.0001569914 0.0001890247 -0.3734939944 0.7585045398
555296670.0 0.0346311932 -0.1154676877 0.0002423999 -0.0002977066 0.0001313173 -0.0001264823 -0.3655878691 0.7616430334
560296640.0 0.0328454835 -0.1163165927 0.0003281475 -0.0001193833 0.0002973681 5.17428e-05 -0.3574464782 0.7653316232
565296610.0 0.0310759498 -0.1161635445 0.0001084885 0.0002333145 0.0001604836 0.0002968002 -0.3502522764 0.7687772649
570296580.0 0.0296186495 -0.1167150488 5.27831e-05 -9.83642e-05 0.0004034372 5.3732e-05 -0.3431468124 0.7726786456
575296550.0 0.02803635 -0.1168613276 0.0003001338 0.0001836803 0.0002104822 2.0923e-06 -0.3343205942 0.7756912613
580296520.0 0.0264660229 -0.117018563 0.0001185144 -0.0001570496 3.90841e-05 -4.0161e-06 -0.3272116706 0.7792906544
585296490.0 0.0243748232 -0.1176195996 0.0001765026 -7.56229e-05 0.0001829721 -8.55217e-05 -0.3194559098 0.7817236839
590296460.0 0.0225682636 -0.1176931267 0.0002112721 0.0001050123 3.71646e-05 -0.0001147324 -0.3114183092 0.7846272337
595296430.0 0.0210452492 -0.1176874318 0.0001747759 -1.59199e-05 0.000113258 3.16415e-05 -0.3038217557 0.7872598404
600296400.0 0.0192399485 -0.1178809554 0.0002339702 -3.66843e-05 0.0001622022 6.0488e-05 -0.2961023918 0.7914396338
605296370.0 0.0178450903 -0.1180690317 0.0001296647 -2.25551e-05 -8.6622e-06 -2.1667e-06 -0.2883183056 0.7939940553
610296340.0 0.0160591176 -0.1181311536 0.0001453032 0.0002442566 0.0001650746 3.7574e-06 -0.280328773 0.7972990486
615296310.0 0.0141214703 -0.1181286123 0.0003195572 0.0001306237 3.66231e-05 -0.0001174907 -0.2731623971 0.7994809727
620296280.0 0.0124637339 -0.1184473136 0.0003137296 7.2736e-06 0.0001427776 -0.0001189835 -0.2650067183 0.8016290815
625296250.0 0.010870336 -0.11826601 0.0001995793 0.0001362626 1.89015e-05 -0.0001108254 -0.2571789507 0.8045542579
630296220.0 0.0092360241 -0.1185286619 -2.12179e-05 0.0001253804 -2.0093e-05 -2.82746e-05 -0.2486374711 0.807578812
635296190.0 0.0074311533 -0.1184929714 7.21749e-05 2.52228e-05 -2.4079e-06 -2.10489e-05 -0.2410112912 0.8094964058
640296160.0 0.0060074467 -0.1185057811 0.0001127619 9.33074e-05 9.1713e-05 -9.64586e-05 -0.2321248677 0.8121163919
645296130.0 0.004050165 -0.1181242147 0.0001828893 -5.1938e-06 0.0002372465 -3.35809e-05 -0.2250335174 0.8142027698
650296100.0 0.002642092 -0.1179965967 0.0001102977 -2.14933e-05 3.99109e-05 1.73978e-05 -0.2164126926 0.8165279082
655296070.0 0.0008743661 -0.1182566734 2.33156e-05 -0.0001876491 8.05743e-05 0.0001122456 -0.2082864981 0.8181565872
660296040.0 -0.0009600821 -0.1177477736 2.78954e-05 -9.0087e-06 -1.01984e-05 6.57864e-05 -0.2007293241 0.8200516448
665296010.0 -0.0022895525 -0.1180289963 7.4319e-05 -0.0001272128 0.000145872 -7.1325e-06 -0.1923528733 0.8217960019
670295980.0 -0.0043118768 -0.1176123538 3.13538e-05 -0.000158006 0.0001634364 -0.0002262653 -0.1851218712 0.8238577721
675295950.0 -0.0057696102 -0.1175365335 -9.46627e-05 7.329e-07 0.0001176386 0.0001402431 -0.176260303 0.8264423158
680295920.0 -0.007389796 -0.1172949778 0.0002369056 0.0001224901 9.11453e-05 -2.35497e-05 -0.168139618 0.8281042131
685295890.0 -0.0091016084 -0.1170725177 0.0001767342 2.9761e-06 0.0002246674 3.67604e-05 -0.1598060896 0.828698749
690295860.0 -0.0107130469 -0.1167598419 8.60844e-05 -0.0001352576 6.34885e-05 -0.0001202821 -0.1515287337 0.8307258659
695295830.0 -0.0122485086 -0.1167091068 0.0002908934 -0.000200736 0.0001910628 -0.0001217474 -0.1440279595 0.8325277001
700295800.0 -0.0141096764 -0.116231495 0.0002101368 -5.22931e-05 0.0001905517 -0.0001969931 -0.1349698153 0.8331019776
705295770.0 -0.0155505064 -0.1160864274 0.0001192816 -8.45935e-05 0.0002930958 9.15707e-05 -0.1273721434 0.8352041981
710295740.0 -0.0174110082 -0.1154081515 0.0001712826 -1.94219e-05 0.0003231424 -6.3797e-05 -0.1192566118 0.8366236608
715295710.0 -0.0193915253 -0.1149644662 5.11281e-05 -0.000127375 0.0002342814 3.31404e-05 -0.1107660194 0.8368291302
720295680.0 -0.020636499 -0.1148241503 0.0001760472 -9.4201e-06 0.0003112685 4.95833e-05 -0.1028973788 0.8386862733
725295650.0 -0.0221782179 -0.1142517129 9.97905e-05 -4.9417e-05 0.0002302272 -2.68418e-05 -0.0937220684 0.8398725842
730295620.0 -0.0239874145 -0.1140958602 0.0002584941 -0.0001506457 0.0001690039 -0.0001059571 -0.0856203691 0.8401223202
735295590.0 -0.0254559603 -0.1134924423 0.0001570394 -5.72621e-05 0.0002238773 -4.92312e-05 -0.0762468755 0.8403219931
740295560.0 -0.0269566366 -0.1129458679 0.000263666 -0.0001128634 0.0001414919 9.64163e-05 -0.0688895485 0.8408975914
745295530.0 -0.0289219913 -0.1124984939 6.13846e-05 -0.0001526849 0.0001005308 -5.52283e-05 -0.0609343092 0.8423762126
750295500.0 -0.0301934624 -0.1119861558 3.92307e-05 6.19127e-05 4.34411e-05 -4.50775e-05 -0.0521253649 0.8421720732
755295470.0 -0.0317144333 -0.1113046032 0.000198252 5.46268e-05 0.0001792372 -4.30399e-05 -0.0442288338 0.8431244432
760295440.0 -0.0333638608 -0.1107865099 5.31688e-05 -0.0001826406 0.0002073196 -0.0001603732 -0.0359884322 0.8437584601
765295410.0 -0.0349764221 -0.1103116451 0.0002017459 -8.47936e-05 0.0002570703 -0.0001071129 -0.0270621111 0.844434162
770295380.0 -0.0367922958 -0.1094802321 0.0001994015 -0.0001742687 0.0001652313 -2.86068e-05 -0.01886767 0.8442499927
775295350.0 -0.0383074366 -0.1090734365 0.0004432449 -0.0001703992 0.0002327577 -7.6836e-05 -0.011125688 0.8440434716
780295320.0 -0.0397522011 -0.108493441 0.0002279636 -0.0002430195 0.0002318692 -2.1713e-05 -0.0025763902 0.8448487488
785295290.0 -0.0412671598 -0.1074879219 0.0001106036 -0.0001411944 0.0001091472 0.0001762467 0.005239469 0.8442960599
790295260.0 -0.0428307077 -0.1068652667 0.0002499899 9.28522e-05 0.000143059 -4.5347e-06 0.0146042027 0.8444260697
795295230.0 -0.044394585 -0.1060614026 0.0001465905 -0.0002442951 4.70977e-05 -2.24637e-05 0.022455323 0.8445596402
800295200.0 -0.0457414533 -0.1051922194 3.5e-09 0.0001679632 0.0001248587 -0.0001507927 0.0308128218 0.8439500311
805295170.0 -0.0472287048 -0.104876651 9.32133e-05 -3.73243e-05 0.0001607316 -1.48583e-05 0.0386621041 0.8435099411
810295140.0 -0.0486498643 -0.1039195913 0.000216894 -1.44132e-05 0.0001954377 0.0003168825 0.0470812313 0.843934353
815295110.0 -0.0501667089 -0.1031550413 7.01109e-05 -4.66141e-05 0.0001498841 -2.2517e-05 0.0554307861 0.843061663
820295080.0 -0.0517102924 -0.1025831567 -1.52438e-05 -0.0001353805 0.0002802312 -2.46344e-05 0.0633077542 0.8419698443
825295050.0 -0.0532319956 -0.1016075557 -0.0001046358 -0.0003328084 0.0001554316 2.97779e-05 0.0717738141 0.8415446886
830295020.0 -0.0543089235 -0.1005021373 0.0003696917 2.26377e-05 0.0001742019 1.37903e-05 0.079662328 0.8407226606
835294990.0 -0.0557952071 -0.0998051545 0.0003040722 -7.33916e-05 0.000355286 1.55454e-05 0.0885602862 0.8398875341
840294960.0 -0.0572333394 -0.0989239403 0.000282574 -0.0002074117 0.0001762693 -3.25909e-05 0.095981473 0.8394580762
845294930.0 -0.0586465164 -0.0978950589 3.24479e-05 -0.0001419832 0.0002136362 -4.76439e-05 0.1047893168 0.8380490297
850294900.0 -0.0599448439 -0.0969994924 0.0002679807 -6.24087e-05 2.77013e-05 -3.08716e-05 0.1125554475 0.837730282
