!Created with skrf (http://scikit-rf.org).
# Hz S RI R 50.0 
!freq ReS11 ImS11 ReS21 ImS21 ReS12 ImS12 ReS22 ImS22
300000.0 -0.101179364 -0.0685056584 0.6315343259 0.0641915228 0.6249653682 0.0630068789 -0.1014136074 -0.0745433307
5299970.0 -0.1022335162 0.0132106513 0.6306184239 0.0095690687 0.6305457157 0.0098782698 -0.1008140459 0.0133118997
10299940.0 -0.0970578108 0.0294130355 0.6340709085 0.0154230865 0.6339854785 0.015286261 -0.095703865 0.0302985527
15299910.0 -0.0900110474 0.0427029435 0.6403631299 0.0200570028 0.6405335915 0.0204093223 -0.0886160888 0.0438201775
20299880.0 -0.0815872413 0.0529293413 0.6487206472 0.0241041996 0.6486727681 0.023839801 -0.0800223366 0.0544929675
25299850.0 -0.0724831883 0.0622706214 0.6576318474 0.0249011093 0.6577076412 0.0255412014 -0.0697602917 0.0633368815
30299820.0 -0.0622919628 0.0688032925 0.6675337555 0.0244146962 0.6671551689 0.0246060491 -0.0597971242 0.0700612853
35299790.0 -0.0525574944 0.073732756 0.6771353269 0.0212924598 0.6771734891 0.0214887607 -0.0500179006 0.0748239394
40299760.0 -0.0435995366 0.0771010007 0.6864846152 0.017357396 0.6864198916 0.0178307784 -0.0404502985 0.0775870204
45299730.0 -0.0340750623 0.079153178 0.6945029774 0.0117460909 0.6954443322 0.0115668913 -0.0311419236 0.0798914287
50299700.0 -0.025690003 0.0800631273 0.7034244943 0.0050432543 0.703345693 0.0054828695 -0.0225876713 0.0805712576
55299670.0 -0.0177563947 0.0803554094 0.7111492174 -0.0034630739 0.7108016151 -0.0026520497 -0.0147930193 0.0805144553
60299640.0 -0.0100152362 0.0802315249 0.7173301747 -0.0112792931 0.7175808216 -0.0110232219 -0.0080392398 0.0795985699
65299610.0 -0.0036189444 0.0788820578 0.7234215004 -0.0202419843 0.7237510038 -0.0197525447 -0.0010618969 0.0785363747
70299580.0 0.0025689729 0.0775399926 0.7288672514 -0.0292911942 0.7286155163 -0.0291656899 0.0048240717 0.0768758739
75299550.0 0.0082002331 0.0759017228 0.7329486046 -0.039014241 0.7322975373 -0.0390540675 0.0101457901 0.0745334447
80299520.0 0.0130882538 0.0735826652 0.7370894642 -0.0490490396 0.7376636991 -0.0489425783 0.0149782282 0.0728866551
85299490.0 0.0177205767 0.0716042917 0.7406141348 -0.0584195756 0.7404866506 -0.0581331321 0.0194365955 0.0697465697
90299460.0 0.0216756586 0.0690675627 0.7427387858 -0.0690894392 0.7430675028 -0.0683508536 0.0233932018 0.0681146893
95299430.0 0.0257971682 0.0665783687 0.7457735398 -0.0788593978 0.7458722621 -0.0789937505 0.0276405066 0.0655174788
100299400.0 0.028978066 0.0644160878 0.7462327552 -0.0890043218 0.7469395623 -0.0891804459 0.0312861993 0.0623226949
105299370.0 0.0324221041 0.0618346767 0.7486593058 -0.0997078977 0.7493652513 -0.099445919 0.034422273 0.0606268184
110299340.0 0.0350115351 0.0597016575 0.7497128086 -0.1093603908 0.7500330291 -0.1092496019 0.0361376665 0.0578345566
115299310.0 0.0374839316 0.0572425098 0.7507452376 -0.1195739437 0.7509229547 -0.1191419995 0.0390370336 0.0555389084
120299280.0 0.0399932752 0.0547151757 0.7509617405 -0.1292727897 0.7514753261 -0.1295392333 0.0412746451 0.0532525952
125299250.0 0.0419554186 0.0522127226 0.7517631006 -0.1387611766 0.7515765371 -0.1388793428 0.0428629136 0.0504863409
130299220.0 0.0436935217 0.0499064549 0.7509903326 -0.1491112197 0.7515586813 -0.1490850461 0.0449910336 0.0482253796
135299190.0 0.0451775435 0.0482441518 0.7516836708 -0.1591846007 0.7513541265 -0.1587532615 0.0468346764 0.0459672193
140299160.0 0.0464900168 0.046169576 0.7507854182 -0.1687679565 0.7508970884 -0.1691391305 0.0480369733 0.0442711041
145299130.0 0.0480667687 0.0437133085 0.7502215336 -0.1786602138 0.7492999622 -0.1782805484 0.0492510206 0.0421719739
150299100.0 0.0497365187 0.0419555127 0.7490369327 -0.1874272729 0.7493926103 -0.1878678764 0.0505987717 0.0400400324
155299070.0 0.0501984541 0.03946793 0.7479416793 -0.1982761022 0.7477472172 -0.1978201543 0.0517142572 0.0381476479
160299040.0 0.0517056997 0.0380130004 0.7460705998 -0.2071416635 0.7459692156 -0.2075315616 0.0524288029 0.0361876766
165299010.0 0.0524669224 0.0361625155 0.7447287821 -0.2170777243 0.7447767697 -0.2171419761 0.0536689069 0.034798848
170298980.0 0.0532736544 0.0338149308 0.7431298381 -0.2262079117 0.7434085269 -0.2261063481 0.0542236849 0.0332095113
175298950.0 0.0537347526 0.0322763233 0.7415171874 -0.2355219553 0.7407757515 -0.2352324655 0.0546145512 0.0314587474
180298920.0 0.0546115896 0.0305472882 0.7391571087 -0.2443200568 0.7383916548 -0.2446427844 0.0555292576 0.0296492773
185298890.0 0.0555315704 0.028776764 0.7369055376 -0.2539632606 0.7362824429 -0.2538387693 0.0557260551 0.0283580758
190298860.0 0.0554258224 0.0271989897 0.734385992 -0.2631109558 0.7346069303 -0.262721866 0.0563572971 0.0264478584
195298830.0 0.0561715254 0.0252304991 0.7320912552 -0.2717152515 0.7321259512 -0.2715971284 0.0572611638 0.0249765089
200298800.0 0.0564760142 0.0240750532 0.7289247269 -0.2808068297 0.7292619651 -0.2811774456 0.0566287069 0.0237956803
205298770.0 0.056796379 0.0226113111 0.7262315353 -0.2896690695 0.7260076456 -0.2895145123 0.0573327185 0.0213777126
210298740.0 0.0572125983 0.0209591344 0.7234159454 -0.2984985735 0.7233930342 -0.2982460581 0.0580187336 0.021324248
215298710.0 0.0568722295 0.0196442546 0.7198425885 -0.3078029834 0.7202222745 -0.307484416 0.0577179138 0.0197689826
220298680.0 0.0575110966 0.0177400155 0.7170022309 -0.3157893353 0.7167734628 -0.3155106193 0.0574518738 0.0178817564
225298650.0 0.0575796107 0.0164949271 0.7134193688 -0.3246826393 0.7137019987 -0.3247005427 0.057635495 0.0163284634
230298620.0 0.0578466824 0.0160168169 0.710702417 -0.3328528798 0.7108575064 -0.3329530733 0.057368335 0.0149943269
235298590.0 0.057959656 0.014490132 0.7065383219 -0.3414184003 0.7070217631 -0.3410833168 0.0577398296 0.013883366
240298560.0 0.0581049582 0.0132082151 0.7036401886 -0.3496005246 0.7031133646 -0.3500269791 0.0576861796 0.0131747162
245298530.0 0.0576978329 0.0119091217 0.699959989 -0.3581713137 0.6998304766 -0.3587096957 0.058374954 0.0110943643
250298500.0 0.058559691 0.0108109225 0.6948671397 -0.3666343903 0.6951340819 -0.3659374976 0.0580605355 0.0105367877
255298470.0 0.0582490032 0.0094226452 0.6906926734 -0.3744115088 0.691705457 -0.3743055061 0.0578746394 0.0089460282
260298440.0 0.0581425109 0.0082681073 0.6873946416 -0.3829774895 0.6879443793 -0.3821332116 0.0587035867 0.0079760593
265298410.0 0.0589142827 0.0076446142 0.6837151311 -0.3912940336 0.683541866 -0.3905692416 0.0582702174 0.006780959
270298380.0 0.0584171975 0.0063582167 0.6798333306 -0.3981121798 0.6792789078 -0.3987215721 0.0578101047 0.0058675933
275298350.0 0.0590816642 0.005047391 0.6751865177 -0.4072861218 0.6756957815 -0.4067595548 0.0582623863 0.0042902692
280298320.0 0.0586253674 0.0042178294 0.6712230002 -0.4147525136 0.6710584889 -0.4145504561 0.0584794867 0.0029659195
285298290.0 0.0585862057 0.0030874158 0.6664127621 -0.4225714162 0.6664506505 -0.4225638902 0.0585938121 0.0022989436
290298260.0 0.0589309435 0.0019989148 0.6620757446 -0.4296025391 0.6620759376 -0.4299915309 0.0587860223 0.0019941195
295298230.0 0.0590839748 0.0007227327 0.6576836565 -0.4375451924 0.6571575392 -0.4372755946 0.0594286351 0.0003894426
300298200.0 0.0582716308 -0.000235213 0.6529952851 -0.4452870654 0.6532080703 -0.4461617608 0.0588208165 -0.0008648119
305298170.0 0.0588642307 -0.0015040005 0.6478255154 -0.4537925411 0.6473974272 -0.452912834 0.0593642507 -0.0019204541
310298140.0 0.0582687193 -0.0025691896 0.6427669235 -0.4608732377 0.6432785775 -0.4607506614 0.0591338904 -0.0033253452
315298110.0 0.0585124292 -0.0041452459 0.6377714756 -0.4689970201 0.6384800343 -0.4688186922 0.0590034188 -0.0044181934
320298080.0 0.0587671695 -0.0049208695 0.6319008206 -0.4764901241 0.6324556358 -0.4761252624 0.0585919123 -0.0053824065
325298050.0 0.0576785413 -0.0061835842 0.6272579758 -0.4837071418 0.6272745589 -0.4836194033 0.0577960131 -0.0063619283
330298020.0 0.0571537142 -0.007583751 0.6213456583 -0.4913098434 0.6217953701 -0.4908932801 0.0573833994 -0.0075140808
335297990.0 0.056804142 -0.0084942076 0.6163155392 -0.4976460244 0.6158589284 -0.4977534397 0.0567223457 -0.0079288062
340297960.0 0.0562030604 -0.0090937124 0.6098072822 -0.5052611167 0.609445426 -0.5049962357 0.0569953109 -0.008761908
345297930.0 0.0558391481 -0.0092858965 0.6043747333 -0.5120602266 0.6043450665 -0.5120603446 0.0561967359 -0.0098088585
350297900.0 0.0550341182 -0.0109690129 0.5976982169 -0.5189164281 0.5979828083 -0.5184083777 0.0551758115 -0.0096945182
355297870.0 0.0549645265 -0.0106901069 0.5923698184 -0.5255279267 0.5926597494 -0.5252845769 0.0550444352 -0.0106212387
360297840.0 0.0546560014 -0.0114800128 0.5875254727 -0.5316278903 0.5872760422 -0.531795618 0.0549676282 -0.0113689107
365297810.0 0.0540671457 -0.0119149327 0.5806670361 -0.538796795 0.5811566359 -0.5382719467 0.0544703904 -0.0116459993
370297780.0 0.0545620654 -0.0133055249 0.5747607785 -0.5450853256 0.5751676135 -0.5443043708 0.054496912 -0.0123179909
375297750.0 0.0537411142 -0.0137783407 0.5688921379 -0.5512364239 0.5694550757 -0.5512475378 0.0538789015 -0.0132004448
380297720.0 0.0537371704 -0.0143029722 0.5626397889 -0.5574964851 0.5628127167 -0.5570914564 0.0532075754 -0.0142581459
385297690.0 0.0528366728 -0.0151589417 0.5564544522 -0.5640104635 0.555923401 -0.5639622991 0.0532606504 -0.0141688903
390297660.0 0.0529056922 -0.0153650655 0.5506122119 -0.5701882104 0.5502078156 -0.5696627029 0.0525409559 -0.0151332198
395297630.0 0.05197417 -0.0160475466 0.5441422122 -0.576305561 0.5440855138 -0.57639281 0.0532669575 -0.0156717792
400297600.0 0.0515690077 -0.0168595059 0.5372485349 -0.5826346076 0.5373175384 -0.5820687093 0.0521240054 -0.0158720715
405297570.0 0.0512794032 -0.0175701664 0.5306956222 -0.5878826812 0.5309915289 -0.5876740512 0.0514708802 -0.0168993911
410297540.0 0.0512144367 -0.0183226551 0.5244427052 -0.5939272366 0.5248259035 -0.5943826928 0.0513514474 -0.0170622838
415297510.0 0.0511815979 -0.0187130443 0.5178904223 -0.599971681 0.5183641025 -0.6001365033 0.0507445169 -0.0177426709
420297480.0 0.0507796911 -0.0191812911 0.5114493121 -0.6061190146 0.5113016744 -0.606294779 0.0504535129 -0.0190445586
425297450.0 0.0502471052 -0.0206065206 0.5048949662 -0.6116773535 0.5047648589 -0.6112460008 0.0495013307 -0.0190917098
430297420.0 0.0498931456 -0.0209297355 0.4982294908 -0.6165286021 0.4980028212 -0.6167817228 0.0494439519 -0.0200574603
435297390.0 0.0493489952 -0.021298247 0.4906941754 -0.622440631 0.4906533421 -0.6221928096 0.0499282861 -0.020591551
440297360.0 0.0493394312 -0.0217437867 0.4842591377 -0.6278744491 0.4840805673 -0.6281516297 0.0489940552 -0.0214020745
445297330.0 0.0487247443 -0.0228865449 0.478013077 -0.6332377479 0.4773121365 -0.6327025091 0.0488492348 -0.022303715
450297300.0 0.0486489878 -0.0232396151 0.4707173791 -0.6380483436 0.470469177 -0.6388847256 0.0484432727 -0.022846731
455297270.0 0.0481345536 -0.0239315308 0.4633501808 -0.6433847359 0.4636822889 -0.6438265764 0.0481177991 -0.0233952874
460297240.0 0.0475842808 -0.0242406588 0.4560760907 -0.6482169164 0.4565131294 -0.6487333118 0.0477579365 -0.0236788503
465297210.0 0.0475710557 -0.0248015685 0.4498465706 -0.6538857781 0.4489463368 -0.6543070284 0.0474242183 -0.0245414756
470297180.0 0.0471379151 -0.0257205388 0.4417135205 -0.6587267899 0.4418946667 -0.6588074098 0.0471112801 -0.0248320304
475297150.0 0.0467689149 -0.0263958485 0.4342310022 -0.6634301826 0.4346666635 -0.6634942979 0.0469714532 -0.0258017924
480297120.0 0.0460027404 -0.0262654123 0.4269249711 -0.6687532276 0.4269686478 -0.669061497 0.0472137569 -0.0257017593
485297090.0 0.0456066049 -0.0268582975 0.4203236444 -0.6726923068 0.4195557684 -0.672895044 0.0463476618 -0.0270718567
490297060.0 0.0444941229 -0.0277741819 0.4127627796 -0.6784636302 0.4129665363 -0.6772339172 0.0460036809 -0.026721663
495297030.0 0.044589438 -0.0280313698 0.4049229372 -0.6821210703 0.405144728 -0.6822275122 0.0450657846 -0.027525574
500297000.0 0.0440867986 -0.0290195304 0.3974507812 -0.6863989334 0.3968268972 -0.6863089032 0.0448388273 -0.0275017004
505296970.0 0.0440063801 -0.029377324 0.3901212943 -0.6904383772 0.3895123742 -0.6907389631 0.0445151966 -0.0282484596
510296940.0 0.0431394542 -0.0295739055 0.3817562499 -0.6953237631 0.3822601636 -0.6953255909 0.0439622459 -0.0283442542
515296910.0 0.0424806869 -0.0298753604 0.3745577628 -0.6998526326 0.3747428867 -0.6987656504 0.0439256004 -0.0289180446
520296880.0 0.0422944563 -0.0303282854 0.3667965741 -0.7038227094 0.367024044 -0.7035110003 0.0434590597 -0.0296672892
525296850.0 0.0420268075 -0.0315851301 0.3589274531 -0.7076614752 0.3594641434 -0.7074935125 0.0425958203 -0.0297423232
530296820.0 0.0413499946 -0.0313505697 0.3516305375 -0.7116311953 0.3515715938 -0.7114372422 0.0424378136 -0.0301325864
535296790.0 0.0405942867 -0.0317431224 0.3439258788 -0.7151826356 0.3440505861 -0.7151159231 0.0416948339 -0.0311422691
540296760.0 0.0399392754 -0.0320478899 0.3357089949 -0.7192879059 0.3353990414 -0.7192598627 0.0406720728 -0.030706208
545296730.0 0.0395635421 -0.0326539688 0.3275126962 -0.7222400686 0.3277128963 -0.7224470355 0.0402245467 -0.0313081785
550296700.0 0.039825906 -0.0326931907 0.3200565156 -0.7262144385 0.3199361437 -0.7267853458 0.0395756133 -0.0316654909
555296670.0 0.0386928577 -0.0331372875 0.3120339722 -0.7296077317 0.3122088111 -0.7298669654 0.0394692697 -0.0319743064
560296640.0 0.0387949496 -0.033197429 0.3039240938 -0.7331638723 0.3038332972 -0.7332691616 0.0388782875 -0.0326454193
565296610.0 0.0374857851 -0.0339749054 0.2957188702 -0.7363443693 0.296120066 -0.7362154483 0.0381234756 -0.0330246487
570296580.0 0.0372151605 -0.0340673794 0.2880927081 -0.7401705284 0.287376795 -0.7396876213 0.037728496 -0.0326190449
575296550.0 0.0364192727 -0.0344799718 0.2797613967 -0.7431295146 0.2798652794 -0.7429776945 0.0375854814 -0.0336230701
580296520.0 0.0361358437 -0.0346723648 0.2712879536 -0.7458438068 0.271892391 -0.7460404527 0.0366162212 -0.0338813179
585296490.0 0.0353938481 -0.0357846482 0.2635702809 -0.7484582363 0.263933042 -0.7486859637 0.0362666824 -0.0341560913
590296460.0 0.0352819719 -0.0356829852 0.2549422924 -0.7510488095 0.2552560987 -0.7511033097 0.0347645868 -0.0344158188
595296430.0 0.034949679 -0.0358770679 0.2467936405 -0.7545079466 0.2470933391 -0.7542005565 0.0348268514 -0.0352999501
600296400.0 0.0339387088 -0.036338405 0.2393066923 -0.7567680249 0.2389622921 -0.756491229 0.0342527072 -0.0356266011
605296370.0 0.0334381451 -0.0367777901 0.23054612 -0.7593703407 0.2307116187 -0.7593061366 0.0338344294 -0.0358170007
610296340.0 0.0331037346 -0.0368970658 0.2217021482 -0.7618732703 0.2223290685 -0.7613743507 0.033585705 -0.0363807501
615296310.0 0.032701221 -0.0377016311 0.2136392917 -0.7639101662 0.2134982137 -0.7650832665 0.0331282239 -0.0363910419
620296280.0 0.032047293 -0.0380420559 0.2056899153 -0.76591223 0.2055334932 -0.7663889275 0.0323334286 -0.0368657269
625296250.0 0.0309193376 -0.0386668305 0.1979113028 -0.7686889996 0.197645943 -0.7692462078 0.0326397403 -0.0370431011
630296220.0 0.0314963525 -0.0383343111 0.1882396838 -0.7709634277 0.1881626929 -0.7707574495 0.0314522912 -0.0371291109
635296190.0 0.0296523694 -0.0392424396 0.1800507182 -0.7727657008 0.1803145509 -0.772818153 0.0311908981 -0.0377286883
640296160.0 0.0293370206 -0.0390439535 0.1715988626 -0.774362564 0.1719838945 -0.7748993217 0.0306170342 -0.0377283773
645296130.0 0.0288821821 -0.0394656706 0.1632058585 -0.7762740843 0.1635455267 -0.7762572306 0.0301664675 -0.0378314401
650296100.0 0.0285356896 -0.0395992782 0.1546733785 -0.7783875833 0.1549466268 -0.7785246584 0.0299262979 -0.0392028283
655296070.0 0.0275986968 -0.0402086139 0.1460969501 -0.780008461 0.146807824 -0.7798891568 0.0293712451 -0.038728861
660296040.0 0.0265017668 -0.0406460977 0.1378266699 -0.7815375489 0.1382656751 -0.7819897336 0.0290043067 -0.0388804711
665296010.0 0.0269086122 -0.0403450288 0.1289325157 -0.7826724206 0.1295088135 -0.7827682002 0.0282633061 -0.0384157606
670295980.0 0.0248587547 -0.0404462125 0.1209041066 -0.7843507119 0.1207376627 -0.7844440812 0.0272126879 -0.0389541835
675295950.0 0.0250649922 -0.0404120759 0.1125333369 -0.7853476994 0.1124858599 -0.7853033995 0.026465498 -0.0393994918
680295920.0 0.0238534614 -0.0412145127 0.1033543024 -0.7862247212 0.1034605366 -0.78662968 0.0261600427 -0.0383808561
685295890.0 0.0239184635 -0.0402685662 0.0953539212 -0.7873478051 0.0946652475 -0.7878947497 0.0256900148 -0.0390252018
690295860.0 0.0234749925 -0.0409332634 0.0865887559 -0.7884461787 0.0861556862 -0.7890574042 0.0246495769 -0.0383397802
695295830.0 0.0229049505 -0.0411043247 0.0784111353 -0.7893762833 0.0775643023 -0.7894122298 0.0241406577 -0.0390607412
700295800.0 0.0222338934 -0.0417100464 0.0689992452 -0.7896958761 0.068995096 -0.7897924535 0.0234322189 -0.0383444727
705295770.0 0.0213893364 -0.0406650962 0.0603540926 -0.7908861878 0.0609476975 -0.7912398795 0.0227839547 -0.0390945655
710295740.0 0.0209922345 -0.0414161311 0.0521623499 -0.7920053367 0.0522222743 -0.7922430252 0.0228828619 -0.0397319233
715295710.0 0.0198397476 -0.0418599634 0.0439690973 -0.7923873369 0.0434863016 -0.7918829196 0.0221867415 -0.0397200998
720295680.0 0.0197456669 -0.041735732 0.0344854125 -0.7928960087 0.0353439904 -0.7925424076 0.0212701857 -0.0388688549
725295650.0 0.0191927728 -0.041620726 0.0260862488 -0.7927915628 0.0260780857 -0.7928436929 0.0201037397 -0.039328338
730295620.0 0.018697835 -0.0412941452 0.0175048967 -0.7924721904 0.0174351166 -0.7933384801 0.0195100593 -0.039999478
735295590.0 0.0180048537 -0.0414762527 0.0095162244 -0.7929874993 0.0090367663 -0.7933904388 0.0188544585 -0.0402318346
740295560.0 0.0170894315 -0.0416184549 0.0004498983 -0.7933062053 0.0003458805 -0.7929292892 0.0191148135 -0.0397177607
745295530.0 0.0166364451 -0.0415420058 -0.0088037101 -0.7925424573 -0.0081859371 -0.7928114733 0.0182799817 -0.0403478849
750295500.0 0.0161405459 -0.0419396829 -0.0167607759 -0.7927918629 -0.0168656904 -0.7934525653 0.0173404907 -0.0404118676
755295470.0 0.0157293888 -0.0422595476 -0.0248550799 -0.792567639 -0.0256011496 -0.7930366495 0.0175423937 -0.0404437343
760295440.0 0.0146560896 -0.0419456259 -0.034057996 -0.792593194 -0.0342296706 -0.792966285 0.0163627389 -0.0407026174
765295410.0 0.0142180489 -0.042127438 -0.0425536804 -0.7918749882 -0.0430394087 -0.7924369304 0.0159765954 -0.0405459626
770295380.0 0.0131910861 -0.0424229491 -0.0519359197 -0.79179148 -0.0517098901 -0.7916371952 0.0151735106 -0.0406624017
775295350.0 0.0125015659 -0.0430202914 -0.0606077256 -0.7905560906 -0.0598165522 -0.7907663409 0.0138947907 -0.0403905814
780295320.0 0.0121701739 -0.0423113426 -0.0685781141 -0.7898247949 -0.0677951926 -0.7897861857 0.0136506651 -0.0412163798
785295290.0 0.0114386393 -0.043027464 -0.0774819257 -0.7888517764 -0.0772031302 -0.7892755244 0.013656156 -0.0406589893
790295260.0 0.0114135318 -0.0419246176 -0.0852130986 -0.7880113983 -0.0846783533 -0.7882951705 0.0127715089 -0.0409917099
795295230.0 0.0106855457 -0.0424998184 -0.0937746151 -0.7869635077 -0.0939571189 -0.7874455071 0.0123175986 -0.0402690885
800295200.0 0.0094956459 -0.0417818463 -0.103898012 -0.7860007174 -0.1026961911 -0.7858990128 0.0118585213 -0.0404976304
805295170.0 0.0090645676 -0.0426461241 -0.1115346228 -0.7846986189 -0.1114691682 -0.7850650135 0.0110934168 -0.0404135373
810295140.0 0.0081341773 -0.0425778534 -0.1195592287 -0.7834111374 -0.1200466261 -0.7840123634 0.0112945825 -0.0402231926
815295110.0 0.0077507359 -0.0429425696 -0.1285147943 -0.7818373688 -0.1287542815 -0.7817859348 0.0099308449 -0.0401746037
820295080.0 0.0067408893 -0.0418733305 -0.1367787008 -0.7804642495 -0.1368002886 -0.7806786475 0.0093464206 -0.0402703863
825295050.0 0.0070515823 -0.0421425408 -0.1445349361 -0.7787742328 -0.1453394435 -0.7794916672 0.0093144896 -0.0404767469
830295020.0 0.0060118087 -0.0416587591 -0.1540341561 -0.7769103481 -0.1538136921 -0.7772937122 0.0094116538 -0.0398912735
