!Created with skrf (http://scikit-rf.org).
# Hz S RI R 50.0 
!freq ReS11 ImS11 ReS21 ImS21 ReS12 ImS12 ReS22 ImS22
300000.0 -0.0478094091 -0.0433141682 0.0004059219 -0.0009282831 0.0004637996 0.0007634903 -0.772996739 -0.1277819571
5299970.0 -0.0487475858 0.0155312977 0.0001293133 0.0001490959 -0.0001462085 0.0001093153 -0.7846387051 -0.0069520346
10299940.0 -0.0431434949 0.031895492 6.05121e-05 -0.0001393321 0.0002233285 0.0001594 -0.7875103123 -0.003513985
15299910.0 -0.0349538579 0.0459601987 0.0001910276 7.22896e-05 -7.21299e-05 -0.0001009134 -0.793224927 -0.0013610338
20299880.0 -0.0252853934 0.0574813308 -4.38382e-05 0.0002956119 2.78356e-05 0.0001146247 -0.7998526407 0.0021802152
25299850.0 -0.0145293698 0.0666670615 -0.0002592535 4.24222e-05 -0.0001316668 6.77541e-05 -0.8061081618 0.0083913284
30299820.0 -0.003234759 0.0733157674 4.99746e-05 -0.0002223604 -8.21631e-05 -5.56756e-05 -0.8118733795 0.0163121928
35299790.0 0.0076535636 0.0777602537 1.50135e-05 -6.40446e-05 7.3398e-05 4.78795e-05 -0.8169706943 0.0251215812
40299760.0 0.0189919984 0.0805676964 0.0001766247 0.000212666 0.0001237949 9.81908e-05 -0.8211726486 0.0347188458
45299730.0 0.0298326006 0.0815512202 -1.72786e-05 4.78998e-05 -0.0001517979 -3.39775e-05 -0.8254800253 0.0439885428
50299700.0 0.0392912656 0.0817675717 -8.37712e-05 -2.00056e-05 -7.95008e-05 0.0001493752 -0.8269474399 0.0538772485
55299670.0 0.0485184778 0.0804358871 3.39655e-05 -4.86539e-05 7.43316e-05 -5.4475e-06 -0.8297765602 0.0644696317
60299640.0 0.0566679254 0.0785994611 -0.0002115735 0.0002458158 -0.0001243002 -6.70161e-05 -0.8305579121 0.0741670348
65299610.0 0.0642061936 0.0759648597 5.72177e-05 -0.0001352922 7.8245e-05 9.11338e-05 -0.8319322276 0.0842219984
70299580.0 0.0711327176 0.0734254144 0.0001685854 9.21364e-05 0.0001110077 8.23024e-05 -0.831439089 0.0946405949
75299550.0 0.0774751225 0.07010984 8.43234e-05 -4.23034e-05 0.0001023356 0.0001594124 -0.8325025221 0.1039785317
80299520.0 0.0828138049 0.066633309 0.0001677905 5.90263e-05 -0.0001227116 0.0001218698 -0.8329368186 0.1140116898
85299490.0 0.0877568765 0.0625546433 -5.40246e-05 0.0001583374 1.13654e-05 -4.53944e-05 -0.8318086931 0.1234839109
90299460.0 0.0921976315 0.058821964 0.0001639646 -8.90725e-05 -0.0001724493 0.0002561723 -0.830754735 0.1329628477
95299430.0 0.0963754828 0.0546736979 -1.95805e-05 9.79505e-05 -0.0002550326 0.0001796187 -0.8292169785 0.1432733897
100299400.0 0.0996660369 0.0511432817 -6.41832e-05 -0.0001444878 3.12144e-05 -0.000111416 -0.8286265925 0.1524443329
105299370.0 0.103048942 0.0473111452 5.20797e-05 7.68947e-05 -1.81156e-05 -6.17718e-05 -0.8268044872 0.1611285477
110299340.0 0.1060403482 0.0431150716 1.23911e-05 9.67044e-05 -1.59909e-05 -3.32801e-05 -0.8255869967 0.1709931828
115299310.0 0.1084584921 0.0389917762 0.0001090211 -0.0001252111 0.0003132574 0.0001814 -0.8241876526 0.1800114779
120299280.0 0.1104505254 0.0353004685 2.36864e-05 -0.0001730736 -0.0002542193 6.15128e-05 -0.8222540627 0.1890256854
125299250.0 0.112093933 0.0312628374 0.0002756721 6.34069e-05 -3.0613e-05 0.0001105009 -0.8210258459 0.1978069137
130299220.0 0.1136810681 0.0276196661 -4.33918e-05 0.0001577608 0.0001699243 7.96164e-05 -0.8189245657 0.2068428408
135299190.0 0.1151236842 0.0243211847 0.000166798 0.0002218312 0.0001004235 3.32419e-05 -0.8166745551 0.2160088198
140299160.0 0.1161315891 0.0205829836 0.0001655795 4.46337e-05 -0.0002032057 0.0002400716 -0.8140407484 0.2254548784
145299130.0 0.1173661955 0.0169829194 0.000154974 8.44356e-05 -5.0219e-06 5.70777e-05 -0.8126233557 0.2341510844
150299100.0 0.11845425 0.0135295061 -1.5799e-06 3.2618e-05 0.0001900189 0.00016917 -0.8103262936 0.2435045846
155299070.0 0.1186690665 0.0103523967 0.0001196807 0.0001628366 0.0001652122 -0.0001070098 -0.8073610234 0.2517871411
160299040.0 0.1193253196 0.0071859922 0.0002012891 3.60017e-05 3.86078e-05 4.04505e-05 -0.8052255658 0.2604307637
165299010.0 0.1198380505 0.0037353783 -2.78321e-05 -7.40174e-05 -0.0002387336 -2.12903e-05 -0.8025374664 0.2695969532
170298980.0 0.1200243685 0.0006778886 -0.0001794409 6.37859e-05 8.48818e-05 3.37377e-05 -0.7993549997 0.2780476789
175298950.0 0.1201540364 -0.0024366538 -0.0001703872 3.4768e-05 -6.88069e-05 -9.06204e-05 -0.796491142 0.286741354
180298920.0 0.1204234596 -0.005250099 -5.45016e-05 0.000219409 0.0001931469 -4.00354e-05 -0.7942192111 0.2955079462
185298890.0 0.1205832905 -0.0082492381 -0.0001945479 -0.0001141943 -0.0001502888 -1.14588e-05 -0.7900981135 0.3038352136
190298860.0 0.1205201632 -0.0110874785 8.58621e-05 6.31857e-05 6.57959e-05 9.50227e-05 -0.7875176715 0.3125586384
195298830.0 0.1202550811 -0.0139913152 6.12337e-05 0.0001262672 -1.53222e-05 8.69068e-05 -0.7846708077 0.3206657456
200298800.0 0.1201482847 -0.0167143262 0.0002570677 -0.0001299629 0.0003003315 -0.0001803425 -0.7812764515 0.3294166883
205298770.0 0.1196146941 -0.0192838933 -4.943e-05 0.0002117007 8.70464e-05 -6.51118e-05 -0.7776303586 0.3379562031
210298740.0 0.1191887839 -0.021795118 0.0001926177 0.0001386549 0.00022176 -0.0001128411 -0.7744757463 0.3460592809
215298710.0 0.1185682335 -0.0243757558 -4.7725e-05 -2.45215e-05 0.0001390391 -4.32319e-05 -0.7708260343 0.3541685949
220298680.0 0.1182767758 -0.0269703077 0.0002411183 -2.68397e-05 7.56748e-05 -9.56495e-05 -0.7674645393 0.3619482103
225298650.0 0.1174658567 -0.0295323265 0.0002579847 0.0001431567 -5.51053e-05 0.0001063059 -0.7636432941 0.3702723343
230298620.0 0.1167840452 -0.0317540772 6.3613e-06 4.2305e-06 -0.0001147734 8.3408e-06 -0.7599381513 0.3789841228
235298590.0 0.1166541466 -0.0338698198 0.0001218575 -1.10522e-05 4.15164e-05 9.14218e-05 -0.7556168182 0.3866996112
240298560.0 0.1159262818 -0.0364466171 -3.27749e-05 0.000293603 0.0001588565 -2.31724e-05 -0.7515444599 0.3952201324
245298530.0 0.1148669632 -0.0386658518 5.80814e-05 3.13373e-05 3.50145e-05 -4.08798e-05 -0.74812918 0.402572648
250298500.0 0.1143435218 -0.0407339607 -7.3442e-05 0.0001040937 9.41207e-05 0.0001255797 -0.7436621083 0.4098084869
255298470.0 0.1132377712 -0.043187719 0.0002388108 4.05241e-05 -2.91822e-05 0.0001286666 -0.738854348 0.4178848836
260298440.0 0.1122528806 -0.0452824347 0.0001036849 6.00879e-05 3.51547e-05 -8.80513e-05 -0.735019581 0.4261157085
265298410.0 0.1113928222 -0.0470428157 9.78184e-05 -7.88894e-05 6.19942e-05 0.0001485983 -0.7299882707 0.43361249
270298380.0 0.1106801631 -0.0490155042 1.61496e-05 -0.0001185368 -7.35565e-05 7.34266e-05 -0.7258745608 0.441072491
275298350.0 0.1096436182 -0.0511510123 5.17012e-05 7.75396e-05 -0.0001468098 0.0001545862 -0.7208855005 0.4489934778
280298320.0 0.1089113392 -0.0531751325 -1.05909e-05 -7.46773e-05 4.9795e-06 1.86805e-05 -0.7159487867 0.4564247744
285298290.0 0.1080461596 -0.0546900389 4.17491e-05 8.21106e-05 6.9665e-06 0.0001495675 -0.7111737576 0.4638689977
290298260.0 0.1070039043 -0.05706226 0.0001180198 0.0001069539 4.4969e-05 0.0001774922 -0.7061024797 0.4712129261
295298230.0 0.1058186225 -0.0589969961 0.0002168031 7.02764e-05 4.0466e-05 0.0001147811 -0.7010513852 0.4782433293
300298200.0 0.1049150899 -0.060497825 0.000215713 -5.975e-07 0.0001349456 8.03438e-05 -0.6961999087 0.485974184
305298170.0 0.1041052962 -0.0625353496 7.73385e-05 0.000238425 0.0001187634 -0.0001792868 -0.6905307952 0.4929242655
310298140.0 0.1028751934 -0.06415065 0.0004326204 9.57045e-05 3.45926e-05 -0.0001300029 -0.6857059162 0.5003014915
315298110.0 0.1019533495 -0.0660869404 6.75119e-05 -0.0002106274 7.78294e-05 0.00022488 -0.679675108 0.5067472547
320298080.0 0.1005925376 -0.0680717146 5.502e-06 4.50528e-05 1.78279e-05 -8.46556e-05 -0.6746385766 0.5146472713
325298050.0 0.0994193227 -0.0700651646 0.0001529645 -8.02621e-05 9.5174e-06 4.00406e-05 -0.668858611 0.5211479258
330298020.0 0.0981031883 -0.0719108416 -2.9961e-05 0.0001500401 0.0001982486 0.0003272083 -0.6635348382 0.5283182019
335297990.0 0.0965196351 -0.0732854595 -7.105e-06 -3.20252e-05 0.0001491451 -5.83547e-05 -0.6587090335 0.5351551993
340297960.0 0.0947260948 -0.0747154676 0.0002001374 -0.0001153943 0.0002193891 8.43664e-05 -0.6527593102 0.5424118257
345297930.0 0.0933375838 -0.0760878626 0.0001173791 -9.70699e-05 5.15068e-05 6.96316e-05 -0.6466413836 0.5486055113
350297900.0 0.0920814634 -0.0774801204 0.0001584465 -0.0002604527 1.3306e-06 -0.000131331 -0.641619176 0.5555336902
355297870.0 0.0908924201 -0.0789649564 0.0001654963 -0.0001318253 1.70337e-05 -2.71926e-05 -0.6358608576 0.5620599219
360297840.0 0.0893337182 -0.0801424157 -8.37172e-05 -2.29345e-05 -3.81346e-05 0.0002472883 -0.6294007746 0.5690596925
365297810.0 0.0878731181 -0.0812506518 0.0002260824 3.17664e-05 -8.21239e-05 -0.0002350795 -0.6232676208 0.5751093304
370297780.0 0.0866495429 -0.0826636323 0.0001539248 -2.0213e-05 -2.17942e-05 0.0001984181 -0.6173562627 0.5820262175
375297750.0 0.0854177486 -0.0836280249 -5.16027e-05 0.0001611985 -8.40758e-05 8.75075e-05 -0.6115736144 0.5874650611
380297720.0 0.0837234908 -0.0852557923 -6.98835e-05 2.18866e-05 0.000324467 -9.91728e-05 -0.604790197 0.594141497
385297690.0 0.0824847273 -0.0862120814 9.69676e-05 -0.0001428726 0.0003471306 0.0002988876 -0.5987938739 0.6009968657
390297660.0 0.0806243218 -0.0872271756 0.0003566524 5.54443e-05 0.0002044847 7.14032e-05 -0.5937460716 0.606893329
395297630.0 0.0794500828 -0.0885085301 0.0001543283 -8.65135e-05 0.0003122673 8.45062e-05 -0.5865857406 0.6136143693
400297600.0 0.0781787818 -0.0893980208 6.22792e-05 0.0001791237 -0.0001342226 0.0003802051 -0.5808672032 0.6190804133
405297570.0 0.0761277659 -0.090665521 9.33122e-05 3.34508e-05 0.0001473941 1.77344e-05 -0.5739870576 0.6246831257
410297540.0 0.0748533466 -0.0917516875 -5.45069e-05 -2.06161e-05 8.27008e-05 5.07708e-05 -0.5675558873 0.6307923616
415297510.0 0.073575977 -0.093129585 0.0001764779 -6.0031e-05 0.000184406 0.0002021894 -0.5609912622 0.6365925883
420297480.0 0.0720169355 -0.093620524 0.0001567632 -7.16505e-05 0.0003554954 8.68014e-05 -0.554614618 0.642512257
425297450.0 0.0707677659 -0.0947223 0.000111019 6.63073e-05 -9.48336e-05 -6.21372e-05 -0.5480747928 0.6478645005
430297420.0 0.069262496 -0.0957449779 5.32054e-05 9.23203e-05 3.93943e-05 -6.11415e-05 -0.5409111197 0.6534120146
435297390.0 0.0673747999 -0.0967324222 2.02878e-05 -7.52406e-05 8.96134e-05 0.0001260973 -0.5338670152 0.6587471523
440297360.0 0.0658705956 -0.0979206852 0.000265579 -4.6732e-05 0.0001073148 -4.53007e-05 -0.5271285596 0.6636717584
445297330.0 0.0645524936 -0.098911913 5.939e-06 -6.89511e-05 -1.75272e-05 -2.6693e-06 -0.5202910472 0.6689451099
450297300.0 0.0629593797 -0.0995682051 0.0001852004 5.41647e-05 0.0001692838 3.85988e-05 -0.5128888583 0.674240371
455297270.0 0.0611120336 -0.1004575818 0.0001204983 6.85114e-05 6.23351e-05 0.0001327071 -0.506682095 0.678611519
460297240.0 0.0597328508 -0.10102567 0.0003282722 0.0001176795 0.0003203524 0.0003720519 -0.4996452472 0.6839159281
465297210.0 0.0583623738 -0.1019024264 8.9387e-05 5.40212e-05 0.0001302725 -0.0001805201 -0.4922894267 0.6887660319
470297180.0 0.0565468799 -0.1025810413 2.29194e-05 2.00769e-05 0.0001738852 8.78456e-05 -0.484713817 0.6942710855
475297150.0 0.0548649842 -0.1035833811 -0.0001359382 -0.0005050554 3.19503e-05 -0.000154099 -0.4776218649 0.6987742412
480297120.0 0.0536141119 -0.1040415579 4.8441e-06 -3.23908e-05 0.0002741799 -3.5247e-06 -0.4698929486 0.7039855528
485297090.0 0.0516867212 -0.1050449826 -3.36334e-05 7.73779e-05 0.0002393576 -0.0001433883 -0.4629638214 0.708477984
490297060.0 0.0500681198 -0.1052278633 -2.33832e-05 -8.80659e-05 -0.0001220284 0.0001788786 -0.4558899686 0.7126800499
495297030.0 0.0483991501 -0.1062447733 -8.36098e-05 -4.35458e-05 0.0001404467 0.0002316712 -0.4486420944 0.7180509015
500297000.0 0.0469150797 -0.1066619309 0.0001574696 -3.28295e-05 1.84702e-05 -8.19682e-05 -0.4406933494 0.7224337449
505296970.0 0.0455638212 -0.1073920883 0.0001210441 -0.0001326526 9.83916e-05 -6.18029e-05 -0.433390688 0.7264115333
510296940.0 0.0437971687 -0.1080326676 4.5811e-06 0.0001693315 -6.91446e-05 -8.96971e-05 -0.4258960375 0.7308865776
515296910.0 0.0424997613 -0.1084688617 -0.0001115506 -1.0474e-06 0.0001304947 -0.0001446991 -0.4183648639 0.7346520389
520296880.0 0.0406190993 -0.1090993481 -1.65473e-05 0.0003418173 0.0002046656 0.0001177782 -0.4111620464 0.7393849598
525296850.0 0.0388875102 -0.1097099799 0.0001069556 3.2763e-05 -0.0001059513 -4.10546e-05 -0.4039740731 0.7438981351
530296820.0 0.0373188516 -0.1097937235 0.0002267459 0.0002051133 0.0002574605 4.25452e-05 -0.39635245 0.7475773214
535296790.0 0.0356351367 -0.1102503485 9.26451e-05 0.0002312214 0.0002820696 0.000195885 -0.3894239056 0.751652339
540296760.0 0.0337902037 -0.1105652489 4.03393e-05 -0.0001297267 0.0002100905 5.28822e-05 -0.3805174939 0.7557989671
545296730.0 0.0321279112 -0.1109843555 0.0002883998 3.7747e-06 -1.8339e-06 -0.0001930441 -0.3731970058 0.759444617
550296700.0 0.0307387046 -0.1113514058 0.000166086 5.68646e-05 -4.30763e-05 0.0001564023 -0.3656156341 0.7637007323
555296670.0 0.028696212 -0.1117201961 4.73718e-05 -0.0001679388 0.0002584663 -8.15057e-05 -0.3576985671 0.7670051131
560296640.0 0.0275367367 -0.1119142125 0.0002135965 -3.7159e-05 0.0001788855 4.48388e-05 -0.3498640352 0.7711527504
565296610.0 0.0258679726 -0.1123758039 -6.78454e-05 3.57501e-05 0.0002162906 -3.1959e-06 -0.3420650556 0.7734635739
570296580.0 0.0237714233 -0.1126243476 0.000276348 -7.23178e-05 0.0002408561 -0.0001089047 -0.3347785513 0.7775575922
575296550.0 0.0222360603 -0.112697213 9.74171e-05 5.92612e-05 8.37583e-05 0.0001326408 -0.3266612279 0.7810305332
580296520.0 0.0206052195 -0.1133951929 0.000128145 9.59293e-05 4.92534e-05 0.0001441352 -0.3178524449 0.7841471722
585296490.0 0.0185795752 -0.1135092449 0.0001668403 -0.0001242091 9.49218e-05 2.49833e-05 -0.310416537 0.7878162603
590296460.0 0.0174466977 -0.1134162314 8.52241e-05 4.88603e-05 0.0001329387 -0.0001332631 -0.3028910368 0.7903213692
595296430.0 0.0155191136 -0.1135309075 2.31189e-05 -0.0001895796 0.000125108 -4.02303e-05 -0.2945914247 0.792712496
600296400.0 0.0134532839 -0.1136979668 0.0001193705 -8.48667e-05 0.0002548597 -2.07739e-05 -0.2867471917 0.7954135716
605296370.0 0.0121282609 -0.1138331279 0.0002302286 1.0272e-05 5.85368e-05 -9.44049e-05 -0.2779174086 0.7985131604
610296340.0 0.010057599 -0.1139436908 1.70326e-05 0.0001045717 0.0001815253 -0.0001300704 -0.2701206722 0.8010457468
615296310.0 0.0088753229 -0.1140596814 0.0001027998 -5.33714e-05 0.0004126045 0.0001485106 -0.2615532135 0.8037147282
620296280.0 0.0069045137 -0.1141735601 -7.14638e-05 7.14382e-05 0.0001075834 0.0001128857 -0.2540239545 0.8062496061
625296250.0 0.0052271617 -0.1144123798 0.0004009744 -9.4708e-06 0.0002595722 0.0001913597 -0.2451899478 0.8080355545
630296220.0 0.0040024678 -0.1142199609 -5.24317e-05 -0.0001506368 0.0002557177 6.0456e-06 -0.2371932649 0.8113441142
635296190.0 0.0017563307 -0.1137975965 6.15203e-05 0.0001450371 0.0001762612 -8.36139e-05 -0.229238797 0.8126752112
640296160.0 0.0003492445 -0.113897819 0.000195151 -1.5579e-05 0.0002589872 5.72538e-05 -0.2213073867 0.8156492624
645296130.0 -0.0012402365 -0.1138673964 0.0003833543 0.0002752715 -5.90816e-05 0.0001642192 -0.2124883651 0.818263596
650296100.0 -0.0029350617 -0.1137828331 0.000231742 6.93548e-05 0.000244499 -5.3689e-05 -0.2044042399 0.8193230519
655296070.0 -0.0049839021 -0.1137980408 0.0001674071 -0.0002187024 4.92819e-05 -0.0001017676 -0.1955113731 0.8210903884
660296040.0 -0.0065130019 -0.113430671 0.0002157618 8.63915e-05 0.0001071903 -7.51614e-05 -0.1873628009 0.8230525737
665296010.0 -0.0078730087 -0.1135846974 0.000114819 0.0001029785 0.0002702247 -0.0001994481 -0.1794439214 0.8251518254
670295980.0 -0.009902913 -0.1130271375 0.0003211079 -3.37259e-05 0.0003744258 -5.60407e-05 -0.1711141295 0.8267221297
675295950.0 -0.0113079351 -0.1127981404 8.29913e-05 0.0001099424 0.0001718653 -4.8622e-05 -0.1634452648 0.8286821567
680295920.0 -0.0129032917 -0.1124118115 -1.47189e-05 -8.50347e-05 0.0002612998 8.08661e-05 -0.1547252342 0.8308377458
685295890.0 -0.0145396257 -0.1121276431 0.0001884112 4.55246e-05 -0.0001762108 1.89057e-05 -0.1465047488 0.8316497356
690295860.0 -0.0162540737 -0.1120341419 0.0001268844 -2.16412e-05 0.000242553 -2.93652e-05 -0.1381092664 0.8340172796
695295830.0 -0.017879701 -0.1116527015 0.0001670934 2.39383e-05 -6.40523e-05 5.81713e-05 -0.1295906596 0.83446026
700295800.0 -0.0196515061 -0.1115357902 -5.54619e-05 7.49977e-05 0.0001052054 -3.61277e-05 -0.1218054332 0.8365238288
705295770.0 -0.0214606619 -0.1105836942 2.56682e-05 -0.0002385744 0.0002508911 -8.05048e-05 -0.1130635891 0.8381001825
710295740.0 -0.0230300963 -0.1104720197 0.0001668413 8.93731e-05 3.8526e-05 4.62486e-05 -0.1045271752 0.8383479372
715295710.0 -0.0247546388 -0.1102067096 0.0001573325 6.1514e-05 6.7754e-05 6.72746e-05 -0.0961246302 0.8393188431
720295680.0 -0.026177358 -0.1098139071 0.0001283699 2.5614e-06 0.0001137943 6.68681e-05 -0.0877364151 0.8412105592
725295650.0 -0.0276943999 -0.1090787344 7.96944e-05 -0.0001201388 0.0001087799 0.0001527919 -0.079263226 0.8417243027
730295620.0 -0.0292901832 -0.1085981896 9.16064e-05 -0.0001093918 0.000312616 3.27139e-05 -0.0714339706 0.842178575
735295590.0 -0.0307929006 -0.1079278254 0.000233539 -2.61166e-05 8.23627e-05 5.42569e-05 -0.0626571626 0.8426006451
740295560.0 -0.0325131846 -0.1075885193 0.0001836278 -1.11438e-05 0.0001351065 -4.06938e-05 -0.0543673776 0.8442230624
745295530.0 -0.034359312 -0.1072144519 0.0003469138 1.56956e-05 0.0002401058 -0.0001908688 -0.0450584651 0.8437571992
750295500.0 -0.0353966019 -0.1066714042 0.0002527458 0.000236302 0.0001781739 -6.49603e-05 -0.0377862431 0.8441106124
755295470.0 -0.0370944576 -0.1060905936 3.3966e-05 -0.0001459182 0.0002365835 -6.83387e-05 -0.0287575432 0.8439848938
760295440.0 -0.0390222614 -0.1054478441 0.0001840774 7.55357e-05 6.85003e-05 6.08474e-05 -0.0203470724 0.8439128111
765295410.0 -0.0404919433 -0.1047397517 0.0001473076 -9.59097e-05 0.0001500848 4.4018e-06 -0.0122095082 0.8450809457
770295380.0 -0.0422690416 -0.1043454679 0.0002402499 -0.0001147948 9.44861e-05 5.32278e-05 -0.0040809586 0.8447082436
775295350.0 -0.0438851551 -0.1034898284 8.56586e-05 0.0001157962 0.0002847434 -0.0001302202 0.0040805795 0.8442496619
780295320.0 -0.0453387365 -0.102656753 0.0003270452 6.3997e-05 0.0002042424 -7.42465e-05 0.0123682295 0.8441720937
785295290.0 -0.0469070842 -0.1022522243 4.6762e-05 -8.40787e-05 9.33734e-05 4.01488e-05 0.0215203861 0.8439549758
790295260.0 -0.0480522868 -0.1012386145 0.0003661027 -0.0001205072 0.0002548814 -9.75824e-05 0.0304275639 0.8444425704
795295230.0 -0.0498822463 -0.1005712723 0.0001940974 -2.56242e-05 4.62715e-05 0.0001975438 0.0393027877 0.8431110531
800295200.0 -0.0511791137 -0.0997908322 9.86629e-05 0.0001798583 0.0001285719 6.31209e-05 0.0472484783 0.842555005
805295170.0 -0.0526330915 -0.098923663 0.0001483044 1.88431e-05 0.0001685428 -0.0001569555 0.0548013764 0.8428189902
810295140.0 -0.0541386504 -0.0983243472 0.0001813994 -0.0003769267 0.0001483693 -2.5163e-06 0.0642135678 0.8419033625
815295110.0 -0.0558686845 -0.0974131858 0.0001157759 -4.48908e-05 0.0001635425 0.0001102233 0.0722255487 0.8412561774
820295080.0 -0.0570411288 -0.0964170012 0.0001067918 -8.14191e-05 1.77879e-05 -9.95316e-05 0.0801909084 0.8401427821
825295050.0 -0.0583213239 -0.0958060402 0.0001994284 -7.19268e-05 -3.42554e-05 2.25592e-05 0.0890974239 0.8398366406
830295020.0 -0.0598065589 -0.0946702942 -2.03306e-05 -0.0001934786 0.0001890709 -9.33263e-05 0.0982157867 0.8380137123
835294990.0 -0.0613287827 -0.0937742907 0.0002502761 -0.0001406619 0.0002195392 -4.77033e-05 0.1059088789 0.8382445021
840294960.0 -0.0628018762 -0.0930028585 1.10326e-05 8.95087e-05 -3.87582e-05 1.9741e-05 0.1141837398 0.836279155
845294930.0 -0.0642541294 -0.0918902584 9.68261e-05 9.91624e-05 0.0002630519 -8.5388e-06 0.1219308365 0.8354373014
850294900.0 -0.0653364974 -0.0909337216 0.0002214205 7.51727e-05 1.604e-05 -0.000196204 0.1297925209 0.8336852707
