!Created with skrf (http://scikit-rf.org).
# Hz S RI R 50.0 
!freq ReS11 ImS11 ReS21 ImS21 ReS12 ImS12 ReS22 ImS22
300000.0 -0.7775751879 -0.0903967735 -0.0005521172 0.0003312186 -0.0004423067 0.0011055355 -0.0472620108 -0.0581068429
5299970.0 -0.7848237521 -0.0056460627 -2.33632e-05 0.0001454362 2.25329e-05 1.67679e-05 -0.0460934853 0.0158028401
10299940.0 -0.7879239275 -0.0040302327 -7.27624e-05 0.000223407 -3.97388e-05 -2.87974e-05 -0.0406184757 0.0338312705
15299910.0 -0.7933193665 -0.002387939 4.09075e-05 -3.7654e-05 6.996e-05 -2.34436e-05 -0.0318568922 0.0483032263
20299880.0 -0.800091682 0.0016422859 7.76552e-05 0.0002780939 0.0001718748 0.000221741 -0.0216825261 0.0601692676
25299850.0 -0.8064438402 0.0073533268 -5.88478e-05 6.85987e-05 9.68136e-05 -1.33215e-05 -0.0105060027 0.0695008355
30299820.0 -0.8123717571 0.0150777848 0.0001438476 2.59867e-05 -4.08526e-05 3.77818e-05 0.0014708596 0.0763740322
35299790.0 -0.8171580625 0.0246196409 -1.01448e-05 -0.0001234098 -7.40832e-05 -2.94983e-05 0.013141313 0.0814178445
40299760.0 -0.8213064695 0.0333031692 0.0001796169 7.0474e-06 7.47662e-05 6.5325e-06 0.0244347514 0.0836925673
45299730.0 -0.82438894 0.0429040466 0.0001071084 7.52277e-05 4.06248e-05 6.08092e-05 0.0354625199 0.0852874764
50299700.0 -0.8272782458 0.0525055937 0.0001040178 -9.64062e-05 -7.90699e-05 -9.43781e-05 0.045212605 0.0850307242
55299670.0 -0.8290592577 0.0626171408 0.0001254168 5.32391e-05 0.0001476743 0.0001169258 0.0547607956 0.0841909383
60299640.0 -0.8298673045 0.0734251259 -4.72078e-05 -6.83866e-05 2.05553e-05 6.06592e-05 0.0634192546 0.0822401983
65299610.0 -0.8311983155 0.0827925196 0.0001932107 -8.11641e-05 5.58534e-05 7.36785e-05 0.0706247538 0.0798050297
70299580.0 -0.8314106816 0.0929955946 2.78286e-05 1.91016e-05 0.0001090581 0.0001848856 0.0779282759 0.0770260857
75299550.0 -0.831277314 0.1031003861 0.0001450843 -0.0002918669 1.84564e-05 1.17322e-05 0.0842991582 0.0735530357
80299520.0 -0.8315730027 0.1133467703 -0.000195116 -6.78238e-05 0.0001101765 -4.95169e-05 0.0900234107 0.0705665222
85299490.0 -0.8305152981 0.1225848954 6.27135e-05 0.000184628 1.07383e-05 9.0612e-05 0.0949850501 0.0667829593
90299460.0 -0.8298607576 0.1321357234 -1.18496e-05 3.18135e-05 8.7814e-05 0.0001730048 0.099833863 0.062802642
95299430.0 -0.8291157905 0.1416954701 -1.26858e-05 -8.447e-07 -1.90904e-05 0.0001257197 0.1034869326 0.0593781889
100299400.0 -0.8278040697 0.1502534377 0.0002712767 9.79398e-05 7.76856e-05 2.38483e-05 0.1074751771 0.0553743248
105299370.0 -0.8269500491 0.1601891287 -2.36474e-05 -1.777e-05 0.0001009571 4.98598e-05 0.1107840855 0.0514980881
110299340.0 -0.8253690189 0.1690563754 -2.5877e-05 -3.81466e-05 9.49691e-05 0.0001079325 0.1136317341 0.0477699956
115299310.0 -0.8239765304 0.1787503208 -6.2144e-05 2.76181e-05 0.0001132768 -1.60325e-05 0.1162145639 0.0439695163
120299280.0 -0.8218420332 0.1869902857 0.000219433 0.0001985374 -0.0002116039 2.57874e-05 0.1182493332 0.0401999453
125299250.0 -0.8204697405 0.1959368987 -0.000149732 6.09049e-05 0.0001212711 0.0001217907 0.1203084164 0.0363481558
130299220.0 -0.8191588277 0.2052060306 -7.43462e-05 -0.0002624702 3.9775e-05 -0.0001060163 0.1220556625 0.0323950325
135299190.0 -0.8168151299 0.2140819451 3.06794e-05 8.6728e-05 -8.99286e-05 0.000165824 0.1236210297 0.0290646617
140299160.0 -0.8149724687 0.2232957671 -0.000199425 -7.37488e-05 -8.77228e-05 0.0001475556 0.1249972919 0.0255198749
145299130.0 -0.8123818447 0.2319573898 9.29218e-05 7.57147e-05 7.06696e-05 0.0001108292 0.1258330002 0.0221932506
150299100.0 -0.8100504555 0.2406897457 0.0001432765 -8.10308e-05 -8.46812e-05 -4.87277e-05 0.1270162568 0.0193858222
155299070.0 -0.8077838753 0.2492018659 -0.0002466925 -4.34635e-05 -0.0002076987 0.0001269657 0.1278503123 0.0157816809
160299040.0 -0.8055563117 0.2572684922 -0.0001188293 0.0002375291 -5.77705e-05 -3.70046e-05 0.1278989579 0.0126240223
165299010.0 -0.8033761824 0.2666952254 3.91956e-05 4.75764e-05 0.0001169584 0.0002023794 0.1289921836 0.0093946477
170298980.0 -0.8002164784 0.2751215691 1.9739e-06 -0.0001137322 -2.81702e-05 5.13236e-05 0.1291826447 0.0062905289
175298950.0 -0.7974815177 0.2835973891 -6.36412e-05 -3.62423e-05 7.28538e-05 -4.08795e-05 0.1297263563 0.0033430505
180298920.0 -0.7948113644 0.2924116023 5.16447e-05 0.0001161439 8.30151e-05 -7.4165e-06 0.1295435947 0.0003871918
185298890.0 -0.7908382969 0.3005356121 -1.20433e-05 -3.2634e-06 -4.47644e-05 0.0001159999 0.1298595845 -0.0021282825
190298860.0 -0.7884158916 0.3087573645 1.83725e-05 0.0002868091 5.34454e-05 5.9747e-05 0.1300558005 -0.0048357873
195298830.0 -0.7853500716 0.317673199 -0.0001256959 0.0001309627 6.22484e-05 1.98079e-05 0.1298836016 -0.0078140097
200298800.0 -0.7816037369 0.325474976 -0.0002577042 0.0001469714 0.0002464627 0.0001177327 0.1296301663 -0.0105810811
205298770.0 -0.778783864 0.3338015927 9.01266e-05 0.0002488279 0.0002280699 0.0001158808 0.1296268667 -0.01362382
210298740.0 -0.7753096548 0.3421084194 -1.20352e-05 -9.73997e-05 0.0001946286 0.0001210938 0.1294616221 -0.0155265868
215298710.0 -0.7717225979 0.3502431985 0.0001475619 0.0001608517 -4.52648e-05 0.0001262713 0.1290316195 -0.018282191
220298680.0 -0.7680894235 0.3580770252 0.000161768 0.0001083975 -0.0002102671 -5.93536e-05 0.1284513959 -0.0207548005
225298650.0 -0.7642633638 0.3663181372 0.0001738 -2.76672e-05 0.0001426484 -0.0001124048 0.1282624318 -0.023040163
230298620.0 -0.7603087271 0.3742471547 9.61726e-05 0.0001660168 0.0001187187 0.000128816 0.1278226055 -0.0251577832
235298590.0 -0.7564566404 0.382824406 0.0002160216 -4.20757e-05 0.0002060227 -3.26963e-05 0.1274194404 -0.027375889
240298560.0 -0.7525183071 0.3905332648 0.0001453967 0.000179421 0.0001834641 4.58813e-05 0.1270098322 -0.0298853884
245298530.0 -0.7492342033 0.3981343568 0.0001217794 2.95599e-05 5.25692e-05 -4.9406e-05 0.1265680493 -0.0320562558
250298500.0 -0.7443142423 0.4065668436 3.03535e-05 0.0001912865 -8.74371e-05 2.50577e-05 0.1256575083 -0.034256085
255298470.0 -0.7400934434 0.4137924451 0.000205358 6.65581e-05 3.10345e-05 0.0001589175 0.1248099791 -0.0367117319
260298440.0 -0.7358871847 0.4210055041 7.88925e-05 0.0001037443 0.000248235 0.0001485235 0.1246451669 -0.0381500845
265298410.0 -0.7318163617 0.4294532845 -3.76956e-05 -0.000103073 0.0002117373 0.0001933509 0.1239613688 -0.0398466708
270298380.0 -0.7272868961 0.4367614613 3.85354e-05 0.0001985299 0.000240341 0.0002025431 0.1232642193 -0.0419596286
275298350.0 -0.7224622499 0.4441064458 0.0002055439 -0.0001141138 -0.0001145594 8.95782e-05 0.1229288594 -0.0438032983
280298320.0 -0.7172133905 0.4519894521 0.0002223109 -7.81148e-05 0.0001133232 0.0001450024 0.1221323157 -0.0457649193
285298290.0 -0.7129665639 0.4596227132 3.20685e-05 6.69369e-05 3.47869e-05 0.000256832 0.1211025381 -0.0478584951
290298260.0 -0.7081264515 0.467290783 0.0003454864 6.5627e-06 0.000302413 7.9739e-05 0.1204749065 -0.0492829605
295298230.0 -0.7028269827 0.4739078647 8.97701e-05 1.71111e-05 0.0001616612 2.67868e-05 0.1199294632 -0.05154803
300298200.0 -0.6983041487 0.4815761817 0.0001181453 0.0002881638 9.3034e-06 7.42987e-05 0.1188678621 -0.0529516778
305298170.0 -0.692989157 0.4882348818 0.0002127349 0.0002044007 0.0001309923 0.0001227763 0.1184359819 -0.0552033758
310298140.0 -0.687929116 0.4956992412 9.66659e-05 3.56055e-05 1.98041e-05 0.000138867 0.1168698702 -0.0570878026
315298110.0 -0.6830895323 0.5029082893 7.5525e-05 0.0001211269 2.63557e-05 -2.08155e-05 0.1156923918 -0.0588797511
320298080.0 -0.6778741515 0.5097435349 0.0004082898 8.74419e-05 6.49009e-05 6.32351e-05 0.1151010617 -0.0609817717
325298050.0 -0.6717766313 0.516978345 0.0002053135 1.5344e-05 6.6074e-05 0.0002668164 0.1133731664 -0.0627044092
330298020.0 -0.6663118234 0.5238138282 0.0002643616 5.41186e-05 7.1716e-06 -3.4282e-05 0.1118038986 -0.064238711
335297990.0 -0.6611080981 0.5305453286 0.0001609655 -0.0001522255 0.0001892168 0.0001163989 0.1109008837 -0.064958244
340297960.0 -0.6558689858 0.5375531324 0.0001134932 3.63373e-05 0.0002253204 0.0002138254 0.1101593868 -0.0667571227
345297930.0 -0.6506818773 0.5442883846 0.0002116965 0.0002337096 0.0001584164 0.0002591827 0.1085540472 -0.0682599534
350297900.0 -0.6449487293 0.5503317485 -0.0001026377 0.0001176488 0.0003214496 7.18593e-05 0.1072585073 -0.0691186998
355297870.0 -0.6385854527 0.55799165 0.0002063572 -6.99467e-05 0.0002942833 2.1576e-05 0.1060370646 -0.0706207566
360297840.0 -0.6330867106 0.5633957235 6.02807e-05 -8.09024e-05 0.0002096751 -3.6157e-05 0.1050000956 -0.0720826714
365297810.0 -0.628102353 0.5700872849 2.83592e-05 0.00043038 2.19764e-05 8.02274e-05 0.1040841502 -0.0737852459
370297780.0 -0.6215660985 0.5765663444 0.0002423173 0.0001016589 0.000124963 0.0001925145 0.1029126694 -0.0745196966
375297750.0 -0.6153416443 0.5824859751 4.42941e-05 0.0001298462 3.8503e-05 1.45205e-05 0.1014817147 -0.0761787506
380297720.0 -0.6090243476 0.5884436746 0.0002228096 0.0001994467 -0.0001918694 -6.35286e-05 0.100287459 -0.0775384222
385297690.0 -0.6031222139 0.5952318589 0.0001556875 0.0002526672 0.0003382912 7.42635e-05 0.0991563479 -0.0787515208
390297660.0 -0.5975882307 0.600773367 -1.14125e-05 -0.0001175575 0.0002197588 8.28797e-05 0.0978243473 -0.0795068206
395297630.0 -0.5910674352 0.6082993703 -0.0001250498 -0.0001113314 0.0001175962 0.000152986 0.0971952744 -0.0809621307
400297600.0 -0.5847257797 0.6133245003 0.000214934 9.46664e-05 9.6444e-06 0.0001200025 0.0958730752 -0.0820565226
405297570.0 -0.5788222016 0.6196891825 0.000237147 -0.0001041149 0.0003258237 4.68729e-05 0.0945664507 -0.0832268879
410297540.0 -0.5714640826 0.6251387725 0.0003035012 0.0002800697 0.0003828047 9.264e-06 0.0933441186 -0.0844125279
415297510.0 -0.5651094806 0.6308228846 1.2233e-06 0.0002734618 0.0001059819 0.0001770379 0.0920066482 -0.0855687452
420297480.0 -0.559428954 0.6366050079 0.0002796137 0.0002729435 0.0003240484 -9.30506e-05 0.0907053093 -0.0866752518
425297450.0 -0.5519059885 0.6418665867 0.0002601118 -3.17995e-05 -1.11005e-05 0.0002926291 0.0893875727 -0.0875264076
430297420.0 -0.5456785498 0.6477571057 0.000129883 0.0001264745 0.0002034952 0.0001045479 0.0880207768 -0.0887967926
435297390.0 -0.5393321086 0.6528416878 0.0001652132 0.0002988826 0.0003156562 0.000100492 0.0871630674 -0.0896907883
440297360.0 -0.5324808559 0.6587822455 8.73681e-05 0.0002981878 0.0004372766 4.38028e-05 0.0854692147 -0.0903527484
445297330.0 -0.5253928335 0.6637814286 0.0001664277 5.93086e-05 0.0002704061 0.0001080186 0.0846089417 -0.0916734088
450297300.0 -0.5188697891 0.6688141642 0.0001503516 0.0001834324 0.0003092599 7.69486e-05 0.0831245547 -0.092369519
455297270.0 -0.5120265375 0.6744507066 0.000163483 0.0003816992 0.0001848179 0.0001586606 0.0817341646 -0.0936601374
460297240.0 -0.5054115624 0.6790812775 0.0003385013 0.0001221345 0.0001629037 4.06468e-05 0.0806801007 -0.0941741621
465297210.0 -0.4979298554 0.6846555623 0.0002685653 -0.0001509917 0.0001947802 7.25059e-05 0.0794098588 -0.0950263281
470297180.0 -0.4905843462 0.6894115558 0.0002583155 0.0002167054 0.0001215737 -2.86681e-05 0.0778685538 -0.0960793443
475297150.0 -0.4842639081 0.6944198196 0.000267715 0.0002284588 0.0001834034 -0.0002566198 0.076696882 -0.0969399261
480297120.0 -0.4767963232 0.6993266957 0.0002958411 0.000161862 0.0001409452 8.65599e-05 0.0753431834 -0.097792234
485297090.0 -0.4694752408 0.7036270389 0.0003230708 0.0001056036 5.11854e-05 2.248e-05 0.0737615987 -0.0983485652
490297060.0 -0.4627531908 0.7084787102 0.00029714 0.0001171939 0.0003822365 0.000191407 0.072537439 -0.0993713588
495297030.0 -0.4555864085 0.7129811732 0.0002571555 7.2009e-06 0.0001112914 0.0001825889 0.0710683374 -0.0996823845
500297000.0 -0.4480329633 0.7173522844 0.0003132607 -4.27131e-05 0.0002642191 0.0001091612 0.0698971124 -0.1004616029
505296970.0 -0.4406598659 0.7222396864 0.0003024801 0.0002240444 0.000375448 0.0002890266 0.068264232 -0.1012643086
510296940.0 -0.4335792055 0.7265504607 0.0001285862 0.0002319766 2.154e-05 0.0001730145 0.0667159452 -0.102077448
515296910.0 -0.4248643525 0.7308906146 0.0003266595 0.0001953132 0.0002960338 1.10175e-05 0.0652074875 -0.1028699773
520296880.0 -0.4186607463 0.7352413685 0.0001681123 0.0002856606 0.0002248779 -5.4958e-06 0.0642099265 -0.1031646657
525296850.0 -0.4106328651 0.7387982042 0.0002440647 -0.0001585336 0.0003808076 4.19838e-05 0.0626322995 -0.103712581
530296820.0 -0.4033298432 0.7432222213 0.0003587702 -2.74591e-05 0.0003519262 6.85447e-05 0.0612792188 -0.1044461486
535296790.0 -0.3962321553 0.7471346198 0.0002228197 -1.03345e-05 0.0001966495 0.000128441 0.0593844748 -0.1049748728
540296760.0 -0.389028629 0.750901604 0.0002598535 0.000130832 0.00017129 5.67789e-05 0.0581872005 -0.1054725051
545296730.0 -0.3813217019 0.7550439381 0.0001753032 0.0001427715 0.0003232944 0.0001606784 0.0569994342 -0.1062983257
550296700.0 -0.3735362315 0.7588842824 0.0004083783 2.01155e-05 0.0002612434 0.0001226331 0.0555922296 -0.1069392665
555296670.0 -0.3655997585 0.7612659911 0.0001938741 0.000208473 0.0002691859 1.09053e-05 0.0539471482 -0.1070431679
560296640.0 -0.3576941698 0.7656871387 0.0004419246 0.000194976 0.0003113372 7.19734e-05 0.0526313492 -0.1076384125
565296610.0 -0.3505984954 0.7696185705 0.0003421629 4.46666e-05 0.0005812245 0.0002135829 0.0511419505 -0.1082177423
570296580.0 -0.3432457082 0.7721752153 0.000352165 7.91104e-05 0.0003924079 8.64115e-05 0.0497173703 -0.1084575398
575296550.0 -0.335342288 0.7764697384 0.0002490601 8.42842e-05 0.0003103337 -4.3808e-06 0.0484186098 -0.1089441724
580296520.0 -0.32690525 0.7790497402 0.0002087066 -3.06115e-05 0.0003323214 -6.1427e-06 0.0468746269 -0.109619594
585296490.0 -0.3189213895 0.7824030804 0.0003447277 0.0001622792 0.0004980703 0.0001819089 0.045517238 -0.1099307702
590296460.0 -0.311554342 0.7855670495 0.0002958865 4.7007e-05 0.0001151468 7.9387e-06 0.0437659222 -0.1096965461
595296430.0 -0.3036844187 0.7882285634 0.0005188638 0.0001778102 0.0003470875 0.0002320807 0.0426637122 -0.1108083715
600296400.0 -0.2955969119 0.7921312319 6.8811e-05 4.53002e-05 0.0004888837 -7.9028e-06 0.041288759 -0.1110462779
605296370.0 -0.2887035 0.7940219117 0.000433405 -9.84156e-05 0.0001866866 1.28754e-05 0.0400535569 -0.1111194812
610296340.0 -0.2797321776 0.797390701 0.0002245335 0.0001863084 0.0002101382 -0.0001196766 0.0382995077 -0.1114859728
615296310.0 -0.2712172477 0.7999100759 0.0002766587 5.90113e-05 0.0002039886 3.46691e-05 0.0370813807 -0.1117077716
620296280.0 -0.2635745377 0.8021460903 0.0004311153 -7.67937e-05 3.20317e-05 -6.76287e-05 0.0352775343 -0.1119488761
625296250.0 -0.2555455457 0.8051448641 0.0002304656 2.45161e-05 0.0004016635 0.0001947144 0.0345062123 -0.1121879234
630296220.0 -0.2469955665 0.8077795491 0.0002113657 0.0001124696 0.0002362166 -6.8027e-06 0.032429739 -0.1121567521
635296190.0 -0.2390641565 0.8105640544 0.0003873513 7.01163e-05 0.0003887268 -7.86427e-05 0.0316290905 -0.1124883405
640296160.0 -0.2314569756 0.8118473315 0.0004770927 0.0001807518 0.0003817375 -0.0001502145 0.0295106011 -0.1127829151
645296130.0 -0.2230801866 0.8149064701 0.0002595914 -5.01651e-05 0.0003375578 -0.0001708434 0.0282059854 -0.1126786974
650296100.0 -0.2149446145 0.8168064338 0.000417762 1.75771e-05 0.0002812182 0.0002086401 0.0270486288 -0.1130790084
655296070.0 -0.2068278511 0.8194450354 0.0003046433 -0.0001471856 0.000415975 9.06603e-05 0.0256189624 -0.112899849
660296040.0 -0.1987504499 0.8206700284 0.000326826 -0.0001005261 0.0004303646 2.52766e-05 0.024199536 -0.1132080549
665296010.0 -0.1901588234 0.8221821389 0.000330095 0.0001709057 0.0004228604 0.0003273992 0.0224432323 -0.1128968582
670295980.0 -0.1827734067 0.8248937871 0.0003560317 0.0001438201 0.0003576264 -1.74387e-05 0.0210492366 -0.1131781892
675295950.0 -0.1738659556 0.8262647811 0.0003609674 2.1097e-06 0.0001881272 9.97376e-05 0.0194563821 -0.1127499575
680295920.0 -0.1662857637 0.8284578701 0.0003955728 -6.79186e-05 0.0003699561 -4.3737e-05 0.0180825028 -0.1129889848
685295890.0 -0.1572545192 0.8308234347 0.0003379418 1.62188e-05 0.0002615376 -4.05351e-05 0.016814442 -0.1130770808
690295860.0 -0.1498664232 0.8308342536 0.0003798988 -0.0002073246 0.000355554 2.8983e-05 0.0151090296 -0.1126053828
695295830.0 -0.1408203435 0.8326905293 0.0001622859 -4.38561e-05 0.00032484 -2.76437e-05 0.0138175941 -0.1130046325
700295800.0 -0.1323807407 0.8340362381 0.000522216 -4.52357e-05 4.8626e-05 -6.86484e-05 0.0120478051 -0.1132198462
705295770.0 -0.1246382964 0.8355289895 0.000273181 0.0001199542 0.0003414791 -0.0002077889 0.0108100855 -0.1124257093
710295740.0 -0.116324902 0.8366245386 0.000163891 -6.08022e-05 0.0003525273 0.0001536828 0.0091855074 -0.1127722201
715295710.0 -0.108449438 0.8375180207 0.0004392878 7.12724e-05 0.0002444179 0.0001344113 0.0078463038 -0.1126103285
720295680.0 -0.0995610555 0.8382813761 0.0002304987 -5.6343e-06 0.0004903125 -2.65247e-05 0.0065357646 -0.1124754033
725295650.0 -0.0916201701 0.8402743127 0.0001478493 8.35508e-05 0.0005105449 -8.99144e-05 0.0049987281 -0.1123086109
730295620.0 -0.0827760593 0.8404564052 0.0002977354 -1.3008e-05 0.0004022982 -0.0001008602 0.0031865851 -0.1121412439
735295590.0 -0.0749154968 0.84162486 0.0002842305 -0.000172595 0.0005104586 -0.0001086679 0.0015780531 -0.1121169483
740295560.0 -0.0665059343 0.8422323604 0.0002353064 -6.34834e-05 0.0002960715 -0.0002277325 0.0010283011 -0.1117573798
745295530.0 -0.0581205303 0.8426496288 0.0004622224 -0.0001344546 0.0002715018 -4.50328e-05 -0.0008779705 -0.1116123415
750295500.0 -0.0495698867 0.8429662543 0.0003644371 5.06145e-05 0.0002993266 -0.0001975954 -0.0021612964 -0.1113585646
755295470.0 -0.0416067963 0.8433140989 0.0003706406 -0.0001413942 0.0003234616 5.5975e-06 -0.0035566527 -0.1114962008
760295440.0 -0.0334950904 0.8427362003 0.0003258633 -3.40904e-05 0.0003700082 -0.000175081 -0.004697799 -0.1113768902
765295410.0 -0.0250578202 0.8441371839 0.0003041399 -0.0001805104 0.0004339665 6.43182e-05 -0.0063630731 -0.110366871
770295380.0 -0.016372998 0.8443519691 0.0005066097 0.0001275595 0.0003543875 -0.00022745 -0.0076844269 -0.1105986857
775295350.0 -0.0084196727 0.8442610433 0.0001952129 -8.86937e-05 0.0004232986 -1.36923e-05 -0.0093649463 -0.110008476
780295320.0 0.0003952737 0.8443222022 0.0003636583 -0.00011873 0.0004102245 -6.15916e-05 -0.0104263062 -0.1096898214
785295290.0 0.0083671345 0.8436299812 0.000376197 -0.000131877 0.0002075912 -3.97977e-05 -0.0114150141 -0.1094509725
790295260.0 0.0172030325 0.8439567114 0.0004568641 -0.0002139811 0.0006370235 -4.49058e-05 -0.0126795244 -0.1090458974
795295230.0 0.024921623 0.8436546315 0.0005448386 -0.0002042522 0.0003753611 -0.0001045895 -0.0142747834 -0.1086311232
800295200.0 0.0332835607 0.8437870554 0.0006279715 1.51266e-05 0.0002011605 -0.0001339292 -0.0159489753 -0.1077874449
805295170.0 0.0424133515 0.8435716101 0.000513452 -3.79454e-05 0.0003474036 -0.0001923463 -0.0169990573 -0.1074300343
810295140.0 0.0505630384 0.8429435943 0.0004381903 -0.0001974959 0.0002759379 -0.000134855 -0.0180928262 -0.107393725
815295110.0 0.0584812668 0.8421464944 0.0002903996 6.27882e-05 0.0003709991 8.01161e-05 -0.0197509192 -0.1065527921
820295080.0 0.0663270856 0.841611789 0.0003259937 -0.0002384593 0.0002764671 -5.578e-06 -0.0205413889 -0.106106768
825295050.0 0.0758604157 0.8406898137 0.0006831625 -0.0002465283 0.0004989945 -0.0001444687 -0.022077664 -0.1055455471
830295020.0 0.0836580799 0.839674184 0.0003673839 7.71148e-05 0.0001894742 -0.0002060319 -0.0232207582 -0.1053403234
835294990.0 0.0918150672 0.8391965305 0.0003532345 -0.000180899 0.0002567931 -0.0001705462 -0.0250317838 -0.1042838281
840294960.0 0.0994693668 0.8389027651 0.0003428097 -0.0002724591 0.0002472481 -0.0001382235 -0.0264740789 -0.1037855704
845294930.0 0.10788046 0.8369794646 0.000305043 -0.000113352 0.000388144 3.214e-07 -0.0275695891 -0.1031644742
850294900.0 0.1160607407 0.836432504 0.0004375399 -0.0003844667 0.0004359318 -0.0002047687 -0.0289766596 -0.1026194829
