!Created with skrf (http://scikit-rf.org).
# Hz S RI R 50.0 
!freq ReS11 ImS11 ReS21 ImS21 ReS12 ImS12 ReS22 ImS22
300000.0 -0.2401904018 -0.0976982258 0.4672066644 0.0643803865 0.4683818132 0.0685626195 -0.235832221 -0.1091504275
5299970.0 -0.2440584143 0.0071440729 0.4738919703 0.0051027716 0.4737943963 0.0053603639 -0.2439035441 0.0058278818
10299940.0 -0.2402523885 0.0200358445 0.4759557186 0.0064384428 0.476066015 0.0066407507 -0.2407255193 0.018327085
15299910.0 -0.236060985 0.0294014259 0.4793757099 0.0076232768 0.4792491294 0.0080673271 -0.2365987631 0.0274093123
20299880.0 -0.2306234557 0.0372718644 0.4841329045 0.008290898 0.4843693606 0.0086327364 -0.2319893211 0.0353623604
25299850.0 -0.2247611672 0.0435302447 0.4894904021 0.0075703371 0.4892465744 0.0072878908 -0.2267945846 0.0417116904
30299820.0 -0.2189487532 0.0485948113 0.4953988798 0.0056333 0.494822879 0.005368527 -0.2217138601 0.0467592799
35299790.0 -0.2129712652 0.0529937778 0.5002490548 0.0022111996 0.500120317 0.0019411849 -0.2159714906 0.0512668789
40299760.0 -0.2076050114 0.055723265 0.5052892261 -0.0015419507 0.5053428215 -0.0014076965 -0.2114796639 0.0545366918
45299730.0 -0.2024658785 0.0587221201 0.5103307433 -0.0064863061 0.5104728908 -0.006254343 -0.2067503314 0.0573631149
50299700.0 -0.1975271108 0.0601797262 0.5143541426 -0.0119085897 0.5144298799 -0.0121303949 -0.2021859524 0.0594848254
55299670.0 -0.1936201405 0.0619104178 0.5180290859 -0.0180863845 0.5183772194 -0.0180201226 -0.1983484623 0.0615336549
60299640.0 -0.1893268641 0.0625837075 0.5211584731 -0.0246210523 0.5213645493 -0.0241739094 -0.1944185349 0.0629923127
65299610.0 -0.1860436831 0.0640315547 0.5244510956 -0.0303503384 0.5245729567 -0.0305527647 -0.1910933029 0.0644521438
70299580.0 -0.1827175673 0.0640881235 0.5266210719 -0.0368420317 0.526742753 -0.0370793797 -0.1879408377 0.065626928
75299550.0 -0.1795946561 0.0652215475 0.5286325392 -0.0439025677 0.5287795991 -0.0440941672 -0.1850008051 0.066928402
80299520.0 -0.1772608234 0.0658367401 0.5310623988 -0.0510567361 0.5311473284 -0.0507006142 -0.1823932677 0.0673112938
85299490.0 -0.1745359682 0.0657697054 0.5323119926 -0.0577076965 0.5319560218 -0.0580790157 -0.1801663635 0.068634741
90299460.0 -0.1725183258 0.0664798365 0.5331341041 -0.0644095949 0.5335464069 -0.0646883385 -0.1777813903 0.0693655317
95299430.0 -0.1705765119 0.0674456999 0.5342450314 -0.0720829096 0.5339740944 -0.0719688764 -0.1757171828 0.0702058856
100299400.0 -0.1687743769 0.0678406523 0.5342255774 -0.0788197247 0.5343453122 -0.0785543009 -0.1743287773 0.070756536
105299370.0 -0.1669980277 0.0681655824 0.53462484 -0.0851871699 0.5344373927 -0.0853876249 -0.1719219565 0.0716766463
110299340.0 -0.1655556856 0.0684278507 0.5347386158 -0.0917838898 0.5350247732 -0.0925462154 -0.1708680598 0.0727289163
115299310.0 -0.164142161 0.068608386 0.5345048017 -0.0988533739 0.5351520401 -0.0989711161 -0.1690213316 0.0730551513
120299280.0 -0.162631963 0.069386201 0.5346144281 -0.1059443767 0.5348299515 -0.1059235426 -0.1680862116 0.0738580044
125299250.0 -0.1619836028 0.0700449683 0.5344958994 -0.1126876816 0.534366755 -0.1126818904 -0.1664321126 0.0747039047
130299220.0 -0.1603893055 0.0706987485 0.5336536059 -0.1191827376 0.533593791 -0.1193529225 -0.1654043606 0.0761402053
135299190.0 -0.1594692434 0.0708872318 0.5329175263 -0.1255053105 0.5325802884 -0.1260228124 -0.1642740071 0.0769611916
140299160.0 -0.1586639801 0.0722848723 0.5318086956 -0.1323130173 0.5323927138 -0.1326110065 -0.1628163543 0.0779361526
145299130.0 -0.157454314 0.0728213993 0.5315038359 -0.1397904993 0.5311133723 -0.13908082 -0.1622266028 0.0788945906
150299100.0 -0.1564858398 0.0737051915 0.5301304252 -0.1457424584 0.5300937145 -0.146069066 -0.1607365569 0.0797609033
155299070.0 -0.1559645668 0.074848372 0.5288606206 -0.1529757785 0.5289379042 -0.1524842049 -0.1601520989 0.0810244462
160299040.0 -0.1550781698 0.0753685939 0.5277101502 -0.1583849404 0.52769902 -0.1585752023 -0.1587962942 0.0823982369
165299010.0 -0.1544130479 0.0760939503 0.5267145871 -0.1653636118 0.5262689656 -0.1652857101 -0.1580599486 0.0830788109
170298980.0 -0.1537786277 0.0772885313 0.5240731561 -0.1716039019 0.5244918486 -0.171602359 -0.1565284753 0.0843369959
175298950.0 -0.1524205936 0.0783017857 0.5234453409 -0.177552472 0.5233824874 -0.1777307814 -0.155870481 0.085492645
180298920.0 -0.1518855345 0.0790244719 0.5211483683 -0.1841593688 0.5213858981 -0.184215266 -0.1549767946 0.0870796969
185298890.0 -0.150925397 0.0802574243 0.5197151552 -0.1909125589 0.5197455132 -0.1901481579 -0.1543196523 0.0880284308
190298860.0 -0.1502018076 0.0813249578 0.5174067935 -0.1966876921 0.5179348194 -0.1968598761 -0.1528783825 0.0895025188
195298830.0 -0.1495251065 0.0819766688 0.5155057186 -0.2024052188 0.5156033699 -0.2030040072 -0.1521862949 0.0904622527
200298800.0 -0.1489562893 0.0833789148 0.5140955402 -0.2084296758 0.5134748044 -0.2084554904 -0.1508116217 0.0922549338
205298770.0 -0.1482413716 0.084378669 0.5116442995 -0.2145371867 0.5113602268 -0.2146523153 -0.1500789373 0.0929165757
210298740.0 -0.1477507229 0.0855165299 0.5095654921 -0.2211875758 0.5092256444 -0.2211973293 -0.149202035 0.0947277872
215298710.0 -0.1468885084 0.0867470188 0.5071177537 -0.2270017977 0.507065822 -0.2266878442 -0.1484164566 0.096035346
220298680.0 -0.1459328273 0.0882251023 0.5045877727 -0.2327529262 0.5042990814 -0.2325592667 -0.1469392987 0.0977347012
225298650.0 -0.1448987465 0.0893986339 0.501579547 -0.2381849911 0.5020961771 -0.2383264996 -0.1462665719 0.0990589044
230298620.0 -0.1445358996 0.0907184238 0.4997507604 -0.2444262722 0.4997560567 -0.2444311222 -0.1450802345 0.1002513322
235298590.0 -0.1437218052 0.0916863606 0.4970479763 -0.2500652108 0.4968119464 -0.2504553028 -0.1440141801 0.1015907602
240298560.0 -0.1432535962 0.0929595117 0.4943634328 -0.2553314968 0.4943892958 -0.2554570399 -0.1428815095 0.1030817054
245298530.0 -0.1418560489 0.0942109165 0.4909694627 -0.2614959577 0.4914627678 -0.2617200951 -0.141857188 0.1046640855
250298500.0 -0.141657772 0.0951068607 0.4886620246 -0.2668563756 0.48874531 -0.2664685428 -0.1406201788 0.1059243721
255298470.0 -0.1406924026 0.096531322 0.4855466606 -0.2726838386 0.4854774994 -0.2726464889 -0.1395045461 0.1072136956
260298440.0 -0.1400544835 0.0981321349 0.4831472354 -0.2780886848 0.4826963897 -0.2781820829 -0.1380119056 0.1090794803
265298410.0 -0.1385857118 0.0992149014 0.4797251281 -0.2836481751 0.4790646859 -0.2838102748 -0.1373161948 0.1101771315
270298380.0 -0.1377314573 0.1008259482 0.4761868697 -0.2894821388 0.4767535479 -0.2892846862 -0.1357711291 0.1121490984
275298350.0 -0.1371689216 0.1018665672 0.4730653523 -0.2950428728 0.4732146423 -0.2946898039 -0.1347104361 0.1133004041
280298320.0 -0.1364693951 0.103332516 0.4700762793 -0.2996197412 0.4700980926 -0.3000531379 -0.1334320005 0.1150443442
285298290.0 -0.1353559195 0.1048469852 0.4668144655 -0.3052459598 0.4665467633 -0.3054118973 -0.1322418428 0.1163727909
290298260.0 -0.1344967742 0.1060832714 0.4636096954 -0.310878612 0.4635072084 -0.3109939341 -0.1308934125 0.1180701232
295298230.0 -0.1331857256 0.1071978297 0.4601330717 -0.3160793595 0.4598591437 -0.3159312387 -0.1296026923 0.1193396404
300298200.0 -0.1319016137 0.1083910825 0.4567171903 -0.3215070063 0.4570718813 -0.3214814884 -0.1282104754 0.1207072847
305298170.0 -0.1309074154 0.1095486689 0.453255975 -0.3268167672 0.4537594504 -0.3268755979 -0.1267321127 0.1221860623
310298140.0 -0.1298098544 0.110602255 0.4498220923 -0.3317956095 0.4498631233 -0.332222492 -0.1255376477 0.1239581877
315298110.0 -0.1292457183 0.1120457966 0.445973161 -0.3371808939 0.4461940423 -0.3373518678 -0.1238341656 0.1251706783
320298080.0 -0.1280443761 0.1131912658 0.4422397239 -0.3421117082 0.4424902876 -0.3418794294 -0.1226164449 0.1261603736
325298050.0 -0.1271886733 0.1140507293 0.438621225 -0.3472690176 0.4387956483 -0.3474340566 -0.1212895414 0.127600073
330298020.0 -0.1263545187 0.1156402729 0.4339380519 -0.3525448322 0.4342609573 -0.3523080081 -0.1202441934 0.1288849484
335297990.0 -0.1253429206 0.1167086091 0.4306119788 -0.3571654164 0.4305661794 -0.3570247406 -0.1191560103 0.1305678566
340297960.0 -0.1250474125 0.1182897479 0.4261741416 -0.3617664839 0.4265500185 -0.3615813438 -0.1179125847 0.1317210522
345297930.0 -0.1238017155 0.1195878121 0.4220177502 -0.3661272516 0.4216759751 -0.3662878911 -0.1161225005 0.1331664052
350297900.0 -0.1222996319 0.1206878151 0.4180320546 -0.3707899667 0.4182803323 -0.3710243668 -0.1150952989 0.1348730773
355297870.0 -0.1214146907 0.1221154412 0.4140286581 -0.3753914047 0.4139678506 -0.3755492641 -0.113920784 0.1363490647
360297840.0 -0.1202869057 0.123456948 0.4096328125 -0.3805196052 0.4095945012 -0.3803309341 -0.1121168669 0.1379690435
365297810.0 -0.1189317584 0.1243490137 0.4052436876 -0.3845124418 0.4057682122 -0.3847553608 -0.1106223722 0.1396709713
370297780.0 -0.1178605329 0.1259407369 0.4010177336 -0.3887886806 0.4012740101 -0.3893948514 -0.1091588117 0.1410879572
375297750.0 -0.1169922158 0.1275635325 0.3974420305 -0.3933580598 0.3969154508 -0.3933658645 -0.1077690878 0.1420454703
380297720.0 -0.115394669 0.1283728722 0.3926509432 -0.3979034488 0.3926467899 -0.3977723132 -0.106155166 0.144036022
385297690.0 -0.1142600196 0.1299959419 0.3884265243 -0.4017417566 0.3878887239 -0.4017826285 -0.1045251224 0.1451251472
390297660.0 -0.1131735934 0.1311502553 0.3834620828 -0.4068545983 0.3833970019 -0.4068274552 -0.1030033651 0.1460939373
395297630.0 -0.1115765084 0.1321009849 0.3796266938 -0.4105909176 0.3793686241 -0.4105836916 -0.1013479288 0.1478440187
400297600.0 -0.1108662041 0.1335599189 0.3746084105 -0.4148383832 0.3746896816 -0.414903316 -0.1002819414 0.1489633348
405297570.0 -0.1092424192 0.134612847 0.37003056 -0.419282989 0.3704225333 -0.4191664048 -0.098509096 0.1508047374
410297540.0 -0.1079989739 0.1358440365 0.3651911174 -0.4226633874 0.3651179839 -0.4226811745 -0.0965647194 0.1518008935
415297510.0 -0.106759842 0.1373818935 0.360498734 -0.4266388043 0.3609180818 -0.426739714 -0.0952237927 0.1533245838
420297480.0 -0.1052436182 0.1379143273 0.356092926 -0.4308592975 0.3561451997 -0.4304884671 -0.0932432428 0.154014766
425297450.0 -0.1036298946 0.1390112619 0.3510176834 -0.434551295 0.3513962494 -0.4350978323 -0.0917257162 0.1557877403
430297420.0 -0.1028415413 0.1405066173 0.3467729767 -0.4388123606 0.3466519597 -0.4387644141 -0.0900720196 0.156410063
435297390.0 -0.10123845 0.1413557376 0.3418496068 -0.4421500962 0.3418777123 -0.4421561725 -0.0882945378 0.1582025254
440297360.0 -0.0998918287 0.1425818495 0.3367401331 -0.4459168022 0.3364716669 -0.4458999142 -0.0868630424 0.1587904553
445297330.0 -0.0982166009 0.1438758153 0.3314703438 -0.4499005947 0.3318567172 -0.449644359 -0.0851475622 0.1603007363
450297300.0 -0.0968596478 0.1446352164 0.3268126327 -0.4534085816 0.3271088673 -0.453503237 -0.0835706478 0.1613281512
455297270.0 -0.095839136 0.1460267067 0.3223372299 -0.4569438503 0.3225536938 -0.4568271487 -0.0815317906 0.1627316283
460297240.0 -0.09448539 0.1468581524 0.3169231199 -0.4598896654 0.3165485382 -0.460170745 -0.0796750773 0.1641055341
465297210.0 -0.0926690848 0.1476972341 0.3120506789 -0.4639214053 0.312194907 -0.4634744205 -0.0782000804 0.1645936522
470297180.0 -0.0913610681 0.1487928245 0.3068666331 -0.4669428006 0.3070920837 -0.4667430122 -0.0768327205 0.1658701425
475297150.0 -0.0901060921 0.1492762824 0.3012959603 -0.4699569878 0.3018560796 -0.4697223444 -0.0745366306 0.167057756
480297120.0 -0.0883496316 0.1504149012 0.2964811213 -0.473031867 0.2964897231 -0.473538303 -0.0726724713 0.168550611
485297090.0 -0.0868665878 0.1514104383 0.2916505059 -0.4765343575 0.2912756282 -0.4768304456 -0.0712543523 0.1689440328
490297060.0 -0.0853667495 0.15237161 0.286555406 -0.4795356442 0.2862800749 -0.4799069544 -0.0691573351 0.1702892862
495297030.0 -0.0843176871 0.1538149543 0.2809356437 -0.4829182894 0.280842861 -0.4829420268 -0.0671849048 0.1706843393
500297000.0 -0.0823302771 0.1541398552 0.2757172215 -0.4856436325 0.2757053624 -0.4858201398 -0.0657903097 0.1717328436
505296970.0 -0.081170756 0.1553308623 0.2702131068 -0.488275917 0.2699049519 -0.4883411563 -0.0642785815 0.1728226222
510296940.0 -0.0796337748 0.1564682057 0.2650565464 -0.4918522237 0.2649374255 -0.4917607368 -0.0615547911 0.1740254051
515296910.0 -0.0782845856 0.1573356687 0.2595020598 -0.4944063463 0.2595551842 -0.4944272835 -0.0604890045 0.1747686773
520296880.0 -0.0764503494 0.1580828316 0.2540506495 -0.4972783172 0.254514178 -0.4971355301 -0.0582400729 0.1753285463
525296850.0 -0.0750270344 0.1587200871 0.2487451122 -0.4997081663 0.2486870259 -0.5002210051 -0.0560352754 0.1760092961
530296820.0 -0.0734925966 0.1596837046 0.2436520019 -0.5021824276 0.243189978 -0.5023965912 -0.0548903404 0.1766067008
535296790.0 -0.0719222702 0.1602855559 0.2376073577 -0.5045272595 0.2381918494 -0.5045396586 -0.0526873467 0.1775719612
540296760.0 -0.0705492929 0.1611302206 0.2323732051 -0.5081713469 0.2318804374 -0.5075461607 -0.0510448997 0.1785660611
545296730.0 -0.0687578348 0.1621429716 0.2266798006 -0.5099270546 0.2266035485 -0.5103200469 -0.0489119751 0.1790794258
550296700.0 -0.0673266025 0.1630347189 0.2210983483 -0.5126564473 0.2218015347 -0.5128781564 -0.0472042198 0.1802731585
555296670.0 -0.0654045177 0.1636125863 0.2157737985 -0.5150590875 0.2158946845 -0.5147297105 -0.0452149465 0.180829274
560296640.0 -0.0642440146 0.164388018 0.2100728494 -0.5170212275 0.2103664227 -0.5169141696 -0.0433492126 0.1812020809
565296610.0 -0.0629017601 0.1650321511 0.2047366437 -0.5190669323 0.2044966083 -0.519603073 -0.0413864981 0.1820194424
570296580.0 -0.0607166214 0.1659782823 0.1986042323 -0.5211498893 0.1992445206 -0.521332621 -0.0392920354 0.1831374548
575296550.0 -0.0594093244 0.167002803 0.1933012149 -0.5231849143 0.1932891991 -0.5233345532 -0.0370339653 0.1831658106
580296520.0 -0.0577792619 0.1675573217 0.1877265197 -0.5258596206 0.1877103851 -0.5257697906 -0.035311598 0.183873905
585296490.0 -0.0559419931 0.1679497567 0.1821584395 -0.5277103051 0.1816591214 -0.5276919247 -0.0336481797 0.1838659161
590296460.0 -0.0547236376 0.168459213 0.1756830393 -0.5293068686 0.1759186473 -0.5296627599 -0.0312056245 0.1849736093
595296430.0 -0.0527382717 0.1695279503 0.1703683829 -0.5314140839 0.1701245973 -0.531783432 -0.0292521472 0.1852428881
600296400.0 -0.0512342651 0.1699258131 0.1644020423 -0.5332870792 0.1647448927 -0.5331815083 -0.0273828811 0.1860378919
605296370.0 -0.0494343849 0.1708114269 0.1585497965 -0.5350208693 0.1588197655 -0.5345394223 -0.0255032615 0.186092108
610296340.0 -0.048068518 0.1712123629 0.1536692502 -0.5363028467 0.1530808654 -0.5367597434 -0.0231632535 0.1870811424
615296310.0 -0.0464478809 0.1721446582 0.1469708598 -0.537910895 0.1472620404 -0.5380433396 -0.0212460302 0.1870251982
620296280.0 -0.0447507351 0.1722953474 0.1415805293 -0.5394731517 0.1415723856 -0.5396151444 -0.019366115 0.1872881905
625296250.0 -0.0430134034 0.1733629235 0.1351299266 -0.5412704154 0.1356418316 -0.5414123104 -0.0175079552 0.1882428553
630296220.0 -0.0411948148 0.1737600068 0.1291852247 -0.5425836903 0.129986115 -0.5426871795 -0.015225192 0.1883758851
635296190.0 -0.0396371555 0.1743981761 0.1235066977 -0.5434799104 0.1235294071 -0.5430665549 -0.01324511 0.1883571588
640296160.0 -0.0378643187 0.1745689875 0.1182867257 -0.5446142191 0.1180516578 -0.5450681078 -0.0110507393 0.1889785641
645296130.0 -0.0361752448 0.1753847495 0.1120826949 -0.5465397192 0.1119283171 -0.5463831915 -0.0093338276 0.1887221726
650296100.0 -0.034937074 0.1761447941 0.1063713846 -0.5472012258 0.1064272985 -0.5472260342 -0.0073005203 0.1893654788
655296070.0 -0.032763689 0.1760868884 0.1003483759 -0.5484095094 0.1003211272 -0.5483396218 -0.0049323264 0.1896168433
660296040.0 -0.031185217 0.1769658893 0.0942221478 -0.5490408114 0.0944859264 -0.5493705134 -0.0028906891 0.1895399608
665296010.0 -0.02938312 0.1772045698 0.0884573188 -0.5504731979 0.0888544775 -0.5503583904 -0.0011527614 0.19007587
670295980.0 -0.0272561808 0.1779151762 0.0825266729 -0.5516525267 0.0827745308 -0.5511781749 0.0007345884 0.1903471316
675295950.0 -0.0256557858 0.1781688813 0.0763675179 -0.5521492244 0.0770139951 -0.552632722 0.0032173553 0.190282644
680295920.0 -0.0239419588 0.1786587896 0.0705173963 -0.5527709584 0.07035428 -0.5530070236 0.0052229648 0.1902402096
685295890.0 -0.0224599355 0.1787420492 0.0647702357 -0.5536789977 0.0643311665 -0.5541142414 0.0073113702 0.1905977601
690295860.0 -0.0202548781 0.1791668128 0.0584094814 -0.5535790356 0.0580244577 -0.5541892527 0.0096261468 0.1909307115
695295830.0 -0.0185125692 0.1793669807 0.0519050646 -0.554504367 0.0520262507 -0.5549590724 0.0112752377 0.1906436014
700295800.0 -0.0166803837 0.179878461 0.0461732163 -0.5556548012 0.0463587198 -0.555467436 0.0132148619 0.1901763552
705295770.0 -0.0148122303 0.1802640802 0.0405653472 -0.5559745288 0.0406781043 -0.5557447813 0.0153438207 0.1906042848
710295740.0 -0.0133504682 0.180897071 0.0347672974 -0.5558685307 0.0345536512 -0.5558636837 0.0169986713 0.1905582628
715295710.0 -0.0116639902 0.1810089226 0.028366098 -0.5563362562 0.029178209 -0.5565719233 0.0193059883 0.1901894
720295680.0 -0.0099082213 0.1809233211 0.0223143654 -0.5565359893 0.0227196827 -0.5571445496 0.0217375196 0.190596446
725295650.0 -0.0080204912 0.181366668 0.0161187177 -0.5564095438 0.0163938873 -0.5566936886 0.0238761586 0.1904630317
730295620.0 -0.0065141063 0.1815826573 0.0104863204 -0.5571158756 0.0103191365 -0.5568226134 0.0259437716 0.1900233936
735295590.0 -0.0041302495 0.1817181597 0.0044596484 -0.5568550055 0.0048010637 -0.5570698586 0.0276067605 0.1899203969
740295560.0 -0.0026045902 0.1820248299 -0.0015026993 -0.5562924202 -0.0017330396 -0.556895304 0.0302381339 0.1896418961
745295530.0 -0.0010126559 0.1820333141 -0.0077379272 -0.5568514828 -0.007271002 -0.5570098788 0.031942694 0.1897716036
750295500.0 0.0010655493 0.1820930282 -0.013648709 -0.5565347277 -0.0133394148 -0.5564103877 0.0340507048 0.1889851519
755295470.0 0.0032222111 0.1827501537 -0.0196922651 -0.5564704867 -0.0192496944 -0.5565683295 0.0357596939 0.1892125328
760295440.0 0.0045271115 0.182785505 -0.0257634778 -0.5563862636 -0.0252164397 -0.5562164891 0.0377781382 0.1888606742
765295410.0 0.0064126542 0.1825158993 -0.0309784553 -0.5555971336 -0.0315037784 -0.5557853339 0.0406535934 0.1888837869
770295380.0 0.0081712953 0.1830342347 -0.0375614785 -0.555425855 -0.0373738272 -0.5556256054 0.0428944822 0.188388671
775295350.0 0.0100123475 0.1829919693 -0.0433924919 -0.5548155106 -0.0435336847 -0.554861078 0.0440783888 0.1875752096
780295320.0 0.0118642034 0.1828945794 -0.0492418306 -0.5545090394 -0.0490473156 -0.5547620574 0.0461827877 0.1879362673
785295290.0 0.0137212997 0.1833850831 -0.0554195457 -0.5535402908 -0.0553137812 -0.554129923 0.0480151094 0.1878679725
790295260.0 0.0152163177 0.1832650314 -0.0611966281 -0.5534826945 -0.0612042271 -0.553304532 0.0504326532 0.1867984326
795295230.0 0.0173866504 0.1834133731 -0.0667079479 -0.5524220589 -0.0670647083 -0.5528807634 0.0524754021 0.1873753266
800295200.0 0.0188208096 0.1831384676 -0.0735792643 -0.551629976 -0.0734003693 -0.5518393697 0.0546895158 0.1860289036
805295170.0 0.020633811 0.1831827129 -0.0790247725 -0.5504144634 -0.0790555092 -0.5507805676 0.0562626553 0.1857231287
810295140.0 0.0225159528 0.1829990855 -0.0844598064 -0.5500350168 -0.0844700679 -0.5502005551 0.0589420294 0.1855442414
815295110.0 0.0243163971 0.1831864394 -0.0911927721 -0.5489059437 -0.0910780501 -0.5488067581 0.0604549112 0.1844392476
820295080.0 0.0261580627 0.1826376094 -0.0967716243 -0.5480597717 -0.0966719145 -0.5483285229 0.0623913148 0.1843506959
825295050.0 0.0281817857 0.1826932155 -0.1025842537 -0.5463320254 -0.1022988579 -0.5469387968 0.0646133303 0.183745683
830295020.0 0.0298045217 0.1829073199 -0.1087742233 -0.5453896325 -0.1092309365 -0.5460173095 0.0664883477 0.1828831614
