!Created with skrf (http://scikit-rf.org).
# Hz S RI R 50.0 
!freq ReS11 ImS11 ReS21 ImS21 ReS12 ImS12 ReS22 ImS22
300000.0 -0.2399698133 -0.0717324919 0.4723024895 0.047128691 0.4686525408 0.0467288177 -0.2438815039 -0.0855394139
5299970.0 -0.244262524 0.0074590246 0.4736117255 0.0048305025 0.4737690769 0.0048931194 -0.2447015267 0.0075133492
10299940.0 -0.2409867868 0.0190253242 0.4753630683 0.0059940458 0.4753273711 0.0061567441 -0.2410868101 0.0204624832
15299910.0 -0.236652745 0.028077558 0.4790351098 0.0078158327 0.4793265873 0.0075308021 -0.2367205409 0.0295357488
20299880.0 -0.2319819916 0.0353326769 0.4837135759 0.0082561625 0.4842707456 0.008461833 -0.2313752248 0.0371254071
25299850.0 -0.2269515027 0.0421609791 0.4891738862 0.007373251 0.4891984947 0.0077678694 -0.2254680145 0.0436752867
30299820.0 -0.2214634063 0.0472712251 0.4944898161 0.0051184389 0.4946378911 0.0053245757 -0.2194489341 0.0491157918
35299790.0 -0.2164879628 0.0513706638 0.5001739407 0.0020084874 0.4999524098 0.0020541083 -0.2136601355 0.053185179
40299760.0 -0.2116320061 0.0548683519 0.5051665916 -0.0015536592 0.5052236674 -0.0015600638 -0.2084238435 0.0558883366
45299730.0 -0.2065341641 0.0577558754 0.5093881803 -0.0064131722 0.5104374511 -0.0064153795 -0.2036717723 0.0587063071
50299700.0 -0.2025136907 0.0598179941 0.5142196873 -0.0117557454 0.5139967458 -0.0118523244 -0.198623069 0.0604046691
55299670.0 -0.1981432359 0.061852901 0.5179566105 -0.0187309184 0.5179904777 -0.0178705015 -0.1946034828 0.0618690684
60299640.0 -0.1942106034 0.0636575894 0.5209138786 -0.0242586868 0.5216910478 -0.0239093581 -0.1903984355 0.0628492613
65299610.0 -0.1911239112 0.0647642845 0.5243055054 -0.030618758 0.524362138 -0.0304621733 -0.1869166338 0.0638522767
70299580.0 -0.1878595922 0.0659662057 0.5267491421 -0.0371109532 0.526805619 -0.0372759767 -0.1836188753 0.0647480149
75299550.0 -0.1849189121 0.0670073462 0.5281200333 -0.0440856043 0.5283102898 -0.0438765717 -0.1806571476 0.0649364866
80299520.0 -0.1826284416 0.0678522767 0.5306749798 -0.0508792712 0.5306349951 -0.0506347438 -0.1780828938 0.0657568107
85299490.0 -0.1800690442 0.0686749984 0.5318792579 -0.0572777848 0.5320188108 -0.0571819767 -0.1758188004 0.0659463973
90299460.0 -0.1778513471 0.0696121527 0.5321892964 -0.0647587746 0.5332285882 -0.0644088524 -0.1736987495 0.0668277953
95299430.0 -0.175406606 0.0702827071 0.5336725518 -0.0713542782 0.5338138761 -0.0716562427 -0.1715765127 0.0672824765
100299400.0 -0.1739386439 0.071428657 0.5336940726 -0.078548183 0.533870644 -0.078164315 -0.1690939139 0.067497357
105299370.0 -0.1721304503 0.0722961521 0.5345796972 -0.0854046456 0.5346098661 -0.0852949859 -0.1672927455 0.0682564382
110299340.0 -0.1704653776 0.0731324421 0.5350668684 -0.0922521244 0.5347451387 -0.0917831133 -0.1662051132 0.0684384994
115299310.0 -0.1685347166 0.0737460227 0.5344616842 -0.0987005331 0.5349120267 -0.0990772003 -0.1647169746 0.0693030082
120299280.0 -0.1671603443 0.0746973646 0.53408089 -0.1058907286 0.534521459 -0.1057360268 -0.1632907276 0.0699977471
125299250.0 -0.1660940437 0.0755858217 0.5339547666 -0.1120497446 0.5341065129 -0.1120338463 -0.1623086376 0.0697852035
130299220.0 -0.1650571496 0.0765804166 0.5334594198 -0.1194423687 0.5334007641 -0.1194130015 -0.1612927907 0.0708646543
135299190.0 -0.1636606629 0.0780234412 0.5328853266 -0.1261140892 0.5328895112 -0.1257801442 -0.1600494373 0.0715880314
140299160.0 -0.1628542822 0.078934917 0.5317900619 -0.132838711 0.5320324815 -0.13270919 -0.1591252649 0.072498056
145299130.0 -0.161498484 0.0798111137 0.5313345576 -0.1393568922 0.5309647929 -0.1389435823 -0.1583217229 0.0734242708
150299100.0 -0.1601226738 0.0810911376 0.5297087188 -0.1452938896 0.5299279456 -0.1454336834 -0.1574126491 0.0744131386
155299070.0 -0.1595412435 0.0820337327 0.5288991801 -0.1525906263 0.5286752608 -0.1521799116 -0.156492895 0.0749653747
160299040.0 -0.1585195599 0.0833767184 0.5275931134 -0.1582813899 0.5270194551 -0.15858208 -0.1559676426 0.0755183061
165299010.0 -0.1574935887 0.0848479561 0.5258395762 -0.1652675082 0.5259795759 -0.1651215159 -0.1548099029 0.0768555283
170298980.0 -0.1565405583 0.0858768734 0.5242472109 -0.1717532955 0.5245452873 -0.1713060341 -0.1540930634 0.0777586893
175298950.0 -0.1558056724 0.087291553 0.5231240227 -0.1779427547 0.5223195336 -0.1778252208 -0.1533799836 0.0787630476
180298920.0 -0.1548770981 0.0885085781 0.5213403682 -0.1842487959 0.5210867845 -0.1837013566 -0.1525292892 0.079824565
185298890.0 -0.1531625566 0.0893840216 0.5190545357 -0.1899939482 0.5190071925 -0.1901376796 -0.1516708414 0.0809379391
190298860.0 -0.1526617252 0.0909900933 0.5171915081 -0.1967741209 0.5175228956 -0.1963603517 -0.1509658454 0.0817471301
195298830.0 -0.1517370389 0.0921856269 0.5151738156 -0.2025019251 0.5154160724 -0.2026155979 -0.1498894241 0.0829540741
200298800.0 -0.1506970501 0.093714517 0.5128773846 -0.2088323924 0.5135132614 -0.2089168585 -0.1496707247 0.0842160197
205298770.0 -0.1497404478 0.0951415735 0.5107230947 -0.2150915653 0.5110140568 -0.2147499924 -0.1487725887 0.0843933189
210298740.0 -0.1492082139 0.0963670354 0.5089017241 -0.2205207898 0.5088099568 -0.2202878143 -0.147839413 0.0862644885
215298710.0 -0.1482211747 0.0980181164 0.5066350183 -0.2269494338 0.5059695855 -0.2268068379 -0.1470759346 0.0875075338
220298680.0 -0.1470114514 0.0987850014 0.5034337974 -0.232545389 0.5038036146 -0.2324541657 -0.1467451563 0.08827198
225298650.0 -0.1461873879 0.1004620187 0.501543778 -0.2388414357 0.5018014349 -0.2384779709 -0.1462465892 0.0895457714
230298620.0 -0.1451337337 0.1021591997 0.4992044439 -0.2441824211 0.4993141248 -0.2443640046 -0.1453659016 0.0905311728
235298590.0 -0.143963515 0.1037211916 0.4964409193 -0.2495429793 0.4963316912 -0.2496608396 -0.1444750708 0.0920806992
240298560.0 -0.1430630436 0.1049559397 0.4940896986 -0.255926639 0.4939453106 -0.2559685705 -0.1437875879 0.0933101554
245298530.0 -0.1424538829 0.1063137279 0.4913168487 -0.2615650387 0.4909559386 -0.2614177725 -0.1426618729 0.0938793633
250298500.0 -0.1406477584 0.1079598624 0.4876765055 -0.267205278 0.4875324236 -0.2669483847 -0.1423693299 0.0956963765
255298470.0 -0.1398814788 0.109056884 0.4845668606 -0.2719239727 0.4848722711 -0.2724073956 -0.1412596514 0.0965965479
260298440.0 -0.139075111 0.1103267842 0.4819355572 -0.2784097761 0.48222681 -0.2780996307 -0.1399678595 0.0982389856
265298410.0 -0.1374400921 0.112520827 0.4789888694 -0.2840456181 0.4795918001 -0.2832838069 -0.1395048519 0.0995697815
270298380.0 -0.1365345836 0.1139128807 0.4761914659 -0.2893317667 0.4763722239 -0.2890337928 -0.1387266923 0.1007795752
275298350.0 -0.1353623634 0.1151477926 0.4728250752 -0.2943449654 0.473097555 -0.2944433775 -0.1377529379 0.1019992522
280298320.0 -0.1339985876 0.116811767 0.4699059974 -0.300014355 0.4697275887 -0.2998745394 -0.1370345628 0.1035185281
285298290.0 -0.1327550404 0.1184436893 0.4667973451 -0.3054463658 0.4666808106 -0.3054059201 -0.1358869152 0.1044048108
290298260.0 -0.1316913828 0.1195018521 0.4634021331 -0.3103639608 0.4633712686 -0.3105221752 -0.1350210588 0.1060390116
295298230.0 -0.1303161609 0.1207653104 0.4602403002 -0.3157551456 0.4600310759 -0.3157090484 -0.1338212299 0.1070681518
300298200.0 -0.1293231403 0.1224776629 0.4567593602 -0.3206064202 0.4568338924 -0.3212390172 -0.1328660393 0.108347152
305298170.0 -0.1276930234 0.12374567 0.4526871551 -0.3267586336 0.4529864579 -0.3260142101 -0.1315401852 0.1096932486
310298140.0 -0.126745257 0.1251962565 0.4496390109 -0.3318524783 0.4498666057 -0.3313352408 -0.1308567904 0.1109436311
315298110.0 -0.125374959 0.1264256785 0.4457270667 -0.3368615289 0.4458764136 -0.3368363707 -0.1298277406 0.111748782
320298080.0 -0.1239313862 0.1275445069 0.4417553743 -0.3422552039 0.4420259874 -0.3417270917 -0.1290644165 0.1129718026
325298050.0 -0.1226565674 0.1289271582 0.4381307585 -0.347036093 0.438152082 -0.3468359434 -0.1284458207 0.1140422148
330298020.0 -0.1216467154 0.1302286926 0.4339500319 -0.3518744762 0.4344559258 -0.3517587081 -0.1275785667 0.1154619083
335297990.0 -0.1201225101 0.1315353883 0.4300574198 -0.3565903682 0.4298924021 -0.3568166744 -0.1268505419 0.1169560214
340297960.0 -0.1194764465 0.1330635431 0.4259580928 -0.3611691853 0.4260748725 -0.3615049248 -0.1256413174 0.118688164
345297930.0 -0.1180792964 0.1348203969 0.4217338991 -0.3663921267 0.421714763 -0.3664196108 -0.1245106249 0.1192069868
350297900.0 -0.1167349977 0.1358899261 0.417039243 -0.3710361383 0.4176142591 -0.3709645858 -0.1240472151 0.1214011325
355297870.0 -0.1152643442 0.1375191873 0.413130529 -0.3755862157 0.4137956735 -0.3753213546 -0.1228500259 0.1221313111
360297840.0 -0.113613942 0.138919616 0.4095906318 -0.3796731266 0.4097661617 -0.3797941634 -0.1218023231 0.1233320034
365297810.0 -0.1124606151 0.140548117 0.4047484442 -0.3845971233 0.4055675368 -0.3844964181 -0.1205924812 0.1248598342
370297780.0 -0.1107066401 0.1415716473 0.4008350364 -0.3887980814 0.4011865816 -0.3884202409 -0.1195098805 0.1261172141
375297750.0 -0.1090591535 0.1430365738 0.396491242 -0.3930860428 0.3973507951 -0.3934281451 -0.1178553593 0.1271975683
380297720.0 -0.107622503 0.1439714058 0.3921289781 -0.3978545442 0.3922206841 -0.3970510427 -0.1173057909 0.1282613369
385297690.0 -0.1064470879 0.1455171013 0.3879944055 -0.4018644523 0.3875679127 -0.4017716361 -0.1160476495 0.129941784
390297660.0 -0.1050440411 0.1472686017 0.3834697367 -0.4059624512 0.383273458 -0.4057930937 -0.1149933744 0.1313142704
395297630.0 -0.1033124439 0.1481444789 0.3791279063 -0.4101647319 0.378917812 -0.4103746814 -0.1130458246 0.1325140165
400297600.0 -0.1019745897 0.149421642 0.3742676582 -0.4147482917 0.3746036573 -0.4146218104 -0.1119453246 0.1336347712
405297570.0 -0.1005194396 0.1506891103 0.3700395206 -0.4183294315 0.3700066344 -0.4182933391 -0.1112091376 0.1348849261
410297540.0 -0.0985072897 0.1518205154 0.3652790383 -0.4226943592 0.3655951349 -0.4226982469 -0.1101762158 0.1361516491
415297510.0 -0.096566549 0.152872908 0.3602135183 -0.426792313 0.3608784101 -0.4267222819 -0.1087765863 0.1371959919
420297480.0 -0.0951127596 0.1545041255 0.3556745491 -0.4303720733 0.3560235412 -0.4308424496 -0.1072629268 0.1382563136
425297450.0 -0.0936564433 0.1554175157 0.3514828899 -0.4343719268 0.3515205905 -0.4346890438 -0.1063571113 0.1400082398
430297420.0 -0.0917386548 0.1564623009 0.3461830879 -0.4377744637 0.3467276394 -0.4378151905 -0.10507696 0.1408369261
435297390.0 -0.0903834433 0.1577574711 0.3413410539 -0.4415872723 0.3412055729 -0.4418921318 -0.1030805422 0.1418166479
440297360.0 -0.0884314851 0.1590327403 0.3367242702 -0.4452686823 0.3365673026 -0.445844919 -0.1022648797 0.1430728961
445297330.0 -0.0869498207 0.1596962664 0.3321376468 -0.4488888709 0.3320910211 -0.4489602599 -0.1006786614 0.1439268947
450297300.0 -0.0847134656 0.1608449866 0.3267794906 -0.4525203495 0.3270957989 -0.4532608348 -0.0991308156 0.1449700695
455297270.0 -0.0833260053 0.1619666486 0.3214781556 -0.4565077707 0.3220948789 -0.4566658627 -0.0980872357 0.1462613372
460297240.0 -0.0814924323 0.1631001598 0.3166795452 -0.4598620019 0.3169522993 -0.4597179573 -0.0967568918 0.1476377484
465297210.0 -0.0795711512 0.1644628151 0.3120613309 -0.4631907994 0.3120194408 -0.4633540091 -0.0951893077 0.1480031943
470297180.0 -0.0777750389 0.1651287344 0.3064873717 -0.4664756675 0.3066716751 -0.4668354742 -0.0936703855 0.1495876418
475297150.0 -0.0761824726 0.1660613867 0.3015043027 -0.4696244642 0.3019141792 -0.469737354 -0.0920389706 0.1503446475
480297120.0 -0.0741786295 0.1672798892 0.2961908575 -0.473027978 0.2965683621 -0.4734530795 -0.0906254662 0.151891628
485297090.0 -0.0725896226 0.1685043493 0.2915126361 -0.4767240844 0.2909910408 -0.4759708427 -0.0892261788 0.1525235344
490297060.0 -0.0710678073 0.1691393711 0.286339015 -0.4794928179 0.2865096978 -0.47942305 -0.0876191066 0.1539232844
495297030.0 -0.0688371405 0.170371261 0.2807654936 -0.4827578925 0.2810022312 -0.4824576421 -0.0865064124 0.1547514093
500297000.0 -0.0669587351 0.1712041091 0.2754842487 -0.4852380055 0.2752705959 -0.4849017925 -0.0846384965 0.1560930663
505296970.0 -0.0646701263 0.171737865 0.2704447639 -0.488347527 0.2701192594 -0.4883247785 -0.0836803552 0.1568768454
510296940.0 -0.0631151806 0.1729109089 0.2650288479 -0.4912671519 0.2651319796 -0.491434791 -0.0817856957 0.1578605713
515296910.0 -0.0613027777 0.1736640027 0.2590635848 -0.4940489697 0.2592104889 -0.4939991064 -0.0805383125 0.1586755218
520296880.0 -0.0594918963 0.1744134341 0.2540994438 -0.4972937399 0.2541100564 -0.4966620883 -0.0791726921 0.1591147745
525296850.0 -0.0572400378 0.1746861076 0.2484238364 -0.4992867149 0.2490026866 -0.4994705272 -0.0778085419 0.1602523542
530296820.0 -0.0554388956 0.1758654519 0.2431411238 -0.502700322 0.2433853859 -0.5023682741 -0.075765582 0.1611893724
535296790.0 -0.0537993398 0.1768320347 0.2385433059 -0.504933238 0.2380447047 -0.5044780044 -0.0745918139 0.1619722381
540296760.0 -0.0517276901 0.1774473776 0.2319259543 -0.5080224593 0.2320442417 -0.5077426347 -0.0732280979 0.1632715343
545296730.0 -0.0496693108 0.1780790088 0.2263072506 -0.509871431 0.226160171 -0.509756568 -0.0714475521 0.1635809439
550296700.0 -0.0474895478 0.1788945531 0.2211567811 -0.5123250344 0.2213471369 -0.5126177915 -0.0699907042 0.1648027547
555296670.0 -0.0459808272 0.1793099175 0.2156418455 -0.5144579718 0.2157233889 -0.5142131796 -0.0681551485 0.1655725402
560296640.0 -0.0433508288 0.1805084058 0.2097508319 -0.5174914406 0.210038261 -0.5169843946 -0.0665164447 0.1663965768
565296610.0 -0.0419978738 0.180662243 0.2041944795 -0.5191939075 0.2044055635 -0.5189995397 -0.0650586782 0.1669899296
570296580.0 -0.0401243735 0.1815680182 0.1986661702 -0.5219172092 0.1983689524 -0.5212142811 -0.0637573142 0.1682260701
575296550.0 -0.0382239203 0.1821139381 0.1930782644 -0.5236387934 0.1929404932 -0.5233403389 -0.0617894677 0.1687264122
580296520.0 -0.035752266 0.1827425983 0.1873848808 -0.5259660335 0.1874416189 -0.5253856184 -0.0601116247 0.169084374
585296490.0 -0.0341066959 0.1828219482 0.1814170021 -0.5272810346 0.1822088894 -0.5277722983 -0.0582239966 0.170194067
590296460.0 -0.0314471249 0.1833948402 0.1757295526 -0.5285275805 0.1758572087 -0.5291316221 -0.0570360494 0.1710994078
595296430.0 -0.0296881094 0.1840395232 0.1698377773 -0.5313943863 0.1699975656 -0.5313214005 -0.0550641268 0.1712886308
600296400.0 -0.0280159553 0.1844839418 0.1644380529 -0.5331968089 0.1644660929 -0.5326896105 -0.0538493871 0.1720753878
605296370.0 -0.0261320521 0.1849742174 0.158436951 -0.5348046907 0.1588774131 -0.5345984861 -0.0516404515 0.1731309282
610296340.0 -0.0236129779 0.1852118092 0.1523601799 -0.5363514673 0.1530344916 -0.5364501906 -0.0503255792 0.1736956949
615296310.0 -0.0214817256 0.1856778911 0.1466606166 -0.5379097766 0.1468253718 -0.5385068043 -0.0481008115 0.174125828
620296280.0 -0.0195872493 0.1859593289 0.1410007398 -0.5393184998 0.1411688713 -0.5390135535 -0.0468442808 0.1746956297
625296250.0 -0.0180213745 0.1862494074 0.1359272878 -0.5414499985 0.1351353583 -0.5412872334 -0.0444838798 0.1754475618
630296220.0 -0.0147879254 0.1868324775 0.1284490849 -0.5424657119 0.1291725919 -0.5422206589 -0.0433315798 0.1762019819
635296190.0 -0.0139474008 0.1867358378 0.1235928893 -0.5438560538 0.1235873457 -0.5435409279 -0.0413831428 0.1765352246
640296160.0 -0.0118102461 0.1871039375 0.1172277183 -0.5444203055 0.1177374209 -0.5449367922 -0.0397792279 0.1772596416
645296130.0 -0.0092382276 0.1876536225 0.1113899512 -0.5458089269 0.1116963341 -0.5461498309 -0.0381410636 0.1779726692
650296100.0 -0.0070872331 0.1877503332 0.1055593985 -0.5472114601 0.1060888908 -0.5470138618 -0.0362396575 0.1777651998
655296070.0 -0.0053236206 0.187772299 0.0996777354 -0.5482228308 0.0999649645 -0.548122584 -0.0347534726 0.1787377411
660296040.0 -0.0037896746 0.1878941776 0.0941025334 -0.5493195673 0.0939397385 -0.5494868265 -0.0325716318 0.1791215581
665296010.0 -0.000840361 0.1879751832 0.0874661978 -0.5501601175 0.087950017 -0.5502905744 -0.0308569458 0.1801049088
670295980.0 0.0003558124 0.1883741712 0.0820309363 -0.5509258485 0.0819916874 -0.5507581026 -0.0297580269 0.1800487294
675295950.0 0.0029044869 0.1886029247 0.07618719 -0.5518564407 0.0763994565 -0.551497904 -0.0279866292 0.1806805606
680295920.0 0.0046304262 0.1886756256 0.0697550252 -0.5522303863 0.0697345979 -0.5532569494 -0.0258644278 0.1816907948
685295890.0 0.0069798835 0.1893833886 0.064103751 -0.5530751101 0.063901799 -0.553233166 -0.0243538617 0.1815598385
690295860.0 0.0092317346 0.1888557476 0.058110132 -0.5531468876 0.0580528352 -0.5544267627 -0.0225658699 0.1826304263
695295830.0 0.0109420233 0.188921048 0.0526690546 -0.5544047372 0.0520122802 -0.5543762165 -0.0206927913 0.1826950681
700295800.0 0.0133196106 0.1886275589 0.0461891486 -0.5547199642 0.0461449387 -0.5546977894 -0.0192498438 0.1833581079
705295770.0 0.0150628552 0.1893588859 0.0399817442 -0.5553612326 0.040274304 -0.5554711522 -0.0174212762 0.1837673331
710295740.0 0.017659443 0.1887931742 0.0339643922 -0.5562618331 0.0343991902 -0.5560543513 -0.0155262609 0.1833178026
715295710.0 0.0191721521 0.1886555771 0.0287369203 -0.5562796832 0.0279855159 -0.5564070725 -0.0136915287 0.1838254056
720295680.0 0.0213118906 0.1889770839 0.022322049 -0.5568365542 0.0223802597 -0.556537633 -0.0119120184 0.1845192864
725295650.0 0.0236071869 0.1887537385 0.016015554 -0.5566937291 0.0163981655 -0.5568134246 -0.0105516277 0.1848114937
730295620.0 0.0257100834 0.1889049093 0.01001747 -0.5565015489 0.0102071215 -0.5568447878 -0.0085396034 0.1846685125
735295590.0 0.0278062134 0.1883637991 0.0044005575 -0.5564956337 0.0039058592 -0.5567574 -0.0068151757 0.1845138103
740295560.0 0.0296597545 0.1883283047 -0.0018394144 -0.5567203382 -0.0020361786 -0.5571415786 -0.0045272076 0.184999248
745295530.0 0.0316694185 0.1883164421 -0.0079522285 -0.5562656509 -0.007850939 -0.5566034383 -0.0029533821 0.1849055093
750295500.0 0.0340420271 0.1878179811 -0.0138762349 -0.5561164289 -0.013924669 -0.5563716211 -0.00097645 0.1854135699
755295470.0 0.0358185819 0.1876158814 -0.0195344699 -0.5559597115 -0.0195724238 -0.5565511075 0.0009407238 0.1853688641
760295440.0 0.0379193942 0.187665407 -0.0256964646 -0.5564585673 -0.0258753811 -0.5563746614 0.0023329298 0.1854829067
765295410.0 0.0401897198 0.1871597175 -0.0319766847 -0.5556009344 -0.0318816752 -0.5559506422 0.0047652004 0.1862079836
770295380.0 0.0418186266 0.1866764638 -0.0378299191 -0.5551871627 -0.0378183208 -0.5549663021 0.00612376 0.1858099246
775295350.0 0.0437598073 0.1861218622 -0.0443298629 -0.5539655274 -0.0432798624 -0.5545441663 0.0073797562 0.186056358
780295320.0 0.0461629332 0.1861349935 -0.0496650002 -0.5537710915 -0.0493564571 -0.5540348086 0.0095519593 0.1860632865
785295290.0 0.0476783879 0.1852338405 -0.0561010292 -0.5532255857 -0.05567432 -0.5532318515 0.0120148333 0.1862781891
790295260.0 0.050516589 0.1853882502 -0.0612021377 -0.552800608 -0.0611373909 -0.5526046813 0.0134305327 0.1863658304
795295230.0 0.0523597047 0.184842821 -0.0673686674 -0.5519230819 -0.0672885037 -0.5524434423 0.0158127894 0.1867518459
800295200.0 0.0539230155 0.1844051644 -0.0740271592 -0.5511441338 -0.0736315691 -0.5512364532 0.0173242134 0.1862867842
805295170.0 0.0565112763 0.1838672624 -0.0797996786 -0.549994146 -0.079238736 -0.5506083036 0.0191268758 0.1863923719
810295140.0 0.0581472797 0.1833889817 -0.0849480729 -0.5493159375 -0.0853483231 -0.549612218 0.0212045075 0.186516783
815295110.0 0.0601291189 0.1824546899 -0.091493466 -0.5480227136 -0.0911475193 -0.5484764792 0.0227068347 0.186408464
820295080.0 0.0618041677 0.182544465 -0.096857831 -0.5473308843 -0.0967827597 -0.5474826398 0.0248402647 0.1864809729
825295050.0 0.0648306288 0.18167276 -0.1030562001 -0.5459673468 -0.1031389967 -0.5467442615 0.0268149806 0.1863774534
830295020.0 0.0664494195 0.1812599887 -0.1092481886 -0.5452374136 -0.1085351558 -0.544888222 0.0290775675 0.1862568711
