!Created with skrf (http://scikit-rf.org).
# Hz S RI R 50.0 
!freq ReS11 ImS11 ReS21 ImS21 ReS12 ImS12 ReS22 ImS22
300000.0 0.8613711935 -0.0020285929 -0.0007501118 -0.0001340155 -5.9426e-05 0.0007865345 -0.7729765598 -0.1764255118
5299970.0 0.859509332 -0.0103480928 -2.39622e-05 -0.0002386636 1.09589e-05 -4.47714e-05 -0.784830757 -0.0090104258
10299940.0 0.8588151315 -0.0190189242 0.0001019348 0.0001201158 -2.64829e-05 -6.98069e-05 -0.7886201203 -0.0051684349
15299910.0 0.8577448941 -0.0271550716 -5.42411e-05 -0.0003701145 0.0002741924 0.0001772245 -0.7938933506 -0.0031980864
20299880.0 0.8573469295 -0.0354739529 0.0001505729 0.0002419314 -2.478e-07 0.000219817 -0.8006976376 0.0018020491
25299850.0 0.8570856035 -0.0438832441 6.1249e-05 -0.0001156353 4.09748e-05 -0.0001316659 -0.8067733822 0.0075756975
30299820.0 0.8559916163 -0.0519993108 8.51215e-05 -0.0001436509 -5.0429e-05 7.22794e-05 -0.8129469432 0.0147772234
35299790.0 0.8554206388 -0.0602501988 0.0001660395 -0.0004039567 -0.0002832085 -3.228e-06 -0.8180257982 0.0238443101
40299760.0 0.8540834335 -0.0683568094 0.0001153007 4.15454e-05 7.98446e-05 -8.031e-07 -0.8217424171 0.0330671112
45299730.0 0.8541798439 -0.0763693565 -4.24212e-05 1.90001e-05 -0.0001445246 4.2729e-06 -0.825552932 0.0423144655
50299700.0 0.8528541029 -0.0854552353 0.000278764 0.0001278462 -0.0002417851 -0.0002996628 -0.8281293802 0.0526313023
55299670.0 0.8512862632 -0.0933673196 -0.0001005082 0.0001179084 -8.52571e-05 4.72541e-05 -0.8297721226 0.0631690451
60299640.0 0.8508442046 -0.1009297879 -0.0001092111 0.0001393554 -0.0001481324 0.0001449227 -0.8308066589 0.0731242247
65299610.0 0.8501051471 -0.1091713094 -6.19532e-05 -2.1231e-05 -7.96772e-05 -0.0001543127 -0.8309971354 0.0826756483
70299580.0 0.8487365 -0.1179565136 2.5312e-06 0.000265745 1.61268e-05 7.08959e-05 -0.8321737924 0.0929009035
75299550.0 0.8470902833 -0.1264717933 0.0001181022 0.0001189862 -8.49902e-05 9.17483e-05 -0.8328244996 0.1026415897
80299520.0 0.8457685783 -0.1340104251 -8.0177e-06 -4.52867e-05 6.47872e-05 -0.000227276 -0.8317930232 0.112299553
85299490.0 0.8448013107 -0.1422414177 4.38543e-05 -9.37715e-05 1.52187e-05 -5.0111e-05 -0.8317401735 0.1220828697
90299460.0 0.8430853226 -0.1503742132 4.20313e-05 -2.39135e-05 -1.0749e-05 -4.8469e-05 -0.8302391088 0.1313922346
95299430.0 0.8417278937 -0.1590339874 -5.76265e-05 -0.0002535103 -7.01975e-05 -7.70293e-05 -0.8307117332 0.1412315746
100299400.0 0.8398222335 -0.1662901481 -0.0002064416 -8.6567e-06 -0.0001247451 2.02749e-05 -0.8290769291 0.1490323017
105299370.0 0.8380907522 -0.1757556747 8.3993e-05 5.0858e-06 0.0001891665 0.0001314571 -0.8280114642 0.1591288206
110299340.0 0.8364898184 -0.1829309237 3.57027e-05 0.0001069379 -3.3504e-06 -8.08098e-05 -0.8268240401 0.1682358389
115299310.0 0.8350283709 -0.192044539 -0.000176198 0.0001135324 0.0001061003 0.0001154917 -0.8248595427 0.1769053857
120299280.0 0.8323764849 -0.199423639 -0.0001182806 -0.0001150932 4.8609e-05 1.17477e-05 -0.8237506822 0.186514059
125299250.0 0.8310179282 -0.207958962 0.0001441246 -0.0001705955 -6.41e-05 -9.07049e-05 -0.82211001 0.1951833252
130299220.0 0.8282826566 -0.2156162972 -8.60281e-05 -3.84771e-05 8.1991e-06 6.06645e-05 -0.8197695617 0.2040974205
135299190.0 0.8260680126 -0.2233623299 -7.59285e-05 -0.0002088495 -0.0001000488 0.0001711475 -0.8181632778 0.2125983638
140299160.0 0.8246640699 -0.2312221607 0.000196126 6.82001e-05 -7.07333e-05 -0.0001071856 -0.815885735 0.221512347
145299130.0 0.8218219356 -0.2391644165 -0.0001964394 7.00096e-05 -2.90633e-05 5.72977e-05 -0.8141708675 0.2301434232
150299100.0 0.8197432818 -0.2476610528 7.33673e-05 -0.0001065923 6.02821e-05 -2.77054e-05 -0.8120320823 0.2382765963
155299070.0 0.8171470799 -0.2554028604 1.39415e-05 -0.0001278019 7.1018e-05 5.6951e-05 -0.8092498877 0.2474659224
160299040.0 0.8142355544 -0.2634579333 -8.48173e-05 1.9025e-06 0.0001445773 -6.76005e-05 -0.8073998879 0.256541557
165299010.0 0.8123269189 -0.2713883708 0.0001060274 -5.27115e-05 -2.29975e-05 0.0001146178 -0.8046007511 0.2645817314
170298980.0 0.8091773554 -0.2790797938 6.23717e-05 -0.0001990492 -0.0001250455 -2.05718e-05 -0.8020418124 0.2732545053
175298950.0 0.8061089562 -0.2866838311 -4.34867e-05 0.0001005604 0.0001209649 2.26728e-05 -0.7990096848 0.2821465173
180298920.0 0.8032670814 -0.2946004247 -5.3171e-05 0.0001952465 -0.0002639397 0.0002763445 -0.7957930115 0.290464215
185298890.0 0.8005592 -0.3022212336 2.77699e-05 -0.0001009035 0.0001927331 5.03863e-05 -0.7928194729 0.2984143092
190298860.0 0.7973792843 -0.3104415453 0.0001328607 -0.0001040005 2.39136e-05 3.67097e-05 -0.7896841038 0.3076552855
195298830.0 0.7944372202 -0.3176476271 4.95627e-05 -1.53083e-05 -9.26172e-05 -2.52978e-05 -0.7864750117 0.3153897885
200298800.0 0.7909967006 -0.3261827479 -2.9182e-06 -3.75996e-05 -0.0001292273 -0.0001625396 -0.7836622714 0.323949977
205298770.0 0.7883182983 -0.3341713708 -9.32442e-05 -0.0001753481 -0.0001131762 -7.3195e-06 -0.77989421 0.3320247137
210298740.0 0.7851796435 -0.3410659789 5.53656e-05 -8.57876e-05 -3.89945e-05 0.0001452661 -0.7769998908 0.3405839211
215298710.0 0.7814504143 -0.3485991124 -2.7089e-06 -5.19e-07 0.0001647247 0.0002700633 -0.7735334042 0.3479534941
220298680.0 0.7779030279 -0.3567718861 8.12735e-05 0.0001934794 -8.49885e-05 3.62208e-05 -0.7699401064 0.3570359128
225298650.0 0.774328605 -0.3637478404 3.44037e-05 -6.96138e-05 1.18647e-05 -0.0001904492 -0.766745738 0.3649457742
230298620.0 0.771081181 -0.3713575719 -4.77813e-05 -2.95282e-05 0.0001592426 -1.78879e-05 -0.761852764 0.3724486834
235298590.0 0.7673841403 -0.3787842829 -6.77577e-05 -0.0001616422 3.70079e-05 2.25719e-05 -0.7579738966 0.3805796894
240298560.0 0.7634796243 -0.386897195 0.0002566911 2.44349e-05 0.0001010809 0.0002062431 -0.7539080351 0.3880477219
245298530.0 0.759863899 -0.3933254469 7.51471e-05 0.0002131407 4.78204e-05 -0.0001901331 -0.7500855388 0.3966715119
250298500.0 0.7558289396 -0.4009346369 0.0002078188 0.0001258832 7.11636e-05 -9.39012e-05 -0.746332283 0.4045623932
255298470.0 0.7518698089 -0.4078868401 9.17498e-05 3.261e-06 -7.01067e-05 -0.000134464 -0.7415043076 0.4124845743
260298440.0 0.74777422 -0.4150405798 3.29473e-05 0.0001075568 6.07093e-05 8.78852e-05 -0.7367985744 0.4197386847
265298410.0 0.7441295054 -0.4224270913 -1.87499e-05 1.52461e-05 5.04676e-05 5.20316e-05 -0.7328699471 0.4274091331
270298380.0 0.7401816389 -0.42949869 -0.0001123393 -0.0001230721 3.2637e-05 3.08489e-05 -0.7281220849 0.4353095633
275298350.0 0.7355482578 -0.4370325299 5.99777e-05 -7.9357e-06 7.3327e-05 2.39824e-05 -0.7229536232 0.4432155738
280298320.0 0.7320950091 -0.4439883699 8.25075e-05 -3.7347e-05 4.563e-05 1.23763e-05 -0.7188045198 0.4502065505
285298290.0 0.7271721833 -0.4517300765 6.96121e-05 0.0001241939 -0.0003857046 -0.0001740884 -0.7135077582 0.4579478154
290298260.0 0.7231145416 -0.4582072069 6.91111e-05 3.693e-05 0.0001179417 0.000215776 -0.7093230166 0.4656789241
295298230.0 0.7193869606 -0.4662381959 -0.0002241479 -0.0001754416 -4.62639e-05 0.0002839258 -0.7043151423 0.4727962016
300298200.0 0.7149632548 -0.4733558873 4.87109e-05 -0.0001964813 7.03342e-05 -0.0001105347 -0.6986118711 0.4801023326
305298170.0 0.7103749858 -0.4795073788 5.4719e-05 -4.83868e-05 8.1191e-06 0.0001409766 -0.6933138386 0.4880803921
310298140.0 0.7062090267 -0.4877923174 -0.000154094 -1.78832e-05 -3.76602e-05 1.84975e-05 -0.6889515514 0.4949309193
315298110.0 0.6998981043 -0.495280536 -9.78874e-05 0.0001155768 -0.0002257149 0.0001846812 -0.6831713629 0.502113111
320298080.0 0.6947268813 -0.5023787519 5.31337e-05 -0.0002197671 0.0001524419 0.00019616 -0.6783576926 0.5093826561
325298050.0 0.6898682318 -0.5097411273 -1.12773e-05 -3.37492e-05 -0.0001705906 0.0001275981 -0.672507131 0.5157385929
330298020.0 0.6839124645 -0.5165542711 -0.0001201414 1.36613e-05 0.0001383799 -9.19183e-05 -0.6671002421 0.5232575904
335297990.0 0.6782496691 -0.5224943833 0.0001072538 0.0001746478 -0.0001443082 -0.0001219249 -0.6613875716 0.5301006717
340297960.0 0.6725763497 -0.5285746805 -5.84877e-05 2.53937e-05 9.23454e-05 -0.0001615023 -0.6555292083 0.5375894047
345297930.0 0.6671318748 -0.535274527 0.0001372613 5.2968e-06 -9.44836e-05 -0.0001634208 -0.6501005557 0.5439951045
350297900.0 0.6615556861 -0.541754346 8.35266e-05 -7.19551e-05 0.0001013451 -0.0001422291 -0.6445747571 0.5511143373
355297870.0 0.6562898133 -0.5480001438 4.8674e-06 -2.5498e-06 8.3191e-05 5.45181e-05 -0.6381785218 0.5573234145
360297840.0 0.6509458074 -0.5542962116 -3.42818e-05 7.22035e-05 0.0001201774 -3.1329e-06 -0.6325068687 0.5636489612
365297810.0 0.6453766607 -0.5602464904 -1.16116e-05 0.0002017512 9.39859e-05 7.33598e-05 -0.6262294942 0.5707574593
370297780.0 0.6402412962 -0.5661636642 -0.0001714762 -5.79851e-05 -5.71306e-05 1.42797e-05 -0.6213193151 0.5769499541
375297750.0 0.633738164 -0.5727124742 4.78913e-05 6.2723e-05 3.20395e-05 -2.83804e-05 -0.6142422596 0.5833579574
380297720.0 0.6290301234 -0.5778243582 -0.0003184998 -8.38963e-05 -0.0003190699 0.0002031827 -0.6078713981 0.5902690253
385297690.0 0.6225302083 -0.5845793536 9.5715e-06 0.0001869468 8.85268e-05 -0.0001055921 -0.6023514493 0.5960186205
390297660.0 0.6170081212 -0.5903582552 4.54842e-05 -0.0001440569 -0.0002854697 -0.0001960089 -0.5956833169 0.6015646736
395297630.0 0.611589593 -0.5960153485 1.58389e-05 -6.47312e-05 -0.0002239997 0.0001026024 -0.5896237982 0.6083409215
400297600.0 0.6048696816 -0.6017917479 -0.0001381873 -9.35843e-05 6.40591e-05 -3.76073e-05 -0.5833621667 0.6137024053
405297570.0 0.5994141708 -0.6077380383 -3.1147e-06 -0.0001221833 3.35087e-05 0.0002010493 -0.5771757585 0.620010023
410297540.0 0.5928436621 -0.6134716834 -7.62421e-05 -0.0001048297 -0.0001596032 -5.71636e-05 -0.569803188 0.625520555
415297510.0 0.5874515548 -0.6189728406 -6.96246e-05 -7.32826e-05 4.10124e-05 -0.0001618279 -0.5640197406 0.6318488191
420297480.0 0.5810963028 -0.6251113828 2.44083e-05 -6.27024e-05 6.39217e-05 6.30685e-05 -0.5572170599 0.636600613
425297450.0 0.5750044617 -0.6303801864 -1.78213e-05 -0.0001726338 -0.0001397586 9.37439e-05 -0.5501508368 0.6432098338
430297420.0 0.5682928578 -0.6357557505 6.35921e-05 -5.81383e-05 -0.0001577619 -0.0001729591 -0.544214453 0.6485669882
435297390.0 0.5625309125 -0.6413756527 -0.000150947 1.42947e-05 0.0001432538 -0.000168332 -0.5370503659 0.6540384989
440297360.0 0.5566308294 -0.6466985351 2.7712e-06 1.19546e-05 1.95736e-05 2.57674e-05 -0.5299163322 0.6588267998
445297330.0 0.5500305475 -0.651918202 3.25314e-05 -4.8163e-06 0.0001655849 -3.8445e-05 -0.5235261085 0.6642809762
450297300.0 0.5434034044 -0.6571070726 -0.00016214 -0.0001109745 5.57432e-05 -4.35522e-05 -0.5170775237 0.6700098396
455297270.0 0.5362966001 -0.6624533332 6.44073e-05 3.16536e-05 8.0706e-06 -0.0001116126 -0.5100083855 0.6745357018
460297240.0 0.530162365 -0.66748384 1.53802e-05 3.65553e-05 -9.14337e-05 8.86605e-05 -0.5030517542 0.6805369148
465297210.0 0.523908386 -0.6724446489 -0.0002979604 1.26586e-05 5.07221e-05 -8.04913e-05 -0.4962751189 0.6848163191
470297180.0 0.5170258276 -0.6780298387 9.79054e-05 -8.40725e-05 -5.37118e-05 -4.77631e-05 -0.4896290474 0.689764341
475297150.0 0.51023835 -0.6828281824 -2.69521e-05 -7.25694e-05 4.0101e-05 -4.49158e-05 -0.4819466514 0.6943872008
480297120.0 0.5041694179 -0.6878961183 -2.63784e-05 2.5821e-05 0.0002092346 -0.0001021143 -0.4756602677 0.6995043429
485297090.0 0.4969441034 -0.6920959012 -3.87583e-05 -0.0001062248 -0.0001937219 -3.5438e-05 -0.467888318 0.7038474624
490297060.0 0.4900718221 -0.6971913745 0.0001289115 0.0001650221 0.0001459424 -0.0001693606 -0.4612122809 0.7084576909
495297030.0 0.4829151734 -0.7018956508 1.55762e-05 0.0002852651 9.79309e-05 -0.0001032195 -0.4534241285 0.7130777249
500297000.0 0.4762026314 -0.7062730097 2.16101e-05 3.56866e-05 -4.27498e-05 -0.0001147293 -0.4474015722 0.7177180593
505296970.0 0.4686022261 -0.7108529624 -0.0001201616 0.0001594343 0.0001072793 -8.2808e-06 -0.4402952192 0.7219363422
510296940.0 0.462130444 -0.7151901535 4.30246e-05 2.15092e-05 0.0001498279 2.79032e-05 -0.4323628137 0.7263674174
515296910.0 0.4548267604 -0.7198796993 6.2425e-05 0.0001758637 8.4216e-05 4.65492e-05 -0.4248039649 0.7308484986
520296880.0 0.4479365702 -0.7245626274 7.10636e-05 -0.0001773001 8.7436e-06 -0.0001246722 -0.4175482642 0.7346164381
525296850.0 0.4410345938 -0.7287878764 0.0001349229 -1.74015e-05 3.63092e-05 0.0001539386 -0.4100370032 0.7394528544
530296820.0 0.4330275468 -0.7325644243 -7.28786e-05 -2.0701e-06 -0.000106707 -0.000216476 -0.4032974559 0.7429683786
535296790.0 0.4261548694 -0.7364903816 0.0001226334 -0.0001423051 2.29212e-05 -0.0001606416 -0.3954538826 0.7464857674
540296760.0 0.4186473474 -0.7409431616 -0.0001628956 -7.91764e-05 -6.79201e-05 5.56488e-05 -0.3881546149 0.7508111186
545296730.0 0.4110897196 -0.7442131676 -0.0001412363 -0.0001925541 -0.0001647851 8.57307e-05 -0.3810553754 0.7542520247
550296700.0 0.4040288454 -0.7489280367 3.99349e-05 0.0001761139 -0.0001565804 1.12538e-05 -0.3735952165 0.7583451678
555296670.0 0.3965208093 -0.7529046733 0.0002141064 0.0001330484 -4.132e-07 9.98774e-05 -0.3655709051 0.7619019431
560296640.0 0.3897447713 -0.7563666149 0.0001487415 -1.35394e-05 0.000127554 -4.19743e-05 -0.3578451022 0.7658073353
565296610.0 0.381902912 -0.7600016753 3.49135e-05 -1.22238e-05 8.75845e-05 8.09926e-05 -0.3504507421 0.7691524969
570296580.0 0.3744673435 -0.7639114888 -1.738e-06 5.51357e-05 9.0693e-05 -3.14826e-05 -0.3436623995 0.772550187
575296550.0 0.3670782905 -0.7667527907 9.40237e-05 -0.0001171044 -5.36648e-05 -1.0662e-05 -0.3350866607 0.7759922882
580296520.0 0.3597499637 -0.7703978539 -0.0001189778 -2.43897e-05 1.29495e-05 0.0001351658 -0.3276664907 0.7791359164
585296490.0 0.350823024 -0.7738893438 -4.82904e-05 -5.64259e-05 0.0001386625 0.0001898343 -0.3196470447 0.7815382701
590296460.0 0.3435106025 -0.7780300961 9.1284e-05 -0.0001911378 2.69037e-05 -5.70258e-05 -0.3122448954 0.7851201807
595296430.0 0.336302381 -0.7804246911 -9.57516e-05 -0.0002083424 0.0001216955 -2.36373e-05 -0.3043680187 0.7874579755
600296400.0 0.3280669174 -0.7840385024 -0.000189084 0.0001393854 -0.0002565081 7.4247e-06 -0.2962812664 0.7913352673
605296370.0 0.3211796839 -0.7861309936 0.0001988123 5.3575e-06 4.58202e-05 0.0002390339 -0.2890081237 0.794490298
610296340.0 0.313230778 -0.7901966794 -5.92568e-05 -0.0001057855 -7.0534e-06 0.0001062513 -0.2806348551 0.7972145559
615296310.0 0.3051267721 -0.7922312649 -0.0001363195 -0.0002335117 -0.0001891196 0.0002102328 -0.2724469824 0.7996401005
620296280.0 0.2972766424 -0.7953676096 0.0001229873 4.60875e-05 -0.0001585859 -0.0002754266 -0.2656337273 0.8020567401
625296250.0 0.2894631711 -0.7983016317 0.0001632127 0.0001225419 7.73414e-05 -8.83524e-05 -0.257124346 0.8050028593
630296220.0 0.2814771846 -0.8015207254 7.6801e-06 -0.0001101877 -0.0001849518 0.0001257371 -0.2487933646 0.8073178655
635296190.0 0.273501287 -0.8041366501 -8.19001e-05 0.000169944 0.0002003315 0.0001537025 -0.2414446206 0.8095067632
640296160.0 0.265908169 -0.8060014432 0.000186945 -2.65132e-05 -9.75003e-05 -0.0002275771 -0.2326727119 0.8112494984
645296130.0 0.2575956703 -0.8087531758 -5.8206e-06 0.000154429 4.99097e-05 4.70179e-05 -0.2251543241 0.8143134364
650296100.0 0.249744463 -0.8108012143 0.0001146682 2.75148e-05 -3.66521e-05 8.08435e-05 -0.2173230171 0.8167054908
655296070.0 0.2416933384 -0.8133011609 8.58639e-05 -9.30489e-05 6.81543e-05 -6.40157e-05 -0.2089200403 0.8178855471
660296040.0 0.2330593594 -0.81579118 -4.9598e-05 -0.0002234993 0.0001413514 0.0001060656 -0.2014806871 0.8204720619
665296010.0 0.2256978748 -0.8173156524 0.0001832563 -0.0002135264 -3.2041e-06 -0.0001270242 -0.1928870856 0.8222524939
670295980.0 0.2181779449 -0.8202804081 9.18235e-05 -8.46792e-05 -7.32984e-05 -3.22723e-05 -0.1854706697 0.8238301506
675295950.0 0.2096670524 -0.8217860375 9.96653e-05 0.0002719502 -0.0001553816 -9.42471e-05 -0.1765240403 0.826236143
680295920.0 0.2007371386 -0.8237412732 0.0001047638 2.66188e-05 0.0002577607 -5.0726e-06 -0.1684539115 0.8276974619
685295890.0 0.1935100313 -0.8246508004 -3.81723e-05 -2.81016e-05 7.92416e-05 -5.11864e-05 -0.160215425 0.8293194001
690295860.0 0.1851533152 -0.8275060753 8.08999e-05 -1.35293e-05 -0.0001160019 -0.0001671266 -0.1515642989 0.8308915831
695295830.0 0.1769186386 -0.8289479359 0.0002361351 0.0001471161 -9.79833e-05 6.18757e-05 -0.1437004169 0.8325158808
700295800.0 0.1687975292 -0.8304417157 5.5945e-06 -2.28603e-05 -8.312e-05 0.0001509489 -0.1351548318 0.833616142
705295770.0 0.1604342007 -0.8321451629 -4.10698e-05 9.669e-06 6.442e-05 -6.16139e-05 -0.1276466441 0.8355277683
710295740.0 0.152541183 -0.8334289989 0.0001078235 -4.05677e-05 7.22592e-05 -0.0001644248 -0.1195709641 0.836759432
715295710.0 0.1441180655 -0.8341014065 0.0001498248 -0.0001067734 -0.0001063075 -2.8291e-05 -0.1113715919 0.8378071163
720295680.0 0.1356551396 -0.8356395224 -0.0001624608 3.72267e-05 -5.8666e-06 -3.60339e-05 -0.1023405522 0.8385322613
725295650.0 0.1278746536 -0.8366975985 -0.0002000762 0.0001958342 -6.00047e-05 0.0002148264 -0.0937981134 0.8396942638
730295620.0 0.11926619 -0.83890284 0.000183487 4.02631e-05 2.48424e-05 3.23199e-05 -0.0857342962 0.8403340072
735295590.0 0.1113582305 -0.8391729949 7.8611e-06 -8.34449e-05 -0.0001215829 2.6613e-05 -0.0772400107 0.8410618669
740295560.0 0.1027032021 -0.8404475808 6.75252e-05 -4.90285e-05 0.0001544772 1.15193e-05 -0.0695656365 0.8412431219
745295530.0 0.0943671313 -0.8415546796 -1.65893e-05 -0.0001146628 0.0001793039 7.43202e-05 -0.0610713127 0.842341138
750295500.0 0.0863108962 -0.8417928026 -0.0002091986 -2.03166e-05 -0.0001672299 -5.38577e-05 -0.0525852413 0.8424861301
755295470.0 0.0779897861 -0.8425291827 3.75092e-05 -8.72211e-05 0.0001549972 -5.49805e-05 -0.0446852079 0.8435437984
760295440.0 0.0692409366 -0.8420997179 -4.92025e-05 0.0002703923 8.29561e-05 4.77707e-05 -0.0367513988 0.8437249844
765295410.0 0.0610663716 -0.8436659452 7.10613e-05 -0.0001527938 4.04502e-05 -2.00255e-05 -0.0275064434 0.8445453369
770295380.0 0.0529007453 -0.8438079271 0.0001160523 -4.56764e-05 5.3368e-06 7.21795e-05 -0.019141418 0.8441065833
775295350.0 0.044237326 -0.8438548441 -4.61765e-05 3.65722e-05 0.0001072687 4.0514e-05 -0.0116428243 0.8443982871
780295320.0 0.0352405986 -0.8447389732 -0.0002126392 -0.0002501372 2.14273e-05 0.0001828333 -0.0034943765 0.8444072284
785295290.0 0.0269281994 -0.8446771995 -9.58837e-05 -5.59813e-05 -8.49568e-05 0.0001250406 0.0042059635 0.8448398227
790295260.0 0.0194653911 -0.844482065 9.4851e-05 -7.92803e-05 -5.09454e-05 0.000204724 0.0142145073 0.8442920811
795295230.0 0.0111250367 -0.8442951802 6.94727e-05 2.1294e-06 -1.25841e-05 9.09809e-05 0.0221144766 0.8447024654
800295200.0 0.0031441782 -0.8439866369 9.4775e-06 2.52239e-05 -0.0001606624 8.55603e-05 0.0297850104 0.8438674131
805295170.0 -0.0053473352 -0.8445431068 0.0003305996 -4.24383e-05 -6.4753e-05 2.33853e-05 0.0385037821 0.8432412105
810295140.0 -0.0142976743 -0.8437718203 -9.9102e-06 -0.0002877084 -9.90083e-05 0.0002113284 0.0464227093 0.8440674124
815295110.0 -0.021977276 -0.8437659979 -0.0001245045 -0.0001255543 -0.0001359339 9.01697e-05 0.0547858431 0.8434232977
820295080.0 -0.0306392615 -0.8429672302 -4.67879e-05 0.0002381513 -7.10964e-05 1.06592e-05 0.0633386567 0.8418790118
825295050.0 -0.0392509139 -0.8431091732 -0.0001276096 5.22803e-05 6.74691e-05 -0.000171378 0.070803353 0.842523922
830295020.0 -0.047361194 -0.8425001446 7.97932e-05 0.0001026494 -0.0001381887 0.0001425853 0.0791926856 0.8410530052
835294990.0 -0.0550353737 -0.8416833149 -5.63723e-05 -9.9766e-05 3.24037e-05 4.21922e-05 0.0875096043 0.8400298249
840294960.0 -0.0635026641 -0.8408084525 -4.22253e-05 -0.0001405552 4.86e-07 -0.0001529022 0.0957774514 0.8392829943
845294930.0 -0.0719983611 -0.8402677818 -6.00082e-05 0.0001091154 -1.35168e-05 1.0398e-06 0.1038463426 0.8380036021
850294900.0 -0.0804059331 -0.8390320125 -0.0002353576 3.9669e-06 -4.33527e-05 7.3565e-06 0.1120003106 0.8375530203
