!Created with skrf (http://scikit-rf.org).
# Hz S RI R 50.0 
!freq ReS11 ImS11 ReS21 ImS21 ReS12 ImS12 ReS22 ImS22
300000.0 -0.0986974515 -0.0668178244 0.6285644228 0.0636068248 0.622922274 0.0636873602 -0.0983200106 -0.0749718544
5299970.0 -0.1021937448 0.0135263066 0.6305237137 0.0094272583 0.630618164 0.0099859227 -0.1007918682 0.0131044361
10299940.0 -0.0971596808 0.0295102737 0.6340336313 0.0151391194 0.6340522954 0.0155032351 -0.0955719309 0.030466732
15299910.0 -0.0900279655 0.0426016402 0.6406024166 0.0201795147 0.6408929056 0.0203284252 -0.0885847529 0.0435575157
20299880.0 -0.0816302304 0.0530882237 0.6484932322 0.0239535166 0.6483306033 0.0237129247 -0.0796954768 0.0544245536
25299850.0 -0.0723285229 0.0622593016 0.6573505988 0.025092357 0.6575249113 0.0253490473 -0.0697934299 0.0632898256
30299820.0 -0.0621920795 0.0687655862 0.6672123642 0.0240779314 0.6671878478 0.0239897624 -0.0597579254 0.0701098039
35299790.0 -0.0524660545 0.0734467932 0.6770905112 0.0216862256 0.6770091807 0.0212098992 -0.0497760934 0.0748097638
40299760.0 -0.0431520243 0.0772133247 0.6863188672 0.0171872787 0.6863187637 0.0174785981 -0.0401606918 0.0773994115
45299730.0 -0.0339551769 0.0793020744 0.6947920242 0.0119448371 0.6954323235 0.0117032342 -0.0311523009 0.0798185789
50299700.0 -0.02580513 0.0799967098 0.7036192041 0.0049080566 0.7033344716 0.005341665 -0.0227374787 0.0803851747
55299670.0 -0.0175560568 0.0801466517 0.7109701545 -0.0033666614 0.7106124663 -0.002891962 -0.014745175 0.0808529321
60299640.0 -0.0098963051 0.0800300481 0.7173337997 -0.0113542499 0.7176487429 -0.0114012236 -0.0077243906 0.0796723314
65299610.0 -0.0037107285 0.0787901934 0.7229615817 -0.0202473389 0.7235252027 -0.0200154513 -0.0013459636 0.0786520681
70299580.0 0.0024853812 0.0775385156 0.7287924584 -0.0297037571 0.7283090735 -0.0292312432 0.0047591131 0.0767230951
75299550.0 0.0082214386 0.0759635843 0.7325576702 -0.0390188261 0.7324910935 -0.0395345988 0.0101384575 0.0747976435
80299520.0 0.0130588799 0.0733887173 0.7372648327 -0.0489510242 0.7372137539 -0.049325149 0.0151555192 0.0726308803
85299490.0 0.0177092025 0.0717387663 0.7401580108 -0.0583894926 0.7403974215 -0.0583478984 0.0192945833 0.0698641537
90299460.0 0.0216447605 0.0692414176 0.7430135778 -0.0694177008 0.7433658405 -0.0688128833 0.023522006 0.0679248919
95299430.0 0.0258929379 0.06650005 0.7457389266 -0.0791049738 0.7458509421 -0.079599273 0.0274189816 0.0654192744
100299400.0 0.0289449565 0.0646604768 0.7464461866 -0.0891621875 0.7467669441 -0.0894381528 0.0309773513 0.0625495338
105299370.0 0.0325889003 0.0619689829 0.7487210363 -0.0998123175 0.7490690618 -0.0994367496 0.0339574249 0.0608429007
110299340.0 0.0348125582 0.0596255822 0.7497759521 -0.1092652577 0.7494552669 -0.1091227431 0.036008024 0.0576418135
115299310.0 0.037216188 0.0573965152 0.7504776445 -0.1194809566 0.7506509997 -0.1193767938 0.0387371504 0.0553944782
120299280.0 0.039894696 0.0547260576 0.7509669713 -0.1294268704 0.7513746499 -0.1297965227 0.041521626 0.0531041899
125299250.0 0.0418793774 0.0522276262 0.7513106492 -0.1393308174 0.7516135679 -0.1392377545 0.0427032002 0.0502112638
130299220.0 0.0438237089 0.050273143 0.7511396954 -0.1490936117 0.7512746787 -0.1493533411 0.0448880301 0.0480507772
135299190.0 0.0453423539 0.0482421295 0.7514291371 -0.1589742246 0.7509951267 -0.1592216918 0.0466771459 0.0459918308
140299160.0 0.0467803533 0.046111526 0.7506260471 -0.1688147438 0.7507715903 -0.1694222685 0.047867121 0.0444509918
145299130.0 0.0479279612 0.0437059961 0.750520949 -0.1788987353 0.7495433465 -0.1781752575 0.0494080807 0.041961701
150299100.0 0.0496982101 0.0420421726 0.7485383448 -0.1875866468 0.7490169344 -0.1877298114 0.0508159075 0.0402805249
155299070.0 0.0505314653 0.039760139 0.7476684239 -0.1988812794 0.7473327309 -0.1981457849 0.0518527155 0.0382611013
160299040.0 0.0517444762 0.0380118455 0.7462143883 -0.2074548287 0.7458016564 -0.2078540307 0.0522529055 0.0360176972
165299010.0 0.0524831037 0.0361754407 0.7446434637 -0.217366175 0.7443990189 -0.2172455037 0.0534116782 0.0349615732
170298980.0 0.0533879383 0.0339482209 0.7426635323 -0.2267076536 0.7430173352 -0.22641603 0.0544552261 0.0329595998
175298950.0 0.0538017255 0.032206578 0.741723419 -0.2354267407 0.7406327104 -0.2353491367 0.0548399708 0.0310702926
180298920.0 0.0543478376 0.030464838 0.7390459929 -0.244995312 0.7386701127 -0.2445823371 0.0555612126 0.0296413874
185298890.0 0.0555161377 0.0286168631 0.7362205751 -0.2538178807 0.7362144116 -0.2539182079 0.0558800451 0.0282563832
190298860.0 0.055392425 0.0271977752 0.7338617993 -0.26321544 0.7343130623 -0.2630496056 0.0564021448 0.0260766066
195298830.0 0.0561209031 0.0251114466 0.7315958898 -0.2722828925 0.7316682954 -0.2720742277 0.0572271656 0.0248638594
200298800.0 0.0562740719 0.0239292875 0.7289117295 -0.2810519683 0.7288807889 -0.2813158041 0.0568116933 0.0235334806
205298770.0 0.0567159727 0.0226978234 0.7255904273 -0.2898947148 0.7259866233 -0.2901844765 0.0574728722 0.0215555237
210298740.0 0.057233834 0.020776678 0.7227620604 -0.2983091085 0.7228322265 -0.2980827473 0.0578550339 0.0212632822
215298710.0 0.0570589429 0.0196212494 0.7204836206 -0.3072099519 0.7199561184 -0.3077318872 0.057876146 0.0197029201
220298680.0 0.0573981358 0.0175266119 0.7161452241 -0.3159570423 0.7166680684 -0.3157921546 0.0575795737 0.0180983204
225298650.0 0.0575479462 0.0163661398 0.7136394219 -0.3247665494 0.7135255009 -0.3246459443 0.0573338159 0.0165048724
230298620.0 0.05782897 0.0158399036 0.7104206213 -0.332822797 0.7107449349 -0.3335360657 0.0576490275 0.0150783289
235298590.0 0.0579798117 0.0148266555 0.7066941624 -0.3415786654 0.7066403927 -0.3415062186 0.0576491112 0.0138362873
240298560.0 0.057800708 0.0132903122 0.7031528551 -0.3498928466 0.7027629491 -0.3503889838 0.0575064843 0.0130102367
245298530.0 0.0579473427 0.0117560655 0.6994911779 -0.3582047773 0.6995897493 -0.3584989361 0.0582654379 0.0112345052
250298500.0 0.0586970296 0.0107688001 0.6950277773 -0.3669097665 0.6945654786 -0.3662593111 0.0576396472 0.0103321016
255298470.0 0.0581832172 0.0092704631 0.6911679359 -0.3747643519 0.691631211 -0.3742397197 0.0580138358 0.0089838315
260298440.0 0.0578795855 0.0081931364 0.6872804959 -0.3833877886 0.687558675 -0.3824038523 0.058553098 0.0078118885
265298410.0 0.0586817681 0.0074563884 0.6835571304 -0.391345922 0.6838814589 -0.390600365 0.0580342865 0.0067896997
270298380.0 0.0583289908 0.0059843559 0.6792173755 -0.3985647732 0.6792920298 -0.3986863985 0.0579273522 0.005653149
275298350.0 0.0588854787 0.0050013126 0.6749681574 -0.4070517338 0.675312034 -0.4067720194 0.0583155509 0.0041256307
280298320.0 0.0587362283 0.0041831768 0.6709288251 -0.4147063721 0.6706897775 -0.4148082804 0.0583280003 0.0032177612
285298290.0 0.0585982697 0.0031347414 0.6662841695 -0.422397269 0.6661665673 -0.4229406099 0.0584154734 0.0023152347
290298260.0 0.0589803828 0.0020332318 0.6618083909 -0.4299998911 0.6617693016 -0.4302104959 0.0587009336 0.0013135897
295298230.0 0.0589051912 0.0008683188 0.6576519645 -0.4376540703 0.6569841278 -0.4377094329 0.0593535594 0.0002042381
300298200.0 0.0583356825 -0.0004489273 0.6527764707 -0.4456103429 0.6524853346 -0.4461786948 0.0585639543 -0.0011175817
305298170.0 0.0585036524 -0.0016620201 0.6472762945 -0.4535524701 0.6475918009 -0.4533995565 0.0592239873 -0.0021328604
310298140.0 0.0584563716 -0.0025613353 0.6431302726 -0.4609374946 0.6429235164 -0.4607669408 0.0591855453 -0.0033928804
315298110.0 0.0583947772 -0.0044557967 0.6377712933 -0.4685606521 0.6377282762 -0.4689479886 0.0587498854 -0.004700694
320298080.0 0.0584935123 -0.004980298 0.6324279818 -0.4767954472 0.6326813112 -0.4762834261 0.0586370307 -0.0054787655
325298050.0 0.0577952382 -0.0062619974 0.6271609469 -0.4841523374 0.6270809964 -0.483775367 0.0581841497 -0.0064523812
330298020.0 0.0573642767 -0.0076312363 0.6208326192 -0.4908300568 0.6216507145 -0.4910732614 0.0576201425 -0.0077875631
335297990.0 0.0569839203 -0.0088629 0.6157659382 -0.4979783804 0.6154848362 -0.4980881955 0.0567015152 -0.0079851632
340297960.0 0.0559386408 -0.0093989812 0.6093302389 -0.5047280989 0.6090936975 -0.5050791249 0.0566581699 -0.0086247285
345297930.0 0.0558002211 -0.0092226225 0.6038262845 -0.5124412771 0.6039022194 -0.5126759731 0.0563900536 -0.009849896
350297900.0 0.0551561178 -0.0108824331 0.5974242602 -0.5186551186 0.5976825124 -0.5185907348 0.0552203092 -0.0099239904
355297870.0 0.0549419211 -0.0107769991 0.5918799846 -0.5254217949 0.5925543913 -0.5251485502 0.0550584015 -0.010995455
360297840.0 0.0545909576 -0.0115701062 0.587006169 -0.5314328969 0.5867353083 -0.5316757511 0.0548761187 -0.0111460916
365297810.0 0.0538265644 -0.0122361792 0.5803264689 -0.5389413898 0.5812484282 -0.5384145112 0.0546181208 -0.0115632575
370297780.0 0.0543270736 -0.0135556766 0.5746246795 -0.5450617357 0.5749898096 -0.5448880067 0.0543124317 -0.0123692667
375297750.0 0.0536439985 -0.0139192626 0.5683562307 -0.5515010899 0.5689729532 -0.5514234591 0.0543321011 -0.0129623852
380297720.0 0.0535394231 -0.014443012 0.5623175908 -0.5577682754 0.562365431 -0.5567585354 0.0533439716 -0.0140089016
385297690.0 0.0528989138 -0.0153352483 0.5562641724 -0.5640849255 0.5559168297 -0.564114311 0.05325263 -0.0143113948
390297660.0 0.0526684529 -0.0153958474 0.5498905097 -0.5703541424 0.5498319415 -0.5696813707 0.0524975657 -0.0150816395
395297630.0 0.052277923 -0.0162788089 0.5437042826 -0.5761478545 0.5440105361 -0.5764851562 0.053087497 -0.0156467888
400297600.0 0.051684846 -0.0169933595 0.5366038795 -0.582558262 0.5373212712 -0.582402487 0.0523816071 -0.0164614925
405297570.0 0.0511041762 -0.0174054394 0.5312738793 -0.5882983692 0.5305098296 -0.5877199627 0.0516398985 -0.0167403634
410297540.0 0.0512271806 -0.0179108354 0.5244821285 -0.5948879546 0.5248131013 -0.5942682916 0.0512027378 -0.0171022248
415297510.0 0.0510094222 -0.0188208922 0.5177049849 -0.6004250886 0.5181853362 -0.6000743844 0.0510295969 -0.0178409599
420297480.0 0.0505479533 -0.0191406424 0.5110171815 -0.6058921477 0.5111418587 -0.6064225376 0.0501729349 -0.0190813141
425297450.0 0.0504183945 -0.0206806355 0.505094453 -0.6119304291 0.5051787747 -0.6112885922 0.0495189487 -0.0189858994
430297420.0 0.0495739111 -0.0208168492 0.4977346341 -0.6164276023 0.4977198056 -0.6163218097 0.0494603856 -0.0200461999
435297390.0 0.0493922934 -0.0213871443 0.4907482568 -0.6224213352 0.4908461713 -0.6224635077 0.0497589814 -0.020735867
440297360.0 0.0493033803 -0.0215965407 0.4841285659 -0.6275451119 0.4839453569 -0.6278188774 0.0486777847 -0.0214838104
445297330.0 0.0485355777 -0.0230680366 0.4773108136 -0.6335421526 0.4773567869 -0.6333995183 0.0488245377 -0.0222832912
450297300.0 0.0483749202 -0.0231942769 0.4701585411 -0.6385802186 0.4698858873 -0.6388059795 0.0482656724 -0.0227678579
455297270.0 0.0478865213 -0.0237340612 0.4632154437 -0.6439158444 0.4630585554 -0.6438491414 0.0478886633 -0.0232578358
460297240.0 0.0476080679 -0.0243860454 0.4557554504 -0.6487243507 0.4557994673 -0.649069908 0.0474483952 -0.0236672141
465297210.0 0.0476067595 -0.0250129706 0.4490368539 -0.6542532103 0.4489657868 -0.6544543867 0.0472810949 -0.0247245715
470297180.0 0.0468455616 -0.0259676097 0.4411676515 -0.6590639547 0.4416346183 -0.6590360054 0.0469844693 -0.0250383212
475297150.0 0.0465583935 -0.0265039815 0.4341970543 -0.6630708987 0.4344570919 -0.6632832469 0.0469017077 -0.0259478504
480297120.0 0.0460007479 -0.02634703 0.4268405761 -0.6684032069 0.4271476974 -0.6688619944 0.0469657669 -0.0259711276
485297090.0 0.045266235 -0.0270154983 0.419826938 -0.6730956342 0.4195589611 -0.672976495 0.0461936682 -0.0271638948
490297060.0 0.0445582799 -0.0279259938 0.4125841662 -0.6784418642 0.4125211594 -0.6775625267 0.0460106602 -0.0269376236
495297030.0 0.0445275246 -0.0282814901 0.4046125363 -0.6823174521 0.4053159347 -0.6824246086 0.045182266 -0.0275462759
500297000.0 0.0439807718 -0.0288814414 0.3971042774 -0.686317711 0.3966950125 -0.6858859287 0.0448780602 -0.0277530076
505296970.0 0.043681761 -0.0292791398 0.3897373001 -0.6906184491 0.3896283894 -0.6912501589 0.0443442505 -0.0282481046
510296940.0 0.0429216678 -0.0298684031 0.3816811921 -0.695118511 0.3824890701 -0.6955515202 0.0443445022 -0.0283249416
515296910.0 0.0424506915 -0.0298417089 0.3742796005 -0.6994177968 0.3745544309 -0.6992461672 0.0439963567 -0.0288922893
520296880.0 0.0420600508 -0.0305679411 0.3666547134 -0.7043913092 0.3667810905 -0.7034557899 0.0429975923 -0.029620156
525296850.0 0.0419163259 -0.0316459901 0.3585605777 -0.7073743306 0.3593791406 -0.7074953393 0.0425545012 -0.0299356621
530296820.0 0.0412989143 -0.0315008384 0.3507547736 -0.7121280603 0.3513480949 -0.7115459438 0.0423053024 -0.0297329735
535296790.0 0.0400733095 -0.0318181476 0.3435428898 -0.7154844611 0.344083042 -0.7148416609 0.0417640265 -0.0310717863
540296760.0 0.0400911394 -0.0319100656 0.3357337434 -0.7193572369 0.3352226085 -0.7194655364 0.0408791791 -0.030298351
545296730.0 0.0396777163 -0.0327808735 0.3272907803 -0.7229456031 0.3274896019 -0.7228499544 0.0403949581 -0.0314212301
550296700.0 0.0396980073 -0.0328620088 0.3196316633 -0.726313285 0.3196339787 -0.7264933987 0.039602416 -0.0315438268
555296670.0 0.0385137769 -0.0332261108 0.3114055291 -0.7297328947 0.3117942245 -0.7295166508 0.0392395741 -0.0318369792
560296640.0 0.0383023679 -0.0332813642 0.3036087131 -0.7331578858 0.3035786479 -0.7331616174 0.0389813663 -0.0326473994
565296610.0 0.037371754 -0.0340681958 0.2956003371 -0.7361535325 0.2958958074 -0.7366153803 0.0379913755 -0.0329087151
570296580.0 0.0368102378 -0.0340758605 0.2880516545 -0.7402917107 0.2870161787 -0.7397237972 0.0377196344 -0.0325028293
575296550.0 0.0362248896 -0.0343376915 0.2796170555 -0.7435004022 0.2795024241 -0.7428121526 0.0374123101 -0.0333212223
580296520.0 0.0360615414 -0.0346046096 0.271188475 -0.7458592561 0.2714305627 -0.7457503392 0.0362871622 -0.0340069472
585296490.0 0.0353634835 -0.035862399 0.2631711426 -0.7481327507 0.2640292576 -0.74900313 0.0359783624 -0.034156704
590296460.0 0.0352698001 -0.0357937617 0.2554008191 -0.7510690032 0.2548754762 -0.7514120785 0.0346772235 -0.0345963958
595296430.0 0.0347817502 -0.0357089783 0.2465748198 -0.7543863542 0.246585875 -0.7542355131 0.0347289379 -0.0352603387
600296400.0 0.0336826587 -0.036325641 0.238509497 -0.7570221334 0.2382519383 -0.756439092 0.0342019496 -0.0352262646
605296370.0 0.0334714678 -0.0366904169 0.2300617518 -0.7595673908 0.2300917092 -0.7591897631 0.0334818488 -0.0356795853
610296340.0 0.0329509282 -0.0369453977 0.2216305406 -0.7617155958 0.2220481451 -0.7620909577 0.0336116423 -0.0362643896
615296310.0 0.0328861598 -0.0378714268 0.2135789488 -0.7642186869 0.2129198032 -0.7648060512 0.0330080685 -0.0362460545
620296280.0 0.0320039248 -0.0378933787 0.2053224572 -0.7663222827 0.2051167615 -0.766404781 0.0318238434 -0.0367388142
625296250.0 0.0309358747 -0.0388908566 0.1975729857 -0.7687462166 0.196982616 -0.7692823207 0.0318465657 -0.0369282006
630296220.0 0.0316557185 -0.0385949037 0.1882724148 -0.77118641 0.1876067634 -0.7706964169 0.0314383867 -0.0373034612
635296190.0 0.0296082678 -0.03937049 0.1800076405 -0.7726886128 0.1799652689 -0.7728073707 0.0309064134 -0.0373958702
640296160.0 0.0292685715 -0.0391396721 0.1717971218 -0.7743716114 0.171592093 -0.7743148449 0.030286766 -0.0379075576
645296130.0 0.0290384546 -0.0393725663 0.1629213742 -0.7762020302 0.1629430179 -0.776517052 0.0297533491 -0.0379975434
650296100.0 0.028367125 -0.0395987682 0.1544756495 -0.7781327157 0.1548976602 -0.7785691213 0.0299724166 -0.0390393408
655296070.0 0.0272266786 -0.0401728838 0.1462544178 -0.7803339038 0.1460303467 -0.7795944367 0.0292036101 -0.038681607
660296040.0 0.0263576555 -0.0407519479 0.1377965342 -0.781827456 0.1375146067 -0.7820349593 0.0287450143 -0.0391492845
665296010.0 0.0265637237 -0.040429164 0.1287504892 -0.7826859397 0.1287694388 -0.7829389925 0.0280163118 -0.038573812
670295980.0 0.0246892377 -0.0406590443 0.1199520718 -0.7845175383 0.120229377 -0.7843368203 0.027032233 -0.0393512854
675295950.0 0.024870188 -0.0405489277 0.1121060252 -0.7851032558 0.1123877992 -0.7847955038 0.0263993841 -0.0392740053
680295920.0 0.0239537166 -0.0413447307 0.1031399644 -0.7861970659 0.1027987448 -0.7870348782 0.0261241673 -0.0384950377
685295890.0 0.0235561738 -0.0407375329 0.0947938585 -0.787816835 0.094824835 -0.7876177498 0.0258010102 -0.0388079932
690295860.0 0.0233472421 -0.0409106498 0.0863026737 -0.7880306496 0.0861617099 -0.7888448153 0.0247376877 -0.0383497581
695295830.0 0.0228484058 -0.0414817388 0.07835117 -0.7893442371 0.0771535378 -0.789015394 0.0241946167 -0.0389933331
700295800.0 0.0220348767 -0.0420752939 0.068467494 -0.7906076248 0.0680690231 -0.7899722273 0.0234842049 -0.0383676041
705295770.0 0.0210700343 -0.0410007735 0.0599602107 -0.7912975034 0.0605406788 -0.7909023064 0.0228742661 -0.038980454
710295740.0 0.0209889828 -0.0415052801 0.0522479125 -0.7922104788 0.0519058987 -0.7917721099 0.0228538821 -0.0397819694
715295710.0 0.0195915391 -0.0419307667 0.0433346361 -0.7920300646 0.0425798199 -0.7921707964 0.022368201 -0.0397970626
720295680.0 0.0195597632 -0.0419234804 0.0345699321 -0.7928737266 0.0344276676 -0.7924146799 0.0215628894 -0.0392332098
725295650.0 0.0191017793 -0.0416981329 0.0255531044 -0.7924474312 0.0260493143 -0.7927478491 0.019890914 -0.0393744813
730295620.0 0.0185699041 -0.0417207731 0.0174231754 -0.7922798442 0.0171107473 -0.7933193362 0.0196521997 -0.0398276244
735295590.0 0.0178879122 -0.0418452052 0.0087654949 -0.7930640852 0.0081482479 -0.7931519774 0.0191223154 -0.0399554896
740295560.0 0.0168498247 -0.0416962904 -0.0001749143 -0.7929092065 -0.000150462 -0.7934189003 0.0188631139 -0.0396684224
745295530.0 0.0166359778 -0.0415058374 -0.0089674192 -0.7923809229 -0.0089521364 -0.7930802116 0.0183790402 -0.0399573155
750295500.0 0.0157749309 -0.0419283897 -0.0171915742 -0.7926074241 -0.0174566588 -0.7929872417 0.0172004233 -0.0401242401
755295470.0 0.0155259334 -0.0421771882 -0.0256007924 -0.7927130442 -0.0259694316 -0.7924034335 0.0173318881 -0.0404363287
760295440.0 0.0145821065 -0.0418620949 -0.0342637031 -0.7924133728 -0.0350057129 -0.7925434994 0.0164517138 -0.0404246654
765295410.0 0.0141641312 -0.0422323787 -0.0433274872 -0.7921297642 -0.0437515094 -0.7921642573 0.0157650715 -0.0401364046
770295380.0 0.0132376987 -0.0422128613 -0.0521188597 -0.7914514783 -0.0524642432 -0.7909244972 0.0146928328 -0.0407120603
775295350.0 0.0126203877 -0.0428996956 -0.0606110507 -0.7905246034 -0.0603043113 -0.7908049712 0.0137315036 -0.0401586131
780295320.0 0.012324553 -0.0424787215 -0.0690910159 -0.7896502374 -0.0683828486 -0.7897082785 0.0135581858 -0.0410088698
785295290.0 0.011295128 -0.0427986642 -0.0783687077 -0.7888998841 -0.0775863174 -0.7890663958 0.0134802263 -0.0406882339
790295260.0 0.011398332 -0.0418590271 -0.0853323764 -0.7878329327 -0.0852721728 -0.787728191 0.0125947047 -0.040641542
795295230.0 0.0103527628 -0.0425092103 -0.0944685328 -0.7870780175 -0.0941522427 -0.7870280483 0.0122758725 -0.0401606801
800295200.0 0.0091452078 -0.041862473 -0.1037663648 -0.785750616 -0.1029945569 -0.7862085164 0.0115057463 -0.0410828936
805295170.0 0.0089217411 -0.0426371594 -0.111890404 -0.784824079 -0.1119294087 -0.785240341 0.0111242874 -0.0405742305
810295140.0 0.0080610797 -0.0427608906 -0.1197809052 -0.7829957476 -0.1205179543 -0.783710984 0.0107204828 -0.040531556
815295110.0 0.007842234 -0.0429767494 -0.128683016 -0.782019132 -0.128444049 -0.7819063539 0.0096844903 -0.0403473972
820295080.0 0.0066554009 -0.041813734 -0.1375413829 -0.7804654839 -0.1371201259 -0.7807517401 0.0092420605 -0.0403842974
825295050.0 0.0067536967 -0.0421334212 -0.1450675566 -0.7789109259 -0.1460841859 -0.7790637078 0.0094317355 -0.0402060884
830295020.0 0.0058428096 -0.0419585251 -0.1545397831 -0.7768967004 -0.154065301 -0.7771607916 0.0093712596 -0.0401580396
