!Created with skrf (http://scikit-rf.org).
# Hz S RI R 50.0 
!freq ReS11 ImS11 ReS21 ImS21 ReS12 ImS12 ReS22 ImS22
300000.0 -0.7783154747 -0.0868453841 -0.0021503644 0.0032060521 2.61864e-05 0.002636178 -0.7702304411 -0.1225162101
5299970.0 -0.7850314378 -0.0050668184 -0.0001373689 -9.40752e-05 -2.05417e-05 -0.0001337335 -0.7854172432 -0.0067540856
10299940.0 -0.7877271702 -0.0041746734 -0.0001676892 0.0002084402 0.0001224961 4.23988e-05 -0.7879971349 -0.0033788814
15299910.0 -0.7934376453 -0.0024398914 1.79726e-05 -9.49586e-05 0.0001259556 -5.13873e-05 -0.7935782566 -0.001479678
20299880.0 -0.8001034583 0.0019302031 -3.6084e-06 0.0001515901 -7.36121e-05 7.5457e-05 -0.8005090021 0.002117542
25299850.0 -0.8063769442 0.0074262278 6.99298e-05 0.0002119889 1.08067e-05 -0.0001494661 -0.8058813848 0.0080808302
30299820.0 -0.8121661737 0.0150745674 -3.74779e-05 -2.8302e-06 2.12653e-05 9.4421e-06 -0.8124431655 0.0161186107
35299790.0 -0.8175657948 0.0246498037 -4.00753e-05 -9.68259e-05 0.0001026134 5.24789e-05 -0.8171801121 0.0249531148
40299760.0 -0.8212347374 0.033864084 0.0002211256 -4.85758e-05 8.0068e-05 3.61424e-05 -0.8212058959 0.0342635048
45299730.0 -0.824383825 0.0425179098 -0.0002072738 -1.58581e-05 -5.64418e-05 4.0785e-05 -0.8254674807 0.0437318515
50299700.0 -0.8272254503 0.0530978386 -0.0001091972 -9.42062e-05 2.74775e-05 -6.24261e-05 -0.8274920859 0.0533506402
55299670.0 -0.8290003239 0.0634047648 -0.0001181086 0.0001040838 3.6376e-05 -0.0001511841 -0.8293625827 0.0644304994
60299640.0 -0.8302956711 0.072939135 -1.26251e-05 0.0001281623 -0.00020426 1.91584e-05 -0.8304302121 0.0742550961
65299610.0 -0.8313392502 0.0828235503 -1.84766e-05 -7.13079e-05 8.22647e-05 0.0001240844 -0.8317696056 0.0842282944
70299580.0 -0.8316988242 0.0929989689 -1.11901e-05 5.75942e-05 -6.3796e-06 -5.1548e-05 -0.8315205633 0.0945355993
75299550.0 -0.8318169627 0.103517216 3.12792e-05 -8.54301e-05 0.0001351207 -6.96853e-05 -0.8319063613 0.1039215357
80299520.0 -0.8320191721 0.1131731293 0.0002050534 3.85289e-05 -3.4672e-06 -4.36435e-05 -0.8317973746 0.1132976553
85299490.0 -0.8306046945 0.1226593975 0.0002378315 0.0001101756 2.72725e-05 1.53897e-05 -0.8315248376 0.1235435208
90299460.0 -0.8301042644 0.1321788918 -8.28917e-05 -9.68971e-05 5.23296e-05 3.02519e-05 -0.8306467657 0.1331734614
95299430.0 -0.8294262841 0.1411347368 5.1518e-05 -0.0001145748 -4.84502e-05 -0.0001276994 -0.8291105595 0.1427330822
100299400.0 -0.8279298233 0.1508163079 -0.0002070209 3.03996e-05 3.77926e-05 8.66317e-05 -0.828847081 0.1521690391
105299370.0 -0.8269066547 0.1599748135 -0.0002480862 9.49368e-05 -7.31388e-05 5.8971e-06 -0.8269854675 0.1609925732
110299340.0 -0.8250744123 0.1691774931 0.0001439169 3.56262e-05 3.03391e-05 -4.90127e-05 -0.8257665276 0.1706392087
115299310.0 -0.8241748259 0.178518892 0.000150894 8.75074e-05 -0.0001038278 -6.8371e-06 -0.8240408316 0.1797048677
120299280.0 -0.8219692833 0.1862361245 -0.0001935064 -5.13266e-05 -6.87635e-05 3.71891e-05 -0.8226879885 0.1892262149
125299250.0 -0.8204689334 0.195566439 0.0002385218 0.0001391817 -2.19079e-05 -1.7449e-05 -0.8209961016 0.1976881581
130299220.0 -0.8185210105 0.2053095509 2.88128e-05 -2.09574e-05 -3.3043e-05 -9.0166e-06 -0.8191781166 0.2068168649
135299190.0 -0.8168999204 0.2139393495 -1.36783e-05 -4.87493e-05 7.7351e-05 -6.88022e-05 -0.8168218294 0.2155553463
140299160.0 -0.8147662978 0.2231410554 -6.24678e-05 -0.0001087918 -7.11664e-05 3.56165e-05 -0.81481443 0.2251858533
145299130.0 -0.8128893196 0.231997919 0.0002588013 5.93454e-05 0.0001869689 7.6203e-05 -0.8129704135 0.2339689529
150299100.0 -0.8099434497 0.2409033968 0.0002729666 5.95131e-05 2.53159e-05 -0.0001326039 -0.8106935542 0.2433668766
155299070.0 -0.8075665819 0.2493168394 3.42265e-05 -0.000129832 -7.593e-07 0.0001312847 -0.8080030063 0.251912967
160299040.0 -0.8048080162 0.2577420232 -7.8516e-05 -6.01768e-05 4.28134e-05 -1.18962e-05 -0.8057120256 0.2608321484
165299010.0 -0.8029362251 0.2665058433 -0.0001472558 -8.32637e-05 0.0002287449 -0.0001879078 -0.8032799119 0.2691937868
170298980.0 -0.7998975615 0.2748727459 2.33505e-05 6.44882e-05 0.0001075436 0.0001059428 -0.7997429533 0.277569375
175298950.0 -0.7973357502 0.2837205409 0.0001011421 -1.88701e-05 -0.0002668769 -2.45771e-05 -0.7976507771 0.2868050798
180298920.0 -0.7948400283 0.2926587824 -9.22061e-05 -4.86329e-05 -0.0002158765 -9.39131e-05 -0.7945780477 0.2951173865
185298890.0 -0.7915239271 0.3007266675 -4.0983e-06 0.0002362691 -6.04481e-05 0.0002768199 -0.7908619842 0.3035953199
190298860.0 -0.7886822477 0.3094633529 0.0001376532 3.4976e-06 9.251e-06 -0.0001574408 -0.78851426 0.3122448703
195298830.0 -0.7852489286 0.3173057878 -3.74084e-05 0.0002308655 -6.85105e-05 4.28316e-05 -0.7848996703 0.3210598961
200298800.0 -0.7816022146 0.3256300877 3.87807e-05 1.92795e-05 -1.01304e-05 0.0001035259 -0.7823055424 0.3289772689
205298770.0 -0.7788163936 0.3336335257 8.31583e-05 0.0001334425 3.81544e-05 0.0001042611 -0.7779665881 0.3369291875
210298740.0 -0.775460414 0.3422995087 0.0001366644 -4.68815e-05 3.69951e-05 -3.33831e-05 -0.774871515 0.345119511
215298710.0 -0.7720930016 0.3506263225 -0.0001513685 -7.90584e-05 -1.93518e-05 3.48936e-05 -0.7711892346 0.3532723491
220298680.0 -0.7676689468 0.3585375434 -4.0179e-06 -2.17056e-05 -5.573e-05 -8.51562e-05 -0.7674148361 0.361798253
225298650.0 -0.764739455 0.3662521114 -0.0002344277 0.0003185999 0.0001877674 1.26525e-05 -0.7642589584 0.3697354117
230298620.0 -0.7598663396 0.3743698565 4.7798e-06 6.8729e-06 -7.09029e-05 -2.3797e-06 -0.7601591122 0.3782905649
235298590.0 -0.7566872443 0.3830530219 2.33228e-05 -0.0001644106 -0.0001196146 5.49964e-05 -0.7557422759 0.3864060226
240298560.0 -0.7521580295 0.390620262 2.52064e-05 7.3927e-06 -0.0003585186 -0.0001593288 -0.7512701805 0.3950408523
245298530.0 -0.7484493983 0.3988178935 -5.53426e-05 -3.17358e-05 -5.77847e-05 4.71609e-05 -0.7476725895 0.4020028088
250298500.0 -0.7445793869 0.4060462575 -0.0002050792 -5.74167e-05 -7.05401e-05 0.0001216084 -0.7434333267 0.4096198005
255298470.0 -0.7398152355 0.4139489591 -5.48061e-05 0.0001583477 -4.0306e-06 6.12344e-05 -0.7385413465 0.4174459098
260298440.0 -0.735878818 0.4217241212 -7.31329e-05 0.0002457649 -3.22144e-05 -0.0001956808 -0.7345445901 0.4260408126
265298410.0 -0.7311189003 0.4293196251 0.000134715 0.0001552892 -1.99024e-05 -0.0001566052 -0.7301150034 0.4332458428
270298380.0 -0.726677884 0.4369823099 -0.000130394 -0.0002250066 -5.16947e-05 -7.63115e-05 -0.7256400214 0.440978637
275298350.0 -0.7221972352 0.4445617599 -0.0001382703 -0.0002888802 -4.59474e-05 -9.71375e-05 -0.7206331866 0.4485815343
280298320.0 -0.7170744644 0.4519787598 -2.42503e-05 0.0001770168 8.24887e-05 1.85526e-05 -0.7158844074 0.4558745898
285298290.0 -0.7129579017 0.4599050565 -5.22022e-05 -0.0001511061 -0.0001290758 3.04885e-05 -0.7112692074 0.4633224019
290298260.0 -0.7081190261 0.4671249592 -0.0001036266 1.74372e-05 8.19334e-05 -5.36199e-05 -0.7067767995 0.4709992808
295298230.0 -0.7026700675 0.4740386022 -9.85118e-05 0.0001870339 1.93159e-05 -1.05283e-05 -0.7013564986 0.4781344578
300298200.0 -0.6982979009 0.481533672 4.47047e-05 -7.60295e-05 -8.04916e-05 -2.54085e-05 -0.6965519659 0.4854563248
305298170.0 -0.6928327803 0.4877765746 3.15987e-05 -0.0001038404 8.78305e-05 -9.4085e-05 -0.6906605671 0.4933024165
310298140.0 -0.6877127461 0.4961153529 6.749e-06 0.0001754318 5.82503e-05 0.0001083566 -0.6864382345 0.5002873344
315298110.0 -0.6831552674 0.5031438045 5.01135e-05 -0.0001371891 0.0001138424 7.60412e-05 -0.6806457956 0.5070583125
320298080.0 -0.6774774892 0.5103346888 0.0001251817 -2.1116e-05 -0.0001219692 3.33863e-05 -0.6753481313 0.5144936384
325298050.0 -0.6723238358 0.5170145087 0.0001894027 2.17398e-05 -2.85595e-05 0.000199353 -0.6693977059 0.5213153336
330298020.0 -0.6665893335 0.5236466159 0.00013227 -0.0001006193 0.0001129251 -3.59523e-05 -0.6644314513 0.528361039
335297990.0 -0.6610957257 0.5306348949 2.52255e-05 0.0001000919 -0.0001942779 -0.0002053735 -0.6588639546 0.5354728319
340297960.0 -0.656063554 0.5371233923 -0.0002839404 4.39993e-05 8.26019e-05 -0.0001686187 -0.6533036426 0.5424496622
345297930.0 -0.6503331661 0.5437236226 0.0001469357 -0.000107934 3.64401e-05 4.18965e-05 -0.6476043784 0.5485707341
350297900.0 -0.6444217297 0.5510462461 -5.92107e-05 6.88254e-05 0.0001038517 -0.0001098398 -0.6422483351 0.5556769297
355297870.0 -0.6385552283 0.5577114951 -8.42224e-05 -4.18397e-05 3.57932e-05 8.24501e-05 -0.6361031214 0.5618654335
360297840.0 -0.632873983 0.5636232658 2.68551e-05 -0.0001846866 0.0001595647 -0.0001129631 -0.6302660547 0.5688904653
365297810.0 -0.6274446639 0.5703067912 9.92542e-05 -5.27309e-05 -0.0001083865 -0.0001932967 -0.623506895 0.5747662471
370297780.0 -0.6213402535 0.5765720995 6.72523e-05 -8.88873e-05 0.0001728942 -0.0001749434 -0.6179234362 0.5816523934
375297750.0 -0.6154034304 0.5833519369 0.0002672133 0.0001668854 0.0002242142 -0.0002496723 -0.6120528553 0.5875363085
380297720.0 -0.6088026882 0.5887675694 0.0001494076 -5.66167e-05 -7.15561e-05 -6.57164e-05 -0.6059847481 0.5938710401
385297690.0 -0.6037358237 0.595584877 -0.0001960473 -6.26345e-05 0.0002291095 -3.05927e-05 -0.599257529 0.600503234
390297660.0 -0.596965248 0.6010325508 -0.0001832667 0.0001786339 -2.9503e-06 1.72468e-05 -0.5936789289 0.6063563073
395297630.0 -0.5906137021 0.6075266234 -7.44254e-05 -7.546e-07 0.0001225738 -9.12657e-05 -0.5863480655 0.6126941923
400297600.0 -0.5839786499 0.614050752 -5.29345e-05 9.79242e-05 6.02828e-05 8.79927e-05 -0.5809478408 0.6183357624
405297570.0 -0.5784255541 0.6190914238 0.0001368184 -0.0001779401 2.5061e-05 -5.3322e-05 -0.5740513484 0.6247098635
410297540.0 -0.5712707827 0.6250003657 -1.33428e-05 0.0001353882 0.0001697385 -0.000116104 -0.5676684715 0.6301951216
415297510.0 -0.5647066795 0.630919655 -0.0001810718 -0.0001388383 -1.73436e-05 -3.64995e-05 -0.5614619892 0.6356545784
420297480.0 -0.5592670531 0.6368468989 -7.47582e-05 -3.89909e-05 -0.0001825113 0.0001925374 -0.5546411641 0.6419670338
425297450.0 -0.5518501486 0.6421147375 -0.0002166528 -6.72515e-05 -2.73211e-05 -2.7969e-05 -0.5478188315 0.6477351276
430297420.0 -0.54574172 0.6482450913 3.2209e-05 -6.2925e-06 -3.37825e-05 -3.31859e-05 -0.5412515822 0.652295742
435297390.0 -0.539290908 0.6536524342 4.27574e-05 6.75141e-05 7.77719e-05 0.0001144917 -0.5342191338 0.6584590911
440297360.0 -0.5319752655 0.6591294162 0.000194401 -1.95931e-05 -9.72324e-05 0.0002370343 -0.5275353495 0.6635568691
445297330.0 -0.5248760665 0.6638254956 -8.3519e-05 0.0001436265 2.01546e-05 0.0001679336 -0.520639139 0.668452873
450297300.0 -0.5185781067 0.6689357139 7.05902e-05 -0.0002409426 4.46e-08 -0.0002819454 -0.5135173578 0.6742023094
455297270.0 -0.5116605876 0.6744545206 0.0001215229 -4.9083e-05 -0.0001309263 0.0001343102 -0.5069044286 0.6786970591
460297240.0 -0.5052863443 0.6797267249 -1.1808e-06 0.0001054566 2.64358e-05 2.21172e-05 -0.5000791247 0.6843995881
465297210.0 -0.4984547183 0.6849504161 0.0001866188 -0.0002273353 1.812e-06 1.27185e-05 -0.4923130813 0.6893642297
470297180.0 -0.4903351926 0.6894508605 -2.96326e-05 -1.96127e-05 -4.13981e-05 2.23927e-05 -0.4852311279 0.694719523
475297150.0 -0.4836767257 0.6940186782 -3.85366e-05 -0.0001695061 0.0001120794 0.0001133599 -0.4782257773 0.6994552012
480297120.0 -0.4768479492 0.6993701437 2.98617e-05 -9.52333e-05 0.000109282 5.53707e-05 -0.4711614774 0.7041284056
485297090.0 -0.4694804923 0.7036033979 2.31279e-05 0.0002215425 -4.19966e-05 -8.10904e-05 -0.4638435382 0.708964885
490297060.0 -0.4629329315 0.7086930274 -9.74255e-05 9.61595e-05 -8.11115e-05 -0.000136924 -0.4563225667 0.7129969282
495297030.0 -0.4555387492 0.713025414 0.0001674874 -9.3286e-06 0.000114197 8.15612e-05 -0.4492534005 0.7182206585
500297000.0 -0.4477518639 0.7175991764 -0.0001785516 0.0001041279 0.0001534955 5.73595e-05 -0.4419662101 0.7226605815
505296970.0 -0.4401655631 0.7223405312 -2.65754e-05 8.3387e-06 -5.07185e-05 0.0001609493 -0.4345301623 0.7268852596
510296940.0 -0.4332389952 0.7265104329 0.0001453389 -2.66645e-05 0.0003259732 -0.0002837453 -0.4265647218 0.7312800628
515296910.0 -0.4251874158 0.7304650361 -0.0003284197 -0.0001889488 8.54489e-05 0.0001023737 -0.4194451158 0.7352851459
520296880.0 -0.4187583201 0.7357029172 2.27579e-05 0.0001600751 -0.0001713066 -8.99022e-05 -0.4121171904 0.7389634397
525296850.0 -0.4106617966 0.7390230528 0.0002541624 -3.78831e-05 4.55927e-05 -9.17199e-05 -0.4048183175 0.7445289151
530296820.0 -0.4028497978 0.7431789277 -9.42171e-05 3.65253e-05 1.8909e-05 -1.45314e-05 -0.3972002294 0.7471993963
535296790.0 -0.3957352668 0.7475054206 3.65168e-05 -0.0001918728 9.27669e-05 -0.0001439375 -0.3896384308 0.7515524119
540296760.0 -0.3887922349 0.7504431284 -0.0001573618 -0.0001002105 0.0002079769 -2.75678e-05 -0.3814591856 0.7555852786
545296730.0 -0.3812505474 0.755193163 8.58491e-05 3.32618e-05 -3.17389e-05 0.0002368835 -0.3740122602 0.7593436456
550296700.0 -0.3735565262 0.7589718487 0.0004108312 -2.76484e-05 6.36841e-05 6.59423e-05 -0.3659411142 0.7627925513
555296670.0 -0.3648535321 0.7620445278 0.0001407429 -0.0001149773 -0.0001256247 1.70101e-05 -0.3586032127 0.7666465235
560296640.0 -0.3581756016 0.7659016766 -1.59821e-05 0.0001602438 -0.0002489704 2.63007e-05 -0.3504823344 0.7704206475
565296610.0 -0.3507332885 0.7694203189 0.0001355003 -5.25099e-05 -8.65459e-05 3.66424e-05 -0.3428390502 0.7737699026
570296580.0 -0.3427619013 0.7722104259 -0.0001620701 -1.87133e-05 0.0002055104 7.03847e-05 -0.335155876 0.7774438976
575296550.0 -0.3346977981 0.776676965 -0.0001235596 4.43975e-05 -0.0001055854 2.42133e-05 -0.3270433137 0.780826089
580296520.0 -0.3267334981 0.7794358363 0.0002195018 0.0001189376 0.0001544214 -0.0001461676 -0.3184165516 0.783925988
585296490.0 -0.3189137343 0.7821331725 -0.0001723241 0.0001281491 0.0001733083 0.0001677562 -0.3104296727 0.786932787
590296460.0 -0.3110907175 0.7857899187 0.000128728 -7.62601e-05 -9.07389e-05 7.13669e-05 -0.3033524291 0.7899754887
595296430.0 -0.3032243661 0.7882451136 -7.45141e-05 -3.8527e-05 -3.6538e-06 -1.3052e-06 -0.2949679382 0.7922738879
600296400.0 -0.2949349188 0.7923028733 -7.03019e-05 -9.64659e-05 -0.0001708304 0.0001500786 -0.2871698775 0.795123868
605296370.0 -0.2881855127 0.7948062855 4.10735e-05 0.0001181952 -4.16047e-05 -0.0001156565 -0.2783533477 0.7985767695
610296340.0 -0.2793074031 0.7973453542 9.01463e-05 -6.26641e-05 -2.77228e-05 -3.99463e-05 -0.2706591517 0.8012669821
615296310.0 -0.2709434896 0.7996119981 -4.53214e-05 0.0002310456 -9.92017e-05 2.26191e-05 -0.2620908886 0.8038249485
620296280.0 -0.2630346271 0.802248625 -2.69146e-05 -8.89073e-05 8.082e-06 6.53565e-05 -0.2548109924 0.8064660153
625296250.0 -0.2550089295 0.8051140383 9.8644e-06 6.18622e-05 0.0001821093 0.0001469719 -0.2460120263 0.8085894317
630296220.0 -0.2469029494 0.8083732866 -0.0001085949 6.56716e-05 -7.56203e-05 0.0001205589 -0.2379577492 0.8110730006
635296190.0 -0.2389137129 0.8104260684 -6.53303e-05 0.0002251046 -0.000168447 0.0001879233 -0.2302425581 0.8135758264
640296160.0 -0.2311820532 0.8121843526 1.0206e-06 -0.0001877762 3.31147e-05 -9.97364e-05 -0.2217338248 0.8160309058
645296130.0 -0.2234241982 0.8154648962 -0.0002411505 -0.0001243162 -9.0662e-06 -5.76382e-05 -0.213527845 0.8178841656
650296100.0 -0.2148560205 0.8169586249 6.76001e-05 1.63231e-05 -0.0001064611 2.1848e-06 -0.2054903435 0.8193426354
655296070.0 -0.2064841009 0.8186162076 -7.19716e-05 -1.04394e-05 0.000268673 0.0001308136 -0.1967579077 0.8217185793
660296040.0 -0.1982065256 0.8202757203 0.0002046326 0.0001617774 1.35062e-05 2.87471e-05 -0.1885818747 0.8240860062
665296010.0 -0.1899978505 0.8221875176 -5.15654e-05 9.42052e-05 8.84593e-05 -6.00069e-05 -0.1796414029 0.8258656254
670295980.0 -0.182440502 0.8248218059 -7.2631e-06 -3.81699e-05 -0.0003090854 -0.000170266 -0.1719839513 0.8272581009
675295950.0 -0.1734351318 0.8262114751 -9.6987e-05 -8.00886e-05 -0.0001024413 -8.13863e-05 -0.1642716087 0.8292743644
680295920.0 -0.1652838575 0.8280579022 -6.79014e-05 -7.2496e-06 -9.64186e-05 -7.88217e-05 -0.1555840865 0.8312941639
685295890.0 -0.1571051972 0.8300103355 0.0003172057 8.01541e-05 0.000184461 1.21353e-05 -0.1465241176 0.8317070982
690295860.0 -0.1489609258 0.8307617972 0.0001469295 6.6115e-05 -4.85679e-05 0.0001627179 -0.1393722094 0.8336342649
695295830.0 -0.1409010534 0.8323684113 5.567e-05 -0.0002478544 -0.0001783871 0.0001849992 -0.1299776055 0.835265927
700295800.0 -0.1321467463 0.8333248731 -0.0002160978 8.60132e-05 -6.9123e-06 -0.0001518438 -0.1227689646 0.8362907888
705295770.0 -0.1247693339 0.8352582235 0.0001165745 0.0002911471 5.46569e-05 0.0002579792 -0.1142457325 0.837919426
710295740.0 -0.1160179938 0.8360471851 -3.54228e-05 -0.0001895586 4.70981e-05 -1.98503e-05 -0.1056518769 0.8385003381
715295710.0 -0.1079128365 0.8371026172 0.0001195265 -0.000108361 -0.000166696 -3.55431e-05 -0.0970450368 0.8393088817
720295680.0 -0.0991994566 0.8385297807 -1.55975e-05 -5.4152e-06 -7.46251e-05 0.0001388157 -0.0883841389 0.8407807523
725295650.0 -0.0916299787 0.8396675279 0.0001969893 -0.0002297726 7.58311e-05 4.4356e-05 -0.0807585414 0.8418885052
730295620.0 -0.0824508554 0.8403679021 -2.0699e-06 6.22631e-05 -6.25972e-05 2.50278e-05 -0.0723258231 0.841523845
735295590.0 -0.0742291712 0.8411172181 7.09106e-05 -0.0001039561 -7.22621e-05 0.0001006533 -0.0636817373 0.8422702442
740295560.0 -0.0660079654 0.8418130526 7.3737e-05 -0.0001682799 0.000117729 9.91195e-05 -0.0540444839 0.8435255234
745295530.0 -0.0579852031 0.8429039028 0.0001187388 -5.38605e-05 -4.08683e-05 6.60794e-05 -0.0466738543 0.843578709
750295500.0 -0.0495042148 0.8425770863 -5.86997e-05 2.10663e-05 -0.0001984674 -2.15576e-05 -0.0380320615 0.8442111554
755295470.0 -0.0409551471 0.8431227292 -5.89038e-05 1.77723e-05 -5.69589e-05 0.0001120249 -0.0294884949 0.8437341614
760295440.0 -0.0331092328 0.8431801814 4.62587e-05 -0.0001939019 -3.1218e-05 0.0001225177 -0.0211008512 0.8444346034
765295410.0 -0.0243216396 0.8443481731 -1.8494e-06 0.0001250891 -6.67819e-05 0.0001155875 -0.0126015338 0.8451787886
770295380.0 -0.0163716744 0.8443538013 5.58037e-05 -0.000165007 8.66515e-05 -2.43291e-05 -0.0043852917 0.8443891481
775295350.0 -0.0078657509 0.8444350124 -0.000219091 7.08355e-05 0.0001049205 -7.32521e-05 0.003455595 0.8441856627
780295320.0 0.0006183081 0.8441124896 -1.18912e-05 -8.56364e-05 1.66151e-05 0.0001011241 0.0119106598 0.8443134564
785295290.0 0.0086803241 0.8431801345 2.67865e-05 -3.08355e-05 -2.54032e-05 -0.0002093565 0.0210336388 0.8442480144
790295260.0 0.0172851454 0.843987105 -0.0001779313 -0.0002666924 7.9539e-06 -2.07689e-05 0.0297366468 0.8447352562
795295230.0 0.0250296186 0.8437743598 2.7466e-06 1.24718e-05 0.0001677518 0.0002047493 0.0385091218 0.8434073779
800295200.0 0.0333337619 0.8430810635 1.02023e-05 -6.07175e-05 4.21029e-05 -3.04478e-05 0.0466207162 0.8431579812
805295170.0 0.042801568 0.8428944988 -0.0002637408 -0.0001565054 -5.8491e-06 0.0001699295 0.0547381583 0.8431131281
810295140.0 0.0507839479 0.8425196627 -0.0001576341 -0.0001288532 4.39581e-05 -8.71073e-05 0.0631828278 0.8421185229
815295110.0 0.0588826393 0.8421918243 -4.68013e-05 0.0001574775 0.0002173696 0.0001371981 0.0714400491 0.8418845951
820295080.0 0.0670363188 0.8412823646 -0.000177186 9.79114e-05 -0.0001230287 0.0001319522 0.0799213527 0.8409354781
825295050.0 0.076545378 0.8402658261 -9.20982e-05 -5.85706e-05 -8.36388e-05 -0.0001106673 0.0884659912 0.8402948169
830295020.0 0.08352181 0.8400939331 4.40211e-05 -5.97744e-05 -6.54933e-05 -0.0001356777 0.0973330217 0.8391708234
835294990.0 0.0921046638 0.8393763626 -0.0001872229 -0.0001796366 -0.0002183264 0.0001066224 0.1045651464 0.8387306993
840294960.0 0.1000228286 0.8388776278 0.0001101759 -6.86206e-05 5.48839e-05 0.000146159 0.1137546524 0.8375318429
845294930.0 0.1081466555 0.8370101422 0.0001365966 7.85583e-05 0.0002641418 1.23643e-05 0.1212247612 0.8356654258
