!Created with skrf (http://scikit-rf.org).
# Hz S RI R 50.0 
!freq ReS11 ImS11 ReS21 ImS21 ReS12 ImS12 ReS22 ImS22
300000.0 -0.2373899452 -0.1204156185 0.4673658283 0.0786094385 0.466600068 0.0796168161 -0.2359164813 -0.126559312
5299970.0 -0.2449844296 0.0054873437 0.4733609591 0.005864093 0.4740262193 0.0060495434 -0.2435266686 0.0052323556
10299940.0 -0.2416422972 0.0187596166 0.4760751352 0.0066393975 0.475910437 0.0072631024 -0.2398090692 0.0178647542
15299910.0 -0.2368373537 0.0285222293 0.479295334 0.0082531925 0.4799715928 0.0083470367 -0.2360072048 0.0277280275
20299880.0 -0.2316907945 0.0361184083 0.4843586786 0.008535234 0.4844769548 0.0086277217 -0.2312505678 0.0351614361
25299850.0 -0.2256558451 0.0428335823 0.4893108176 0.0078820462 0.4897462631 0.0074934761 -0.2262474352 0.0415917071
30299820.0 -0.2202139984 0.0477722046 0.4951205121 0.005423468 0.4950869901 0.0051643826 -0.2205439532 0.046997391
35299790.0 -0.2143766103 0.0516511079 0.5000396004 0.0023401269 0.5001074943 0.0024360683 -0.2155878929 0.0514294855
40299760.0 -0.2088905775 0.0545487802 0.505601024 -0.001676368 0.5056434243 -0.0014945095 -0.2107428381 0.0546670389
45299730.0 -0.204002717 0.057285931 0.5102835682 -0.0058193433 0.5104560397 -0.0064196315 -0.2057004389 0.0576124268
50299700.0 -0.1990806835 0.0590969532 0.5145465537 -0.0118703192 0.5144129043 -0.0121564091 -0.2008977009 0.0602761136
55299670.0 -0.1950941838 0.0604980069 0.518299163 -0.0174979788 0.5184419741 -0.0178951108 -0.1976129306 0.0616973721
60299640.0 -0.1905619749 0.0617680838 0.5218892209 -0.0242401405 0.5220812139 -0.0238766167 -0.1934607145 0.0634267529
65299610.0 -0.1873243801 0.0626376323 0.5247404996 -0.0304983814 0.5246368975 -0.0305129368 -0.1899846038 0.0646486116
70299580.0 -0.1836909005 0.0629416448 0.5268328154 -0.0367294259 0.5274764426 -0.0366532626 -0.1872817845 0.0660310718
75299550.0 -0.1808776288 0.0638198827 0.5285446167 -0.0439845856 0.5290153284 -0.0438685322 -0.1838896991 0.0672739362
80299520.0 -0.1784360979 0.0644951065 0.5310966473 -0.0504914567 0.5311116669 -0.0508964123 -0.1817023009 0.0677260296
85299490.0 -0.1757954716 0.0648304408 0.5321294368 -0.0578108146 0.5325118375 -0.057550398 -0.1791331096 0.0687956989
90299460.0 -0.1736352296 0.0654767405 0.5332098351 -0.0645071514 0.5329562011 -0.0646285201 -0.1766897214 0.069803499
95299430.0 -0.1714478622 0.0658738915 0.5343193754 -0.071657085 0.5344695317 -0.0719045149 -0.1745922654 0.0708667358
100299400.0 -0.1691422509 0.0660854807 0.5345642336 -0.0786404771 0.5345722756 -0.0783474535 -0.1729556665 0.0717260974
105299370.0 -0.1674808144 0.066670966 0.5349783614 -0.0852600797 0.5351368282 -0.0855146824 -0.1709524125 0.0720635035
110299340.0 -0.1658248765 0.0668026586 0.5350392207 -0.0916347722 0.5353337966 -0.09174511 -0.1697702499 0.072873267
115299310.0 -0.1644759684 0.0677215627 0.5354057028 -0.0988530754 0.5352143165 -0.0990937871 -0.1680737993 0.074237814
120299280.0 -0.1631053419 0.0681243117 0.5347563242 -0.1061503012 0.5345681306 -0.1061581271 -0.1667906188 0.0748399173
125299250.0 -0.1616872235 0.0686193771 0.5347220694 -0.1121735477 0.5345763097 -0.1123380147 -0.1652235056 0.0759091297
130299220.0 -0.1605508344 0.0691295318 0.534182862 -0.1194072075 0.5339593267 -0.1197301199 -0.1639171442 0.0769607263
135299190.0 -0.1597964787 0.0700503885 0.5336677977 -0.1257241917 0.533980039 -0.1264342144 -0.1628812014 0.0775034956
140299160.0 -0.1584286477 0.070699042 0.5329850447 -0.1329011311 0.5327000225 -0.1322691657 -0.1622784127 0.0783305555
145299130.0 -0.1579911887 0.0717272828 0.5317823899 -0.1392490573 0.5318020901 -0.1389627285 -0.1607865654 0.079906572
150299100.0 -0.1566795068 0.0724193636 0.5304049511 -0.1458152901 0.5303479062 -0.1460614725 -0.1599350928 0.0810635925
155299070.0 -0.1555678603 0.0737265741 0.5290502997 -0.152569763 0.5293157394 -0.1524580961 -0.1587146135 0.0822786782
160299040.0 -0.154567831 0.074697105 0.5282235241 -0.1589684893 0.5278445986 -0.1590473682 -0.1577582034 0.08375283
165299010.0 -0.1537049124 0.0752240126 0.5269001446 -0.1650407932 0.5264253358 -0.1653760513 -0.1567885958 0.0843329514
170298980.0 -0.1532648603 0.0762325644 0.5244924457 -0.1715500061 0.5251438308 -0.171579428 -0.1560458177 0.0858468983
175298950.0 -0.1521136859 0.0773757463 0.524071331 -0.1777560436 0.5238967841 -0.1783234427 -0.1550748284 0.0875099577
180298920.0 -0.1513983893 0.0783717779 0.5214225836 -0.1844157187 0.5216266268 -0.1845031743 -0.1539661959 0.0884835512
185298890.0 -0.1507091168 0.0793627714 0.5202170439 -0.1901533218 0.5199005669 -0.1905807657 -0.1529373664 0.0897883433
190298860.0 -0.1496072439 0.0808790842 0.5175474184 -0.1963924153 0.5182037204 -0.1966917909 -0.1518804951 0.0911927741
195298830.0 -0.1493661208 0.0819687102 0.5164122481 -0.202777721 0.5162674433 -0.2029348078 -0.1513359649 0.0923757194
200298800.0 -0.1483208952 0.0827571099 0.5143212958 -0.2091774569 0.5139813493 -0.2089232469 -0.1502427388 0.093516307
205298770.0 -0.1479720761 0.083995927 0.5115746928 -0.214876556 0.5118449934 -0.2147170532 -0.1490878701 0.0946160035
210298740.0 -0.1470931655 0.0852941052 0.5096864901 -0.2208646267 0.5093035503 -0.2207114806 -0.1484906604 0.0961310456
215298710.0 -0.146276542 0.0866345322 0.5069882157 -0.2261840916 0.5071561378 -0.2270606596 -0.1474607439 0.0976995559
220298680.0 -0.1453129378 0.0878252612 0.504397375 -0.2323746241 0.5042230349 -0.233028005 -0.1462049312 0.0992180523
225298650.0 -0.1446651209 0.0892154218 0.5015398117 -0.2382876461 0.5019823019 -0.2381185786 -0.1454654644 0.1001983665
230298620.0 -0.1437192774 0.0905718736 0.499682195 -0.2447599308 0.4999281273 -0.2444634533 -0.1445745854 0.1019050671
235298590.0 -0.1432135959 0.0917714368 0.4974178047 -0.2505880707 0.4971878076 -0.2501419645 -0.143420929 0.1032172464
240298560.0 -0.1422075933 0.0934042747 0.4944155296 -0.2556291784 0.4943769288 -0.2558882109 -0.1423686313 0.1046204019
245298530.0 -0.1415932788 0.0939660024 0.4915953443 -0.261612187 0.4919066212 -0.2615968253 -0.1415957025 0.1062625924
250298500.0 -0.1409184154 0.0955717393 0.488635028 -0.2668345663 0.488790777 -0.2669222608 -0.1405145705 0.1077413495
255298470.0 -0.1399379979 0.0973455829 0.485945465 -0.2725102972 0.4863586646 -0.2730558836 -0.1390938108 0.1092531163
260298440.0 -0.1391927048 0.0982942405 0.4831823528 -0.2777396543 0.4828653221 -0.2781784797 -0.1382569772 0.1103878282
265298410.0 -0.1385841717 0.0995837437 0.4798673276 -0.283903286 0.4796057387 -0.2842232216 -0.1367722094 0.111810944
270298380.0 -0.1378205502 0.1009660025 0.4766943817 -0.2892142448 0.4770824202 -0.2893506562 -0.1359071804 0.1136526092
275298350.0 -0.1367610166 0.1025177004 0.4731680098 -0.2944363176 0.4736660107 -0.2944635656 -0.1347344399 0.1148741121
280298320.0 -0.1361485109 0.1036758475 0.4709356042 -0.2997257219 0.470874658 -0.2998542847 -0.1335664057 0.1162990602
285298290.0 -0.1352873811 0.1050910347 0.4669828632 -0.3051143168 0.4673671068 -0.3049670882 -0.1322150433 0.1179491485
290298260.0 -0.1344370653 0.1065637694 0.4644878593 -0.3105992508 0.4642271701 -0.3104465738 -0.1312022003 0.119234827
295298230.0 -0.1335373706 0.1074119086 0.4607948435 -0.3161268769 0.4609337564 -0.3163012187 -0.1301906986 0.1204030708
300298200.0 -0.1324877541 0.1090857421 0.4572590352 -0.3211670722 0.4573307366 -0.3208260173 -0.1286534658 0.1218247293
305298170.0 -0.1315316538 0.1100067409 0.4539239732 -0.3264724098 0.4540382781 -0.3265654068 -0.1274939897 0.1230188221
310298140.0 -0.1300877677 0.1112193227 0.4504612218 -0.3312505238 0.4504082108 -0.3315996934 -0.1259369066 0.1244334446
315298110.0 -0.1298139967 0.1122324108 0.4470935903 -0.3369672926 0.4469161146 -0.3368922904 -0.1250372413 0.1259609084
320298080.0 -0.1286151132 0.1136223186 0.4421785595 -0.3418405799 0.4430603194 -0.342074026 -0.1236683195 0.1270411649
325298050.0 -0.1281380501 0.1144758688 0.4389487865 -0.3466982833 0.4395067164 -0.3470189351 -0.1218104584 0.1284274312
330298020.0 -0.1276096459 0.1161273987 0.4350227187 -0.3520180965 0.4354365757 -0.3521599771 -0.121292437 0.1297603946
335297990.0 -0.1264710408 0.1173697407 0.4312877813 -0.3566271379 0.4311303374 -0.3567783293 -0.1198805523 0.130876987
340297960.0 -0.1257203104 0.1188141829 0.4270665755 -0.361780913 0.4267592637 -0.3617137741 -0.1187143942 0.1328000396
345297930.0 -0.1250592483 0.1198647416 0.4230947316 -0.3663158173 0.4229562566 -0.3664217216 -0.1172503793 0.1336681388
350297900.0 -0.1240866169 0.1212271751 0.4190184984 -0.3705418496 0.4191912954 -0.3708599918 -0.1164337709 0.1349110887
355297870.0 -0.1231639635 0.1226273427 0.4145742328 -0.3749863895 0.4148802334 -0.3752784757 -0.1144275471 0.1368792665
360297840.0 -0.1220371195 0.1237246552 0.4107323124 -0.3800800867 0.4107054826 -0.3804625445 -0.1134885784 0.1382001773
365297810.0 -0.1211836829 0.125210812 0.4064153204 -0.3847049288 0.4063414135 -0.3846305757 -0.112142665 0.13944524
370297780.0 -0.1200037102 0.1264393344 0.4018633769 -0.3890885999 0.4019683496 -0.3887967222 -0.1107635246 0.1408241223
375297750.0 -0.1190407253 0.1278505381 0.3980174843 -0.3931537456 0.3979435893 -0.3933889092 -0.1088624552 0.1421392956
380297720.0 -0.1181276635 0.1294073798 0.3937752057 -0.3981266032 0.393367919 -0.3980309692 -0.1072049544 0.1440142366
385297690.0 -0.1168453496 0.1303236904 0.3889986052 -0.4019931216 0.3894643323 -0.4024437799 -0.1059520907 0.1450970618
390297660.0 -0.1157861855 0.1311822305 0.3844871793 -0.4053307565 0.3847186484 -0.4061594644 -0.1041732476 0.1460329709
395297630.0 -0.1142597477 0.1322811935 0.3803693652 -0.4099506429 0.3802239424 -0.4101228099 -0.1028359744 0.1473848814
400297600.0 -0.113521347 0.1336424255 0.3759816697 -0.4146996148 0.3763050189 -0.4143130796 -0.1011792631 0.1489113933
405297570.0 -0.1123031496 0.134683949 0.3714147621 -0.4184941261 0.3713443474 -0.4186368185 -0.0994641343 0.1502732334
410297540.0 -0.1108905146 0.1364088635 0.3666908463 -0.422994732 0.3668091183 -0.4226317257 -0.0981844213 0.1514407468
415297510.0 -0.109957357 0.1375768484 0.3620085611 -0.426661391 0.3623550182 -0.4270301264 -0.096094396 0.1524671199
420297480.0 -0.1088287285 0.1382710559 0.3570188631 -0.4306814001 0.3574622314 -0.4309266692 -0.0942474544 0.1540868342
425297450.0 -0.1070078092 0.1393458189 0.3526825995 -0.4343144825 0.3524118426 -0.4345424163 -0.0928329733 0.1546429296
430297420.0 -0.1061031626 0.1408141369 0.348456159 -0.4386025435 0.3480973045 -0.4380382102 -0.0908000185 0.1563905416
435297390.0 -0.1048203606 0.1415382828 0.3429673495 -0.4424821445 0.342808579 -0.4421749665 -0.0894675137 0.1577270706
440297360.0 -0.1032988564 0.1427461335 0.3376773539 -0.4460729537 0.3377599893 -0.4461541811 -0.0876635313 0.1589135204
445297330.0 -0.1021969518 0.14331405 0.3335395719 -0.4489809899 0.3332083482 -0.449904951 -0.0859427572 0.1598500328
450297300.0 -0.1007748587 0.1449410086 0.3285631252 -0.453064839 0.3284502352 -0.4529515567 -0.0839770238 0.1608454484
455297270.0 -0.0996503445 0.1458591598 0.3237632245 -0.4566636562 0.3237800673 -0.4565028782 -0.0822586356 0.1615528698
460297240.0 -0.0977175365 0.1471426646 0.3183071691 -0.4606079686 0.3183582141 -0.4604405934 -0.0807479668 0.1625532848
465297210.0 -0.0963850921 0.1481634949 0.3131803814 -0.4639349634 0.3127680672 -0.4638689184 -0.0785228014 0.1642736987
470297180.0 -0.095353328 0.1489230691 0.3079367431 -0.4667912609 0.3083964478 -0.4668748544 -0.0767824572 0.164904139
475297150.0 -0.0938376203 0.1501334 0.3029105016 -0.4705874218 0.3035375493 -0.4703782768 -0.0751668917 0.1658457796
480297120.0 -0.092042647 0.1511936345 0.2979374063 -0.4739001114 0.2982165408 -0.4732825161 -0.0733386398 0.1667701734
485297090.0 -0.0906958214 0.1518174632 0.292661848 -0.4771458417 0.2926051944 -0.4768983283 -0.071247332 0.1680556101
490297060.0 -0.0888344252 0.1530483766 0.286963329 -0.4802622861 0.2875551485 -0.4803034371 -0.0697965213 0.1686448179
495297030.0 -0.0877084173 0.1536510936 0.2824514099 -0.4837215258 0.2820859359 -0.4834109128 -0.0673046778 0.1696028053
500297000.0 -0.0861532235 0.1550692775 0.2771009016 -0.4861521568 0.2769591947 -0.4867838213 -0.0655217636 0.1706772944
505296970.0 -0.0841363175 0.1558469279 0.271796489 -0.4895210247 0.2714757306 -0.4891606309 -0.063539088 0.1712595284
510296940.0 -0.0827940461 0.1564947483 0.2661923328 -0.492624697 0.2663137061 -0.4924081439 -0.0611443202 0.1723691289
515296910.0 -0.0812987889 0.158147695 0.2604785762 -0.4951311473 0.2603488659 -0.4949316781 -0.0595527472 0.1728568133
520296880.0 -0.0794822028 0.1587430453 0.2550465648 -0.4976638856 0.2550595961 -0.4975398697 -0.05721574 0.1741703977
525296850.0 -0.0780258688 0.159463059 0.2497708427 -0.5004353377 0.2499631606 -0.5003067552 -0.0555387138 0.174653853
530296820.0 -0.0765151397 0.1602974578 0.244236339 -0.5031330969 0.2443084482 -0.5029072574 -0.0538238293 0.1751854341
535296790.0 -0.0742924354 0.1612090132 0.2387963323 -0.5057931452 0.2389203913 -0.5056665512 -0.0515275242 0.1762407121
540296760.0 -0.07297095 0.1623872569 0.2334735569 -0.508370724 0.2331052788 -0.5083104985 -0.0496303148 0.1765080659
545296730.0 -0.0716007302 0.1631530474 0.2277646841 -0.5107717295 0.2274415619 -0.5105936931 -0.0474482333 0.1775681148
550296700.0 -0.069500957 0.1639196523 0.2221313731 -0.513068934 0.2219737987 -0.5134833886 -0.0453226179 0.1779539187
555296670.0 -0.0678988561 0.1647773977 0.2164241366 -0.5156223122 0.2166211639 -0.5153826503 -0.0437660135 0.1782198065
560296640.0 -0.0659028194 0.165556676 0.2106004693 -0.517882415 0.2110264699 -0.5176525237 -0.0417701815 0.1794262088
565296610.0 -0.0647366036 0.1663545797 0.2057374639 -0.5203030889 0.2053519152 -0.5197577424 -0.0396178837 0.180072488
570296580.0 -0.0629575211 0.1674598692 0.1995619412 -0.5222406991 0.1994818997 -0.5223930426 -0.0376988349 0.1802875912
575296550.0 -0.0609870406 0.1682879505 0.1940782712 -0.5244282956 0.1940199074 -0.5241157936 -0.0355399282 0.1808697049
580296520.0 -0.0593322389 0.1688735084 0.1883895363 -0.5264502167 0.1881804263 -0.5267548531 -0.0335776008 0.1814875727
585296490.0 -0.0577705407 0.1697284942 0.1831181273 -0.5284474967 0.1823886967 -0.5281142879 -0.0312344579 0.1823933707
590296460.0 -0.055293138 0.1705603547 0.1767540419 -0.5303065035 0.1767141423 -0.5304567032 -0.0297724386 0.1827545103
595296430.0 -0.0536882115 0.1712232891 0.1706469664 -0.5322063525 0.170585172 -0.5319734672 -0.0272522714 0.1826109547
600296400.0 -0.0521489343 0.1720578948 0.1647988639 -0.5338977833 0.1648393077 -0.5337398331 -0.0253953301 0.1831173731
605296370.0 -0.0508959864 0.1728515311 0.1598416705 -0.5356613053 0.1590394553 -0.5357076014 -0.0234410758 0.1839972581
610296340.0 -0.0486767851 0.1738507804 0.1533001411 -0.5368680307 0.1540405063 -0.537173981 -0.0215554949 0.1842123551
615296310.0 -0.0467370087 0.1741815899 0.1476981935 -0.5391580001 0.1474194758 -0.5389151662 -0.0191505777 0.1846272983
620296280.0 -0.0454069792 0.1753868252 0.1417150023 -0.5405582348 0.1415468546 -0.5405196471 -0.0172343406 0.1850477122
625296250.0 -0.043672531 0.1755683838 0.136030137 -0.5418923781 0.1359673589 -0.5420840805 -0.0154687957 0.1849555649
630296220.0 -0.041838185 0.1765134242 0.1298624733 -0.5434500085 0.1296936902 -0.5434804295 -0.0128234348 0.1855363911
635296190.0 -0.0402621891 0.1773955579 0.1245750812 -0.5442702044 0.1240991669 -0.5444997243 -0.0112459776 0.1859605991
640296160.0 -0.0381686286 0.1777174984 0.1186363675 -0.546027876 0.1182366423 -0.5461512379 -0.0091394324 0.1859057047
645296130.0 -0.03616712 0.1789065833 0.1121491718 -0.5474467996 0.112035962 -0.5468959625 -0.0071475917 0.1858761571
650296100.0 -0.034535317 0.179176598 0.1064063957 -0.548620956 0.1060996591 -0.5485152527 -0.0043811881 0.1863839087
655296070.0 -0.0329372672 0.1796218118 0.0998872154 -0.5492170788 0.1001681819 -0.5493620262 -0.0030476048 0.1869660063
660296040.0 -0.0310620919 0.1803581164 0.0944336064 -0.550513085 0.0942275253 -0.5503846051 -0.0007320607 0.1864759352
665296010.0 -0.0291676281 0.1807667776 0.0878702762 -0.5509131619 0.0883298759 -0.5514680042 0.0013234782 0.18705697
670295980.0 -0.0277040202 0.1815836975 0.0822702215 -0.5526540541 0.0823370405 -0.5516898451 0.0027902463 0.1864798716
675295950.0 -0.025933066 0.1816791502 0.0762902553 -0.5530792372 0.0767835016 -0.5529743911 0.0053115324 0.1870910721
680295920.0 -0.0242786498 0.1826328609 0.0711882746 -0.5538061191 0.0704914165 -0.5533612568 0.0075890437 0.186808559
685295890.0 -0.0221816937 0.1831904851 0.0640692658 -0.5548296449 0.0644129054 -0.5545992742 0.0094599873 0.1875556571
690295860.0 -0.0208018447 0.1836621832 0.0585072594 -0.5553568748 0.0579091376 -0.5553486664 0.0115527847 0.1872271075
695295830.0 -0.0189104974 0.1840082756 0.0530588115 -0.5558444196 0.0525962516 -0.5556185531 0.0136692767 0.1874369559
700295800.0 -0.0168514292 0.1843567603 0.0469228003 -0.5562289865 0.0466255378 -0.5563465496 0.0155718394 0.1873407757
705295770.0 -0.0155100594 0.1848377113 0.0407702244 -0.5570622863 0.0406448848 -0.5565160356 0.0178506436 0.1877153117
710295740.0 -0.0135018295 0.1852452454 0.0345969021 -0.5569712476 0.0343557803 -0.5574907013 0.0197873813 0.1876865688
715295710.0 -0.0118695749 0.1859884302 0.0290301593 -0.5574435897 0.028342959 -0.557682799 0.0223201154 0.1870939306
720295680.0 -0.0097113477 0.1860490622 0.0225141523 -0.5576258621 0.0223899395 -0.5578990235 0.024011372 0.1870710111
725295650.0 -0.0085785575 0.1869334612 0.0169203962 -0.5578107966 0.0166422668 -0.5579216242 0.0259779296 0.187472746
730295620.0 -0.0074567023 0.1867301001 0.0109831295 -0.5576428464 0.0105114638 -0.5575571267 0.028090671 0.1873659432
735295590.0 -0.0050527214 0.1874505682 0.004882026 -0.5581049413 0.0044911094 -0.5577132038 0.0302493474 0.186526268
740295560.0 -0.0033502068 0.1870981106 -0.0011448775 -0.5580407865 -0.0011841511 -0.5583586434 0.031806189 0.1868655118
745295530.0 -0.0017416585 0.187980061 -0.0069743404 -0.5572653157 -0.0065442031 -0.5579526828 0.0336857501 0.1863248921
750295500.0 -0.000147132 0.1882371512 -0.0127428932 -0.557294852 -0.0136915905 -0.5575128721 0.0359993129 0.1863487858
755295470.0 0.0016964359 0.18830946 -0.0189923647 -0.5577778456 -0.0191224166 -0.5580210052 0.0379837723 0.1864924023
760295440.0 0.0036630337 0.1890672608 -0.0256580567 -0.5575720949 -0.0253988777 -0.5569308994 0.0404076678 0.185353111
765295410.0 0.0055649856 0.1885188578 -0.0311208875 -0.5565965805 -0.0310319207 -0.5568340002 0.0422430213 0.1854574242
770295380.0 0.0069055323 0.1891281417 -0.0369913675 -0.5559054197 -0.0370072508 -0.5567693635 0.0441125936 0.1852488081
775295350.0 0.0087398739 0.1891541579 -0.0430633988 -0.5558924008 -0.0429852043 -0.5555524907 0.046251918 0.1847426647
780295320.0 0.0105051262 0.1896398204 -0.0488493921 -0.5554432464 -0.0490966557 -0.5554134322 0.0483587048 0.184565014
785295290.0 0.0121423552 0.189238104 -0.0547775588 -0.5550157994 -0.0552053802 -0.5552817675 0.0499491561 0.1846207868
790295260.0 0.0138885068 0.1891638179 -0.0607886846 -0.5544612071 -0.0607379319 -0.5547526252 0.0521777604 0.1840803844
795295230.0 0.0155582616 0.1894327567 -0.0666999798 -0.5538997427 -0.0670737942 -0.5537865902 0.0542749078 0.1830599176
800295200.0 0.0170005801 0.1898223394 -0.0722175885 -0.5524023035 -0.0728258042 -0.5527706703 0.05619314 0.1828508469
805295170.0 0.0187671837 0.1896062466 -0.0787648128 -0.5523105358 -0.0789830953 -0.5521531747 0.0587797197 0.1825102062
810295140.0 0.0209294247 0.1898156666 -0.0844876466 -0.5511815372 -0.0846878108 -0.5512180719 0.0603892624 0.1822695603
815295110.0 0.0225260655 0.1896983705 -0.0903081545 -0.5505839727 -0.0903570075 -0.5504045239 0.062308341 0.1813900393
820295080.0 0.0242540958 0.189752081 -0.09579795 -0.5484634865 -0.0962250244 -0.5495545419 0.0636801607 0.1815480544
825295050.0 0.0258181575 0.189585941 -0.102125605 -0.5480111782 -0.1023346809 -0.5482394323 0.0662513121 0.1808836158
830295020.0 0.027614316 0.1895312144 -0.1077889133 -0.5469454778 -0.1080859583 -0.5473287983 0.0682015355 0.1798062811
