!Created with skrf (http://scikit-rf.org).
# Hz S RI R 50.0 
!freq ReS11 ImS11 ReS21 ImS21 ReS12 ImS12 ReS22 ImS22
300000.0 -0.0939652985 -0.0980641329 0.6219513479 0.0923260097 0.6208431042 0.0927396456 -0.0946628941 -0.1051861908
5299970.0 -0.1014041311 0.0113920356 0.6305334162 0.0111534593 0.6308451669 0.0108581263 -0.1016960905 0.0112951764
10299940.0 -0.0967621917 0.0289269073 0.6345278168 0.0161405259 0.6341238714 0.0166507729 -0.0963886145 0.0285751807
15299910.0 -0.0893196732 0.042621198 0.6406253972 0.0211204413 0.6404103304 0.0211784854 -0.0899498255 0.0419687185
20299880.0 -0.0802147782 0.0534221652 0.6487145681 0.0241446009 0.6489017876 0.0245561125 -0.0809552477 0.0529299266
25299850.0 -0.0703260825 0.0624031836 0.6582428446 0.0259210289 0.6583838747 0.0256197431 -0.0714964573 0.0619521529
30299820.0 -0.0607519755 0.0689014412 0.6679892326 0.0244527406 0.6678700054 0.0242412393 -0.0615006492 0.0685314874
35299790.0 -0.0503952813 0.0736264624 0.6768070243 0.0219709908 0.6770275632 0.021894334 -0.0524143847 0.073642825
40299760.0 -0.0409358103 0.0763213339 0.6869488079 0.017254703 0.6866306469 0.0175593644 -0.0427187867 0.0769321866
45299730.0 -0.031797461 0.0786094233 0.6955119114 0.012417871 0.6963509962 0.012161338 -0.0330021816 0.0791881116
50299700.0 -0.0229212357 0.079034112 0.703718847 0.0051757233 0.7039263577 0.0049208342 -0.0244967267 0.0804308784
55299670.0 -0.0151175306 0.0790194466 0.7114265031 -0.0025580119 0.7108142986 -0.0028099882 -0.0170932393 0.0803157996
60299640.0 -0.0076220202 0.078895531 0.7180142844 -0.0111151055 0.7180808426 -0.0111984836 -0.0094527853 0.079880252
65299610.0 -0.0010669781 0.0776860598 0.7240640642 -0.0196962694 0.724245997 -0.0201683643 -0.002348591 0.0787111303
70299580.0 0.0052752345 0.0753606885 0.7292570437 -0.028253271 0.7291877211 -0.0293390544 0.0032372537 0.076982735
75299550.0 0.010654765 0.0731981536 0.7333357841 -0.0390624047 0.7333874918 -0.0389693302 0.0086575987 0.0753663368
80299520.0 0.0152751278 0.0715029345 0.7376315304 -0.0483413926 0.7377641342 -0.0490662606 0.0139297196 0.0735471314
85299490.0 0.020185099 0.0691235465 0.7409724621 -0.0586107943 0.7409793239 -0.0585587363 0.0181927762 0.0706069903
90299460.0 0.0239057676 0.0666812357 0.7437255182 -0.0689783899 0.7431089035 -0.0680752102 0.0223768794 0.0693028387
95299430.0 0.0279508932 0.0644321319 0.7459896843 -0.079001539 0.7465224366 -0.0791255417 0.0258990554 0.0665852862
100299400.0 0.0315543173 0.0616718411 0.7477074831 -0.0891637501 0.7475344171 -0.089105933 0.029101425 0.0642576866
105299370.0 0.0344489046 0.0591052722 0.7492051023 -0.09881176 0.7493991785 -0.098931698 0.0329247405 0.061688855
110299340.0 0.0374998181 0.0563062316 0.7500181203 -0.1083851499 0.7502038403 -0.1085992214 0.0350849164 0.0592705287
115299310.0 0.0395582441 0.0543919368 0.7511136663 -0.118858141 0.7513949991 -0.1188368729 0.0377189039 0.0573447723
120299280.0 0.0416365478 0.0520421505 0.7521452274 -0.1300052762 0.7517925975 -0.1297476831 0.0401164307 0.0543464609
125299250.0 0.0438286436 0.0498769542 0.7518181039 -0.1389494026 0.7523663738 -0.1385562764 0.042022127 0.0526200969
130299220.0 0.0456017066 0.0472596078 0.7523427543 -0.1491358186 0.7516522994 -0.1495835921 0.0438057208 0.0506611473
135299190.0 0.0469959491 0.0456214234 0.7517916598 -0.1586586081 0.7522228071 -0.1590865554 0.0456435266 0.0477630626
140299160.0 0.0488572405 0.0432724419 0.7517607742 -0.1693058279 0.7510072798 -0.1684931491 0.0465013847 0.0454760052
145299130.0 0.0493497257 0.0411493361 0.7504939901 -0.1784142265 0.7502997378 -0.1781250701 0.0481272634 0.0435776043
150299100.0 0.0508476945 0.0392219412 0.7491665377 -0.1879357597 0.7490642645 -0.1875238635 0.0490357814 0.0417516305
155299070.0 0.0525026616 0.0371506996 0.7475720336 -0.197274102 0.7485419174 -0.1977552986 0.0505147105 0.0395285699
160299040.0 0.05315395 0.0356719342 0.7467304067 -0.2072222743 0.7465379827 -0.2073827903 0.0509366916 0.0380963892
165299010.0 0.0541355622 0.0335892149 0.7449118541 -0.216507602 0.7447951624 -0.2167885519 0.0522788275 0.0356307626
170298980.0 0.0550648605 0.0318988408 0.7426982637 -0.2261665408 0.743388325 -0.2262395322 0.0526441727 0.0336813909
175298950.0 0.0557351228 0.0304053563 0.741460921 -0.2354161444 0.7418784638 -0.2358365601 0.0535103187 0.0325209048
180298920.0 0.056071965 0.028848476 0.7395184422 -0.2447639006 0.7395348888 -0.2447694169 0.0541674354 0.030692874
185298890.0 0.0566846567 0.0273148969 0.7375990862 -0.2533928764 0.7372185131 -0.2534788172 0.0550653122 0.0289425569
190298860.0 0.0577320855 0.0256968601 0.734457223 -0.2628554921 0.7349741428 -0.2626243069 0.0551322567 0.0272163645
195298830.0 0.0577763762 0.0242925809 0.7322898051 -0.2717001434 0.7323825196 -0.2719470428 0.0557325458 0.0259834723
200298800.0 0.0583317987 0.0223730336 0.7298786896 -0.2814967657 0.7297733513 -0.2808806149 0.0564079493 0.0237896368
205298770.0 0.0583199251 0.0205929668 0.7266788359 -0.2894477546 0.7270107396 -0.2893261754 0.0570120636 0.0225647767
210298740.0 0.058748281 0.020069344 0.723583816 -0.2981876398 0.723926436 -0.2985800368 0.0565467919 0.020924139
215298710.0 0.059207956 0.0186300765 0.7207285317 -0.3066007846 0.7205588847 -0.3074766869 0.0570573434 0.0194624681
220298680.0 0.0593191369 0.0177225565 0.7176512058 -0.3157331078 0.7173089573 -0.3160509433 0.0570952559 0.0180514076
225298650.0 0.0595616345 0.0160838168 0.7139043475 -0.3242782033 0.7138801462 -0.3243284081 0.0576126341 0.0161384193
230298620.0 0.0599772089 0.015071281 0.7111956004 -0.3331684746 0.7110757664 -0.333292649 0.0574980346 0.0152068835
235298590.0 0.0595411555 0.0136334366 0.7076456835 -0.3422694182 0.7075169845 -0.3410755006 0.0576863054 0.0142052701
240298560.0 0.0602512986 0.0127880572 0.7039118654 -0.3495622148 0.7035985695 -0.3497798447 0.0576250327 0.0124978818
245298530.0 0.0600263211 0.011108936 0.6998762 -0.3582987701 0.70000045 -0.3582480058 0.0578327273 0.0117182964
250298500.0 0.059782124 0.0103724189 0.6964535751 -0.3661315004 0.6965531707 -0.3660618251 0.0577041497 0.0105866836
255298470.0 0.0602358715 0.0095492866 0.6930767647 -0.3742930113 0.692685383 -0.3748105222 0.057807653 0.0096248429
260298440.0 0.0604926054 0.0082379907 0.689237391 -0.3816669717 0.6887604046 -0.3824686517 0.0574346236 0.0076233413
265298410.0 0.0597489544 0.0074271073 0.6842612186 -0.3907311679 0.684559528 -0.3904207695 0.058395108 0.0065597284
270298380.0 0.0598720876 0.0060803624 0.6802887954 -0.3988308044 0.680262624 -0.398481185 0.0582931742 0.0058213483
275298350.0 0.060210618 0.0054539835 0.6753818117 -0.4060687594 0.6755511707 -0.4062997908 0.0576875905 0.0048984205
280298320.0 0.0595216181 0.0042774579 0.6712787075 -0.4137867824 0.6719899713 -0.4141489814 0.0583331774 0.0038028341
285298290.0 0.0598508571 0.0035307006 0.6670185299 -0.4220545668 0.6674711655 -0.4212994965 0.0581164311 0.0027037874
290298260.0 0.0598896841 0.0026948892 0.6632209623 -0.4296928242 0.6629890196 -0.4298885186 0.0581248614 0.0014984391
295298230.0 0.0599071042 0.0012104358 0.6584132186 -0.4382412804 0.6579550028 -0.4378907787 0.0578697758 0.0004273505
300298200.0 0.0599398553 0.000863571 0.6533873784 -0.4451459505 0.6533933251 -0.445073274 0.0578310008 -0.0006878443
305298170.0 0.0600123015 -0.0009661961 0.6491551529 -0.4531477525 0.6489929048 -0.4534079361 0.05767339 -0.0021876319
310298140.0 0.060219608 -0.0017988088 0.6443999057 -0.4607157677 0.6442785506 -0.4606386738 0.057955699 -0.0035914551
315298110.0 0.0596339219 -0.0031470723 0.6394781781 -0.4689668023 0.6389812431 -0.4684557815 0.0575287028 -0.0046004428
320298080.0 0.0595224173 -0.0039791227 0.6330701002 -0.47540977 0.6339663143 -0.4761351845 0.0571916275 -0.0059651113
325298050.0 0.0584412352 -0.005485071 0.6278010211 -0.483179352 0.6285412567 -0.4831984021 0.0568670115 -0.0071548749
330298020.0 0.0572846878 -0.0059581966 0.6224597055 -0.4908374906 0.6229668928 -0.4907823249 0.0560386709 -0.0079037858
335297990.0 0.0575421726 -0.0068154185 0.6167881568 -0.4977894555 0.6171000641 -0.4978165122 0.0556410403 -0.0089385915
340297960.0 0.0568157715 -0.0079616837 0.6108675785 -0.5048079552 0.61061381 -0.5043632663 0.0552270405 -0.0093158403
345297930.0 0.0562737586 -0.0086673848 0.6061098368 -0.5116244642 0.6054219992 -0.5119567457 0.0549047724 -0.0102893882
350297900.0 0.0555826031 -0.0093175099 0.5996836314 -0.5179518688 0.6001162081 -0.518553131 0.0547081093 -0.0116051237
355297870.0 0.0553686067 -0.0098888207 0.5939237161 -0.5243643219 0.5937346471 -0.5247700367 0.0543975309 -0.0122048986
360297840.0 0.0551019247 -0.0105032674 0.5879121916 -0.5318063235 0.5879087451 -0.5319114224 0.0534222348 -0.0125911981
365297810.0 0.0542427309 -0.0113059546 0.5816745136 -0.5381041785 0.5819634752 -0.5385017059 0.0529154335 -0.0133721688
370297780.0 0.0545567059 -0.0114705715 0.5756286205 -0.5441894925 0.5764606776 -0.5446598745 0.0529074878 -0.0139710145
375297750.0 0.0543970105 -0.0123381161 0.5701801811 -0.5507738585 0.5702106413 -0.5512760932 0.0526855795 -0.0147934872
380297720.0 0.0534748142 -0.0128217067 0.5643303071 -0.5580270467 0.5642071947 -0.5575167536 0.0520590989 -0.0152731241
385297690.0 0.0530132802 -0.0138822757 0.5576222386 -0.5637246504 0.5582618868 -0.5644905174 0.0519936376 -0.0158304106
390297660.0 0.0529438844 -0.0143841358 0.5514032878 -0.5695843217 0.5521013411 -0.5695887225 0.0520219088 -0.0168870099
395297630.0 0.0530545345 -0.0148390327 0.5458869539 -0.5755276526 0.5456052979 -0.5755811352 0.0512905164 -0.017322327
400297600.0 0.0519999013 -0.0159541543 0.5391420215 -0.5821341084 0.5388343136 -0.582209049 0.0515029884 -0.0175659097
405297570.0 0.0518021921 -0.0167207505 0.5329907676 -0.5872889796 0.5325278882 -0.5875534213 0.0510252606 -0.0179219854
410297540.0 0.05156098 -0.0166039894 0.5261413308 -0.5938259889 0.526487928 -0.5939809193 0.0506622989 -0.0186007313
415297510.0 0.0508966877 -0.0175392466 0.5201803788 -0.5995357013 0.5201426618 -0.5997815645 0.0506272483 -0.0193386655
420297480.0 0.0504663503 -0.0185862314 0.5130954645 -0.6052947103 0.5135644048 -0.6057726104 0.0503508565 -0.0195797684
425297450.0 0.0506896044 -0.0189189813 0.5068258396 -0.61079529 0.5063664952 -0.6109731333 0.049644624 -0.0209601974
430297420.0 0.0501159582 -0.0193765218 0.5004576296 -0.6167888574 0.5004853646 -0.6163875741 0.0498750801 -0.0214051758
435297390.0 0.0495361174 -0.0201897123 0.4924212273 -0.6230060271 0.4931572718 -0.6218230006 0.048694658 -0.0214193085
440297360.0 0.0496012007 -0.0211975906 0.4859917119 -0.6276445472 0.4859558073 -0.6280328666 0.0487089071 -0.0221691652
445297330.0 0.0491807737 -0.0219960353 0.4795030421 -0.6327869596 0.4790357151 -0.6332501149 0.0482439785 -0.021987458
450297300.0 0.0488430322 -0.0221710554 0.4724054558 -0.6380384143 0.4725788102 -0.6382889101 0.0481522206 -0.0229534606
455297270.0 0.0479795227 -0.0227200976 0.4656782002 -0.643636188 0.4657923945 -0.6439891831 0.0475846702 -0.0236372382
460297240.0 0.0479492452 -0.0232509838 0.4582077861 -0.6492483034 0.4580958116 -0.6491785042 0.0472457325 -0.0242461636
465297210.0 0.0478048684 -0.0239864976 0.4507484043 -0.6538174996 0.4505931942 -0.654167018 0.0474466239 -0.0241567026
470297180.0 0.0472374762 -0.0249347182 0.4438093471 -0.6584277669 0.4442761722 -0.6589742478 0.0470282246 -0.0254382684
475297150.0 0.0464507257 -0.0249047022 0.4363691367 -0.6635769887 0.4367406315 -0.6637538978 0.0466933755 -0.0259081417
480297120.0 0.0468073249 -0.0250713782 0.4292339845 -0.6684495777 0.4295109107 -0.6685561948 0.0457989783 -0.0264288313
485297090.0 0.0460165326 -0.0267652398 0.4215973246 -0.6733853361 0.4220527553 -0.6729955397 0.0456021476 -0.026616508
490297060.0 0.0461428174 -0.0263317607 0.4138527072 -0.6777962147 0.414368363 -0.6780498074 0.0453022072 -0.0274029334
495297030.0 0.0449042673 -0.0275941765 0.4072546813 -0.682342233 0.4074407402 -0.682560193 0.0453137279 -0.0279470819
500297000.0 0.0446856002 -0.0277667371 0.3999426406 -0.6866260925 0.3995655729 -0.686960813 0.0447131229 -0.0280807319
505296970.0 0.0448224839 -0.0280128751 0.3920366613 -0.6915402437 0.3919464777 -0.69102964 0.0442781969 -0.0296869875
510296940.0 0.0441443991 -0.0289373897 0.3845700531 -0.696304462 0.3849377812 -0.6959774818 0.0439191265 -0.029237452
515296910.0 0.0437621625 -0.0287670259 0.3761051464 -0.6999511807 0.3761958406 -0.6999159013 0.0433924393 -0.030487828
520296880.0 0.0432984027 -0.0293767918 0.3690192954 -0.7038837115 0.368471293 -0.703478779 0.0437637121 -0.0299849702
525296850.0 0.0433278454 -0.0303659195 0.3612602864 -0.7078192311 0.3614522278 -0.7080461323 0.0436188747 -0.0308219756
530296820.0 0.0423264311 -0.031115 0.3535277019 -0.7125058666 0.3538047167 -0.7120977899 0.0427961546 -0.0316900954
535296790.0 0.0427262076 -0.0309410456 0.3457513924 -0.7153483475 0.3459089665 -0.7157164273 0.0426804339 -0.0315866028
540296760.0 0.041938715 -0.0312821412 0.3376639367 -0.7194453807 0.3377562801 -0.7196498398 0.0421728976 -0.0328831917
545296730.0 0.04069044 -0.031721979 0.3299369352 -0.7230350041 0.3296544999 -0.7228682215 0.0418079534 -0.0329626073
550296700.0 0.0415082969 -0.0321633386 0.3221237692 -0.7269147489 0.3219061999 -0.7269402223 0.0415690528 -0.033517751
555296670.0 0.0405608854 -0.0326601358 0.3136431821 -0.7304810032 0.3138377647 -0.730263339 0.0407523514 -0.0345541966
560296640.0 0.0408477244 -0.0330319524 0.305658156 -0.7333049433 0.3066097951 -0.73369287 0.040277747 -0.0341378986
565296610.0 0.0396051874 -0.0332963782 0.2982121542 -0.7374348655 0.2985516703 -0.7365771629 0.0401424196 -0.0345380944
570296580.0 0.0390650042 -0.0335511933 0.2895992326 -0.7399921468 0.2900004261 -0.7405438097 0.0394821738 -0.035182983
575296550.0 0.0388459353 -0.0342165268 0.2824936581 -0.743574846 0.2817285978 -0.7432662409 0.0389898019 -0.0355910189
580296520.0 0.0386090742 -0.0342577728 0.2734013778 -0.7466274073 0.2736213273 -0.7464209713 0.0380900148 -0.0360006253
585296490.0 0.0380527291 -0.0343281456 0.2659743452 -0.7496010963 0.2653326456 -0.7493916265 0.0385384217 -0.0359820998
590296460.0 0.038362035 -0.0347536429 0.2572661509 -0.7522435109 0.2572309525 -0.7526607161 0.037104826 -0.036113233
595296430.0 0.037673182 -0.0353463937 0.2485475431 -0.7550527245 0.2487000101 -0.7553580707 0.0372275978 -0.0374363816
600296400.0 0.0374744886 -0.0354873868 0.2402916273 -0.7575474912 0.2407671324 -0.7575336971 0.036862599 -0.0377317811
605296370.0 0.0358470843 -0.0356038069 0.2327793382 -0.7604586329 0.2321042148 -0.7605276058 0.0360912286 -0.0378745499
610296340.0 0.0362709396 -0.0355577176 0.2238202083 -0.7621624797 0.2247902169 -0.7624572987 0.035201985 -0.0381211814
615296310.0 0.0358583568 -0.036154925 0.2157331583 -0.7651869934 0.2149178763 -0.7654078009 0.0351516544 -0.0383089581
620296280.0 0.0347860734 -0.0359373728 0.2067976982 -0.7674431979 0.2071845357 -0.7669327869 0.0343676759 -0.0387868005
625296250.0 0.034243701 -0.0366587816 0.1987722668 -0.7699798284 0.1989485286 -0.7700168686 0.0334218473 -0.0391106566
630296220.0 0.0340400963 -0.0364251025 0.1899701713 -0.7722057775 0.1904910752 -0.7717163713 0.0332873327 -0.0390837548
635296190.0 0.0331312123 -0.0362795847 0.1820472435 -0.7739016678 0.1819909576 -0.7735620706 0.0329655044 -0.0393760663
640296160.0 0.0327825901 -0.0369042963 0.1732033345 -0.7758680719 0.1734447395 -0.7760172587 0.0318378069 -0.039886371
645296130.0 0.0329054321 -0.0367275309 0.1646325376 -0.7776824285 0.1651995738 -0.7775034919 0.0312763361 -0.0409026981
650296100.0 0.0320649997 -0.037228598 0.1571305154 -0.7796066508 0.1564346836 -0.7795973105 0.0319690825 -0.0403971305
655296070.0 0.031303739 -0.0374961423 0.1471039683 -0.7811603641 0.1480295931 -0.7806156011 0.0301566309 -0.0404408802
660296040.0 0.0309294271 -0.0373040578 0.1395171285 -0.7822662478 0.1394202234 -0.7829015011 0.0298339135 -0.041516418
665296010.0 0.0307264853 -0.0375866421 0.1297490369 -0.7840088623 0.1308946635 -0.7834875223 0.0291533454 -0.041325167
670295980.0 0.0301253908 -0.0376354348 0.1219567114 -0.7854502534 0.1220978595 -0.7843573753 0.0280602578 -0.0417396472
675295950.0 0.0291377577 -0.0378585786 0.1131876367 -0.7872497194 0.1137999425 -0.7865947643 0.0275907305 -0.0414200135
680295920.0 0.0288113083 -0.0379563818 0.1052450354 -0.7877938229 0.105278138 -0.7874286728 0.0277848495 -0.0421552611
685295890.0 0.028429366 -0.0376393341 0.0961606192 -0.7894835436 0.0968527708 -0.7889113943 0.0270200185 -0.0418107627
690295860.0 0.0271769047 -0.0378330711 0.0875011198 -0.7898030436 0.087782897 -0.7901359754 0.0262446423 -0.0424528403
695295830.0 0.0270842139 -0.038390562 0.0794886971 -0.7909118403 0.0793489686 -0.7905035757 0.0255009995 -0.042174412
700295800.0 0.0268090422 -0.0381319184 0.0709401178 -0.791423863 0.07117749 -0.7914990824 0.0249387592 -0.0425283115
705295770.0 0.0258055132 -0.0381282301 0.061542011 -0.7932787221 0.0622811243 -0.7918069782 0.0241166322 -0.0423135885
710295740.0 0.0252099248 -0.0384902327 0.0534614809 -0.793079116 0.0538513152 -0.7934848621 0.0240286491 -0.0426564154
715295710.0 0.0247152703 -0.0380226171 0.0452144313 -0.7933734438 0.0453886473 -0.7936700481 0.0230269144 -0.0430182751
720295680.0 0.0247151431 -0.0383030514 0.0363441568 -0.7936639572 0.0363346652 -0.7942958776 0.0222145399 -0.0431960392
725295650.0 0.0230673418 -0.0381674403 0.027659528 -0.7944104729 0.0277302058 -0.7937466173 0.0215542935 -0.0427020009
730295620.0 0.0222329911 -0.0386585235 0.0190453191 -0.7941366031 0.0193836899 -0.7934481968 0.0207840344 -0.0423355361
735295590.0 0.0224720619 -0.0384344509 0.0104509259 -0.7947461834 0.0110132217 -0.7945627389 0.0201179152 -0.0435566127
740295560.0 0.0216057555 -0.0386988786 0.0016967881 -0.7951455943 0.0024987394 -0.7946445871 0.0190873345 -0.0428549645
745295530.0 0.0207734527 -0.0384079192 -0.0065874691 -0.7937644159 -0.0058521534 -0.7946448865 0.0179478533 -0.0432585189
750295500.0 0.0198708518 -0.0380706489 -0.014998643 -0.794505182 -0.0159064361 -0.794396841 0.0176551671 -0.0430339075
755295470.0 0.0191676917 -0.0383103746 -0.0232876942 -0.7946157734 -0.0239321916 -0.7946513837 0.0176113585 -0.042481179
760295440.0 0.0188260649 -0.0378687509 -0.0335831402 -0.7941255752 -0.0325303952 -0.7931022045 0.0169655064 -0.0438391979
765295410.0 0.0186625701 -0.0383063527 -0.0410039897 -0.7931067746 -0.0407804997 -0.7932924871 0.0160108277 -0.0431570147
770295380.0 0.0178539276 -0.0378007637 -0.0491833673 -0.7923429892 -0.0494007132 -0.7933157691 0.0152615549 -0.0430298483
775295350.0 0.0171518737 -0.0381992244 -0.0587235038 -0.7919902474 -0.0581578359 -0.7917591004 0.015048833 -0.042699137
780295320.0 0.0163031027 -0.0377744335 -0.0667529413 -0.7911322059 -0.0665834899 -0.7913837752 0.0145432071 -0.0431696727
785295290.0 0.0156804262 -0.0381496846 -0.0751150634 -0.7910638604 -0.0750236738 -0.790769862 0.0128163755 -0.0425327961
790295260.0 0.0155972819 -0.0383022304 -0.0837984314 -0.7903425688 -0.0837814624 -0.7901315737 0.0124920587 -0.0421377486
795295230.0 0.0147531172 -0.0382955051 -0.0921448161 -0.7894870642 -0.0927530575 -0.7895148133 0.0120171574 -0.043402724
800295200.0 0.0132803937 -0.037870632 -0.1005483646 -0.7873656326 -0.1008029828 -0.7880586138 0.0110122442 -0.042663543
805295170.0 0.0127918241 -0.0379118961 -0.1095116168 -0.7867523277 -0.1094137217 -0.7868121079 0.0111703024 -0.0424194336
810295140.0 0.012958843 -0.0377696049 -0.1176196096 -0.7851580353 -0.1180014539 -0.785328855 0.0103632322 -0.0426849038
815295110.0 0.0120206044 -0.0375238688 -0.126339539 -0.783714334 -0.1258458525 -0.7841320252 0.009628655 -0.0423684051
820295080.0 0.0115337754 -0.0375646303 -0.1342481341 -0.7821772023 -0.1349310051 -0.7828280216 0.0077807075 -0.0413533168
825295050.0 0.0103351589 -0.0374489659 -0.1434911995 -0.7810339942 -0.1434617633 -0.7809419508 0.0086247065 -0.041161964
830295020.0 0.0099705913 -0.0376292641 -0.1513759736 -0.7793809202 -0.1516663614 -0.7796561935 0.0077182606 -0.042241233
