!Created with skrf (http://scikit-rf.org).
# Hz S RI R 50.0 
!freq ReS11 ImS11 ReS21 ImS21 ReS12 ImS12 ReS22 ImS22
300000.0 -0.7720788306 -0.1445484592 -0.001326878 0.0019639299 -0.0003600427 0.0008178031 -0.0459244105 -0.0684259087
5299970.0 -0.7851730769 -0.0073771628 0.0001528641 -0.0001738772 1.31337e-05 8.52446e-05 -0.0483288816 0.0144981266
10299940.0 -0.7875978695 -0.004022497 2.9402e-05 1.00792e-05 -0.0001012619 -6.91273e-05 -0.0431074676 0.0314675982
15299910.0 -0.7935464199 -0.0015661474 6.29954e-05 0.0002675061 5.97834e-05 0.0001813287 -0.0346273088 0.0455196148
20299880.0 -0.7996553122 0.002378307 8.25065e-05 -0.0002104047 5.0419e-05 -5.44197e-05 -0.0248743505 0.057292879
25299850.0 -0.8062827566 0.0084481848 8.76859e-05 -0.0002667939 0.0002497875 5.36853e-05 -0.0144078297 0.0661675662
30299820.0 -0.8119758591 0.0160178319 2.91249e-05 -0.0001334412 5.2416e-05 4.13793e-05 -0.0033370945 0.0727173575
35299790.0 -0.8168518172 0.0250483985 1.15485e-05 -0.0001153728 7.01208e-05 -0.0001191402 0.0081851367 0.0770878415
40299760.0 -0.8213594726 0.0339870876 7.92311e-05 4.77931e-05 -0.0001769253 -7.55196e-05 0.0192341035 0.0802504356
45299730.0 -0.8247938415 0.0441503949 8.18243e-05 5.16709e-05 0.0001503716 -4.03527e-05 0.0296415891 0.0813873161
50299700.0 -0.8270854554 0.0537987016 -7.34539e-05 -4.96871e-05 6.32053e-05 -0.0002350535 0.0393478739 0.0809996587
55299670.0 -0.8291057079 0.0641363242 7.34792e-05 -3.45546e-05 -1.78904e-05 -7.30659e-05 0.0482152466 0.0804403815
60299640.0 -0.8299681721 0.0742962285 0.0002031374 -8.85539e-05 7.00508e-05 0.0001314747 0.0569008103 0.0784124629
65299610.0 -0.8309346194 0.0847287769 1.97402e-05 -0.0001176874 -0.0001537194 -3.62707e-05 0.0643610131 0.0760486678
70299580.0 -0.8311541537 0.0944529904 2.62438e-05 0.0001145003 7.05406e-05 6.57942e-05 0.0711738169 0.0730306342
75299550.0 -0.8313365798 0.1047429841 5.94656e-05 0.0003008035 -3.2569e-05 4.40374e-05 0.0775249446 0.0699176935
80299520.0 -0.831230408 0.1142446809 0.0001000183 4.19248e-05 7.08606e-05 1.3347e-05 0.0829559158 0.066140138
85299490.0 -0.8304692962 0.1240137497 6.98778e-05 -6.90407e-05 -0.0001009818 0.0002063975 0.0879347234 0.0625107478
90299460.0 -0.8303378976 0.1336847235 0.0003566144 -2.95712e-05 -0.0001714794 7.8864e-06 0.0925364363 0.0584636841
95299430.0 -0.82848312 0.1439798815 8.19258e-05 -5.75575e-05 0.000215179 -2.29375e-05 0.0963886892 0.0547852337
100299400.0 -0.8278102928 0.1531358443 1.04059e-05 0.0001023552 0.0001433688 -9.63118e-05 0.0998478824 0.0508005847
105299370.0 -0.8263434287 0.1620342649 -0.0001292281 8.70464e-05 0.0002787297 -5.84331e-05 0.1031514715 0.0465078569
110299340.0 -0.8256272453 0.1710854987 -1.12422e-05 3.44823e-05 7.80405e-05 0.0001042033 0.1056961331 0.0426930328
115299310.0 -0.8233237013 0.1800788131 0.0001973405 4.81762e-05 0.000137775 0.0002196986 0.1081532462 0.0386010342
120299280.0 -0.8221610106 0.1898292984 -0.0001392633 0.000130811 -4.6142e-06 -7.57015e-05 0.1105775079 0.0349105149
125299250.0 -0.8203656109 0.1981456756 6.57321e-05 0.0002188413 -9.70406e-05 2.67461e-05 0.1124010672 0.0307900951
130299220.0 -0.818564969 0.2077863874 -7.3152e-05 1.1163e-06 -2.52417e-05 0.0001483231 0.1137871419 0.0274316648
135299190.0 -0.816538281 0.2164508898 0.0001016975 -0.0001685819 7.64354e-05 6.85257e-05 0.1154173238 0.0233812465
140299160.0 -0.814422723 0.2259180407 -0.0001030826 0.0001925635 2.18818e-05 -0.0001691374 0.1167246024 0.0196349734
145299130.0 -0.8121818421 0.2343268203 -6.1122e-05 -0.0001548446 4.73489e-05 0.0001009855 0.1171762755 0.0165381141
150299100.0 -0.8100708538 0.2432079202 4.61779e-05 -0.0001246958 3.04618e-05 0.0002639752 0.1183070272 0.012816206
155299070.0 -0.8075659928 0.2521603312 -1.87077e-05 -0.0001166573 -7.6547e-06 2.8037e-05 0.1188768045 0.0096490042
160299040.0 -0.8047555404 0.2612159161 -5.64694e-05 0.0001282788 5.93e-08 -4.50262e-05 0.1197137363 0.0062822159
165299010.0 -0.8024242853 0.2689514531 6.96818e-05 1.91204e-05 8.80422e-05 0.0001134055 0.1201266472 0.0031207984
170298980.0 -0.7994905163 0.2774634863 3.868e-07 -0.0001425679 -4.02507e-05 -1.0697e-06 0.1205782292 -9.0982e-05
175298950.0 -0.7970113243 0.2869589073 -2.62236e-05 5.04461e-05 6.54172e-05 4.45394e-05 0.1206979614 -0.0034330078
180298920.0 -0.7939521031 0.2946444298 0.000122846 6.77833e-05 2.56217e-05 -1.72473e-05 0.1211211684 -0.0061413317
185298890.0 -0.7911850949 0.3045016139 -4.29716e-05 5.33907e-05 -4.44516e-05 6.4275e-06 0.1208599427 -0.0092721953
190298860.0 -0.7875159037 0.3120661867 0.0002695685 -3.68153e-05 2.50644e-05 0.0001102273 0.1208597681 -0.0122638101
195298830.0 -0.7842335601 0.3208319047 0.0001176732 5.69517e-05 0.0002465952 0.000155582 0.1205664788 -0.0150159733
200298800.0 -0.7809195666 0.3294210277 2.92371e-05 -7.86177e-05 4.50821e-05 0.0002665015 0.1210958135 -0.0179107335
205298770.0 -0.7770442916 0.3375168492 7.10702e-05 -0.0001764066 0.0001221993 0.0002384538 0.1201109143 -0.0206116504
210298740.0 -0.7732656312 0.3459941431 0.0001645367 -2.86838e-05 -1.51039e-05 0.0002088504 0.1200169775 -0.023053962
215298710.0 -0.7704453633 0.354275781 8.08738e-05 2.90461e-05 0.000126161 6.66458e-05 0.119079815 -0.0255531639
220298680.0 -0.7668371697 0.3623611909 0.0002220646 2.44416e-05 -2.93785e-05 0.0001658523 0.1192365626 -0.028276296
225298650.0 -0.7629747088 0.3707765109 1.54187e-05 3.29163e-05 -8.26392e-05 -0.0001433651 0.1182837432 -0.0304232899
230298620.0 -0.7589566651 0.3786004518 3.56695e-05 6.37848e-05 8.62251e-05 2.33851e-05 0.1178967816 -0.0330141462
235298590.0 -0.7546543812 0.3870740464 0.0001378199 8.68144e-05 0.0002667552 0.0002306208 0.1173318104 -0.0355890258
240298560.0 -0.7505134558 0.3949083906 -8.09596e-05 -2.74846e-05 3.29233e-05 -8.0895e-06 0.1166805139 -0.0375175687
245298530.0 -0.7468612904 0.4025717834 0.0001332449 7.88933e-05 3.30942e-05 8.32836e-05 0.1159073522 -0.0396518169
250298500.0 -0.742581527 0.4105912386 0.0002818938 0.0001111929 9.04972e-05 0.0001693569 0.115516388 -0.0417555999
255298470.0 -0.7381367511 0.4184022327 0.0001024064 0.0001992929 -6.82834e-05 4.53612e-05 0.1145767264 -0.0442988488
260298440.0 -0.7333083179 0.4259367815 0.0002484276 0.0001812086 0.0001222409 2.86061e-05 0.1138804953 -0.0465183433
265298410.0 -0.7291981225 0.4341142215 6.07773e-05 5.11821e-05 1.09057e-05 -4.77077e-05 0.1131281739 -0.0487658472
270298380.0 -0.7239316596 0.44190475 5.46654e-05 0.0001588998 1.61487e-05 5.21049e-05 0.1123026588 -0.0509344376
275298350.0 -0.7193415011 0.4492390982 3.58777e-05 -1.89805e-05 0.0002291431 0.0003000986 0.1113699124 -0.0523026279
280298320.0 -0.7151218598 0.4565931075 -2.9769e-06 1.68147e-05 6.36311e-05 7.33227e-05 0.1103410222 -0.0546249728
285298290.0 -0.7101856788 0.4646040097 1.31791e-05 -0.0001001851 -4.79939e-05 -0.0001555656 0.1095057646 -0.0560471597
290298260.0 -0.7054591864 0.4716644071 8.39034e-05 -0.0001562706 -0.0001512714 -6.1978e-06 0.1088693698 -0.0580289105
295298230.0 -0.7009572332 0.4794293197 -0.0001533681 0.0002722549 1.08014e-05 0.0001306297 0.1075260643 -0.0596208863
300298200.0 -0.6949147114 0.486227053 -3.34241e-05 -0.000119974 1.64437e-05 -3.24789e-05 0.1068809124 -0.0616047253
305298170.0 -0.6900343642 0.4944084519 -4.4737e-06 0.0002782119 -3.50001e-05 6.6272e-05 0.1061405243 -0.0631998463
310298140.0 -0.6845473543 0.5010144872 0.0001723754 -0.0001334027 0.0001450535 -8.07156e-05 0.105180144 -0.0652177508
315298110.0 -0.679836667 0.5082723005 -0.0001867365 0.0002229508 -9.1193e-06 3.68672e-05 0.1040565477 -0.0671242716
320298080.0 -0.6746598726 0.515792703 9.10969e-05 0.0001683348 -7.35014e-05 -4.87826e-05 0.1030075027 -0.068882635
325298050.0 -0.6681483281 0.5220289739 0.0001175088 -9.24444e-05 4.2614e-05 0.0001659158 0.1018342733 -0.070629684
330298020.0 -0.6626773063 0.5291631052 9.37317e-05 0.0001282255 5.85094e-05 -0.0001398994 0.1003594717 -0.0727161623
335297990.0 -0.6570362953 0.5364328475 -0.0001375241 -9.14073e-05 0.0001344966 -5.471e-05 0.0988632461 -0.074083315
340297960.0 -0.6524348151 0.5426976395 -0.0001207728 -0.0001349231 0.0001311859 0.0001339267 0.0977433756 -0.0755713891
345297930.0 -0.6463391627 0.5484581501 -3.53176e-05 0.0001903544 0.0001832906 1.57388e-05 0.0962044705 -0.0767020863
350297900.0 -0.6404633722 0.5558344115 5.91112e-05 4.59029e-05 2.42515e-05 0.000195304 0.0950126372 -0.0781119632
355297870.0 -0.6345169228 0.5623482197 0.0001423602 -2.01472e-05 9.71105e-05 -0.000119602 0.0936869587 -0.0792005513
360297840.0 -0.6284056577 0.5691320571 0.000108521 0.0001544534 7.7093e-06 6.06018e-05 0.0922100052 -0.0805217184
365297810.0 -0.6225384616 0.5759113227 3.17871e-05 -0.000195636 0.0002250535 -6.40798e-05 0.0907852247 -0.08206857
370297780.0 -0.6161675718 0.5817199718 0.000284996 -1.753e-05 1.60902e-05 0.0001166399 0.0892763491 -0.0829946165
375297750.0 -0.6102242061 0.588560482 3.89488e-05 -2.26205e-05 5.6709e-06 0.000135782 0.0882621806 -0.0843675207
380297720.0 -0.6037456367 0.5950361995 0.0001903184 0.0002016593 0.0002063094 -4.37083e-05 0.0867097786 -0.0852201796
385297690.0 -0.5974598996 0.600665617 0.0002067781 -8.55536e-05 -4.74748e-05 0.0001202592 0.0850930204 -0.0862492589
390297660.0 -0.5912329558 0.6069688374 -4.03801e-05 0.0001388274 0.0001469812 0.0001088416 0.0840027063 -0.0878695965
395297630.0 -0.5853058111 0.6133324904 -0.0001395254 0.0001116052 0.0001571958 0.0001464364 0.0823963726 -0.0886842522
400297600.0 -0.5787230747 0.6191179401 0.0002792558 0.0001592178 7.30717e-05 0.0001563649 0.0810954285 -0.0899154812
405297570.0 -0.5726435691 0.6244274593 -0.0001166775 7.39078e-05 -3.67696e-05 4.31167e-05 0.0796294567 -0.0907466491
410297540.0 -0.5657162292 0.6307433974 8.2317e-06 6.74366e-05 5.67993e-05 -8.92719e-05 0.0779965228 -0.0917208084
415297510.0 -0.5590819309 0.6366545436 0.0001602048 0.0002251006 0.0002017396 -0.0001555575 0.0765241059 -0.0925108497
420297480.0 -0.5520711353 0.6421000777 -1.4713e-06 0.0001322656 -5.01741e-05 8.6078e-06 0.0749396985 -0.0936681504
425297450.0 -0.5459062304 0.6480034307 -0.000108632 -3.50126e-05 -3.56364e-05 -9.5821e-06 0.0736996021 -0.0947561445
430297420.0 -0.5391870269 0.6536833885 0.0003082036 0.0002635384 0.0001968633 0.0001483598 0.0723118554 -0.0954934064
435297390.0 -0.5322738471 0.6591126128 0.0002376349 0.0001044826 8.73091e-05 0.00014916 0.070988685 -0.0960015018
440297360.0 -0.5253361947 0.664193855 0.0002569655 0.000112794 0.0001143099 7.67431e-05 0.068942174 -0.0974000358
445297330.0 -0.5182740517 0.6697265627 8.31515e-05 0.0001198908 0.0001074828 -1.64748e-05 0.0675667587 -0.09835182
450297300.0 -0.5111558648 0.6743194656 -6.77382e-05 0.0001006263 8.11607e-05 0.0001419256 0.0660703007 -0.0985936411
455297270.0 -0.5042490176 0.6801149329 0.0001778487 -9.33296e-05 0.0001661811 -9.74092e-05 0.0646703594 -0.0998710047
460297240.0 -0.4974604248 0.6852095486 -7.9445e-06 5.67697e-05 0.0002548556 3.18112e-05 0.0633317993 -0.1000998129
465297210.0 -0.4903084561 0.6905472474 8.85539e-05 0.0002166783 2.47537e-05 -0.0001568338 0.0614896642 -0.1013572464
470297180.0 -0.4827856915 0.6951409254 5.5792e-05 -2.43819e-05 -6.70446e-05 -1.72153e-05 0.0593818604 -0.1016711529
475297150.0 -0.4756777616 0.7007245057 0.0001308737 -0.0001144431 0.0001156203 -5.64566e-05 0.0584108902 -0.1025013603
480297120.0 -0.4692881995 0.7048505417 5.59727e-05 0.0001834605 0.0001628091 0.000229034 0.0565740586 -0.1028596238
485297090.0 -0.4613940487 0.7087266343 0.0002479532 3.5199e-06 0.0002218736 -3.68875e-05 0.0549301913 -0.1035975333
490297060.0 -0.4544472276 0.713741401 0.00022428 2.74028e-05 0.0001294906 0.0001219017 0.0534806422 -0.1042605632
495297030.0 -0.4475715083 0.7186812039 0.0003382904 7.11794e-05 0.0002159839 5.26425e-05 0.0514523602 -0.1053867204
500297000.0 -0.4385549791 0.7234119399 0.0002480995 -1.22195e-05 8.63009e-05 6.2318e-05 0.0499728355 -0.1056996381
505296970.0 -0.4315396442 0.7271836822 0.0004401804 8.31008e-05 0.0003609915 -0.0001149271 0.0479010536 -0.1059841683
510296940.0 -0.4240900594 0.7320520766 8.03937e-05 0.0001657755 0.000302487 5.37664e-05 0.046912267 -0.1067775845
515296910.0 -0.4167160471 0.736398748 0.0002014976 0.0001657406 0.0001009317 8.98026e-05 0.0451252291 -0.1069636678
520296880.0 -0.4092475242 0.7403221634 0.0002753576 -8.13046e-05 0.0001713055 0.0001559838 0.0433211912 -0.1078476298
525296850.0 -0.40191996 0.744583649 7.0354e-05 2.95229e-05 9.87519e-05 0.000249843 0.0418680833 -0.1083122043
530296820.0 -0.3938382008 0.7476541314 3.27278e-05 0.0001456668 0.0002976531 0.0001193941 0.0397947065 -0.1088835522
535296790.0 -0.3861934157 0.7521971589 0.0003706044 -2.6329e-06 0.0001808901 -3.74995e-05 0.0382077013 -0.1094262689
540296760.0 -0.3782137611 0.7565048243 8.30347e-05 -0.0001064339 0.0001557726 3.33974e-05 0.0363669925 -0.1093338078
545296730.0 -0.3716185336 0.7597600713 -2.21158e-05 -5.3219e-06 0.0001205433 0.0001688937 0.0347588315 -0.110162171
550296700.0 -0.3633378193 0.7637768458 0.0001031763 0.0002378398 -4.04472e-05 -7.7419e-05 0.0330104406 -0.1105719969
555296670.0 -0.3548203813 0.7671993857 9.35961e-05 -7.7081e-06 4.459e-06 0.000118388 0.0316242242 -0.110185042
560296640.0 -0.3468415396 0.7704923826 0.0002324379 -8.84198e-05 0.0001590417 0.0001071028 0.0299393522 -0.1111713154
565296610.0 -0.3396905091 0.7741299104 8.8061e-05 2.12521e-05 0.0001509812 0.0001057685 0.0278919694 -0.1112213598
570296580.0 -0.3314578489 0.777223385 -4.07524e-05 0.0001029226 -2.74049e-05 0.0001432929 0.0263370977 -0.1113156946
575296550.0 -0.323485532 0.7805852957 0.000156792 -2.36155e-05 -4.89635e-05 2.57988e-05 0.0251154698 -0.1116829818
580296520.0 -0.3158989939 0.78411736 0.0001142488 -2.90956e-05 0.0002396977 -4.82112e-05 0.0230264164 -0.1117831411
585296490.0 -0.3077440455 0.7862061704 -0.000170955 8.72153e-05 -8.83964e-05 2.42467e-05 0.0213828172 -0.1126347964
590296460.0 -0.3000383886 0.7900266235 -2.76161e-05 -9.88526e-05 0.000189612 0.0001607177 0.0195807088 -0.1126453635
595296430.0 -0.2916176847 0.7932817631 0.0001739002 7.14088e-05 4.89603e-05 -8.39431e-05 0.0175590985 -0.1126353981
600296400.0 -0.2837328772 0.7956654141 0.0003502871 4.41339e-05 0.0001845423 -4.85497e-05 0.0162674651 -0.1126781409
605296370.0 -0.2751963877 0.7983694615 0.0002125613 -8.1071e-05 0.0003037035 0.0002252269 0.0144512105 -0.1126380344
610296340.0 -0.267386371 0.8013002371 8.65658e-05 2.6239e-06 -0.0001113938 9.51249e-05 0.0126303795 -0.1128680374
615296310.0 -0.2587656088 0.8041819582 2.52858e-05 0.0001581186 0.0001921184 3.83013e-05 0.0111671658 -0.1132143371
620296280.0 -0.2506828227 0.8067944179 -6.36232e-05 -7.1176e-06 6.15519e-05 0.0001526923 0.0094495398 -0.1134640436
625296250.0 -0.2427855257 0.8093969999 -7.7283e-06 -1.70342e-05 0.0001670598 1.667e-05 0.0074803167 -0.1129168426
630296220.0 -0.2340880381 0.8117600324 0.0002233772 2.9544e-06 0.0003020129 9.9012e-06 0.0059086488 -0.1132619876
635296190.0 -0.2263898063 0.8140466861 0.0003454476 3.30831e-05 5.73179e-05 6.37359e-05 0.0044950515 -0.1128835117
640296160.0 -0.2181597722 0.8150193528 1.25689e-05 0.0001119569 0.000122237 0.0001058161 0.0026179649 -0.1130439897
645296130.0 -0.2102978926 0.8175439459 0.0002460813 0.0002129628 0.0001863903 4.29356e-05 0.0008950941 -0.1130239919
650296100.0 -0.2018267619 0.8203433771 0.0001456881 5.84907e-05 0.0002550392 0.0001441275 -0.0008139692 -0.1129571265
655296070.0 -0.1930729161 0.8222709974 0.0001140607 9.39271e-05 7.96493e-05 0.0001675453 -0.0025461751 -0.1123928594
660296040.0 -0.1852280435 0.823973055 -5.94128e-05 0.0001067777 4.16073e-05 7.79623e-05 -0.0042077279 -0.1125463947
665296010.0 -0.1769818761 0.825644226 0.0002072848 -3.98377e-05 0.0002424284 8.47357e-05 -0.0058297118 -0.1124483658
670295980.0 -0.1684294701 0.827585224 0.0002405615 -7.85074e-05 0.0001609933 -0.000109534 -0.0074713749 -0.1120751682
675295950.0 -0.1599040679 0.8287068852 0.000236829 -0.0001372407 0.0001415431 -1.43433e-05 -0.0092873552 -0.1117803088
680295920.0 -0.1514653033 0.8307666878 9.88819e-05 -9.12113e-05 0.0001326411 0.0001435974 -0.0110918128 -0.1118870589
685295890.0 -0.1429829787 0.8319071435 -6.1412e-05 0.0002693789 -8.55826e-05 -0.0001281803 -0.0125383477 -0.1113957245
690295860.0 -0.1344521421 0.8335141339 0.0003811139 -9.41713e-05 -2.21767e-05 6.89025e-05 -0.0140989845 -0.111259113
695295830.0 -0.1260603083 0.8340180713 0.0001632932 -6.20693e-05 0.000240437 -0.0001478303 -0.0161999444 -0.1107575812
700295800.0 -0.1178665185 0.8351042768 0.0001287412 3.16287e-05 0.0001868923 -0.0002334628 -0.0173480487 -0.1105115612
705295770.0 -0.1090941174 0.8373675264 0.0001965049 -0.0001771487 4.94863e-05 4.02867e-05 -0.0192811669 -0.1102592688
710295740.0 -0.1012606584 0.838273675 0.0001041045 0.0001607386 0.0003777012 -2.12294e-05 -0.0210769159 -0.1096648192
715295710.0 -0.0929650084 0.8392346617 0.000186276 8.19529e-05 0.0002839838 3.27852e-05 -0.0226605263 -0.1092114352
720295680.0 -0.0842235339 0.8392687393 0.00025159 -0.0002156368 7.05718e-05 8.41721e-05 -0.0238809067 -0.1088145096
725295650.0 -0.0753467473 0.840920391 0.0002123531 -0.0001992998 -2.607e-05 4.48128e-05 -0.0257571024 -0.1085988423
730295620.0 -0.0675484785 0.8413751582 0.000248892 -6.395e-06 0.0002479658 -3.33026e-05 -0.0273963266 -0.1078175018
735295590.0 -0.0577207621 0.8418545052 0.0001223585 0.0001417492 0.0002587318 -0.0003172283 -0.0289582992 -0.1074469608
740295560.0 -0.0498477022 0.8424353083 4.7956e-05 7.36503e-05 4.43064e-05 -1.36143e-05 -0.030749812 -0.1070022632
745295530.0 -0.0419423241 0.8427714177 0.0001619363 6.69605e-05 0.000120742 -0.0001156892 -0.0323640146 -0.1063661282
750295500.0 -0.0335622561 0.8430271138 0.0001776387 -0.0002510651 0.0001821648 -8.19736e-05 -0.0339578807 -0.1060842187
755295470.0 -0.024414994 0.8427782594 0.0003383243 6.31112e-05 0.000136609 -0.0001498841 -0.0355103483 -0.105045665
760295440.0 -0.0163851058 0.8432458018 0.0001539849 -0.0001188754 0.000135225 5.30736e-05 -0.0372408753 -0.1048714779
765295410.0 -0.0078590483 0.8437703252 0.0002884838 -0.0002875834 6.84424e-05 9.0497e-06 -0.0381766012 -0.1041057161
770295380.0 0.0008284477 0.8443725669 -0.0001319254 -3.73402e-05 0.0001269112 -1.92508e-05 -0.0398220934 -0.1036615911
775295350.0 0.0088852935 0.8437777621 0.0001506764 -0.0001049987 -1.75042e-05 -5.2342e-05 -0.0417243263 -0.1029711219
780295320.0 0.0171349597 0.8432765853 9.90807e-05 -1.90184e-05 2.33004e-05 -2.43494e-05 -0.0433180937 -0.1019037695
785295290.0 0.0262957271 0.8437281215 0.0001501475 -0.0001108347 0.0001618544 -0.0001640739 -0.0449759696 -0.1014502468
790295260.0 0.0345424504 0.8431893935 0.0002429736 4.52999e-05 3.53061e-05 0.0001198233 -0.0462353798 -0.1007976988
795295230.0 0.0426291077 0.8429802426 7.51051e-05 -0.0001975196 0.0002450416 0.0001971047 -0.0479075939 -0.099695277
800295200.0 0.0514912142 0.8423397903 0.0001033738 -2.93014e-05 8.82018e-05 -4.56369e-05 -0.0492091523 -0.0991799467
805295170.0 0.0598016021 0.841959447 8.34084e-05 0.0001632364 5.5005e-06 -8.53573e-05 -0.0509834368 -0.0984251627
810295140.0 0.0679479537 0.8406421887 0.0001001833 -0.0003021164 0.0002962284 8.06092e-05 -0.052212862 -0.0972220849
815295110.0 0.0771201603 0.8403764837 0.0001527744 -2.09048e-05 0.0002818958 4.92043e-05 -0.0538263362 -0.0962598856
820295080.0 0.085162682 0.8391012114 0.0001015031 -0.0001846457 0.0001975652 -3.9283e-06 -0.055543359 -0.0960866027
825295050.0 0.0940690217 0.838542387 3.92896e-05 -0.0001975052 0.0002795925 -3.94343e-05 -0.05669297 -0.0950962677
830295020.0 0.1021406281 0.8379868291 0.0001622419 -0.0001010141 -0.0001675515 -0.0001414597 -0.0581364049 -0.0939591336
835294990.0 0.1100658553 0.8371140138 8.96168e-05 -1.58599e-05 0.0002346869 -0.0001637172 -0.059623002 -0.093334045
840294960.0 0.1179927548 0.8353148064 0.0001555104 -0.0001939885 0.0002594714 -0.000192746 -0.0610962036 -0.0921313712
845294930.0 0.1269099813 0.8342241654 0.000183144 -0.0003154473 0.0002129353 -0.0002395889 -0.062456618 -0.0910927371
850294900.0 0.1351519375 0.8324499 0.0001156412 -3.04344e-05 0.0002949001 -0.00012272 -0.0637408249 -0.090512826
