!Created with skrf (http://scikit-rf.org).
# Hz S RI R 50.0 
!freq ReS11 ImS11 ReS21 ImS21 ReS12 ImS12 ReS22 ImS22
300000.0 -0.0452955067 -0.0530761165 0.0013731521 0.0005982693 -0.0007499254 0.0006020122 -0.7690836947 -0.1529228854
5299970.0 -0.0449058039 0.0159472849 0.0003385201 -0.0002165971 -1.23966e-05 0.0002596136 -0.7848130661 -0.0078992611
10299940.0 -0.0389263915 0.0337191996 5.681e-05 -6.22881e-05 6.8004e-05 6.51384e-05 -0.788098615 -0.0048457442
15299910.0 -0.0306841326 0.0482606469 4.81296e-05 -9.57813e-05 -6.68987e-05 3.05359e-05 -0.7939300351 -0.0029276459
20299880.0 -0.0204344409 0.0601089803 -6.48591e-05 0.0002442108 5.2701e-06 3.45841e-05 -0.8002524289 0.001831122
25299850.0 -0.0092667321 0.0692992845 0.0003106652 8.76609e-05 5.43562e-05 0.0001776291 -0.8062721056 0.0074706131
30299820.0 0.0026771797 0.0760311811 0.0001037356 0.0001373057 0.0001018803 7.92448e-05 -0.8122798832 0.0147375867
35299790.0 0.0143957106 0.0809757182 0.000177311 6.0867e-06 2.17381e-05 3.98461e-05 -0.8176849388 0.0238116267
40299760.0 0.0257187604 0.0838845878 8.37293e-05 -2.03067e-05 0.0002599227 1.9568e-05 -0.8215719308 0.0333394893
45299730.0 0.0365835477 0.085032514 -3.57516e-05 0.0001700346 0.0001244818 2.79701e-05 -0.8253915342 0.0425211407
50299700.0 0.0466762302 0.0850020581 -9.9777e-06 -3.82593e-05 7.84627e-05 -1.51931e-05 -0.8275107148 0.0527446747
55299670.0 0.0555974243 0.0842617549 -5.59044e-05 -9.23692e-05 -7.00938e-05 6.76998e-05 -0.829977508 0.062971388
60299640.0 0.0643917083 0.0822840125 9.0184e-05 0.0001305907 -8.76259e-05 -8.10531e-05 -0.8306942019 0.0731393277
65299610.0 0.0722222519 0.0800210445 3.76832e-05 2.35738e-05 0.000150616 -1.18045e-05 -0.8313564323 0.0829611955
70299580.0 0.0792545545 0.0768806427 0.0001369426 3.98877e-05 -0.0001412294 9.52023e-05 -0.8322572473 0.0925022601
75299550.0 0.0857246665 0.0733538915 -4.82247e-05 -6.00366e-05 -0.000185915 -0.00019407 -0.832456723 0.1025768889
80299520.0 0.09110826 0.0702650872 -1.05868e-05 0.0001938953 -0.0001137669 2.4458e-06 -0.8318695169 0.1128483607
85299490.0 0.096254257 0.0662735718 -2.14392e-05 0.0001732306 -0.0001058255 -9.13493e-05 -0.8322273943 0.1216659409
90299460.0 0.1007084068 0.0627161857 -0.0001366588 0.0001818826 8.30707e-05 0.0001147746 -0.8303011671 0.1313139938
95299430.0 0.105023082 0.0586475321 -7.1468e-06 8.89178e-05 -0.0001084975 0.0001900549 -0.82972504 0.1414150509
100299400.0 0.1082847758 0.0551231072 9.29707e-05 6.48435e-05 -0.0001115534 2.03571e-05 -0.8291048255 0.1494988511
105299370.0 0.1117702589 0.0511718094 9.93932e-05 6.4747e-05 3.29459e-05 5.63943e-05 -0.827284667 0.1592582578
110299340.0 0.1144626863 0.0472634858 6.2904e-05 2.2406e-06 -7.92367e-05 0.0001974911 -0.8266334402 0.1688542278
115299310.0 0.1171162477 0.0429364264 -0.0001702961 0.0001613339 4.04572e-05 0.0001499461 -0.8245266543 0.1769967404
120299280.0 0.1192505981 0.0396366738 8.16327e-05 0.0001578983 6.675e-05 -9.79619e-05 -0.8229684758 0.1860800708
125299250.0 0.1212088937 0.0357394293 4.8183e-06 1.23969e-05 -0.0001557373 6.3125e-06 -0.8217515737 0.1957861836
130299220.0 0.1229131482 0.0321345976 8.58593e-05 -7.20873e-05 0.0001897518 0.0001293197 -0.8197810694 0.2045008267
135299190.0 0.1245331957 0.0285000982 0.0001498264 0.0002088647 -6.94842e-05 0.0002392436 -0.8178913604 0.2134093318
140299160.0 0.1258293996 0.0247866444 0.0001031576 0.0001035957 3.82737e-05 -6.68145e-05 -0.8155328211 0.2216784247
145299130.0 0.1269131344 0.0215026865 2.90928e-05 7.23788e-05 0.0002018492 0.0001160224 -0.8133218376 0.2299890819
150299100.0 0.1278088763 0.0180857592 -0.0001708841 -8.63166e-05 9.52163e-05 0.0001997589 -0.8114774434 0.2384438842
155299070.0 0.128686299 0.0149492238 0.0001080859 -9.87266e-05 6.0443e-06 -1.08004e-05 -0.8092051454 0.2472972615
160299040.0 0.1293112054 0.0114613504 -3.79685e-05 0.0001381926 -9.99836e-05 0.0001797109 -0.8070909095 0.2566432693
165299010.0 0.1297405985 0.008582815 -1.53271e-05 0.0001043125 0.0001789823 0.0001084613 -0.8041863125 0.2654561994
170298980.0 0.130203611 0.0053802769 8.9115e-05 0.000213674 8.29613e-05 -4.4377e-05 -0.8016559326 0.2735531445
175298950.0 0.1307674591 0.0028548751 -5.15455e-05 0.0001591861 0.0001105879 7.61402e-05 -0.7988832198 0.2820144878
180298920.0 0.1309075764 -0.0003728896 1.30324e-05 0.0001089329 0.0002506462 0.0001652452 -0.795113399 0.2908764081
185298890.0 0.1307553224 -0.0033158689 -1.68734e-05 0.0003217465 -2.4513e-05 0.0001207902 -0.7930010938 0.2985930747
190298860.0 0.1309957316 -0.0061789355 0.0002148863 -4.51287e-05 0.000140103 0.0001776803 -0.7898220942 0.3074510564
195298830.0 0.131255704 -0.0088218021 -0.0003096835 0.0002900127 1.48179e-05 0.0002007899 -0.7867657823 0.3156746405
200298800.0 0.1308256428 -0.0114658598 5.75361e-05 0.0001991325 -2.98211e-05 1.42317e-05 -0.7831931134 0.3247814586
205298770.0 0.1307373292 -0.0142017984 -8.1476e-06 5.94219e-05 -3.17638e-05 5.99693e-05 -0.7800334902 0.33221282
210298740.0 0.1305071158 -0.0166739945 -0.0002093463 0.0002070231 -9.75216e-05 6.0266e-06 -0.7771493832 0.3409549811
215298710.0 0.1301974469 -0.0192188038 -5.31385e-05 0.0001338073 6.28247e-05 0.0003339478 -0.7735212384 0.3485374956
220298680.0 0.1299969835 -0.0215974657 0.0003984386 0.0001996692 0.0002548417 0.0001071396 -0.7696035253 0.3571513873
225298650.0 0.1295422519 -0.0237915709 9.00878e-05 0.000139719 6.41336e-05 0.0001245803 -0.7655301372 0.3645327162
230298620.0 0.1288328409 -0.02626967 0.0001568518 8.55916e-05 0.0001059482 0.0001924028 -0.7613798729 0.37300109
235298590.0 0.1282510438 -0.0287942662 0.0001796243 0.000248729 -6.35504e-05 0.0002706165 -0.7577618168 0.3810398979
240298560.0 0.1278889351 -0.0308462119 4.84884e-05 4.4608e-06 7.0054e-05 7.38256e-05 -0.7541548566 0.3889292416
245298530.0 0.127609108 -0.0329481075 9.27463e-05 -0.0001042874 1.32501e-05 7.78622e-05 -0.7503982106 0.3968201339
250298500.0 0.1266785465 -0.0352808646 0.0001783575 -7.55718e-05 -0.0001561293 0.0001933909 -0.7458385032 0.4050884219
255298470.0 0.1260722418 -0.0373244014 0.0003076753 1.24885e-05 0.0001243083 6.2524e-05 -0.7412965741 0.4126705199
260298440.0 0.1256456911 -0.0392551952 -8.24853e-05 0.0001787779 -9.01003e-05 1.99723e-05 -0.736651632 0.4206503323
265298410.0 0.1246977029 -0.041285751 8.4457e-05 0.0001610696 0.0002065657 5.93807e-05 -0.7326631954 0.4276102843
270298380.0 0.12420332 -0.0430349611 0.0001068442 0.0001280516 0.0001052339 0.0001652597 -0.7275463982 0.435693936
275298350.0 0.1233000535 -0.0451065842 0.0002006494 3.14567e-05 0.0002756348 6.26883e-05 -0.7228951244 0.4432543236
280298320.0 0.12284512 -0.0469619682 9.67029e-05 -5.93809e-05 8.63895e-05 0.0001697113 -0.7185178573 0.450060091
285298290.0 0.1217947365 -0.0487062166 1.72831e-05 0.0001791 8.28202e-05 0.0002375093 -0.7134838375 0.4578001697
290298260.0 0.1211856612 -0.0506940027 -7.37881e-05 0.0002396839 0.0002658109 2.56009e-05 -0.7088686236 0.4659812151
295298230.0 0.1204792879 -0.0526709001 0.0001370955 0.0003231483 0.0001156532 0.0001769021 -0.7040246603 0.4730139906
300298200.0 0.1197745461 -0.0548529412 -4.09883e-05 -5.56053e-05 0.0001746066 0.0002167973 -0.6987962824 0.4803170754
305298170.0 0.119142949 -0.056345001 -6.99945e-05 0.000274593 -0.0001352043 0.000225415 -0.6935269858 0.4879590361
310298140.0 0.1180213414 -0.0585501054 0.0002718689 4.33183e-05 0.0001049292 6.0096e-06 -0.6893230137 0.4955807577
315298110.0 0.1164745131 -0.0602657514 0.0001019291 0.0001727459 7.76771e-05 0.0001970804 -0.6834650834 0.5024641751
320298080.0 0.1156737952 -0.0621719184 0.0003303058 0.0002617079 4.65625e-05 7.30422e-05 -0.678068458 0.5093585784
325298050.0 0.1143497471 -0.0640078665 -3.26357e-05 0.0001578078 0.0001990144 0.0001012662 -0.6723961085 0.5162894822
330298020.0 0.1132740715 -0.0653588749 0.0001053374 0.0002221711 0.0002045645 0.0002253141 -0.6671766426 0.523447433
335297990.0 0.1119410173 -0.0667322795 0.0001091235 0.0002899095 0.0001412008 0.0001302514 -0.6614237796 0.5298701479
340297960.0 0.1106702639 -0.068212467 5.38889e-05 -0.0001383177 -1.55575e-05 0.0001041765 -0.6552329775 0.5371143313
345297930.0 0.1094243964 -0.0696973023 -4.57155e-05 0.0003581305 0.0001035694 0.0003850746 -0.6495284671 0.5438632401
350297900.0 0.1085751099 -0.0712670522 8.20047e-05 6.99165e-05 0.0002106744 0.0001740635 -0.6441127564 0.5508202866
355297870.0 0.1069104511 -0.0725009407 -4.2463e-05 0.0001355206 0.0003833651 6.79296e-05 -0.6385170826 0.5575422831
360297840.0 0.1057669072 -0.0738540515 3.10852e-05 0.0001915911 -1.4965e-06 0.0002255367 -0.6319065839 0.5633878949
365297810.0 0.1047884022 -0.0754320681 7.77914e-05 0.0002450918 0.0004717786 0.0001885384 -0.6260519445 0.5705323131
370297780.0 0.1036251913 -0.0763198054 0.0002990769 0.0001489664 0.0001648674 9.72763e-05 -0.6204644373 0.5769216797
375297750.0 0.102562114 -0.0778615181 0.0003526891 0.000108121 -6.51441e-05 0.000248764 -0.6141438571 0.5825135109
380297720.0 0.1017917881 -0.0790167756 0.0002480743 0.0003047801 8.98689e-05 2.71643e-05 -0.6077150148 0.5907439662
385297690.0 0.1001858099 -0.080173788 0.0002044461 7.3301e-05 0.0001842391 0.0001471946 -0.601339857 0.5960492239
390297660.0 0.0988913612 -0.0813140384 0.0001628351 0.0001654571 0.0002314028 -9.20894e-05 -0.5952819941 0.6016294812
395297630.0 0.097612377 -0.0826069148 0.0004432776 0.0001702057 1.3779e-05 -3.01249e-05 -0.5888084953 0.6080674073
400297600.0 0.0965067274 -0.0835854094 7.99033e-05 0.0001575132 0.0002731193 7.16829e-05 -0.5825764775 0.6137487584
405297570.0 0.0953711992 -0.084652299 0.0001100457 0.0001260714 -1.35165e-05 3.7649e-05 -0.576618452 0.6201933497
410297540.0 0.0940873825 -0.0860910462 0.000243436 -0.0002442479 0.0002106389 -6.50901e-05 -0.569541148 0.6255204277
415297510.0 0.093036556 -0.0871371217 7.6569e-05 0.0002667556 8.0481e-05 9.67782e-05 -0.5634837244 0.6316818448
420297480.0 0.0916252906 -0.0883541966 5.31086e-05 5.89256e-05 0.0003205812 0.0001264856 -0.5561791742 0.6370225182
425297450.0 0.0902832049 -0.0892644882 5.07489e-05 0.0003709749 0.0001922362 0.0001011931 -0.5494430667 0.6430841119
430297420.0 0.0891357774 -0.0901750471 0.0002395019 0.0003382325 0.0002763501 0.0001781971 -0.5436304003 0.6487377096
435297390.0 0.0878437066 -0.091422104 0.0001269621 6.51197e-05 0.0003952603 -9.23159e-05 -0.5367844208 0.6535388211
440297360.0 0.0867686863 -0.0923175194 0.0002892024 2.90573e-05 0.0002120257 0.0001411044 -0.5298559263 0.6588890206
445297330.0 0.0851799407 -0.0930002908 0.0002269707 -1.97655e-05 0.000205554 0.0002442869 -0.5229324052 0.6646245921
450297300.0 0.0838754862 -0.0942419032 -5.81887e-05 0.0001351029 0.0002363717 0.0002486931 -0.5167144847 0.6698663456
455297270.0 0.0824633855 -0.0952380262 3.4577e-06 9.4227e-06 3.50399e-05 2.55396e-05 -0.5094569573 0.6750662989
460297240.0 0.0812222316 -0.095824473 2.34124e-05 0.0002703326 0.0001510094 0.0002424051 -0.5021375935 0.6806536358
465297210.0 0.0799863848 -0.0969147988 0.0002973984 -4.43062e-05 0.0002579556 0.0001154813 -0.4953962966 0.684999559
470297180.0 0.0784489256 -0.0974685264 3.48057e-05 0.0002135093 0.0002589556 0.000261662 -0.4888077777 0.6897127468
475297150.0 0.0770767313 -0.0985648638 0.000259288 0.0001145024 0.0001759861 2.10735e-05 -0.4806991155 0.6947519228
480297120.0 0.0757743545 -0.0997354797 0.0001850655 6.69091e-05 -0.0001476497 2.99408e-05 -0.4745866089 0.7003965094
485297090.0 0.0746019049 -0.10010486 0.0001339615 0.000192994 0.0001879127 0.0001632151 -0.46718805 0.7043524374
490297060.0 0.0733039711 -0.1012679593 0.0002409624 -4.72014e-05 5.4826e-05 0.0001852773 -0.460143546 0.7089978315
495297030.0 0.0717728377 -0.1015926182 0.0003977595 8.93603e-05 0.0001959515 2.31512e-05 -0.4526334921 0.7133522689
500297000.0 0.0701061426 -0.1027474432 0.000309738 -5.9148e-05 0.0002451187 -0.0001269033 -0.4462710264 0.7181011472
505296970.0 0.068704301 -0.1029833036 0.0004914027 -2.69165e-05 0.0001657784 0.0001415816 -0.4393641327 0.7224259254
510296940.0 0.0677684173 -0.1036002396 6.74998e-05 -2.60898e-05 9.90011e-05 8.6994e-06 -0.431201663 0.7266444919
515296910.0 0.0659716228 -0.1042832092 0.0002424584 3.51003e-05 0.0001948353 2.39485e-05 -0.4239241241 0.7310667319
520296880.0 0.0647178101 -0.1052240575 1.74318e-05 -5.39846e-05 0.0002904342 2.81492e-05 -0.4166095709 0.7349931648
525296850.0 0.0635077586 -0.1056544076 0.0002138993 0.0002467524 0.0002519159 1.0817e-05 -0.4089052801 0.7401354212
530296820.0 0.0619301576 -0.1062878653 0.0001215462 0.0001291346 0.0003160762 -6.4088e-06 -0.4024410376 0.7429509444
535296790.0 0.0605130867 -0.1067760659 0.0002382036 0.0002753938 0.0002320723 0.0002081049 -0.3947508764 0.7469756508
540296760.0 0.0589929053 -0.107763545 0.0003032898 -7.2878e-06 0.0002007151 1.806e-07 -0.3876667495 0.7512169067
545296730.0 0.0576344678 -0.1078790824 0.0004702233 9.46511e-05 0.0002125373 -5.55651e-05 -0.3797534811 0.7542720945
550296700.0 0.0560367296 -0.1084560806 6.9927e-05 1.49692e-05 0.0002187312 0.0002151996 -0.3724840008 0.7583209974
555296670.0 0.0550059621 -0.1090994938 0.0003297703 -4.71609e-05 0.000439782 -9.46701e-05 -0.3645370455 0.7617668036
560296640.0 0.0533105608 -0.1096659608 8.44583e-05 -5.64933e-05 0.0002485218 -1.85825e-05 -0.3570887157 0.7656644072
565296610.0 0.0517299939 -0.1099789958 0.000267239 2.85519e-05 0.0004454183 0.0001055931 -0.3497968119 0.7689921737
570296580.0 0.0505663042 -0.1106073155 0.0003735821 0.0001657312 0.0003721088 4.28679e-05 -0.3422065321 0.7728369529
575296550.0 0.0492663614 -0.1108107457 0.0003548268 0.0001062412 0.0003284566 -1.09178e-05 -0.3344497734 0.7760388684
580296520.0 0.0479633938 -0.111209516 0.0003842109 0.0001066521 0.0002952124 9.7174e-06 -0.3262112637 0.7790824809
585296490.0 0.0461504087 -0.1116551786 0.0005117476 -0.0001277859 0.0002112839 0.000109529 -0.3188521058 0.7822790859
590296460.0 0.0445106005 -0.1123294245 0.0002580641 0.0002274601 0.0003316849 1.29666e-05 -0.3112458289 0.7847469531
595296430.0 0.0433482526 -0.112257073 0.0004273859 0.0002234958 0.0003023514 -1.67495e-05 -0.3036825137 0.7875273336
600296400.0 0.0418415688 -0.1128692646 0.0005110306 0.0001631405 0.0001236761 -0.0001736994 -0.2958098914 0.7918769386
605296370.0 0.040420958 -0.112945882 0.0003741123 -0.0001649625 0.0004029241 -0.0001171864 -0.288274795 0.7942277502
610296340.0 0.0389073146 -0.1135260121 0.0003415307 0.0001409144 0.0003148253 -1.50583e-05 -0.2795931184 0.7975061147
615296310.0 0.0375344326 -0.113576077 0.0003349444 5.06275e-05 0.0001748726 0.0001579625 -0.2721929093 0.7998433512
620296280.0 0.0361596737 -0.1139587878 0.0004075857 0.0002245186 0.0002654702 0.0002148037 -0.2641143374 0.8017716066
625296250.0 0.034665731 -0.1140130569 0.0002388275 0.0001546504 0.0002673402 1.70705e-05 -0.2565747295 0.8050971805
630296220.0 0.033007714 -0.1143730932 0.0001933049 2.57173e-05 0.0002544164 0.0001665846 -0.2483493196 0.8076884352
635296190.0 0.0314959074 -0.1146010349 0.0005436333 0.0001575356 0.0001988311 -1.29515e-05 -0.240301812 0.8098888258
640296160.0 0.0302560696 -0.1148550246 0.0001157922 8.73398e-05 0.0002429512 -2.777e-06 -0.2319452317 0.8117850748
645296130.0 0.0284897122 -0.1147640593 0.0003877196 7.93035e-05 0.0002896415 0.0001504033 -0.2247351594 0.8139826693
650296100.0 0.027610466 -0.1149267736 0.0003148484 0.0001147624 0.0003057479 -0.0001201625 -0.2164507956 0.8165484995
655296070.0 0.0259732533 -0.1151515951 0.0003124738 0.0002165027 0.0003962634 5.21512e-05 -0.2079597217 0.8178153479
660296040.0 0.0240490153 -0.115052613 0.0003676462 -2.06157e-05 0.0003089144 -0.0001240858 -0.1997531551 0.8201316328
665296010.0 0.0229647147 -0.1154663341 0.0003487588 -2.55537e-05 0.0002710574 5.39267e-05 -0.1922979593 0.82184784
670295980.0 0.0215430773 -0.1154117379 0.0004026587 -4.88536e-05 0.0001688774 -0.000142729 -0.1848079298 0.8234528199
675295950.0 0.0201001729 -0.1153123487 0.0003053496 -7.9376e-06 0.000498935 -0.0001950802 -0.175613814 0.8258366088
680295920.0 0.0184744775 -0.1151102125 0.0002926189 4.91761e-05 0.0003495266 -1.9441e-06 -0.167605618 0.8279914189
685295890.0 0.0169988236 -0.1151717544 0.0002319352 -0.0003158108 0.0004123455 -6.1868e-05 -0.1591779991 0.8291508177
690295860.0 0.0156823218 -0.115295963 0.0003169129 -2.4308e-06 0.0002268729 0.0001064337 -0.1514452925 0.8306247659
695295830.0 0.014337311 -0.1154004065 0.0003097124 -3.73789e-05 7.89202e-05 0.0001295305 -0.1433126375 0.8318497109
700295800.0 0.0129308868 -0.1151967929 0.0003032508 -7.7524e-05 0.0003454239 -1.54782e-05 -0.1347605586 0.8330622801
705295770.0 0.0115459758 -0.1154389516 0.0001983773 -5.7268e-06 0.0001205288 -0.0001653959 -0.1267566526 0.8348176315
710295740.0 0.0099954176 -0.1148998416 0.000387525 3.83107e-05 0.000372758 -6.4578e-05 -0.1189077932 0.8364009759
715295710.0 0.0083982782 -0.1149221624 0.0003508858 8.72741e-05 0.0003188067 4.3544e-05 -0.110147709 0.8373284877
720295680.0 0.0070517387 -0.115205466 0.0003748944 5.08349e-05 0.0004919078 6.3665e-05 -0.1020856993 0.8380392518
725295650.0 0.0056381881 -0.1146053297 0.000361635 4.26526e-05 0.0002500148 -1.21896e-05 -0.0932775382 0.8392621871
730295620.0 0.0041412464 -0.114715759 0.0002158318 8.48853e-05 0.0005357211 -3.46485e-05 -0.0850202469 0.8399619641
735295590.0 0.002871694 -0.1145042406 0.000411691 3.96336e-05 0.0004222892 8.41534e-05 -0.0761666554 0.8410140948
740295560.0 0.0012375358 -0.1139576424 0.0004231485 -0.0001143564 0.0002687716 3.55877e-05 -0.0685280825 0.8409446204
745295530.0 -0.0001400548 -0.1140761865 6.25392e-05 -2.45101e-05 0.0004346586 7.51102e-05 -0.0602498832 0.8420129996
750295500.0 -0.0016128818 -0.1137231108 0.0003726157 -0.0002213737 0.0004099964 6.48996e-05 -0.051848118 0.8424204907
755295470.0 -0.0027864617 -0.1134562347 0.0004044553 -0.0002317403 0.0003422462 -0.0003749244 -0.0438517727 0.8429451034
760295440.0 -0.0041873665 -0.1131558035 0.0003161245 8.50767e-05 0.0003300838 -0.0001055166 -0.0356742466 0.8436122258
765295410.0 -0.0059401394 -0.1129625469 0.0003670169 8.6119e-05 0.0004219063 3.1789e-05 -0.0264756063 0.8443496945
770295380.0 -0.007136426 -0.1125984293 0.0002358997 0.0001043549 0.0004999532 -4.77281e-05 -0.0181045378 0.8436516374
775295350.0 -0.0085376445 -0.1121155068 0.0003967575 1.89938e-05 0.0003058598 6.94883e-05 -0.0105438856 0.8435839486
780295320.0 -0.0100608365 -0.112179701 0.0006662361 0.0002024486 0.0005666929 -2.9577e-05 -0.00198562 0.8444244316
785295290.0 -0.0113477934 -0.1113148992 0.0003091004 -8.71295e-05 0.0003752479 -0.0001411667 0.0060067284 0.8442186761
790295260.0 -0.012638276 -0.1111673467 0.0004713069 -0.0001676484 0.0002169399 0.0001908747 0.015560196 0.8439614169
795295230.0 -0.0140113124 -0.110680697 0.0007111539 -0.0001970128 0.0003065896 1.99334e-05 0.0232989791 0.8441472321
800295200.0 -0.0153095789 -0.1099769396 0.0003659287 -1.91623e-05 0.0004056653 2.63266e-05 0.0313161485 0.8434719391
805295170.0 -0.0166894224 -0.1100555163 0.0003476861 -7.15301e-05 0.0003486417 -0.0001646256 0.039576029 0.8431783074
810295140.0 -0.0178766746 -0.1093100502 0.0003385035 -6.35552e-05 0.0004078849 -0.0002441707 0.0482994088 0.8436000507
815295110.0 -0.0191127089 -0.1089971474 0.0003532201 -9.38646e-05 0.0004297821 3.679e-07 0.0564994156 0.8424060477
820295080.0 -0.0205793785 -0.1086122314 0.0005248622 -0.0001882486 0.0005240812 0.000123193 0.0643036051 0.8418351832
825295050.0 -0.0221466909 -0.1080128043 0.000331404 -0.0001642791 0.0003073506 -5.9799e-06 0.0731141014 0.8416078041
830295020.0 -0.0232680672 -0.1073320686 0.0004523544 6.46164e-05 0.0003610741 -0.0002818715 0.0807471876 0.8400535033
835294990.0 -0.0246188241 -0.1068665099 0.0004546567 -0.0002019192 0.0002630812 -2.86231e-05 0.0895006424 0.8392699991
840294960.0 -0.0258827485 -0.1061121042 0.0004625673 -0.0001862885 0.0003265156 -0.0001463716 0.0972700355 0.8390904111
845294930.0 -0.0274046764 -0.1057286391 0.0005082702 -0.0001516043 0.0003732047 2.92832e-05 0.1060616257 0.8380488628
850294900.0 -0.0286847552 -0.1052441157 0.0004449463 1.9924e-06 0.0005466413 -0.0002688988 0.1144362461 0.8368412322
