!Created with skrf (http://scikit-rf.org).
# Hz S RI R 50.0 
!freq ReS11 ImS11 ReS21 ImS21 ReS12 ImS12 ReS22 ImS22
300000.0 -0.0482729426 -0.0413933289 -0.0018427249 -0.0001696602 0.0003563942 0.0006749515 -0.7715819957 -0.1347155313
5299970.0 -0.0487035253 0.0156248492 6.47918e-05 -4.30339e-05 0.0001293379 1.11858e-05 -0.7845868036 -0.0074511535
10299940.0 -0.0432016049 0.0321416437 7.9383e-06 0.0002446535 2.23577e-05 -5.2099e-05 -0.7878159093 -0.003649793
15299910.0 -0.0351838211 0.0461369276 0.0001522659 -1.90527e-05 9.41242e-05 -6.82425e-05 -0.7934927901 -0.0015199519
20299880.0 -0.0254802922 0.0573815288 -0.0001019532 0.0001465445 -7.312e-06 3.14217e-05 -0.7998601083 0.0020853712
25299850.0 -0.0145384236 0.0665463517 0.0001190122 -4.5052e-05 -0.0002056943 -7.77166e-05 -0.8059369137 0.0081408954
30299820.0 -0.0035241822 0.0729877963 0.0001932262 -2.83264e-05 1.53461e-05 -0.0001033777 -0.8121538749 0.0165139828
35299790.0 0.0079065973 0.0777386073 7.00782e-05 -6.36009e-05 -4.7765e-05 1.18983e-05 -0.816974759 0.0250280508
40299760.0 0.018948187 0.0803300542 0.0001808928 7.75673e-05 1.35419e-05 9.61721e-05 -0.8216909957 0.0345420042
45299730.0 0.0294473274 0.081552246 -0.0001307247 0.0001959683 -0.0001920034 -2.02219e-05 -0.8253732766 0.0438787783
50299700.0 0.0391694159 0.0816701835 1.74347e-05 5.17028e-05 4.80789e-05 -3.0775e-06 -0.8277875955 0.0540752645
55299670.0 0.0482196754 0.0803599086 -1.0255e-05 -0.0001504077 -3.70843e-05 0.0001126636 -0.829482687 0.0643180969
60299640.0 0.0567708678 0.0785777284 5.49803e-05 7.8002e-06 6.70642e-05 -6.33853e-05 -0.8303457168 0.0739852911
65299610.0 0.0643782299 0.0760969411 -5.16423e-05 9.3721e-05 0.0001292428 -3.11166e-05 -0.8317491883 0.0839466635
70299580.0 0.0708457598 0.0734169477 1.2579e-05 2.9576e-06 0.0001207289 -4.6004e-05 -0.8312686525 0.0945640872
75299550.0 0.0774192259 0.0702892038 -2.16448e-05 -4.11335e-05 9.5419e-06 -1.29914e-05 -0.8326567142 0.1038620989
80299520.0 0.0830281452 0.0667036703 -5.93063e-05 5.15379e-05 1.5042e-06 -3.10765e-05 -0.8322397363 0.1134502132
85299490.0 0.0876481856 0.0627571028 -0.0001410743 -9.21376e-05 -2.88687e-05 0.0002121031 -0.831499227 0.1235614695
90299460.0 0.0923171778 0.0590880291 -1.54429e-05 4.25545e-05 5.98406e-05 -5.16943e-05 -0.8309159444 0.1332920526
95299430.0 0.0962965927 0.0546812288 0.0002358361 2.07399e-05 -1.03892e-05 -6.93402e-05 -0.8294629683 0.1429048689
100299400.0 0.0999040487 0.0510151167 0.0002317697 0.0002491138 0.0002007986 0.0001563956 -0.8285703114 0.1519839082
105299370.0 0.1030006427 0.0472795811 -3.1367e-06 0.0001759496 8.78364e-05 0.0002218692 -0.8269567065 0.1610847129
110299340.0 0.1057958925 0.043261618 3.30576e-05 3.99835e-05 -1.02581e-05 1.27793e-05 -0.8259801746 0.1705134369
115299310.0 0.1085050091 0.039209001 0.0002836409 0.0001569365 9.99546e-05 4.77965e-05 -0.8244241527 0.1800282671
120299280.0 0.1103664226 0.0351979653 -0.0001157622 -8.58278e-05 1.59064e-05 0.0001028213 -0.8220710761 0.1884786554
125299250.0 0.112136465 0.0315470063 0.0001770676 6.8765e-06 7.14281e-05 -7.11738e-05 -0.8206831776 0.1979998917
130299220.0 0.1137245913 0.027782796 1.87618e-05 -3.33394e-05 4.65952e-05 0.0001819385 -0.8191640419 0.2066944985
135299190.0 0.115403087 0.024398377 -8.17147e-05 7.30818e-05 -5.40202e-05 0.0003096916 -0.8165957349 0.2164371233
140299160.0 0.1162079223 0.0205406126 8.72096e-05 -0.0001970227 -0.0002003933 -3.31825e-05 -0.8144850229 0.2251313649
145299130.0 0.1173651636 0.0170959123 0.0002205822 0.0002111657 -5.79125e-05 -1.28538e-05 -0.8124200169 0.2340552076
150299100.0 0.1183458646 0.013493494 0.0001170659 0.0001022179 -0.0002531048 0.0001138058 -0.8106866635 0.2433057708
155299070.0 0.1189050396 0.0101820258 0.0001492598 -0.0001856779 -0.0001526025 -1.91186e-05 -0.8075362784 0.2517633611
160299040.0 0.1194114175 0.0069465201 0.0001143003 1.366e-07 -2.28783e-05 -3.42471e-05 -0.8051268678 0.2611023502
165299010.0 0.1199536049 0.0036662255 5.52213e-05 0.0001626546 4.193e-05 9.41264e-05 -0.8027797086 0.269448568
170298980.0 0.120170563 0.0008859196 -7.7445e-06 0.000158053 5.35057e-05 4.42344e-05 -0.7993630129 0.2782549816
175298950.0 0.1202410988 -0.0023487609 0.0001733857 0.0001304355 -2.64229e-05 0.0001272509 -0.7971270011 0.2868269372
180298920.0 0.1202747057 -0.0051694828 -0.0001333969 -8.04167e-05 6.57888e-05 2.77084e-05 -0.7941297963 0.2952179938
185298890.0 0.1204195666 -0.0081828016 0.000268167 5.47471e-05 0.0001204175 2.22315e-05 -0.7900916075 0.3037003134
190298860.0 0.1206649015 -0.0111785365 0.0001461483 5.52679e-05 -3.5536e-06 5.13873e-05 -0.7881358582 0.3127235954
195298830.0 0.1203088942 -0.0138613952 0.000180166 0.0002430002 6.88012e-05 1.54198e-05 -0.7845403438 0.3212766687
200298800.0 0.1201410066 -0.0164048593 -1.5408e-06 -5.79151e-05 6.82966e-05 5.39183e-05 -0.7814672538 0.3290424942
205298770.0 0.1196392647 -0.019256773 0.0001881503 -0.0001235576 -6.1687e-06 -1.1048e-05 -0.7779439218 0.3371697143
210298740.0 0.1193209045 -0.0217579649 0.0001060341 -2.4487e-06 0.0001471844 0.0001425476 -0.7743928159 0.3458338642
215298710.0 0.1185592924 -0.0244308728 2.14025e-05 1.04648e-05 0.0001672243 7.122e-07 -0.7711883794 0.3538212591
220298680.0 0.1181582264 -0.0271359156 0.0001063539 4.3796e-06 -3.25618e-05 0.0001201534 -0.7676470278 0.3619347562
225298650.0 0.1173854141 -0.029326589 8.50087e-05 0.0002116425 0.000167787 6.68889e-05 -0.7636332893 0.3699316189
230298620.0 0.1168944882 -0.0316364056 2.2247e-06 -0.0002355228 5.30522e-05 -0.0001243049 -0.759970732 0.3784794927
235298590.0 0.1165738893 -0.0338458976 8.2819e-06 3.35009e-05 0.0001346155 9.64383e-05 -0.7557625992 0.3869099104
240298560.0 0.1156441966 -0.0366308868 0.00011359 1.19206e-05 6.23183e-05 -0.0001960982 -0.7514073841 0.3949496353
245298530.0 0.1150095613 -0.0385536775 3.22141e-05 -6.1117e-06 0.0001719545 7.80264e-05 -0.747599029 0.4025550747
250298500.0 0.1141147493 -0.041061252 0.0001845743 5.5929e-05 9.92961e-05 -7.1028e-06 -0.7436194926 0.4105028017
255298470.0 0.1129650326 -0.0434158882 5.98254e-05 0.000137924 4.11392e-05 0.0001108722 -0.7390160381 0.4179262772
260298440.0 0.1123286685 -0.0448960299 -0.0001516012 0.000140224 9.24642e-05 0.0001397261 -0.7349652326 0.4262426392
265298410.0 0.1117894348 -0.046786623 6.03295e-05 0.0002783994 -0.0001965063 8.91767e-05 -0.7301259665 0.4337410759
270298380.0 0.1106904323 -0.0490627536 4.04941e-05 5.18506e-05 4.43459e-05 -0.0001047866 -0.7257770602 0.4411211142
275298350.0 0.1096422427 -0.050810285 0.0001274341 0.0001464642 3.80949e-05 0.0001288178 -0.7209926596 0.4487199608
280298320.0 0.1090670598 -0.0530133754 0.0002613583 -0.0001136189 0.0002363394 4.07986e-05 -0.7163624409 0.4561456854
285298290.0 0.1082279974 -0.0546285916 -5.95713e-05 1.667e-05 4.79265e-05 -7.99154e-05 -0.7109227263 0.4635352059
290298260.0 0.107086836 -0.0566291998 -0.0001282773 -4.22696e-05 1.42616e-05 5.97328e-05 -0.7057307885 0.4712542125
295298230.0 0.1057406304 -0.0588792649 8.5377e-06 -2.26252e-05 -0.0001365768 0.0002258458 -0.7014346505 0.4782893789
300298200.0 0.1050293809 -0.0603924043 5.75459e-05 0.0001074611 0.0001254118 3.07826e-05 -0.6963934255 0.4853517727
305298170.0 0.1039596253 -0.0623682445 4.13948e-05 0.0001460765 0.0001614853 -4.96653e-05 -0.6906046086 0.4929749604
310298140.0 0.1027958882 -0.0642439598 4.33501e-05 0.000274361 0.0001456884 0.0003010641 -0.6855357607 0.5003657678
315298110.0 0.1019480411 -0.0658256461 7.31138e-05 3.46866e-05 -4.28937e-05 2.19949e-05 -0.6803115898 0.5068106778
320298080.0 0.1008731018 -0.0681066637 2.4157e-05 -7.942e-07 0.0002553808 2.32693e-05 -0.6746976024 0.5146522606
325298050.0 0.0996602721 -0.0697416425 -2.35639e-05 -6.74444e-05 0.0001461365 0.0001075702 -0.6690285444 0.5211197446
330298020.0 0.0980053301 -0.0717033938 -6.888e-05 0.0001557187 -4.52838e-05 -8.73913e-05 -0.6640364176 0.5282829255
335297990.0 0.0965508436 -0.073586447 0.0002115828 1.64913e-05 0.000187489 5.11209e-05 -0.6589355557 0.5356556834
340297960.0 0.0948148173 -0.0744945102 -0.0001087566 0.0002088513 0.0003035649 4.19163e-05 -0.652618389 0.5422920353
345297930.0 0.0936051472 -0.0761506261 0.0001487096 -0.0002372579 0.0002076385 0.0001330854 -0.6469180618 0.5484587532
350297900.0 0.0919819006 -0.0776143938 -0.0001800755 -2.4436e-05 -1.08603e-05 5.54671e-05 -0.6414862735 0.5555017445
355297870.0 0.0908743891 -0.0787061516 0.0002877871 8.4811e-06 0.0002387259 -0.0001285183 -0.635538488 0.5617938875
360297840.0 0.0894140837 -0.0800896445 0.0002402731 0.0002181495 0.0001725256 2.22044e-05 -0.6296181336 0.5692414174
365297810.0 0.0877499075 -0.08124129 0.0001615272 4.38444e-05 -2.41746e-05 -0.0001134051 -0.6235499245 0.5752698492
370297780.0 0.086819532 -0.0826007532 0.0002537506 -0.0001514884 -0.00017355 -8.91274e-05 -0.6173585952 0.5819530902
375297750.0 0.0854193405 -0.0837468998 -9.55506e-05 2.60197e-05 0.0001379612 0.0002843199 -0.6116736968 0.5878474978
380297720.0 0.0836425198 -0.0853372058 5.19792e-05 8.62413e-05 8.66694e-05 0.0001958633 -0.6057017692 0.5943729133
385297690.0 0.0821036794 -0.0861411442 0.0002598774 6.3826e-06 -9.93861e-05 0.0001404474 -0.5992185147 0.6008094471
390297660.0 0.0807798804 -0.0872369479 -4.56951e-05 0.0001022633 0.0001301322 5.9013e-05 -0.5933278627 0.6072314241
395297630.0 0.0793766185 -0.0887041367 0.000144281 -0.0001914633 7.55564e-05 8.96207e-05 -0.5863389482 0.6131605295
400297600.0 0.0782618576 -0.0894440674 0.0002093767 8.41229e-05 0.0001182579 -5.42624e-05 -0.5809011906 0.618652201
405297570.0 0.0764807734 -0.0906543734 0.0001107216 0.0001237036 0.0002777491 0.0001105149 -0.5741221944 0.624907227
410297540.0 0.0748238311 -0.0915651186 7.7643e-06 0.0001698774 0.0002303098 -7.4256e-05 -0.5674214715 0.6309494585
415297510.0 0.0736763959 -0.0931846897 0.0002588655 -7.1212e-05 0.0001420438 -6.2069e-05 -0.5606434218 0.6362150706
420297480.0 0.0719338857 -0.09352329 -9.79406e-05 5.17568e-05 0.0001599886 -0.000102056 -0.5544453736 0.6421905005
425297450.0 0.0705889989 -0.0948272544 -1.27584e-05 -2.19592e-05 4.17298e-05 0.0001576584 -0.5481801066 0.647949512
430297420.0 0.0689941157 -0.095738571 6.49925e-05 8.60975e-05 0.0002173088 0.0001112056 -0.5413326929 0.6531982553
435297390.0 0.0676974544 -0.096670384 0.0001353255 -2.96757e-05 8.83703e-05 7.89154e-05 -0.5338384185 0.6584170503
440297360.0 0.0658260731 -0.0977758158 8.23793e-05 0.0002592552 -3.81634e-05 5.6107e-05 -0.5272495951 0.6638778678
445297330.0 0.0645237761 -0.0985596508 0.0002060093 0.0001887774 0.0001799614 6.84628e-05 -0.5201741152 0.6686847606
450297300.0 0.0629234485 -0.0995258398 5.791e-06 -0.0002156257 0.0001592351 5.1671e-06 -0.5132013841 0.6741895526
455297270.0 0.0613743508 -0.1001567952 0.0003956075 0.0001115684 6.0836e-05 1.23139e-05 -0.5063521246 0.6788291283
460297240.0 0.0596640298 -0.1011775463 -2.61641e-05 -0.0001012647 -8.03682e-05 0.0001654649 -0.4996862515 0.6845667668
465297210.0 0.058395402 -0.1017246617 0.0001129694 -0.0002037345 0.0001262073 0.0001153203 -0.4917760155 0.6891650671
470297180.0 0.0566838956 -0.1026166651 -9.48691e-05 -0.0001327751 4.7968e-05 0.0001914063 -0.4849325307 0.6945776838
475297150.0 0.0550995528 -0.1037059139 -8.19789e-05 -0.0002116579 0.0002491378 -0.0001199585 -0.4778205916 0.6987656536
480297120.0 0.0534533916 -0.1040921216 -0.0001634607 4.41067e-05 -3.7746e-06 -0.0001154657 -0.4701965307 0.7037262114
485297090.0 0.051810409 -0.1049399884 0.0002199342 0.0001199725 0.0001069467 0.0002036728 -0.4632908075 0.7085260158
490297060.0 0.0501078644 -0.1050663239 0.0002127823 -0.0001620461 0.0001149825 0.0001916281 -0.4557818634 0.7128191544
495297030.0 0.0486469314 -0.1061633003 -9.06902e-05 0.000206454 5.09775e-05 9.33589e-05 -0.4486281553 0.7176391476
500297000.0 0.0472150755 -0.1065923886 0.000222584 -0.0001119292 0.0002935809 0.0001162452 -0.4408548266 0.7228951149
505296970.0 0.0456293891 -0.1072538408 0.0001288481 -5.34888e-05 0.0001514696 -0.0001511934 -0.4340248992 0.7265293984
510296940.0 0.0439421429 -0.1078458759 -4.80398e-05 8.53335e-05 0.0001111588 0.0002512171 -0.4264079009 0.7309138254
515296910.0 0.0423285305 -0.1083616422 8.61279e-05 7.0039e-06 0.0003490055 0.000271911 -0.4185158186 0.7352289509
520296880.0 0.0404443698 -0.1089145091 -5.35687e-05 -0.000134131 0.0003243789 0.0002078822 -0.411147868 0.7391452625
525296850.0 0.0388183623 -0.1095569621 0.0003164452 0.0001662833 0.000141573 -6.996e-07 -0.403893415 0.743798692
530296820.0 0.0373201864 -0.1099921676 -1.28128e-05 0.0003419377 0.0001476764 0.0001272975 -0.3963192128 0.7474292491
535296790.0 0.0356310783 -0.1101760411 0.0001342573 8.72467e-05 0.0001039421 0.0002022999 -0.3896152026 0.7517401808
540296760.0 0.0339152131 -0.1105027701 9.93033e-05 0.0002960374 5.76942e-05 0.0001355296 -0.3809774285 0.7557781521
545296730.0 0.0322367012 -0.1110934561 -9.11517e-05 0.0001996531 8.95689e-05 -2.69882e-05 -0.3734976223 0.7587918337
550296700.0 0.0311309981 -0.1114280497 0.0001799893 2.20674e-05 -0.0002018817 4.18781e-05 -0.365365741 0.7634844808
555296670.0 0.0288928078 -0.1117402831 8.80213e-05 -0.0001383701 7.29794e-05 -3.37888e-05 -0.3578185597 0.7667438144
560296640.0 0.0276312727 -0.112079875 6.7578e-06 5.79855e-05 -5.8349e-06 0.0001137286 -0.3501362731 0.7711426827
565296610.0 0.0256461366 -0.1122300303 0.000263911 -1.0264e-06 0.0001557048 -0.00013773 -0.3424322883 0.773900774
570296580.0 0.0238855495 -0.1125814871 -0.0001215155 1.97112e-05 0.0001011101 6.12357e-05 -0.335002169 0.777830556
575296550.0 0.0222735688 -0.1125517533 0.0001784338 -0.0001483979 0.00012825 -0.0001872591 -0.3265166552 0.7809995269
580296520.0 0.0207929865 -0.1129920346 2.17167e-05 -0.0001947508 0.0001370377 1.62139e-05 -0.3182984705 0.7840561001
585296490.0 0.0185565661 -0.113549587 6.99488e-05 -8.37433e-05 8.81763e-05 -7.9986e-05 -0.3107440074 0.787138471
590296460.0 0.017428694 -0.1134626266 0.0002847617 7.33589e-05 -4.71287e-05 -6.81219e-05 -0.3025426461 0.7903316629
595296430.0 0.0153061516 -0.1136868103 -3.3481e-05 2.36208e-05 0.0001047534 -8.67823e-05 -0.2947111844 0.7925700812
600296400.0 0.013745793 -0.1133910998 0.0001317216 -4.44292e-05 4.15165e-05 0.0001667836 -0.2867669254 0.7957275743
605296370.0 0.0122864153 -0.1137682746 6.54918e-05 8.45227e-05 0.0003187435 -2.16092e-05 -0.2778377433 0.7987105486
610296340.0 0.0102663116 -0.1138889308 8.00496e-05 -7.76469e-05 0.0001948286 -0.0001972563 -0.2703450283 0.801464103
615296310.0 0.0089540672 -0.1138001661 0.0001288433 3.4633e-06 9.43686e-05 3.0367e-05 -0.2618041153 0.8033406391
620296280.0 0.007080266 -0.1141769613 -8.00474e-05 -0.0001472416 -1.49087e-05 0.0001169155 -0.2543448798 0.8060976186
625296250.0 0.0053768753 -0.1141477454 0.0001283069 0.0001056262 6.37194e-05 -1.5196e-05 -0.2454799688 0.8080742184
630296220.0 0.0041055858 -0.1143408064 4.74428e-05 0.0002368151 6.76205e-05 0.0001999328 -0.2376549994 0.8112792217
635296190.0 0.0020053616 -0.1139647278 0.0002361518 -0.000112484 0.0001457946 -8.7541e-06 -0.2296313679 0.813041919
640296160.0 0.0005828297 -0.1138389425 0.0001177569 -2.56205e-05 9.03774e-05 6.46721e-05 -0.2210833794 0.815570431
645296130.0 -0.0013976032 -0.1137511145 4.1569e-05 -6.33519e-05 0.000235996 -8.80338e-05 -0.2133589314 0.8178502148
650296100.0 -0.0028197324 -0.1137397832 0.0002654374 0.0001036337 0.0002110712 -3.25198e-05 -0.2050054592 0.8190753552
655296070.0 -0.004879391 -0.1138038233 0.0001696592 -2.48261e-05 8.29679e-05 -6.68219e-05 -0.1961276999 0.8213029581
660296040.0 -0.0064450349 -0.1136297508 0.0003148582 -0.0002883891 0.0002156845 -4.9187e-05 -0.187821828 0.8232609629
665296010.0 -0.0079033886 -0.1135806888 7.55897e-05 1.48625e-05 0.0002482025 3.06651e-05 -0.1794250862 0.8258377937
670295980.0 -0.0098171637 -0.1131545928 0.0001766235 9.58282e-05 6.61784e-05 1.92494e-05 -0.1718687694 0.8268820955
675295950.0 -0.0116205863 -0.112881559 0.0002348423 -0.0001018985 0.0001401976 0.0002612068 -0.1634770991 0.8288925609
680295920.0 -0.0129124431 -0.1123492444 0.0003490915 0.0002241904 1.49396e-05 -0.0001689094 -0.1547552017 0.8311213419
685295890.0 -0.0144623974 -0.1120824271 0.0001840565 -2.32474e-05 -0.0001922577 -6.33813e-05 -0.1461352283 0.8321754978
690295860.0 -0.0160179063 -0.112082919 0.0002425261 -9.21061e-05 0.0001285583 -5.97128e-05 -0.1379595893 0.8337030544
695295830.0 -0.017722928 -0.11141703 4.59383e-05 -0.0001881964 0.0002784102 4.79228e-05 -0.1294973417 0.8347358314
700295800.0 -0.0195103218 -0.1114089884 0.0002918549 -0.0001949837 0.0002377599 2.4443e-05 -0.1221460429 0.8366356227
705295770.0 -0.0212945149 -0.1108333739 0.0001105381 -0.000202749 0.0002423703 0.0002602609 -0.1134948676 0.8382963697
710295740.0 -0.0226648855 -0.1104841015 0.0001064063 -5.7859e-05 0.0001249268 1.28934e-05 -0.1047143372 0.8387377854
715295710.0 -0.024649629 -0.1103388683 0.0003528872 0.0001218652 7.62627e-05 -0.0002284253 -0.0963301592 0.8396538141
720295680.0 -0.0260900109 -0.1097740109 0.0001346048 0.0001650025 0.000130883 1.27481e-05 -0.0880046548 0.8408343962
725295650.0 -0.0273727971 -0.1090336073 7.1918e-05 -0.0001059033 0.0002900118 -0.0002233386 -0.0797130407 0.8419997181
730295620.0 -0.0292656178 -0.108579607 0.0003063046 -0.0001202821 8.50323e-05 -0.000157218 -0.071768318 0.8420605518
735295590.0 -0.0306897481 -0.1081647216 6.38432e-05 -3.87788e-05 8.53484e-05 -8.2119e-06 -0.0632413966 0.8424076601
740295560.0 -0.0325139553 -0.1075908523 0.0002980912 7.82015e-05 -4.3323e-06 -3.29787e-05 -0.0538458503 0.8441596236
745295530.0 -0.0342599559 -0.1070372323 0.0001830266 4.9039e-06 0.0001091949 1.87719e-05 -0.045727739 0.8440171366
750295500.0 -0.0355779246 -0.1064853775 0.0001232318 0.0001219138 0.0002517709 1.21031e-05 -0.0377384951 0.8441786838
755295470.0 -0.0373180496 -0.106189205 0.0003546307 -0.000184953 0.0001597863 -7.29626e-05 -0.0289554961 0.8440540713
760295440.0 -0.0389298514 -0.1055018529 0.0001407821 0.0001026019 0.0002085401 -0.0001138211 -0.0206759697 0.8446929239
765295410.0 -0.0401137448 -0.1048156842 0.0002517021 -5.19462e-05 0.0001557085 -7.98508e-05 -0.0124034932 0.8447719406
770295380.0 -0.0420138125 -0.1041125691 -3.91289e-05 2.79625e-05 0.0002707731 -4.90596e-05 -0.0039695849 0.8445238666
775295350.0 -0.0437573246 -0.1035999486 0.0001073236 -4.06246e-05 0.0001533724 -9.1432e-06 0.0040183073 0.8445782371
780295320.0 -0.0450347327 -0.1026446993 0.000178662 -0.0002194719 7.77273e-05 0.0001211762 0.0124441513 0.8445174623
785295290.0 -0.0467915712 -0.1022926395 6.67012e-05 0.0001051646 0.0001892089 7.64321e-05 0.0208973831 0.844001694
790295260.0 -0.0480232774 -0.10130828 7.9832e-06 5.58165e-05 0.0003464107 -5.49819e-05 0.0302310092 0.8439244817
795295230.0 -0.0495834142 -0.1005475644 0.0001305608 -5.04972e-05 0.0002211388 -2.64767e-05 0.039188014 0.8431407306
800295200.0 -0.0512847653 -0.0998606702 0.0002117244 -0.0001239216 0.0001720378 -0.0002943061 0.0471822705 0.8427387839
805295170.0 -0.0528016884 -0.0991912007 0.0001679657 -3.242e-07 8.86731e-05 0.0001656933 0.0549024212 0.8426154073
810295140.0 -0.0540101262 -0.0983483474 0.0002889375 -1.44614e-05 0.0003539732 -0.0001254413 0.0635937699 0.8419951777
815295110.0 -0.0558077796 -0.0976279858 -7.9213e-05 -2.79563e-05 0.0003816809 -0.0002105292 0.0719610467 0.8413160291
820295080.0 -0.0568781519 -0.0961654789 8.52709e-05 0.0001802753 0.0001460432 -3.58073e-05 0.0800557016 0.8404206433
825295050.0 -0.0585724352 -0.0958406416 0.0001913916 0.0001088875 0.0001185177 -8.15163e-05 0.0882094138 0.8399265486
830295020.0 -0.0599929686 -0.0951081566 -4.9129e-06 3.1623e-06 -4.89328e-05 -8.1062e-06 0.0978634902 0.8387904988
835294990.0 -0.0613655426 -0.0935906325 -6.00298e-05 6.76117e-05 0.0001811818 1.14641e-05 0.1055290788 0.8378391253
840294960.0 -0.0626402939 -0.0928392296 -2.47983e-05 7.89318e-05 0.0002750991 -7.07583e-05 0.1137702253 0.8366008035
845294930.0 -0.0640021024 -0.091687513 1.43335e-05 0.000101233 0.0001169521 0.0001903362 0.1214836567 0.8348792991
850294900.0 -0.0650011515 -0.0907937395 2.11732e-05 5.52278e-05 0.0001271641 -2.23608e-05 0.1304314414 0.8344965255
