!Created with skrf (http://scikit-rf.org).
# Hz S RI R 50.0 
!freq ReS11 ImS11 ReS21 ImS21 ReS12 ImS12 ReS22 ImS22
300000.0 -0.0990704648 -0.0795877277 0.6236823623 0.0757817633 0.6251755965 0.0794988674 -0.0966499189 -0.090109718
5299970.0 -0.1002306115 0.0129801186 0.6305250076 0.0103865068 0.6309247805 0.0107209432 -0.1022320491 0.0121837497
10299940.0 -0.0953322189 0.0299660208 0.6342257872 0.0154331894 0.6345458122 0.015646293 -0.0972549079 0.0290604847
15299910.0 -0.0884968518 0.0433567708 0.6402810801 0.0200590137 0.640335858 0.0211908256 -0.0900303486 0.0421996435
20299880.0 -0.0794845166 0.0543197426 0.6484640417 0.0239495696 0.6486156958 0.0242336276 -0.0817255119 0.0535038754
25299850.0 -0.0696430818 0.0628557955 0.657774546 0.0249309848 0.6579576774 0.0250926047 -0.0726727299 0.061838256
30299820.0 -0.0597500451 0.0694547294 0.6684234842 0.0251111691 0.6674311046 0.0242727374 -0.0625940801 0.0686872569
35299790.0 -0.0496246741 0.0742695132 0.6772844537 0.0216025144 0.6776274621 0.021286861 -0.0525460861 0.0733979556
40299760.0 -0.0397596377 0.0770358244 0.6867177267 0.0178699948 0.6865753326 0.0176110993 -0.0437194865 0.0769800261
45299730.0 -0.0304544431 0.0793345901 0.6956653643 0.0116261805 0.695564815 0.0120662549 -0.0340476964 0.0792974189
50299700.0 -0.0217823188 0.0801128768 0.7032815316 0.0046393591 0.7036102154 0.0046123173 -0.0252887435 0.0800125256
55299670.0 -0.0143594369 0.0797434925 0.7105675382 -0.0029981233 0.7109484258 -0.0029487287 -0.017833089 0.0798191637
60299640.0 -0.0066555935 0.0786103359 0.71709859 -0.011472807 0.7172305171 -0.0115897479 -0.0103481567 0.0797320635
65299610.0 -0.0002108717 0.0778701037 0.7235797248 -0.0196001365 0.7240281066 -0.0201578952 -0.00343012 0.0786621744
70299580.0 0.0061081429 0.0758877318 0.7284274013 -0.0290633119 0.7292735119 -0.029131112 0.0023880979 0.0774072026
75299550.0 0.0117168588 0.0743481397 0.7328779004 -0.0389718892 0.7330792734 -0.0387845284 0.0080419953 0.0757848534
80299520.0 0.0161501397 0.0722208275 0.7376398747 -0.0490818957 0.7376881579 -0.0487859255 0.0133392717 0.0729776627
85299490.0 0.0206767764 0.0692759029 0.7405658994 -0.0589773488 0.7402862905 -0.0586189558 0.0173826761 0.0706662821
90299460.0 0.0245446192 0.0673677725 0.7437871115 -0.06880094 0.7436710871 -0.0690778296 0.0220354508 0.0688939751
95299430.0 0.0281048222 0.0653457946 0.7463991834 -0.0793115229 0.7459258088 -0.079410295 0.0254702709 0.0663519253
100299400.0 0.0312980401 0.06259205 0.747333875 -0.0891916397 0.7477156783 -0.0898734464 0.0286073127 0.0638688675
105299370.0 0.034461949 0.0601287793 0.7488693956 -0.0989847215 0.7487245564 -0.0994335534 0.0320948111 0.0617022636
110299340.0 0.0368542526 0.0576058522 0.7500155443 -0.1091515613 0.7501326621 -0.1099073273 0.0349963 0.0592451157
115299310.0 0.0396074328 0.0547251741 0.7503637356 -0.1187908559 0.7513340424 -0.1189882978 0.0371597639 0.0561371504
120299280.0 0.0412007844 0.0526313812 0.7519949674 -0.1295698617 0.7517628292 -0.1297728015 0.0390126262 0.0543450227
125299250.0 0.0434483493 0.050178494 0.7519064377 -0.1390773396 0.7520139236 -0.1397161208 0.0411596371 0.0513489592
130299220.0 0.045218357 0.0478577254 0.7517985475 -0.1489947245 0.7520572357 -0.1496737204 0.0432815455 0.0497858768
135299190.0 0.0466129335 0.0454352354 0.7516228753 -0.1587284293 0.7507966854 -0.1586656515 0.0445012826 0.04724721
140299160.0 0.0477327948 0.0441795624 0.7505475545 -0.1690414616 0.7509210061 -0.1688806835 0.0463228548 0.0450903716
145299130.0 0.0491611968 0.0420121169 0.7505452663 -0.1786197861 0.7497090149 -0.1784046471 0.0475851299 0.0427851646
150299100.0 0.0504095011 0.0397856221 0.7491649935 -0.1880045572 0.7491390241 -0.1880764313 0.0488765404 0.0409439474
155299070.0 0.0512987079 0.0385804895 0.7480102897 -0.1979751809 0.747886964 -0.1984039139 0.049484522 0.0387292421
160299040.0 0.0523636242 0.0359399632 0.7459044584 -0.2068950151 0.7465250637 -0.2073805655 0.0507606158 0.0371959636
165299010.0 0.0527252226 0.0341776407 0.7449397691 -0.2168698752 0.7452785969 -0.2167015644 0.0515687855 0.0348622336
170298980.0 0.0531971023 0.0325545471 0.7418699614 -0.2258391703 0.7428674285 -0.2263928506 0.0524140588 0.0328693272
175298950.0 0.054316222 0.0307155709 0.7412411333 -0.2350606106 0.74124351 -0.2353130885 0.0532941405 0.0310890111
180298920.0 0.0551633633 0.0290557801 0.7390356164 -0.2446040436 0.7390040287 -0.24439518 0.0536100767 0.0298956652
185298890.0 0.0560264076 0.0272095464 0.7369128342 -0.2542565157 0.7369987788 -0.2534416628 0.0542538082 0.027670543
190298860.0 0.0561482582 0.02584553 0.7341589567 -0.2631393672 0.7347663153 -0.2628916462 0.0555805286 0.0260379246
195298830.0 0.0563397153 0.0240169953 0.7316441181 -0.2716800932 0.7316768121 -0.272754276 0.0558392339 0.0243100457
200298800.0 0.0568661168 0.0227659447 0.7295446375 -0.2804166462 0.7293922186 -0.2803663899 0.056143103 0.0232134708
205298770.0 0.0571051107 0.0215230433 0.7268143137 -0.2895211829 0.7268824538 -0.2899783439 0.0564804625 0.0210810288
210298740.0 0.0571894924 0.0195558341 0.7237407741 -0.2991108097 0.7236471486 -0.2992497724 0.056561719 0.0199796025
215298710.0 0.0577625086 0.0186446282 0.7208308682 -0.3068128328 0.720584172 -0.3072115073 0.0567048358 0.018404981
220298680.0 0.0581702124 0.0171185268 0.7173804414 -0.3159608023 0.7173514621 -0.3158969065 0.0574361318 0.0173495101
225298650.0 0.0583551244 0.0160349455 0.7134649406 -0.3240376233 0.7138605281 -0.3241095263 0.0574998789 0.0159042194
230298620.0 0.0580672138 0.014959453 0.7109864518 -0.3331193496 0.7108568639 -0.3333701883 0.0577664187 0.0141079191
235298590.0 0.0583869438 0.0132978258 0.7076784927 -0.3411669631 0.7073433249 -0.3415534367 0.0579881634 0.0127228628
240298560.0 0.0582410078 0.0119852689 0.7038726425 -0.3493927556 0.7040012188 -0.3491799313 0.0580411307 0.012031452
245298530.0 0.0587698041 0.0112867537 0.6991786362 -0.3575952529 0.6995357213 -0.3576793566 0.0582251919 0.0109148451
250298500.0 0.0582599253 0.0096357819 0.696188226 -0.3658405345 0.6965355445 -0.365590866 0.058810785 0.0090684302
255298470.0 0.0580659301 0.008871318 0.6916513727 -0.3740694275 0.692367301 -0.3746274017 0.0585467029 0.0074804341
260298440.0 0.0582430086 0.0079262514 0.6878911254 -0.3821361411 0.6883198216 -0.3828019515 0.0594076103 0.0069734478
265298410.0 0.058878437 0.0071905592 0.6837817587 -0.3916746508 0.6843164636 -0.3908349683 0.0589142883 0.0053080615
270298380.0 0.0592638848 0.0056160094 0.6793970803 -0.3983340001 0.6797222387 -0.3988486585 0.0590001861 0.0049792444
275298350.0 0.0583109207 0.0048194962 0.6757790877 -0.4067277587 0.6761275619 -0.4063450664 0.0588509031 0.0036491112
280298320.0 0.0585854889 0.0040255422 0.6709441171 -0.4138633292 0.6713092868 -0.4145037044 0.0590525416 0.002887259
285298290.0 0.0586765294 0.0032277667 0.6670002955 -0.4214399427 0.6665013282 -0.4220125329 0.0588668738 0.001627311
290298260.0 0.0587467883 0.0018463499 0.6625494303 -0.4294575696 0.6623235169 -0.4301179455 0.0594397783 0.0006013278
295298230.0 0.0584237793 0.0007091636 0.6577369917 -0.4372263502 0.6576415514 -0.4375605274 0.0594725505 -0.0003313501
300298200.0 0.0592481697 -8.15034e-05 0.6529851243 -0.4452797927 0.6531511306 -0.4455143112 0.0590347929 -0.0014673461
305298170.0 0.0588374724 -0.0012734866 0.6483802847 -0.4531472867 0.6486241 -0.4533380789 0.0598916931 -0.0023045016
310298140.0 0.0595834387 -0.0024436946 0.6434726167 -0.4603665514 0.6435293649 -0.4614099657 0.0595556922 -0.0031307286
315298110.0 0.0588081005 -0.0033406777 0.6380992365 -0.4685263752 0.638961645 -0.4685421678 0.0597573726 -0.004589683
320298080.0 0.0587051733 -0.0044947086 0.6329943795 -0.4757159488 0.633567273 -0.4756764904 0.0592001039 -0.0059918034
325298050.0 0.0585113111 -0.0059646868 0.6281178315 -0.4835818855 0.6279089034 -0.4835320502 0.0587686029 -0.007054921
330298020.0 0.0577795121 -0.0065264977 0.6215430551 -0.490585093 0.6216297695 -0.4912431929 0.0582960539 -0.0083747212
335297990.0 0.0574854965 -0.0078603446 0.6160018726 -0.4982641784 0.6164286415 -0.4978745819 0.0581205824 -0.0087929232
340297960.0 0.0564298206 -0.0080656763 0.6099504343 -0.5049229552 0.6106874338 -0.5045462867 0.0572533192 -0.0095740229
345297930.0 0.0560513151 -0.0086652731 0.6044015967 -0.5106534295 0.6045449515 -0.5113679257 0.0574440782 -0.0109563298
350297900.0 0.0564101669 -0.009383922 0.5985635941 -0.5177587518 0.5991546532 -0.5179713624 0.0565857074 -0.0105842057
355297870.0 0.0557750885 -0.0101516826 0.5930771928 -0.5245133811 0.593253459 -0.5250904385 0.056238854 -0.0114506914
360297840.0 0.0560788457 -0.0107038266 0.5875471909 -0.531734733 0.5875231952 -0.5315996233 0.0561823986 -0.0116783084
365297810.0 0.0557939378 -0.0117703184 0.5814760366 -0.538206285 0.5812002011 -0.5379804209 0.0557668506 -0.012438629
370297780.0 0.0558729004 -0.0122614182 0.5752187939 -0.5440588077 0.5758431153 -0.5448341906 0.0559153534 -0.0129984701
375297750.0 0.0550935774 -0.0125222047 0.5700667722 -0.5508103554 0.5693364306 -0.5516841441 0.0553460245 -0.0136848699
380297720.0 0.0548986496 -0.013754365 0.563548342 -0.5571754206 0.5634266503 -0.5573563287 0.0555621931 -0.014498496
385297690.0 0.0547033498 -0.0139932414 0.557290677 -0.5626068582 0.5571934057 -0.5635664666 0.0550600867 -0.0150016413
390297660.0 0.0541835397 -0.014716574 0.5506002766 -0.5692398617 0.5511804454 -0.5703965187 0.0549447829 -0.0159406817
395297630.0 0.0545644336 -0.015787019 0.5451219239 -0.5753624375 0.5447398514 -0.5756516249 0.0542552873 -0.0159361519
400297600.0 0.0537105219 -0.0160764061 0.5383672801 -0.5820476835 0.5385742309 -0.5824845528 0.0531847001 -0.0169361161
405297570.0 0.053951595 -0.0167076731 0.5325396116 -0.5881289961 0.5322180768 -0.5880804382 0.0534677784 -0.0170898834
410297540.0 0.0535786326 -0.0175570376 0.524657348 -0.5936823675 0.5251383183 -0.5940886764 0.0530465259 -0.0180699579
415297510.0 0.0532502161 -0.0174564387 0.5193575291 -0.5992441892 0.5191799908 -0.599909753 0.0528533928 -0.0178747738
420297480.0 0.0530392192 -0.018930155 0.5121192198 -0.6060648582 0.5121412342 -0.6057885622 0.0529788674 -0.0193023619
425297450.0 0.0533898403 -0.0198712758 0.5060476145 -0.6111827074 0.5060612944 -0.6111410992 0.0522012352 -0.0191954976
430297420.0 0.0524205284 -0.0195474347 0.4984888488 -0.6167974768 0.4993840148 -0.6171687529 0.0517213016 -0.020625485
435297390.0 0.0523933237 -0.020932406 0.492251726 -0.6220954899 0.4923884606 -0.6221386959 0.0511794501 -0.0203646522
440297360.0 0.0523661846 -0.0215732944 0.4849811364 -0.6277810953 0.4848802286 -0.6278265695 0.0510434124 -0.0216614431
445297330.0 0.0524358965 -0.0222840431 0.4780210688 -0.6336596589 0.4780062755 -0.6333252133 0.0506717772 -0.0217292634
450297300.0 0.0517124571 -0.0227164951 0.4710400572 -0.6382653546 0.4709638065 -0.6389121027 0.0501524992 -0.0224212866
455297270.0 0.0508954143 -0.023405829 0.4647002975 -0.6437233292 0.4650228191 -0.643723783 0.0504961364 -0.0229172365
460297240.0 0.0502971498 -0.0239626399 0.4570612269 -0.6482600583 0.4568637533 -0.6489040814 0.0497120579 -0.0227808991
465297210.0 0.0505350858 -0.0248133317 0.4502959871 -0.6540859579 0.450498895 -0.6542007391 0.0488436697 -0.0240333011
470297180.0 0.0497923848 -0.0251733875 0.4425517527 -0.6585170781 0.4432129339 -0.6589675353 0.0479556206 -0.0242643246
475297150.0 0.0491018116 -0.0264155682 0.4355625557 -0.6635784051 0.4357514217 -0.6632615204 0.0481246483 -0.0248857698
480297120.0 0.049772445 -0.0268428762 0.4286196645 -0.6678456318 0.4287916794 -0.6683684372 0.0477428654 -0.0245992587
485297090.0 0.0493502274 -0.0272580398 0.4215549752 -0.6729542116 0.4211555131 -0.6734715262 0.0470422386 -0.0257155711
490297060.0 0.0488662116 -0.0280069887 0.4138310337 -0.67790123 0.414333997 -0.6781721708 0.0470017408 -0.0255448127
495297030.0 0.0477298663 -0.0282002018 0.4061410493 -0.6822755464 0.4055570338 -0.6826729065 0.0466178588 -0.0263632936
500297000.0 0.0479563504 -0.0290868535 0.3986692459 -0.6867683462 0.3988135474 -0.687172238 0.0454053761 -0.0268268131
505296970.0 0.0470273445 -0.0296161898 0.3905492756 -0.6910548766 0.3906099829 -0.6909734207 0.0449460691 -0.0272413319
510296940.0 0.0468520922 -0.0301074686 0.3834008345 -0.6955495091 0.3836742465 -0.6959321956 0.0449975801 -0.0271040768
515296910.0 0.0460452936 -0.0302275619 0.3754709764 -0.6990922469 0.37542544 -0.6999976885 0.0439486469 -0.0281157504
520296880.0 0.0458650095 -0.0312980569 0.3677510971 -0.7036219576 0.3682520925 -0.7033304406 0.044038332 -0.0282098523
525296850.0 0.0450445383 -0.0319947502 0.3606157175 -0.7079548161 0.3607430095 -0.7080940154 0.0437199912 -0.0287649578
530296820.0 0.0449622179 -0.0322663547 0.3527038598 -0.7111403346 0.35242068 -0.7120901149 0.0425359254 -0.0299698107
535296790.0 0.0440707057 -0.0328603507 0.344914577 -0.7151704617 0.3453344365 -0.7152961203 0.0426047474 -0.0302847033
540296760.0 0.0438434095 -0.0338532359 0.3370432715 -0.7191001254 0.3364367014 -0.71942057 0.0414035993 -0.0300094467
545296730.0 0.0432817378 -0.0336794001 0.3287499068 -0.7222150264 0.3289559406 -0.7233102399 0.0409847871 -0.0307314041
550296700.0 0.0424744502 -0.0343617589 0.3211824591 -0.7261957096 0.3219603288 -0.7267631368 0.0406435414 -0.0304742172
555296670.0 0.042530188 -0.0354888205 0.3133470654 -0.7300969606 0.3135065032 -0.7298752876 0.0400540436 -0.0309789292
560296640.0 0.0417682011 -0.0355016512 0.3056862244 -0.7328781615 0.3053721218 -0.7328314317 0.0396660826 -0.0315775268
565296610.0 0.0406221683 -0.0361926244 0.2972832544 -0.7366280001 0.2966401573 -0.7366528443 0.0388225377 -0.032394272
570296580.0 0.0410945185 -0.036481916 0.2889539514 -0.7392547786 0.2891750098 -0.7401481152 0.0388369616 -0.0317682833
575296550.0 0.0400006478 -0.0364413845 0.2809823665 -0.742325581 0.281234145 -0.7425695766 0.0383366164 -0.0324167363
580296520.0 0.0395853499 -0.0370578888 0.2731253622 -0.7454244394 0.2727819741 -0.7463902443 0.0375537543 -0.0334269958
585296490.0 0.0392612927 -0.0377073367 0.2651611214 -0.749326802 0.2646374527 -0.7490106878 0.0367511659 -0.0339791411
590296460.0 0.0381689999 -0.0383700069 0.2563398101 -0.7519997245 0.2561814139 -0.7518869461 0.0363055089 -0.0334184199
595296430.0 0.0376786836 -0.038349835 0.2484999712 -0.7538720741 0.2483477227 -0.7550434411 0.0364251149 -0.0340219693
600296400.0 0.0372936727 -0.0384321433 0.2398861299 -0.7569457612 0.2406293089 -0.7571607791 0.0353426302 -0.0339532153
605296370.0 0.0367382108 -0.0387496377 0.2320366117 -0.7600407543 0.23159204 -0.7596640577 0.0349952016 -0.0348873527
610296340.0 0.0359193196 -0.0395188636 0.2242295608 -0.7624824506 0.2237531808 -0.7627306738 0.0342661612 -0.0343553773
615296310.0 0.0354054119 -0.0394147325 0.2146945351 -0.7643350311 0.2149237923 -0.7648924897 0.0338860211 -0.0350930837
620296280.0 0.0345950736 -0.0399258845 0.2069454615 -0.7670916685 0.2069083473 -0.7672053007 0.0334330954 -0.035769167
625296250.0 0.0346094832 -0.040356937 0.1979977159 -0.7692286221 0.1984167508 -0.7693942844 0.0330786761 -0.0353857256
630296220.0 0.0336208543 -0.0406647823 0.1898395479 -0.7719704294 0.1903766208 -0.7713882139 0.0316278664 -0.0358590381
635296190.0 0.0331291837 -0.0408569625 0.1814723724 -0.772960619 0.1814120133 -0.7727527335 0.0313360931 -0.0367498749
640296160.0 0.0325052827 -0.0411147949 0.1734665759 -0.774841635 0.1733258341 -0.7754754486 0.0314066465 -0.0364950909
645296130.0 0.0320451246 -0.041191418 0.164374978 -0.7773124328 0.1647255981 -0.777159134 0.0295353448 -0.0374351079
650296100.0 0.0307745227 -0.0409923049 0.1568465352 -0.7787095679 0.1565746426 -0.7786844174 0.0296881867 -0.0371932014
655296070.0 0.0303916296 -0.0417958359 0.147898128 -0.7801851538 0.1476363629 -0.7803547938 0.0297554568 -0.037034942
660296040.0 0.0292654443 -0.0417136211 0.1392076549 -0.7816525548 0.1396132991 -0.7820272222 0.0285666619 -0.0380040441
665296010.0 0.0293282661 -0.0425776652 0.1309013293 -0.7831745465 0.1314890709 -0.7833495427 0.0273635413 -0.0374275632
670295980.0 0.0292316657 -0.0422486864 0.1224465183 -0.784638165 0.1222608491 -0.7846946246 0.0267846835 -0.0383023356
675295950.0 0.0283966066 -0.0425367529 0.1138359913 -0.7860482886 0.1139837944 -0.786552366 0.0269878859 -0.0379182917
680295920.0 0.0273779159 -0.0425872587 0.105103096 -0.787209143 0.1048424992 -0.7876852097 0.0266083705 -0.0387144008
685295890.0 0.0267321453 -0.0429166028 0.0966471757 -0.7879069909 0.0963786516 -0.7886607617 0.0254668774 -0.0382309719
690295860.0 0.0264815965 -0.043215084 0.0882149493 -0.7888617739 0.0871467657 -0.7890583667 0.0253944998 -0.0382176736
695295830.0 0.0262566511 -0.0434205521 0.0784094887 -0.789729789 0.0785764526 -0.7901577253 0.0240308611 -0.0385996043
700295800.0 0.0256419137 -0.0435054932 0.0700315991 -0.7908229334 0.070581124 -0.7916632642 0.0236750847 -0.0395620693
705295770.0 0.0245249334 -0.0436216312 0.0618864373 -0.7916883557 0.0617366623 -0.7919128984 0.0228121488 -0.039374951
710295740.0 0.0240469335 -0.0431832249 0.0532815294 -0.7917370037 0.0527349483 -0.7918626668 0.0214487971 -0.038987565
715295710.0 0.0234391624 -0.0438511068 0.0449396841 -0.7928708354 0.044966094 -0.7928529544 0.0217629527 -0.040037699
720295680.0 0.0226644637 -0.0442798573 0.036084075 -0.7929260342 0.0361551721 -0.7939617693 0.0214898092 -0.0395764041
725295650.0 0.0223721558 -0.0438458776 0.0272369893 -0.7931167115 0.0275293557 -0.7931599323 0.0206583685 -0.0393333579
730295620.0 0.0210207073 -0.0445715052 0.01844501 -0.7937640967 0.018727604 -0.7945368692 0.0203120261 -0.0402877987
735295590.0 0.0213636409 -0.0442097644 0.0109585332 -0.7936342106 0.0102297173 -0.7941972245 0.0196052218 -0.0397628812
740295560.0 0.0200730181 -0.0441778729 0.0016964321 -0.7935823742 0.001393254 -0.793904854 0.0194754942 -0.0403213898
745295530.0 0.0197098723 -0.0447332939 -0.0070476211 -0.7938749663 -0.0071468775 -0.794371961 0.0178875833 -0.0397807479
750295500.0 0.0192922613 -0.044642409 -0.0152953031 -0.7933704066 -0.0157365973 -0.7935430388 0.0180249814 -0.0405645758
755295470.0 0.0189803973 -0.0443006583 -0.0244498555 -0.793236014 -0.0244110144 -0.7940264123 0.0165220872 -0.040278833
760295440.0 0.0179010606 -0.0446995699 -0.0327106881 -0.7929462318 -0.0333189812 -0.7934046747 0.015947293 -0.0405137762
765295410.0 0.0171316207 -0.0450687724 -0.0407732423 -0.7926114461 -0.0412185334 -0.7929411463 0.0164195648 -0.0397104235
770295380.0 0.016609694 -0.0447375252 -0.0499132823 -0.7920764548 -0.050279208 -0.7930551336 0.0158147754 -0.0399004335
775295350.0 0.0162428288 -0.0445808008 -0.058718831 -0.7914724284 -0.0585376413 -0.7919274085 0.0149623086 -0.0411033986
780295320.0 0.0156170333 -0.0447811951 -0.0670380296 -0.7915727776 -0.0669698147 -0.7913004474 0.0142489065 -0.0402962708
785295290.0 0.0146206492 -0.0444854129 -0.0755240263 -0.7892393148 -0.0757746726 -0.7903446778 0.0132798824 -0.0407709685
790295260.0 0.0141646275 -0.0446747289 -0.0844448285 -0.7898500243 -0.0843986954 -0.7897513605 0.0130154556 -0.0401708403
795295230.0 0.0134200523 -0.0447033007 -0.092216349 -0.787480663 -0.0926137055 -0.7879524262 0.0121191346 -0.0394163138
800295200.0 0.0128379489 -0.0442967575 -0.1020806882 -0.7870860313 -0.1020471718 -0.7876044759 0.0121713244 -0.0399980747
805295170.0 0.0117356092 -0.0447542633 -0.1102240958 -0.7853719636 -0.1103409399 -0.7860776497 0.010922158 -0.0402934742
810295140.0 0.011442441 -0.0445627074 -0.1183542865 -0.7844839775 -0.1184135472 -0.7853189266 0.0108206563 -0.0396622244
815295110.0 0.0111248638 -0.0443431856 -0.1274126932 -0.7830687052 -0.1276377334 -0.7836418862 0.0098881399 -0.0406318799
820295080.0 0.010215597 -0.0446478032 -0.1355057661 -0.7820814647 -0.1356043509 -0.7827369103 0.0091680693 -0.0400447508
825295050.0 0.0094683959 -0.0448489042 -0.1439037985 -0.7798118847 -0.1439042345 -0.780311783 0.009010418 -0.0397296555
830295020.0 0.0089248152 -0.0441326474 -0.1523220515 -0.7787204589 -0.1530717734 -0.7788830936 0.0082104966 -0.0398387723
