!Created with skrf (http://scikit-rf.org).
# Hz S RI R 50.0 
!freq ReS11 ImS11 ReS21 ImS21 ReS12 ImS12 ReS22 ImS22
300000.0 -0.2354157398 -0.1168145498 0.4649321013 0.076282737 0.4646158483 0.0780455123 -0.2345770602 -0.1224395536
5299970.0 -0.2448876384 0.0054391218 0.4733981921 0.0057524406 0.4739984546 0.0058764142 -0.2437300074 0.0052773207
10299940.0 -0.2417921435 0.0184165319 0.4761943491 0.0070245236 0.4760958287 0.0071448528 -0.2403771377 0.0181818519
15299910.0 -0.2370538456 0.0283552591 0.4793270209 0.0083864187 0.4801467351 0.0082615878 -0.236148239 0.027459955
20299880.0 -0.2319323513 0.0364989538 0.4841041542 0.0084435111 0.4844371536 0.0085372589 -0.2313554963 0.0354833842
25299850.0 -0.2255937884 0.0428295041 0.4894508617 0.0080604235 0.489837343 0.0077094776 -0.2260757874 0.0415993531
30299820.0 -0.2202903472 0.0476051603 0.4951048421 0.0056700858 0.4952141354 0.0054338365 -0.220741979 0.0467910903
35299790.0 -0.2143682147 0.0518502673 0.5002200489 0.0023233666 0.5005119165 0.0022200074 -0.2160639389 0.0516285542
40299760.0 -0.2092259972 0.0547199012 0.5055513751 -0.0015169382 0.5058340626 -0.0014820687 -0.2108162611 0.0545982658
45299730.0 -0.204134536 0.0571653651 0.5102473096 -0.0058928522 0.5108229915 -0.0064148933 -0.2057632976 0.0574888073
50299700.0 -0.1990921861 0.0590482999 0.5146003634 -0.0122331937 0.5146672399 -0.0118705094 -0.201364047 0.0604514758
55299670.0 -0.1949470284 0.0606950514 0.5185039066 -0.0174884134 0.5183734989 -0.0177951385 -0.1975544216 0.0619986554
60299640.0 -0.1910481464 0.0618905409 0.5220151113 -0.0239820467 0.5220339839 -0.0237088435 -0.1939582573 0.063297806
65299610.0 -0.1872134034 0.0626658269 0.5246725768 -0.0301984263 0.5249344861 -0.0306438928 -0.1902971696 0.0647462068
70299580.0 -0.1841345853 0.0630366487 0.5270700558 -0.0368396265 0.5275284491 -0.0371577694 -0.1872243504 0.0660825776
75299550.0 -0.1812347936 0.0637105853 0.5287273799 -0.0440739751 0.5294549386 -0.0439709319 -0.1842937456 0.0671283965
80299520.0 -0.1785279332 0.0643781618 0.531051983 -0.0508365959 0.5312721807 -0.0507598828 -0.1816239784 0.068191309
85299490.0 -0.1757345298 0.0647565803 0.532457374 -0.0578471816 0.532702181 -0.0575820691 -0.1795115644 0.068583992
90299460.0 -0.1733799865 0.0652755077 0.5331644899 -0.0642742095 0.5332189737 -0.0644041696 -0.1766835461 0.0697491106
95299430.0 -0.1714647038 0.0659128445 0.5340896209 -0.0715388453 0.5346951213 -0.0714715197 -0.1749195442 0.0706617448
100299400.0 -0.1696116307 0.0662368498 0.5344861599 -0.0784705539 0.5349896741 -0.0785362112 -0.1734331275 0.0719520249
105299370.0 -0.1676324047 0.0666952622 0.5348223927 -0.0850592534 0.5351385198 -0.0851683973 -0.1711210738 0.0720763147
110299340.0 -0.1658939859 0.0668262774 0.5352771366 -0.0916221534 0.5356840352 -0.0917581564 -0.1699184128 0.0731042463
115299310.0 -0.1646537794 0.0677133134 0.5351861698 -0.0987550724 0.5353270146 -0.0987434154 -0.1683196125 0.0743808948
120299280.0 -0.1631952554 0.0683961769 0.5350081257 -0.1061235085 0.5349116544 -0.10617153 -0.1666275913 0.0748268992
125299250.0 -0.1619831981 0.0685316523 0.5346128036 -0.1123546448 0.5346287709 -0.1126411795 -0.1652117586 0.0761305427
130299220.0 -0.1605024445 0.069024878 0.5341420896 -0.1190877023 0.5340561397 -0.1197439738 -0.1640913929 0.0771784353
135299190.0 -0.1598765596 0.0701137058 0.5338349687 -0.1258629135 0.5338250228 -0.1262986195 -0.1630955092 0.0777704078
140299160.0 -0.1586883272 0.0707924933 0.532919235 -0.1331190993 0.532522681 -0.1322948863 -0.1624201955 0.0784863299
145299130.0 -0.1581261252 0.0715259074 0.5320318077 -0.1389474862 0.5318274464 -0.1391750567 -0.16102947 0.0797518724
150299100.0 -0.156529812 0.0723888136 0.5305753404 -0.1460248231 0.5306118677 -0.1458384411 -0.1601016549 0.0813814292
155299070.0 -0.1555430844 0.0734721546 0.5290294312 -0.1523807965 0.5295713229 -0.1524053765 -0.1586745371 0.0823405196
160299040.0 -0.1547090508 0.0746139837 0.5280388089 -0.1587922648 0.52807267 -0.1589215037 -0.1581999346 0.08359104
165299010.0 -0.1539985732 0.0753624931 0.526766274 -0.1651018127 0.5268279789 -0.1653326711 -0.1567918042 0.0845535177
170298980.0 -0.1532330001 0.0762337195 0.524866298 -0.1714600269 0.5251493833 -0.1715640367 -0.1560613757 0.0858357484
175298950.0 -0.1522731634 0.0775248914 0.5235550918 -0.1775075696 0.5240900231 -0.178050679 -0.1551680515 0.0873564187
180298920.0 -0.151647389 0.0784235608 0.5216382117 -0.1837525845 0.5220335426 -0.1843558143 -0.1542132541 0.0885096129
185298890.0 -0.1508955997 0.0794136544 0.5202422675 -0.1900425497 0.5199107047 -0.1903532868 -0.152695171 0.0896263211
190298860.0 -0.1498249885 0.0808810426 0.5177790963 -0.1964698882 0.518377035 -0.19632793 -0.1520491716 0.0910121921
195298830.0 -0.1489946694 0.0818287802 0.5164828117 -0.2027438761 0.5158866272 -0.2026588269 -0.1514119203 0.0922839842
200298800.0 -0.1481561832 0.0829570621 0.5139796602 -0.209471994 0.5139352503 -0.2091443892 -0.1501635404 0.0936519079
205298770.0 -0.1479507233 0.0840216122 0.5113979532 -0.2145990995 0.5118088234 -0.2146325511 -0.148987707 0.0949279633
210298740.0 -0.1468295233 0.0855758122 0.509557136 -0.2205983325 0.509597783 -0.221002696 -0.1486654689 0.0963492657
215298710.0 -0.1462973091 0.0866895322 0.5068919422 -0.2265985877 0.5072597354 -0.2270401669 -0.1476298747 0.0979993057
220298680.0 -0.1452669866 0.0880107716 0.5044263945 -0.2326560261 0.5047279199 -0.2327672677 -0.1464684285 0.0990855108
225298650.0 -0.1446695288 0.0889788674 0.5017882538 -0.2382225095 0.5025323141 -0.2379907138 -0.1455981731 0.1004382184
230298620.0 -0.1438482412 0.0907940992 0.5000403774 -0.2441221245 0.5000113585 -0.2444223829 -0.1447909008 0.1018401258
235298590.0 -0.1434443663 0.0920046423 0.4975031893 -0.2506960971 0.4973808284 -0.2503945285 -0.1434581953 0.1034363389
240298560.0 -0.1423282852 0.0930948158 0.494409784 -0.255620861 0.4943472932 -0.2557056939 -0.1427057222 0.1044027789
245298530.0 -0.1416557997 0.0944024885 0.4917046438 -0.2615620579 0.4918703317 -0.2614637783 -0.1417285445 0.1061245124
250298500.0 -0.1407406026 0.0954129883 0.4890000236 -0.2668587155 0.4888485666 -0.2671547523 -0.1406186152 0.1076516553
255298470.0 -0.1400287823 0.097217888 0.4863109543 -0.2724919746 0.486551623 -0.2727913571 -0.1397100404 0.1092256373
260298440.0 -0.1390689747 0.0979438452 0.4832665307 -0.2775360888 0.483259287 -0.2778109734 -0.1385735306 0.1103748896
265298410.0 -0.1385136269 0.0997980523 0.4798507354 -0.2837693057 0.4802113039 -0.2839416294 -0.136846569 0.111897424
270298380.0 -0.1375427993 0.1008919047 0.476918239 -0.2892086289 0.4769960041 -0.2891409441 -0.1359042725 0.1135932994
275298350.0 -0.136615374 0.1025743343 0.4733360501 -0.294389203 0.4737637265 -0.2943373554 -0.1347994961 0.1150961347
280298320.0 -0.1360255688 0.103632639 0.4704304881 -0.2991876757 0.4707611179 -0.3000579796 -0.1336016238 0.1164556302
285298290.0 -0.1352292661 0.1049387332 0.4671356709 -0.3051946167 0.46745261 -0.3050165463 -0.1325772474 0.1178639996
290298260.0 -0.1343211689 0.1064907539 0.4642534169 -0.3105140646 0.4643174272 -0.3106802341 -0.1311282322 0.1193835614
295298230.0 -0.1336455261 0.1076960516 0.4608039723 -0.3160637963 0.461124966 -0.3161216466 -0.1300349988 0.120808499
300298200.0 -0.1324264672 0.109033334 0.4575667111 -0.3211651187 0.4575866066 -0.3211252048 -0.1287391051 0.1219261318
305298170.0 -0.1315363689 0.1103353001 0.4544479086 -0.3265194806 0.4540392434 -0.3262588912 -0.1275637655 0.1232962768
310298140.0 -0.1301876161 0.1113036109 0.450318241 -0.3314346359 0.4506089849 -0.3313771344 -0.1259945804 0.1247260467
315298110.0 -0.1295802014 0.1121488344 0.4470949429 -0.3371448837 0.4468258573 -0.3368935929 -0.1246587793 0.1257492932
320298080.0 -0.1287038656 0.113889327 0.4427183501 -0.3421158719 0.4433961292 -0.3421321957 -0.1238090364 0.1270377469
325298050.0 -0.1282449124 0.114617845 0.4390924535 -0.3466470452 0.4396278325 -0.3469559545 -0.1223666652 0.1283200474
330298020.0 -0.127537529 0.1161472863 0.4348513331 -0.3517361857 0.4354508937 -0.3521189118 -0.1213413375 0.1296867655
335297990.0 -0.1265011828 0.1174316972 0.4309986853 -0.3567751259 0.4314240275 -0.3568339263 -0.1199664365 0.1312805914
340297960.0 -0.1257605338 0.118668022 0.4266938478 -0.3618077753 0.4271047103 -0.361675192 -0.1189138359 0.1327557548
345297930.0 -0.1251193115 0.119910895 0.4230239069 -0.366464666 0.4231588724 -0.3665762775 -0.1174425662 0.1338774666
350297900.0 -0.1241817575 0.1213936048 0.4192471176 -0.3706248437 0.4194037461 -0.370946687 -0.1161855183 0.1349213768
355297870.0 -0.1231348223 0.1226058976 0.4150441844 -0.375301043 0.414940402 -0.3752085104 -0.1147043922 0.136687664
360297840.0 -0.1222839043 0.1239942716 0.4106849512 -0.3801928842 0.4105430061 -0.3803835574 -0.1132601137 0.1380023152
365297810.0 -0.1212782877 0.1251823062 0.4064303774 -0.3843177561 0.4064375461 -0.3843230237 -0.1121497785 0.1394669095
370297780.0 -0.1199226186 0.1267072866 0.4021267942 -0.389397297 0.4023311745 -0.388971525 -0.1107348228 0.1407757944
375297750.0 -0.1187732445 0.1278505726 0.3981019807 -0.3930493051 0.3981541765 -0.3933288285 -0.1088791272 0.1419233001
380297720.0 -0.1180823058 0.1294656596 0.3938295004 -0.3979546802 0.3936761133 -0.3978527611 -0.107575516 0.1437417188
385297690.0 -0.1170433048 0.1303819575 0.3890972301 -0.4020763031 0.3893291895 -0.4022398946 -0.1058020851 0.1449087747
390297660.0 -0.1156618805 0.131404869 0.3847890121 -0.4059123385 0.3848955344 -0.4059102441 -0.1043092516 0.1458462089
395297630.0 -0.1141914022 0.1324818452 0.3804515168 -0.4099723029 0.3803838694 -0.4101190308 -0.1027287307 0.1473017231
400297600.0 -0.1137153958 0.1339377611 0.3761200238 -0.4147285258 0.3760907624 -0.4145464971 -0.1010507087 0.1489396417
405297570.0 -0.1123572654 0.1346927288 0.3714897361 -0.4184169634 0.3713705263 -0.4185161824 -0.0994426877 0.1501449361
410297540.0 -0.1110237533 0.1362889139 0.3665012481 -0.4226895743 0.3668597449 -0.4226453413 -0.0981813753 0.1515058825
415297510.0 -0.110095595 0.1374612371 0.3620361854 -0.4268418625 0.3626468782 -0.4269154603 -0.0962030872 0.1528264773
420297480.0 -0.1087154894 0.1383783681 0.3572195087 -0.4305962453 0.3577807971 -0.4306687057 -0.0942175378 0.154116382
425297450.0 -0.1073143965 0.1393859603 0.3525257723 -0.4344526082 0.3526914742 -0.4341442272 -0.0929080491 0.1545511142
430297420.0 -0.1061675095 0.1408169493 0.3481625726 -0.4384581353 0.3484372562 -0.4382464274 -0.0912158128 0.1563047132
435297390.0 -0.1047586553 0.141609534 0.3429189597 -0.4428413245 0.3432350357 -0.442039623 -0.0898075204 0.1576175598
440297360.0 -0.1034150448 0.1427178259 0.3378720129 -0.4460670121 0.3381090397 -0.44587025 -0.0877699348 0.1586011771
445297330.0 -0.1019040833 0.1435697707 0.3332621407 -0.4493636755 0.3331549564 -0.4498234867 -0.0855674766 0.1598672257
450297300.0 -0.100724595 0.144639495 0.3286886866 -0.4530259685 0.328947659 -0.452722028 -0.0840703358 0.1610965302
455297270.0 -0.0995140549 0.1456251952 0.323645886 -0.4564032333 0.3238340343 -0.4569696936 -0.0824089567 0.1618322999
460297240.0 -0.0976007714 0.1468571469 0.3187375049 -0.4610441551 0.318404295 -0.4603685801 -0.0805696867 0.1627780081
465297210.0 -0.0964204414 0.1479940419 0.3129207547 -0.4639875271 0.3129984734 -0.4638737691 -0.0785789243 0.1643183584
470297180.0 -0.0951686926 0.1488208512 0.3082288245 -0.4668613736 0.308659024 -0.4668984534 -0.0770466848 0.1649056071
475297150.0 -0.0938871957 0.1503239157 0.3031708781 -0.4705354328 0.303505445 -0.4706377724 -0.0751631215 0.1660227925
480297120.0 -0.092094039 0.1513287634 0.2976724678 -0.4738266749 0.2983392246 -0.4736670894 -0.0734430696 0.1671111996
485297090.0 -0.0906039377 0.1519204366 0.2925449348 -0.4772567137 0.2923830611 -0.4770459185 -0.0713147426 0.1682375779
490297060.0 -0.0888200115 0.1529395486 0.2872406437 -0.4801548856 0.2874525423 -0.4804511902 -0.0694283719 0.1687306096
495297030.0 -0.0874959186 0.1536440034 0.2822324936 -0.4832808189 0.2825062141 -0.48358353 -0.0675478353 0.1697631981
500297000.0 -0.0860990434 0.1550946875 0.2770752402 -0.4859559808 0.2767050673 -0.4863355361 -0.0655054423 0.1708882949
505296970.0 -0.0841966037 0.1559136163 0.2717441034 -0.48929749 0.2714321007 -0.4890234242 -0.0636103432 0.1712694671
510296940.0 -0.0826188964 0.1567460352 0.2661840479 -0.4927192747 0.2670414624 -0.4927172889 -0.0616627083 0.1725563825
515296910.0 -0.0811111225 0.1578297044 0.260857744 -0.4951477683 0.2607417052 -0.4951178977 -0.0597719559 0.1729680251
520296880.0 -0.0795697751 0.1586017229 0.2554403311 -0.4975407425 0.2551649238 -0.4978312478 -0.0571498952 0.1743486489
525296850.0 -0.0780483641 0.1595093155 0.249940303 -0.5005790372 0.2495009245 -0.500580147 -0.0554605538 0.1747980208
530296820.0 -0.0765814891 0.1601079813 0.2444039035 -0.5031298054 0.2445212053 -0.5035491802 -0.0535824585 0.1754802991
535296790.0 -0.0743285325 0.1613389819 0.238736112 -0.5059937359 0.239292231 -0.5056232367 -0.051332013 0.1759652483
540296760.0 -0.072991732 0.1625445938 0.233306766 -0.5082949592 0.2330413562 -0.5084939703 -0.0496251285 0.1768047929
545296730.0 -0.0718298553 0.1633251998 0.2281250617 -0.5105686591 0.22769091 -0.5102221823 -0.0475970172 0.1774021288
550296700.0 -0.0695507975 0.1641567535 0.2224763 -0.5135676258 0.2219414094 -0.5135283341 -0.0455152185 0.1781846771
555296670.0 -0.068184084 0.1649465583 0.2166367476 -0.5159865666 0.2169826723 -0.5154881923 -0.043885246 0.1783170283
560296640.0 -0.0659788512 0.165621301 0.2106947091 -0.5180390317 0.2114712456 -0.5178172895 -0.0418215425 0.179510722
565296610.0 -0.0649351202 0.1664168379 0.2058041836 -0.5201848558 0.2053429957 -0.5198516125 -0.0396195492 0.1802402641
570296580.0 -0.0632097789 0.1675750272 0.1994323235 -0.5221530456 0.1997412157 -0.5223201297 -0.0374844913 0.1802492
575296550.0 -0.061059186 0.1679035645 0.194331977 -0.524119933 0.1939879342 -0.5246274561 -0.0355937705 0.1811140253
580296520.0 -0.0594036251 0.1691192474 0.1881574345 -0.5265578875 0.1882039371 -0.5267569743 -0.0339059121 0.1815084269
585296490.0 -0.0576149259 0.1697671067 0.1828674022 -0.5282472535 0.1825767786 -0.528315891 -0.0313086313 0.1821681769
590296460.0 -0.0555749758 0.170463005 0.177161266 -0.5303650388 0.1768365023 -0.5306585446 -0.0295107687 0.1826793282
595296430.0 -0.0539663822 0.1714284445 0.1710532535 -0.532472992 0.1707064536 -0.5324725136 -0.0273741278 0.1828899198
600296400.0 -0.0519805812 0.1720480918 0.1646888929 -0.5337502108 0.1650569904 -0.5341055292 -0.0254748125 0.1831314581
605296370.0 -0.0507093087 0.1728681574 0.1599707411 -0.5358495617 0.1592229125 -0.5359657518 -0.0232135106 0.183941645
610296340.0 -0.0484887475 0.1738674161 0.1538139588 -0.5367983381 0.1540495357 -0.5375033347 -0.0214599397 0.1842745984
615296310.0 -0.0468909583 0.1741027546 0.1479538549 -0.5390175858 0.147212665 -0.5392673251 -0.0188469816 0.1845623629
620296280.0 -0.0454605503 0.1754037605 0.1416469421 -0.5402546053 0.141570228 -0.5406762567 -0.0172187408 0.1853629081
625296250.0 -0.0438031852 0.175749676 0.1363881695 -0.542466872 0.1359810037 -0.5421492109 -0.0153804365 0.1854498694
630296220.0 -0.0416393535 0.1763437697 0.129967254 -0.5433968989 0.1298175431 -0.543404408 -0.0130004864 0.1856013494
635296190.0 -0.0402552273 0.1774449447 0.1243281966 -0.5447234651 0.1243427484 -0.5445193895 -0.0111532946 0.1858696135
640296160.0 -0.0382867597 0.177944676 0.1183217626 -0.5465963752 0.1183018736 -0.5462353252 -0.0090057986 0.1859938659
645296130.0 -0.0364906111 0.1788212624 0.1123369061 -0.5473113539 0.1124609838 -0.5470485159 -0.007175325 0.1859269671
650296100.0 -0.0347524205 0.1789036446 0.1066489973 -0.5484150677 0.1060434593 -0.5487702534 -0.0043725904 0.1862561422
655296070.0 -0.0330774694 0.1795771877 0.100013279 -0.5496642355 0.1003828272 -0.5490837209 -0.0029354357 0.1866692709
660296040.0 -0.0311572773 0.1804183566 0.0951665884 -0.5508343072 0.0946724069 -0.5503640919 -0.0006191303 0.186535131
665296010.0 -0.0292822555 0.1807383906 0.0880791391 -0.5511957861 0.0885504097 -0.5513721769 0.0012786772 0.1869947779
670295980.0 -0.0278040965 0.1814811473 0.0824531634 -0.5524792681 0.0824697638 -0.5520631728 0.0030475546 0.1867825793
675295950.0 -0.0257498437 0.1818017278 0.0762613616 -0.5527021341 0.0765654285 -0.5532635246 0.0054363233 0.1872644461
680295920.0 -0.024270705 0.1827204355 0.0708280009 -0.5537686313 0.0708513213 -0.5535100586 0.0077431658 0.1868306479
685295890.0 -0.0221168658 0.1831502709 0.0647248628 -0.5546123979 0.0643492922 -0.5547254403 0.0095622077 0.1877634466
690295860.0 -0.0208280031 0.1836693162 0.0588970626 -0.5553199876 0.058602422 -0.5552470969 0.0118468723 0.1873344799
695295830.0 -0.0187975277 0.1841357471 0.0533762168 -0.5559692847 0.0526280917 -0.5557481908 0.0137199446 0.1874125968
700295800.0 -0.0170924116 0.1847411658 0.046986658 -0.5559736067 0.0468826332 -0.5564128929 0.0160158328 0.187563066
705295770.0 -0.0154601328 0.1852431054 0.0407415226 -0.557177544 0.0409830412 -0.5565079941 0.0177623343 0.1875579903
710295740.0 -0.0137564518 0.1854060326 0.0349847161 -0.5573393843 0.0342891258 -0.5574268648 0.01988284 0.1875920615
715295710.0 -0.0118586392 0.1859983582 0.0290478753 -0.557885472 0.0287716963 -0.5574853624 0.0219228965 0.1872155372
720295680.0 -0.0096708747 0.1859320559 0.0228529062 -0.5572975939 0.0221670633 -0.5581745518 0.0242934193 0.1872217947
725295650.0 -0.0086472333 0.1867387241 0.0173621767 -0.5577080742 0.0169326577 -0.5581805278 0.0259020964 0.1876193708
730295620.0 -0.0070997237 0.1869967231 0.0109943889 -0.5577775066 0.0105700939 -0.5575794197 0.0280371477 0.1874918237
735295590.0 -0.0048837908 0.1873444885 0.0050819124 -0.5580190693 0.0045587282 -0.5582225148 0.0302372044 0.1865641103
740295560.0 -0.0034882751 0.1871746332 -0.0010447011 -0.558124433 -0.0011336784 -0.5583201187 0.0319231008 0.1867875013
745295530.0 -0.0016274916 0.1877766243 -0.0067341255 -0.5575378498 -0.0060891195 -0.5574577063 0.0335370177 0.1865416741
750295500.0 -0.0001162062 0.1880805223 -0.0128104874 -0.5576380524 -0.0131115991 -0.557971951 0.0362801698 0.1864283141
755295470.0 0.0017610811 0.1882812966 -0.0185188133 -0.5576734879 -0.0190795983 -0.5581290575 0.0381082036 0.1867194096
760295440.0 0.0033962441 0.1890217057 -0.0253446435 -0.5573857558 -0.0253395402 -0.5570551342 0.0402786664 0.1854644155
765295410.0 0.0055160679 0.1886320933 -0.0310427511 -0.5568252694 -0.0308342159 -0.5571172726 0.0424570691 0.1857840998
770295380.0 0.0069770266 0.1891870514 -0.0368149437 -0.5563125887 -0.0371033088 -0.5568675018 0.0441318927 0.1851952684
775295350.0 0.0087025921 0.1891290289 -0.0429523398 -0.5562695138 -0.0428718735 -0.5557485476 0.0465468737 0.1852550776
780295320.0 0.0104335855 0.1896055423 -0.0487228044 -0.5553058079 -0.0487996726 -0.5554781451 0.0487123466 0.1845327411
785295290.0 0.0121059657 0.1894190971 -0.0543487332 -0.5550848519 -0.0548754159 -0.5550718921 0.050110539 0.1846617129
790295260.0 0.0139316027 0.1893454809 -0.0606329994 -0.5545223539 -0.0607102246 -0.5545113688 0.0522083858 0.1844501129
795295230.0 0.0156856594 0.1895237282 -0.0667991245 -0.5540109215 -0.066947832 -0.5539807862 0.0543918844 0.1833036447
800295200.0 0.0171324368 0.1897058483 -0.0715378071 -0.5526789287 -0.072834447 -0.5530192275 0.0561337791 0.1830886614
805295170.0 0.0188561765 0.1897310822 -0.0781302806 -0.5523571125 -0.0783581758 -0.5523839684 0.0588635176 0.1826434321
810295140.0 0.0210567552 0.1898439913 -0.0845674512 -0.5514798678 -0.0843886727 -0.5512452513 0.0606181499 0.1821041519
815295110.0 0.022140536 0.1898169204 -0.0900495097 -0.550535599 -0.0903867077 -0.5508448448 0.0624928341 0.1817619584
820295080.0 0.0242867423 0.1900033686 -0.0960230851 -0.5490553083 -0.0961227737 -0.5495365471 0.0635622723 0.1814655425
825295050.0 0.0257014804 0.1894709922 -0.1015355785 -0.5482300239 -0.1021640605 -0.5484911065 0.06666099 0.1810118632
830295020.0 0.0273818212 0.189503137 -0.1074946756 -0.5471330846 -0.1081415152 -0.5473537003 0.0682846263 0.1799932557
