!Created with skrf (http://scikit-rf.org).
# Hz S RI R 50.0 
!freq ReS11 ImS11 ReS21 ImS21 ReS12 ImS12 ReS22 ImS22
300000.0 -0.1005892951 -0.0622364761 0.6305816893 0.0583545105 0.6245784916 0.0576816239 -0.1028026771 -0.0675970018
5299970.0 -0.1022418693 0.0134538523 0.6306021402 0.0099696369 0.6305741845 0.0103804714 -0.1012924651 0.0135081856
10299940.0 -0.0973135721 0.0292889438 0.6340730325 0.0150125499 0.6344589443 0.0157461473 -0.0964549335 0.0306181179
15299910.0 -0.0904860494 0.0426643912 0.6408157496 0.0203669075 0.640922513 0.0206769119 -0.0891512547 0.043617818
20299880.0 -0.0819416845 0.0530342607 0.6483203298 0.0244970748 0.6485299785 0.0246389685 -0.0803262871 0.054580531
25299850.0 -0.0725509132 0.062385717 0.6578314499 0.0251608919 0.6579554734 0.0256425795 -0.0702110884 0.0631838491
30299820.0 -0.0623248198 0.0690582523 0.6671162497 0.0245484207 0.6673576016 0.0247312204 -0.0601061429 0.0699682094
35299790.0 -0.0524931362 0.0735970362 0.6771295106 0.0217152575 0.6772349577 0.021313941 -0.0500971265 0.0748152319
40299760.0 -0.0435725944 0.0771179827 0.6863007031 0.0174372827 0.6869351263 0.0178751249 -0.0406563538 0.0773410347
45299730.0 -0.0339378829 0.0793424241 0.6948148973 0.0115612979 0.6958581278 0.0124655869 -0.0316752985 0.0795303709
50299700.0 -0.0257966175 0.080300491 0.7039468951 0.0048261259 0.7035992067 0.0056965926 -0.0228617661 0.0802884978
55299670.0 -0.0175619206 0.0806095882 0.7111490586 -0.0030350507 0.711114931 -0.0024623893 -0.0149068197 0.0807053284
60299640.0 -0.0099128546 0.0799535955 0.7176967517 -0.0113155748 0.7179555693 -0.0107061752 -0.0077616015 0.0792726694
65299610.0 -0.0037608297 0.078976473 0.7235631588 -0.0198330002 0.7238258303 -0.0193699469 -0.0008355361 0.0784618398
70299580.0 0.0027867334 0.0774822166 0.7293574942 -0.0291079127 0.7287883706 -0.0286303279 0.0052282203 0.0766586263
75299550.0 0.0081801872 0.0759581984 0.7328714886 -0.0383794959 0.7328471969 -0.0385926984 0.010389918 0.0746787295
80299520.0 0.0131556138 0.0735591039 0.7373588347 -0.048443213 0.7377055389 -0.0485828224 0.0154067986 0.0728074427
85299490.0 0.0178220591 0.0713687629 0.7404301786 -0.0579677468 0.7407603025 -0.0579205702 0.0198366603 0.0697621317
90299460.0 0.0218066238 0.0690167519 0.7428802671 -0.0687053323 0.7436249538 -0.0683662417 0.023803801 0.0681060589
95299430.0 0.0260075353 0.066715458 0.7455381559 -0.0786364377 0.7459453173 -0.0789438474 0.0275924698 0.0657428999
100299400.0 0.0291198897 0.0647227352 0.747035284 -0.0885161819 0.7471120749 -0.0889672459 0.0315832935 0.0629444006
105299370.0 0.0326349075 0.0618126218 0.7492711088 -0.0987877534 0.7493248172 -0.0989340025 0.0344458605 0.0610311235
110299340.0 0.0350029928 0.0597956595 0.7505492865 -0.109023668 0.7502535097 -0.1085400583 0.0363348055 0.0581547238
115299310.0 0.0373722289 0.0573926561 0.7510215484 -0.1192894966 0.751140454 -0.1187090522 0.0391204413 0.0557929066
120299280.0 0.0397149271 0.0545512021 0.7512781824 -0.1287217761 0.7517513209 -0.1292568321 0.0413239603 0.0534721182
125299250.0 0.0418689463 0.0522890024 0.752085264 -0.1387655456 0.7517904903 -0.1383486971 0.0430784409 0.0507572063
130299220.0 0.0434739686 0.0501838802 0.7518423278 -0.1493505709 0.7514596688 -0.148713742 0.0448178565 0.0486450583
135299190.0 0.0450775589 0.0482039886 0.7517054887 -0.1584928187 0.7513591568 -0.1583063476 0.046407168 0.0467196624
140299160.0 0.0465979329 0.0463335285 0.7510493581 -0.1689824125 0.7509787181 -0.1686970862 0.0478085692 0.0450389329
145299130.0 0.04795383 0.0438361497 0.7500168403 -0.1784042293 0.7496384557 -0.1783036931 0.0490423751 0.0423094752
150299100.0 0.0494932438 0.0423681599 0.7491055889 -0.186839497 0.7492382675 -0.18771801 0.0503917249 0.0405324831
155299070.0 0.0500054045 0.0398714719 0.7479531754 -0.1980248363 0.7480308128 -0.1974985539 0.0514918407 0.0387496951
160299040.0 0.0517088001 0.0383949142 0.7468865714 -0.2071975904 0.746071593 -0.207200257 0.0515656667 0.0367317874
165299010.0 0.0519926855 0.0369589881 0.7450871679 -0.2168057103 0.7452239232 -0.2165976554 0.0530400261 0.0355003792
170298980.0 0.0531041731 0.0342978549 0.7427722197 -0.2260185863 0.7432618612 -0.2255909681 0.053874129 0.0332526174
175298950.0 0.0535899494 0.0322983296 0.7413874527 -0.234889982 0.7414263479 -0.2349454671 0.0544792624 0.0316777397
180298920.0 0.0541644631 0.0309091201 0.7393359979 -0.2444449415 0.739301955 -0.243864862 0.0548577145 0.029751691
185298890.0 0.0551835325 0.0290068719 0.7369899041 -0.2531927512 0.7367826172 -0.2532479604 0.0551878311 0.0283256846
190298860.0 0.0552613395 0.0275526242 0.7346292753 -0.2626638026 0.7347603134 -0.2625779834 0.0559519824 0.0260810123
195298830.0 0.0559372473 0.0256028541 0.7321899591 -0.2714822678 0.7324745511 -0.2713506816 0.0568896493 0.025001384
200298800.0 0.0561972885 0.0242648186 0.7292152782 -0.2807827926 0.7292226279 -0.280744651 0.0563832549 0.0236275722
205298770.0 0.0568702447 0.0232863553 0.7266949973 -0.2898092646 0.7267121033 -0.2896198059 0.057202083 0.0214336108
210298740.0 0.0571100948 0.021104573 0.7234175686 -0.2979485959 0.7235124124 -0.297407689 0.0576190908 0.0209907056
215298710.0 0.0568829916 0.0201300983 0.7205122484 -0.3072002129 0.7205805529 -0.3071855816 0.0577473834 0.019662127
220298680.0 0.0578228709 0.0180855374 0.7170882271 -0.3154244349 0.7175551945 -0.3154073846 0.0576519902 0.0178152542
225298650.0 0.0577976271 0.016561441 0.7140733124 -0.3242274221 0.7140508805 -0.3243930397 0.057797753 0.0160394167
230298620.0 0.0578192465 0.0159218899 0.7104234934 -0.3325944079 0.7114032446 -0.332775754 0.0576879875 0.0149452022
235298590.0 0.0579032593 0.0148475215 0.7077674315 -0.3409958507 0.7071880461 -0.3406000062 0.0579834293 0.0137353597
240298560.0 0.0581405999 0.0135051458 0.7043050738 -0.349576294 0.7037424988 -0.3496908307 0.0580437875 0.012813647
245298530.0 0.0580014262 0.0119148989 0.700500377 -0.3579538585 0.7003622443 -0.3583556637 0.0588994201 0.0108951805
250298500.0 0.0588144704 0.0109677056 0.6957067207 -0.366337277 0.695345743 -0.365570715 0.0582781712 0.0102207367
255298470.0 0.058259906 0.0093269711 0.6910894213 -0.3737425739 0.692399911 -0.3739003258 0.0582927375 0.0091598545
260298440.0 0.0581084071 0.0081479647 0.6878598945 -0.3829931921 0.6884910124 -0.3820843581 0.0590891136 0.0079940158
265298410.0 0.059032431 0.0075933973 0.6843349293 -0.3906044101 0.684337074 -0.3901601719 0.0585228527 0.0068435872
270298380.0 0.0585389411 0.0061452405 0.6801629116 -0.3983318803 0.6800443634 -0.398091401 0.0584969533 0.0060534792
275298350.0 0.0593905922 0.0054222279 0.6757531042 -0.4066933295 0.6758010024 -0.406310617 0.058801561 0.0047854483
280298320.0 0.0585905951 0.0045997949 0.6715226852 -0.414330764 0.6714956822 -0.4137738193 0.058929019 0.0037438888
285298290.0 0.0587055117 0.0032001947 0.6668239808 -0.4224436387 0.6669068365 -0.4219505887 0.0588136081 0.0027252216
290298260.0 0.0589460548 0.0022864636 0.6622140215 -0.4291870506 0.6626028653 -0.42990314 0.0586530284 0.0023541347
295298230.0 0.0590430556 0.0009805023 0.658035749 -0.4372657905 0.6578554494 -0.4375511314 0.0592849161 0.0008523667
300298200.0 0.0583626003 -0.0001130979 0.6533200876 -0.4447277389 0.6536790596 -0.4453527066 0.0588508236 -0.0002017376
305298170.0 0.0587866823 -0.0013262265 0.6482159357 -0.45320623 0.6485169993 -0.4525936927 0.0593614133 -0.0014191966
310298140.0 0.0586599976 -0.0023792389 0.6435182206 -0.4610674617 0.6437752932 -0.4604543923 0.0590507141 -0.0024219351
315298110.0 0.058183084 -0.0040508058 0.6382519622 -0.4682942723 0.6386635612 -0.4681664261 0.0586925281 -0.0037225131
320298080.0 0.0585704428 -0.0047523313 0.6329874424 -0.4762745699 0.6334617317 -0.4758848449 0.0586639787 -0.0048496613
325298050.0 0.0578376624 -0.0056646748 0.6279069596 -0.4830860243 0.6279956994 -0.4828360056 0.0579198416 -0.0059372452
330298020.0 0.0573157181 -0.0070664187 0.6216270315 -0.4905166401 0.6220421876 -0.4905890364 0.0569156772 -0.0071810565
335297990.0 0.0570566791 -0.0080301416 0.6162971818 -0.4973909872 0.6161246989 -0.4974039987 0.056154212 -0.0074253468
340297960.0 0.0561713635 -0.008541826 0.6099060612 -0.5048055274 0.6100802883 -0.50447335 0.0565332122 -0.0084137792
345297930.0 0.0558884247 -0.0086831646 0.6044271621 -0.5119836118 0.6044996064 -0.5117390162 0.0559941708 -0.009749251
350297900.0 0.0552160156 -0.0104270142 0.598205465 -0.5183727281 0.598797231 -0.5183766806 0.0552464605 -0.00958257
355297870.0 0.055152233 -0.0101692058 0.5931186157 -0.5248807726 0.593845275 -0.5246111038 0.0550949846 -0.010356178
360297840.0 0.0546956696 -0.011134554 0.587722539 -0.5312327647 0.5882101936 -0.5313804928 0.0547009524 -0.0111030793
365297810.0 0.0542823318 -0.0118245526 0.5810735131 -0.5380588312 0.5816332833 -0.5382737409 0.0546485955 -0.0116859749
370297780.0 0.054476615 -0.0127448931 0.5753712787 -0.5442650216 0.5758422321 -0.5438785772 0.0541843 -0.012424678
375297750.0 0.0541610108 -0.0136507372 0.569533921 -0.5509399652 0.5701959732 -0.5509869825 0.0541652456 -0.0129428862
380297720.0 0.0537260795 -0.0140793661 0.563213782 -0.557637639 0.5634429355 -0.5567236766 0.0533248213 -0.0139635917
385297690.0 0.0530218326 -0.014865116 0.5569704211 -0.5639366932 0.5569194875 -0.5634051903 0.0534696608 -0.0145585672
390297660.0 0.0530185504 -0.0152838188 0.5505529734 -0.5699239348 0.5509905767 -0.5695920972 0.0528134592 -0.0153836454
395297630.0 0.0523734856 -0.0160683689 0.5444482103 -0.5757417744 0.5447679544 -0.5759333103 0.0532190397 -0.0158975461
400297600.0 0.0519662254 -0.0166914044 0.5380045951 -0.5826660501 0.5383606271 -0.5816679171 0.0527288076 -0.0166028986
405297570.0 0.0515023051 -0.0174295628 0.5320791407 -0.5873900472 0.5321489707 -0.5879196879 0.051980042 -0.0170187801
410297540.0 0.0513587606 -0.0179733993 0.5254444715 -0.5937694535 0.526181114 -0.59396544 0.0518990391 -0.0173611718
415297510.0 0.0512465864 -0.0186214472 0.5188953544 -0.6000560141 0.5186539913 -0.5999943729 0.0512845488 -0.0178226747
420297480.0 0.0510012895 -0.019068649 0.51179968 -0.6055172412 0.5120671417 -0.6058586681 0.0509655108 -0.0192049498
425297450.0 0.0502463473 -0.0206118878 0.5056671573 -0.6109657227 0.5058918443 -0.6110091552 0.049735918 -0.01892213
430297420.0 0.0499415061 -0.0209647188 0.4988880061 -0.6160453231 0.4987128961 -0.6162680418 0.049978117 -0.020024875
435297390.0 0.0495602875 -0.021208444 0.49146615 -0.6223068016 0.4916240258 -0.6220942513 0.0504729516 -0.0205338631
440297360.0 0.0494556508 -0.0214381319 0.4849806909 -0.6274408023 0.4854388485 -0.6274226959 0.0494577364 -0.0214260565
445297330.0 0.0487902653 -0.0227942869 0.478540406 -0.632886635 0.4785575946 -0.6324040513 0.0493632559 -0.0219770188
450297300.0 0.0488874051 -0.0229227737 0.471376826 -0.6377321561 0.4710745012 -0.6380032123 0.0488091104 -0.02266291
455297270.0 0.0481959994 -0.0236575642 0.4638420596 -0.6433796171 0.4644088231 -0.643635646 0.0484770454 -0.0228317398
460297240.0 0.0478125947 -0.0242283476 0.4565824059 -0.6490003048 0.4568899769 -0.648460647 0.0480038659 -0.0230667315
465297210.0 0.0477622732 -0.0247129339 0.4497365857 -0.6536420229 0.4499198543 -0.6537520134 0.0479130168 -0.0242458911
470297180.0 0.0473041652 -0.0254803114 0.4425333309 -0.6584707579 0.4425830107 -0.6588776333 0.0470482428 -0.0244270063
475297150.0 0.0467676229 -0.0262914952 0.4354221207 -0.6628370662 0.4359584737 -0.6631396874 0.0474332465 -0.0254190436
480297120.0 0.0460874566 -0.026010601 0.4278590056 -0.6685937118 0.4283731676 -0.6683739144 0.0471422744 -0.0253000952
485297090.0 0.0456690242 -0.0265966675 0.420943488 -0.6726573799 0.4214233943 -0.6729217024 0.046633722 -0.0265100488
490297060.0 0.0447862448 -0.0271592044 0.4134183342 -0.6776363329 0.4136237871 -0.6771404478 0.0462269121 -0.0261270793
495297030.0 0.0448151955 -0.0276995452 0.4057720882 -0.6817952779 0.4065040828 -0.682188893 0.0451297935 -0.0273491439
500297000.0 0.0443707438 -0.0284641098 0.3978888637 -0.6860982884 0.3977767406 -0.6859892709 0.0452108066 -0.0270009832
505296970.0 0.0440463296 -0.0289734162 0.3905477717 -0.6904647532 0.3901866137 -0.6908368535 0.0444016346 -0.0276775078
510296940.0 0.0434151422 -0.0290499887 0.3830765528 -0.6955048692 0.3834580439 -0.6952540548 0.0442555833 -0.0279079647
515296910.0 0.0427320544 -0.0291286377 0.3757678006 -0.6986993709 0.3755422324 -0.6991937679 0.0439784448 -0.0286581248
520296880.0 0.0423924283 -0.030254556 0.3675206619 -0.7039475155 0.3680731517 -0.7031910615 0.0430849189 -0.0295881756
525296850.0 0.0423379947 -0.0311263053 0.3599300174 -0.7074608476 0.3606044532 -0.7073932538 0.0425293274 -0.0297324982
530296820.0 0.041566117 -0.0311021294 0.351789882 -0.7116648864 0.3521616841 -0.7113068023 0.0423398147 -0.0299226471
535296790.0 0.0407572138 -0.0313754316 0.3448647737 -0.7148070112 0.3453491488 -0.7144934911 0.0417793011 -0.0312332485
540296760.0 0.0405277569 -0.0315313418 0.3366779311 -0.7188652742 0.3367423924 -0.7187363636 0.0407804302 -0.0306152426
545296730.0 0.0399313861 -0.0323244372 0.3283412941 -0.7224853215 0.3286355977 -0.722481924 0.0404244278 -0.0316557956
550296700.0 0.0399835251 -0.0325351658 0.3205215488 -0.7261697895 0.3211041966 -0.7263116887 0.0397336604 -0.0320628414
555296670.0 0.0389348624 -0.0331914079 0.3128435605 -0.7292963389 0.3130391184 -0.7292484173 0.0396027249 -0.0320253668
560296640.0 0.0388755385 -0.033110888 0.3051056554 -0.733044729 0.3049403539 -0.7332698898 0.0392758299 -0.0328064083
565296610.0 0.0376991532 -0.0339208555 0.2965363806 -0.7363365476 0.2967850016 -0.7363104191 0.0381078415 -0.0335818756
570296580.0 0.0372998492 -0.0338693101 0.2887976799 -0.7401083653 0.288412287 -0.7390071756 0.0379981636 -0.0330972879
575296550.0 0.0364486488 -0.0343239105 0.2807038274 -0.7425008146 0.2806316213 -0.7426503507 0.0377422352 -0.0337641605
580296520.0 0.0363505942 -0.0346949893 0.2726445129 -0.7454128184 0.2726289882 -0.7458561835 0.0372340313 -0.0343371868
585296490.0 0.0357027942 -0.0356753329 0.2644319695 -0.7486190574 0.2649297856 -0.7487122641 0.0367646766 -0.0343534945
590296460.0 0.0355195849 -0.0355549348 0.2560669862 -0.7509071966 0.2563406035 -0.7514068727 0.0352551063 -0.0349274341
595296430.0 0.0352480637 -0.0356283431 0.2477698014 -0.7545652631 0.2481923376 -0.7545434393 0.0353879296 -0.0353705373
600296400.0 0.0339189251 -0.0362850531 0.2396486701 -0.7575160495 0.2397317482 -0.7565819269 0.0347280518 -0.0355300903
605296370.0 0.0334938244 -0.0362808782 0.2316918387 -0.7594659473 0.2314209187 -0.7593725146 0.0341911553 -0.035570323
610296340.0 0.0331475135 -0.036737928 0.2228928829 -0.7615657368 0.2235588126 -0.7619529966 0.0343615933 -0.036042969
615296310.0 0.0328523254 -0.0372087882 0.2144767156 -0.7640297203 0.2147547884 -0.7648617668 0.033698609 -0.0359453624
620296280.0 0.0322580729 -0.0377020817 0.2062542489 -0.7663172429 0.2064194052 -0.7663521634 0.0328497596 -0.0365871096
625296250.0 0.0314192997 -0.0385040891 0.1990838688 -0.7691411562 0.1985633269 -0.7691846434 0.032876739 -0.0366696202
630296220.0 0.0320571936 -0.0380266348 0.1893977479 -0.770755067 0.1893039208 -0.7707249064 0.0319531775 -0.0367319892
635296190.0 0.0298832718 -0.0385162519 0.1811588764 -0.7728457325 0.181570712 -0.7731188402 0.0314938811 -0.0369823164
640296160.0 0.02967522 -0.038646723 0.1727011835 -0.7743155163 0.1736035954 -0.7746060373 0.0308476982 -0.0374766563
645296130.0 0.0292763218 -0.0387638906 0.1641202825 -0.776550194 0.1646579585 -0.7764328305 0.0304134704 -0.0375592806
650296100.0 0.0289998472 -0.0392338941 0.156064299 -0.7780954871 0.1560417547 -0.7787389142 0.0301187323 -0.0387028685
655296070.0 0.0282098174 -0.0395707132 0.1476706828 -0.780123018 0.1479098713 -0.7802852972 0.0297005159 -0.0381151936
660296040.0 0.0269874737 -0.0402215105 0.1388235474 -0.7817244469 0.1390266642 -0.7818306225 0.0292043995 -0.0385934775
665296010.0 0.0273050484 -0.0401459215 0.1297375721 -0.7832367765 0.1306511868 -0.7829956897 0.0284023498 -0.037933903
670295980.0 0.0253427056 -0.0400187171 0.1219457146 -0.7846140256 0.1217921485 -0.7842962266 0.0270449954 -0.0385997738
675295950.0 0.0256835981 -0.0402080853 0.1131320372 -0.7852498819 0.1136942342 -0.7850932428 0.0265939669 -0.038822113
680295920.0 0.0244064422 -0.0406860953 0.1038813308 -0.7865755188 0.1042241716 -0.7876619574 0.0260257107 -0.0381732349
685295890.0 0.0242541684 -0.0401790946 0.0958265693 -0.7881822685 0.0958368361 -0.7881462135 0.0254736328 -0.0390980576
690295860.0 0.0242612889 -0.040444307 0.0870176794 -0.7883086542 0.0871467509 -0.7890505412 0.0247127308 -0.0384860744
695295830.0 0.0232389499 -0.0411396896 0.0790934349 -0.7895001244 0.0789013381 -0.7896231665 0.0242124031 -0.0389876712
700295800.0 0.0228770029 -0.0414342047 0.0705079855 -0.7904397341 0.0699115214 -0.7903568996 0.0236989433 -0.0385312931
705295770.0 0.0217557974 -0.0407330096 0.0613873094 -0.7913945061 0.0619729565 -0.7913627904 0.022854989 -0.0391985105
710295740.0 0.0217729485 -0.0412689141 0.0530283552 -0.792797322 0.0538359033 -0.7923440072 0.022733978 -0.0401904668
715295710.0 0.0201760199 -0.0415931966 0.0447179887 -0.7925590489 0.0447590757 -0.7922559457 0.0222624471 -0.0398813158
720295680.0 0.0198967168 -0.0416625954 0.0354427109 -0.7935523232 0.0365384382 -0.7927650188 0.0214321075 -0.0393168696
725295650.0 0.0194503838 -0.0414053341 0.0271383682 -0.7934191233 0.0276386912 -0.7935311549 0.0203482873 -0.039571302
730295620.0 0.0191660166 -0.0412166007 0.0184906833 -0.793048292 0.0184671544 -0.7937977314 0.0197320778 -0.040504843
735295590.0 0.0181236396 -0.0413266235 0.0098812353 -0.793917383 0.0099279686 -0.7937848992 0.0190432109 -0.040494646
740295560.0 0.0173279874 -0.0412986363 0.0014481038 -0.7934369777 0.0011837379 -0.7932898231 0.0193755763 -0.0402220638
745295530.0 0.016739316 -0.0414354764 -0.0075701428 -0.7927713737 -0.0070032278 -0.7935227165 0.018371479 -0.0409705894
750295500.0 0.0160033004 -0.041827762 -0.0161389929 -0.7930999328 -0.0154668922 -0.7934459469 0.0180101245 -0.040355122
755295470.0 0.0158173321 -0.0419532368 -0.0242730309 -0.793332118 -0.0242123288 -0.7933605162 0.0178340002 -0.0411999122
760295440.0 0.0150699193 -0.0418110289 -0.0331870176 -0.7932517838 -0.032904994 -0.7933049915 0.0169100126 -0.0408594149
765295410.0 0.0146813872 -0.0417274987 -0.0420687581 -0.7922297435 -0.042254802 -0.7921931225 0.0165247806 -0.040664605
770295380.0 0.0132201621 -0.0421133608 -0.051098426 -0.7917286342 -0.0507671301 -0.791693075 0.0154937113 -0.041184523
775295350.0 0.0129053368 -0.0426967738 -0.0594691333 -0.7908668106 -0.0584973914 -0.7914676375 0.0142019714 -0.0401889118
780295320.0 0.0125479567 -0.0423101058 -0.0676460882 -0.7901713534 -0.0669689763 -0.7903916183 0.0141167734 -0.0410558955
785295290.0 0.0116905509 -0.0427583847 -0.0769947685 -0.7896345778 -0.0760258133 -0.7896729023 0.0143336848 -0.0405756932
790295260.0 0.0117864444 -0.0414910157 -0.0846707529 -0.7888233173 -0.0836401282 -0.788877043 0.0131908933 -0.0406658436
795295230.0 0.0108215771 -0.0422508664 -0.0937078526 -0.7880783692 -0.0924401472 -0.7882007672 0.0129271405 -0.0400051598
800295200.0 0.0098584303 -0.0415511731 -0.1028544582 -0.7858703404 -0.1017047785 -0.786966797 0.0121812721 -0.0408920431
805295170.0 0.0094165208 -0.0421325709 -0.110604779 -0.7856128072 -0.1105160927 -0.785828268 0.0112642203 -0.04026572
810295140.0 0.0085753855 -0.0425462927 -0.1187792165 -0.7841480108 -0.1187179449 -0.7840769889 0.011464198 -0.0398304421
815295110.0 0.008374578 -0.0424836172 -0.1275448093 -0.7825693754 -0.1270551496 -0.7825601787 0.0102403948 -0.0400961141
820295080.0 0.0072992575 -0.0415991059 -0.1362838654 -0.7810392887 -0.1354023283 -0.7810242395 0.0095693931 -0.0399037056
825295050.0 0.0074009316 -0.04181991 -0.1440528248 -0.77919955 -0.144128236 -0.7796569444 0.0092846171 -0.0400435142
830295020.0 0.0066029205 -0.0414996732 -0.1532288671 -0.7778899372 -0.1524100421 -0.7780019223 0.0095365902 -0.039598613
