!Created with skrf (http://scikit-rf.org).
# Hz S RI R 50.0 
!freq ReS11 ImS11 ReS21 ImS21 ReS12 ImS12 ReS22 ImS22
300000.0 -0.2416702756 -0.0869726593 0.4735464944 0.057022228 0.471112788 0.0551881295 -0.2420833286 -0.0925884606
5299970.0 -0.2450155007 0.0065757707 0.4748307199 0.0049517802 0.4746524621 0.0048482103 -0.2410304557 0.0074986872
10299940.0 -0.2417173269 0.0180656112 0.4766617654 0.0059066208 0.4767349253 0.0063891188 -0.2377137555 0.0205446524
15299910.0 -0.2376102296 0.0268176574 0.4802574387 0.0073481659 0.4804743035 0.0070997778 -0.2331701842 0.0301708014
20299880.0 -0.2328659397 0.0339972307 0.4848927603 0.0080632307 0.4847620032 0.0078300697 -0.2276127728 0.0379213694
25299850.0 -0.2277314858 0.0404905214 0.4902515703 0.0071176081 0.4901770696 0.0068327807 -0.2217932894 0.0448439354
30299820.0 -0.2224306133 0.0450424398 0.495569275 0.0052221377 0.4956097094 0.0046044019 -0.2159850296 0.0502721793
35299790.0 -0.2173653298 0.0490961027 0.5008404127 0.0016044874 0.5010815661 0.0014602714 -0.2106929139 0.054647329
40299760.0 -0.2125759997 0.0525082529 0.5059656079 -0.002514595 0.5061091146 -0.0024068854 -0.2052211475 0.0572693439
45299730.0 -0.2080865695 0.0549250013 0.5103233134 -0.0070121457 0.5104544655 -0.0069584588 -0.200548486 0.0604314569
50299700.0 -0.2038882079 0.0568861269 0.5150112261 -0.0127820534 0.5149898836 -0.0122714599 -0.1957910677 0.0623051843
55299670.0 -0.1998626663 0.0583149067 0.5185348509 -0.0188257874 0.5183384259 -0.0186859972 -0.1913784816 0.0642885634
60299640.0 -0.1958306761 0.0600834187 0.5215017344 -0.0251138801 0.5221655836 -0.0246385371 -0.1876485101 0.0655344181
65299610.0 -0.193075686 0.0609007729 0.5249944138 -0.0312267021 0.5248396253 -0.0310754057 -0.1842917545 0.0669057154
70299580.0 -0.190204152 0.0622478035 0.5273700098 -0.0380057474 0.5268529058 -0.0379803604 -0.1803742716 0.0678930699
75299550.0 -0.187451229 0.0631731291 0.5290940853 -0.0448227831 0.528979446 -0.0447736581 -0.1778454118 0.0682298696
80299520.0 -0.1848227403 0.0636888393 0.5309042607 -0.0515389853 0.5309154452 -0.051648463 -0.1750313989 0.0692751041
85299490.0 -0.1823998821 0.0641639326 0.5319611322 -0.0580497358 0.5323823211 -0.0582923031 -0.1730471233 0.0696639894
90299460.0 -0.1805142073 0.0646980728 0.5329097739 -0.0653143217 0.5333376568 -0.0652474238 -0.1703948635 0.0705472969
95299430.0 -0.1782082084 0.0652717729 0.5343812967 -0.0725362186 0.5339953745 -0.0726982728 -0.1680547537 0.0713714571
100299400.0 -0.1766722078 0.0663134268 0.5340507033 -0.0792327815 0.5341065295 -0.0790678411 -0.1658959294 0.0713074724
105299370.0 -0.1749187354 0.0669872812 0.5347106695 -0.0863744184 0.5349237456 -0.0860391199 -0.1640393483 0.0720520745
110299340.0 -0.1732589084 0.0674904744 0.5347796087 -0.0926947735 0.5345832955 -0.0926867431 -0.1627212392 0.0729710034
115299310.0 -0.1719853358 0.0683280105 0.5343484904 -0.0997953923 0.5346817761 -0.0996713421 -0.1611936657 0.0739469682
120299280.0 -0.1709035025 0.0686198231 0.5341199001 -0.1064412283 0.5346224227 -0.1066381006 -0.1595233846 0.0748501222
125299250.0 -0.1695029005 0.0693650179 0.5343090793 -0.1129868267 0.5342004166 -0.1127879691 -0.1582395638 0.0751269119
130299220.0 -0.1686680506 0.0702639438 0.5334745524 -0.1200434435 0.5336186444 -0.1196747241 -0.1571801969 0.0756253367
135299190.0 -0.1677427682 0.0713699055 0.532904878 -0.1265973213 0.5329056849 -0.1260652466 -0.1557359545 0.0766908331
140299160.0 -0.166621214 0.0719948306 0.5317843688 -0.1330858122 0.5322890145 -0.1333605256 -0.1546596077 0.0781025544
145299130.0 -0.165582221 0.0727955621 0.53145833 -0.139890572 0.5308895239 -0.139483015 -0.1532322992 0.0789045626
150299100.0 -0.1647093841 0.0739729041 0.5297265165 -0.1459245929 0.530297598 -0.1456170886 -0.1523672966 0.0802981009
155299070.0 -0.1637234984 0.0746435527 0.5285271649 -0.1533748971 0.5285916114 -0.1528633755 -0.1511699439 0.0812520639
160299040.0 -0.1625966581 0.0757903005 0.5271745759 -0.1591221125 0.5270375305 -0.1590969062 -0.1505903841 0.0824730239
165299010.0 -0.1620805172 0.0770906705 0.5258126869 -0.1661210906 0.5261222875 -0.1660909712 -0.1489440583 0.0836097658
170298980.0 -0.1616706223 0.0776275661 0.5238998951 -0.1718317488 0.5244523176 -0.1718387107 -0.1482563056 0.0849155928
175298950.0 -0.1609446131 0.0787068208 0.5231909343 -0.1777560109 0.5224685351 -0.1782004782 -0.1475681234 0.085863016
180298920.0 -0.1600871721 0.0799144996 0.5210508306 -0.1844869788 0.5211639504 -0.1840342843 -0.1467973105 0.0873007722
185298890.0 -0.1587988313 0.0809788594 0.5192525522 -0.1908619717 0.5188967408 -0.1902591586 -0.1458643728 0.0885406504
190298860.0 -0.1584742495 0.0822630299 0.5172036054 -0.197055539 0.5174725881 -0.1967633071 -0.1450609736 0.0897521712
195298830.0 -0.1577206734 0.0832485474 0.515535689 -0.2029951148 0.5152192068 -0.2028828974 -0.1437739883 0.091085593
200298800.0 -0.1570921588 0.0845330981 0.5132304911 -0.2092353664 0.5133972093 -0.2093296656 -0.1433239887 0.0924155709
205298770.0 -0.1560433147 0.0859934509 0.5105999751 -0.2156079862 0.5107390715 -0.2150491622 -0.1419837587 0.0930942361
210298740.0 -0.1553905978 0.0869289821 0.5083633153 -0.2209675025 0.5088831836 -0.2206044434 -0.1409267549 0.0953402308
215298710.0 -0.1549330602 0.0884384057 0.5062374147 -0.2272281655 0.5063074713 -0.2272880062 -0.1405525414 0.0966544719
220298680.0 -0.1539340624 0.0892435118 0.5034218292 -0.2326162756 0.5036922068 -0.2327829217 -0.1396400716 0.0973660069
225298650.0 -0.1532022533 0.0907191777 0.5009219644 -0.2387423885 0.5015329958 -0.2388111703 -0.1390627224 0.0988042718
230298620.0 -0.1525784995 0.0921403799 0.4989291286 -0.2443300155 0.4995392485 -0.2446359505 -0.1383935268 0.1002236551
235298590.0 -0.1516659284 0.0938028012 0.4962503922 -0.2505024998 0.4963415901 -0.2499868939 -0.1370003763 0.1013388212
240298560.0 -0.1512327621 0.0948946698 0.4935443283 -0.2562302028 0.493632427 -0.2561873284 -0.1359467539 0.1033432618
245298530.0 -0.1506099087 0.0961760605 0.4912992009 -0.2622693896 0.4908942054 -0.2620964771 -0.1350074424 0.1039980607
250298500.0 -0.1491860924 0.0974748189 0.487462851 -0.2674064034 0.4873703752 -0.2671809479 -0.1340608247 0.1055618499
255298470.0 -0.1486672542 0.0985814828 0.4845217918 -0.2726265816 0.4848880115 -0.272884619 -0.1327680726 0.1068295847
260298440.0 -0.1480030425 0.1000253366 0.4820812421 -0.2786134673 0.4821303669 -0.278540604 -0.1315383841 0.1081028342
265298410.0 -0.1466306102 0.1019141327 0.4787535215 -0.2843184053 0.4790078531 -0.2835700441 -0.1308970175 0.1095649209
270298380.0 -0.1459125027 0.1029999222 0.4762886641 -0.2893085527 0.4761902665 -0.2890480656 -0.1297057706 0.1112240066
275298350.0 -0.1447396652 0.1042293135 0.4727795332 -0.2949174707 0.4731449682 -0.294933705 -0.1282591797 0.1122916038
280298320.0 -0.143872797 0.1059108321 0.4696854668 -0.300515392 0.4699006546 -0.2997569033 -0.1267971886 0.1136313881
285298290.0 -0.1430225344 0.1072790317 0.4662976722 -0.3058414248 0.4663617603 -0.3053871258 -0.1256287076 0.1149086334
290298260.0 -0.1419035828 0.1083830389 0.4630785411 -0.3103664238 0.4633301814 -0.3106262033 -0.1243560366 0.1165124135
295298230.0 -0.1408894282 0.1096697844 0.459457003 -0.3159278241 0.4595995715 -0.3161083871 -0.1228519705 0.1175715578
300298200.0 -0.1402082372 0.1108622649 0.4565473706 -0.320871162 0.4567158199 -0.3212015067 -0.1218724567 0.1192909357
305298170.0 -0.1389522693 0.1120513824 0.4525227415 -0.3263159079 0.4523310901 -0.3265996583 -0.1200166141 0.1200496682
310298140.0 -0.1379612363 0.1135684829 0.4494550075 -0.3316760405 0.4494173421 -0.3314873073 -0.1192281002 0.1216440275
315298110.0 -0.1369364424 0.1145394428 0.445426896 -0.3367575016 0.446124206 -0.3369426879 -0.1174080096 0.1227317133
320298080.0 -0.1358376766 0.1158314824 0.4415268487 -0.3420366508 0.4422066397 -0.3420708366 -0.1165174114 0.124165117
325298050.0 -0.1350207858 0.1170536818 0.4375766533 -0.3471324183 0.437875981 -0.3467033551 -0.1156775197 0.1253698484
330298020.0 -0.1340396697 0.1181606243 0.433823142 -0.3518925853 0.4342667097 -0.3519369665 -0.1144641645 0.1264167415
335297990.0 -0.1329685248 0.1194420758 0.4298826007 -0.3565647633 0.4300667259 -0.3567974412 -0.1131390635 0.1284451933
340297960.0 -0.132604077 0.1208338554 0.4256366004 -0.3615258999 0.4253210737 -0.3616599279 -0.1115187898 0.1296134157
345297930.0 -0.1315072954 0.122554896 0.4214748192 -0.3664545856 0.4212486103 -0.3662109694 -0.1107079447 0.13057779
350297900.0 -0.1303031372 0.1238653758 0.4169993963 -0.3712487185 0.417364212 -0.3707581491 -0.1094868349 0.1324856818
355297870.0 -0.1293439549 0.125820509 0.4133865836 -0.3755592317 0.4139596057 -0.3752521683 -0.1082507664 0.1337853085
360297840.0 -0.1281535004 0.1265935432 0.4099616533 -0.3795254464 0.4097571077 -0.3801290134 -0.1067504585 0.1353930008
365297810.0 -0.1274684618 0.1282408442 0.4051603622 -0.384397123 0.4051846945 -0.3846065845 -0.1051225693 0.1365308483
370297780.0 -0.1257584607 0.1293376896 0.4007051668 -0.3887885732 0.401110922 -0.3886283025 -0.1040054673 0.1382093943
375297750.0 -0.124390066 0.1306955322 0.3967390077 -0.3933437098 0.3968241386 -0.3933411512 -0.1026104859 0.139195051
380297720.0 -0.1233333176 0.1322483409 0.3921665282 -0.3979089342 0.392198601 -0.3968565297 -0.1014433853 0.1402870772
385297690.0 -0.1226242968 0.1335346289 0.3879533279 -0.4017791118 0.3875564127 -0.4016257844 -0.0995601433 0.1419233131
390297660.0 -0.1212202348 0.1348387571 0.3836522669 -0.4064480929 0.3833512157 -0.4055040686 -0.0984991261 0.1430193063
395297630.0 -0.1200063339 0.1362222143 0.3791281 -0.4102254496 0.3792720567 -0.4100522284 -0.0963375266 0.1445552407
400297600.0 -0.1188495299 0.1376181383 0.373936875 -0.4147039932 0.3744822 -0.4145993022 -0.0951814435 0.1456305787
405297570.0 -0.1176478356 0.1388801219 0.3696902896 -0.4181700494 0.3698056753 -0.4182654889 -0.093616907 0.1467866976
410297540.0 -0.1159288096 0.140028861 0.3652025291 -0.4225046963 0.3656014905 -0.4229336329 -0.0921179887 0.1482539932
415297510.0 -0.1146380223 0.1412924932 0.3605113458 -0.4269331701 0.3607187955 -0.4267182713 -0.0905296631 0.1494320909
420297480.0 -0.1135205084 0.1428161922 0.3559260445 -0.4303787266 0.356018853 -0.4307982797 -0.0890703259 0.1500211393
425297450.0 -0.1119514117 0.1435563943 0.3514978658 -0.4340379998 0.3514656304 -0.4346076484 -0.0879240971 0.1514639614
430297420.0 -0.1104586775 0.1449953597 0.3463038818 -0.4375958476 0.3461341481 -0.437704287 -0.0859890649 0.1523901564
435297390.0 -0.1095367481 0.1460727651 0.3413187599 -0.4416574453 0.3414578736 -0.4416483749 -0.0836981213 0.1533943694
440297360.0 -0.108036621 0.1473707891 0.3367959339 -0.445504433 0.3370033564 -0.4455101725 -0.0824136575 0.1544099736
445297330.0 -0.1065732956 0.1483164943 0.3320832589 -0.449375838 0.3323435876 -0.4486353022 -0.0808130259 0.1550814632
450297300.0 -0.1050576713 0.149475682 0.3273387109 -0.4530330735 0.3269481906 -0.4529232691 -0.0788839929 0.1559797554
455297270.0 -0.1036039541 0.1505056319 0.3218215422 -0.4562055955 0.3220199056 -0.4565995562 -0.0772891601 0.1571706453
460297240.0 -0.1023552553 0.1518234379 0.3165976161 -0.4594399056 0.3168846238 -0.4598869001 -0.0756219659 0.1583841324
465297210.0 -0.1006493362 0.1529367297 0.3121493086 -0.4634069895 0.3114499227 -0.4637881487 -0.0738753956 0.1589315326
470297180.0 -0.0992206272 0.1538834003 0.3066184188 -0.4667058766 0.3067511798 -0.4668412469 -0.0719727047 0.1603179086
475297150.0 -0.0979294991 0.154819182 0.3018589744 -0.4691875219 0.3019255376 -0.4694985834 -0.0697871321 0.1608056961
480297120.0 -0.096479603 0.1561716709 0.2963151164 -0.472854829 0.2963290236 -0.4735324722 -0.0679902871 0.1619838666
485297090.0 -0.0951437845 0.1573390441 0.2914473094 -0.4760787852 0.2916524124 -0.4759014166 -0.0662189542 0.1626537997
490297060.0 -0.0936660729 0.1583440977 0.2863859681 -0.4794757376 0.2861186118 -0.479098317 -0.0644917758 0.1640130837
495297030.0 -0.0921277952 0.1592121985 0.2808712359 -0.4824874168 0.2811024865 -0.4823960875 -0.0628068895 0.1647366637
500297000.0 -0.0904059021 0.1601938967 0.2753923595 -0.4850760746 0.2751493348 -0.4850194922 -0.060653659 0.1663106618
505296970.0 -0.0886638822 0.1612253204 0.2703284218 -0.4883053721 0.2696983344 -0.4882372887 -0.0591278252 0.1667840305
510296940.0 -0.0873670387 0.1624049576 0.2650003475 -0.4914332816 0.2648367427 -0.491499871 -0.0569281578 0.1675279855
515296910.0 -0.0859114392 0.1631762045 0.2594842682 -0.4942787917 0.2596291671 -0.4939806659 -0.0553553821 0.1683297712
520296880.0 -0.0843982798 0.1643022986 0.254042195 -0.4971269185 0.2541666497 -0.4966688922 -0.0531600229 0.1691086845
525296850.0 -0.082401962 0.1650149111 0.2484449217 -0.4995914715 0.2489508015 -0.4997167951 -0.0515489596 0.1700482862
530296820.0 -0.0809849001 0.1662280046 0.243373094 -0.5021498707 0.2435053793 -0.5021861134 -0.0495660541 0.1705876728
535296790.0 -0.0796868316 0.1671353917 0.2381634121 -0.5046714581 0.2380862963 -0.5043482755 -0.0481354095 0.1711688047
540296760.0 -0.078314568 0.1681131552 0.2327048634 -0.5074271948 0.2322239845 -0.5075194717 -0.0462216204 0.1725536942
545296730.0 -0.0762725585 0.1689737601 0.2266318836 -0.509771319 0.2264816127 -0.5100098953 -0.0443650296 0.1731782844
550296700.0 -0.0742736487 0.1698721189 0.2212291888 -0.5123841051 0.2217024585 -0.5126718726 -0.0427661582 0.1736125246
555296670.0 -0.0729939005 0.1702917755 0.2159716356 -0.5145199595 0.2157844384 -0.514546497 -0.040616159 0.1742711566
560296640.0 -0.0712486382 0.171829395 0.2100464821 -0.5170672318 0.2101116008 -0.5169807752 -0.0384694623 0.1747568349
565296610.0 -0.0699881319 0.1724606691 0.2042735564 -0.519302955 0.2047701956 -0.5190580159 -0.0370219737 0.175270065
570296580.0 -0.0681544475 0.1732895275 0.1986230013 -0.5218513624 0.198292486 -0.5211465161 -0.0349536132 0.176394127
575296550.0 -0.0669302468 0.1743328482 0.1934836806 -0.5238474281 0.1930015992 -0.5235827433 -0.0329699296 0.1765272032
580296520.0 -0.0647095673 0.1749516076 0.1872058459 -0.5255672586 0.1875557451 -0.5254729617 -0.0311296049 0.1768336803
585296490.0 -0.0631750548 0.1752154742 0.1820153329 -0.5274003061 0.1819184376 -0.527463853 -0.0290293589 0.1773668123
590296460.0 -0.0610148044 0.1762315143 0.1759690594 -0.5286812192 0.1759218697 -0.5291818678 -0.0274131621 0.1781343372
595296430.0 -0.0594592864 0.177197192 0.1698000404 -0.5314367577 0.1699659861 -0.531124212 -0.0252907304 0.1778529774
600296400.0 -0.0579536781 0.1776857099 0.1643592591 -0.5332489128 0.1643557076 -0.5329195214 -0.0235710391 0.1784356513
605296370.0 -0.0561219154 0.1784365929 0.1585692772 -0.5345357173 0.1588225218 -0.5345897457 -0.0214420566 0.1789257418
610296340.0 -0.0543199884 0.1791154195 0.1525091552 -0.5365001529 0.152807592 -0.5363707334 -0.0192442504 0.1793729397
615296310.0 -0.0524858635 0.1794903305 0.1466205215 -0.5378246181 0.1470752992 -0.5381644198 -0.0170030621 0.1794609651
620296280.0 -0.0509820669 0.1800242291 0.1413402223 -0.539115895 0.1414059466 -0.5393296576 -0.0153621422 0.1801408497
625296250.0 -0.0494856814 0.1805199144 0.1359518197 -0.5411908705 0.1353408766 -0.5409331659 -0.012706545 0.1799660612
630296220.0 -0.0468536672 0.1816683143 0.12874987 -0.5425664433 0.1290279026 -0.5423427603 -0.0111579459 0.1804826036
635296190.0 -0.0459720841 0.1817286192 0.1235616488 -0.5433986765 0.1233775061 -0.54357109 -0.0089616142 0.1807493418
640296160.0 -0.0441557928 0.1826902577 0.1179118691 -0.5447719122 0.1179629005 -0.5451150179 -0.0069492902 0.1809565602
645296130.0 -0.0422195943 0.1835052888 0.1114544728 -0.5457530315 0.1123110304 -0.5459048686 -0.004920412 0.1813444993
650296100.0 -0.0401790898 0.1836739169 0.1059849206 -0.5471425499 0.1057319716 -0.547349228 -0.0024630824 0.1809912799
655296070.0 -0.0387312008 0.1840492392 0.1000445831 -0.5483642402 0.1003487485 -0.5482884536 -0.0004829627 0.1817099526
660296040.0 -0.0371528011 0.1841963688 0.0945973893 -0.54918051 0.0942002778 -0.549460409 0.0014871778 0.1816394611
665296010.0 -0.0349278236 0.1850002098 0.0876619801 -0.5503302982 0.0878137883 -0.5499762079 0.0035115723 0.1819933388
670295980.0 -0.0338928297 0.1855680148 0.0821596236 -0.5510149096 0.0817455147 -0.5507525392 0.0051793518 0.1819581968
675295950.0 -0.0316909472 0.1862097131 0.0766130428 -0.5518949259 0.0764140478 -0.5514212184 0.0071243393 0.1823121811
680295920.0 -0.0301709774 0.1863160904 0.0698858269 -0.5522530662 0.0698640935 -0.5529248235 0.0095725758 0.1830904673
685295890.0 -0.0279855109 0.1873897822 0.0639325933 -0.5534396347 0.0639724774 -0.5534816345 0.0113681999 0.1828636777
690295860.0 -0.0258892242 0.1874817446 0.0583644091 -0.5535440737 0.058308425 -0.554141777 0.0132876362 0.1831311775
695295830.0 -0.0245910124 0.1878222923 0.0526243142 -0.5540048122 0.0523347956 -0.5544189417 0.0155570813 0.1829391151
700295800.0 -0.0225952782 0.187884262 0.0463757316 -0.5541882847 0.0462618723 -0.5548192674 0.0173937063 0.1833717398
705295770.0 -0.0208682801 0.1889146448 0.0404611791 -0.5557867264 0.0405861416 -0.5553488179 0.0193198223 0.183492272
710295740.0 -0.0188288675 0.1889551441 0.034567058 -0.556324914 0.0345919834 -0.5565981335 0.0216395659 0.1827147865
715295710.0 -0.0176541081 0.1891264725 0.0286187369 -0.556284359 0.0283188942 -0.55619288 0.0236331391 0.1829085796
720295680.0 -0.015347364 0.1896274231 0.0222408538 -0.5564862698 0.0224804606 -0.5563010042 0.0258446317 0.1832725545
725295650.0 -0.0132648677 0.1897956083 0.0163667901 -0.556665087 0.0164735056 -0.5567050064 0.0271303828 0.1828875306
730295620.0 -0.0112474285 0.190588187 0.0104223325 -0.5567298845 0.0103710504 -0.5568659363 0.029160842 0.182518261
735295590.0 -0.0093402704 0.190701633 0.0042948066 -0.5570147346 0.0043888241 -0.5568882051 0.0308654618 0.1823879909
740295560.0 -0.0080145543 0.1908103702 -0.0016000918 -0.5564150959 -0.0017410493 -0.5570256542 0.0335979018 0.182350546
745295530.0 -0.0059801136 0.1911733133 -0.0079165891 -0.5561698764 -0.007861381 -0.5564801213 0.0353125113 0.1815695605
750295500.0 -0.0038459661 0.1913125725 -0.013514163 -0.5561391511 -0.0133455613 -0.5569058161 0.0372908405 0.1815030884
755295470.0 -0.0020102382 0.1911598735 -0.0191665579 -0.5561656117 -0.0193270308 -0.5563395681 0.0395937823 0.1810424673
760295440.0 -0.0005299145 0.1916000321 -0.0255483937 -0.5563404004 -0.0258054968 -0.5563317336 0.0413818169 0.1807689301
765295410.0 0.0013560872 0.1915972515 -0.0314480529 -0.5557857035 -0.031981555 -0.5558348772 0.0436533015 0.1806337899
770295380.0 0.0029612373 0.1917549574 -0.0377266947 -0.5553564607 -0.0377175306 -0.554773476 0.0453736699 0.1799967708
775295350.0 0.0049030263 0.1913515906 -0.0435588598 -0.5547501019 -0.0433187984 -0.5546373028 0.0468073182 0.1802694541
780295320.0 0.006864382 0.1919311722 -0.0497402267 -0.5541116904 -0.0487690856 -0.5543551069 0.0489773185 0.1790648067
785295290.0 0.0085130716 0.1914190065 -0.0556192013 -0.5528782633 -0.0552641214 -0.5536114109 0.0515957971 0.1789382502
790295260.0 0.0109786794 0.192024995 -0.0611056129 -0.5526136225 -0.0604575447 -0.5529116666 0.0532975549 0.1784980298
795295230.0 0.0125153478 0.1914726422 -0.0670955576 -0.5518963376 -0.0669368331 -0.5523843115 0.0556897153 0.1779464077
800295200.0 0.0142830768 0.1921001679 -0.0737543423 -0.5511456528 -0.0733806725 -0.551253376 0.0576895237 0.1775192389
805295170.0 0.0162817249 0.1918072633 -0.079235773 -0.550852482 -0.0791977969 -0.5507407232 0.0594214078 0.1770115444
810295140.0 0.0178875635 0.1912935194 -0.0851209066 -0.5493229526 -0.085126828 -0.5501554246 0.0620272973 0.1768306946
815295110.0 0.0198401987 0.1912946439 -0.0907737226 -0.5480438404 -0.0905234471 -0.5487916766 0.0635190119 0.175947211
820295080.0 0.0212391867 0.1919097653 -0.0965739441 -0.5476316787 -0.096494209 -0.5474732024 0.0655788469 0.1755392273
825295050.0 0.0242378449 0.1915704156 -0.10234663 -0.5464700485 -0.1026290625 -0.5467573341 0.0679653318 0.1751151537
830295020.0 0.0254298488 0.1913342271 -0.1090632376 -0.5450392102 -0.1084459497 -0.5448931107 0.0703784865 0.1743834432
