!Created with skrf (http://scikit-rf.org).
# Hz S RI R 50.0 
!freq ReS11 ImS11 ReS21 ImS21 ReS12 ImS12 ReS22 ImS22
300000.0 -0.3211273223 -0.0846575166 0.3769465142 0.0436578565 0.3742725451 0.0419335454 -0.319433417 -0.0982932972
5299970.0 -0.3266473058 0.0041626836 0.3783557913 0.0026227832 0.3782190507 0.0024568784 -0.3240430892 0.0048174264
10299940.0 -0.3240260663 0.0132793773 0.3793225249 0.0021976088 0.3795348832 0.0024304125 -0.321597259 0.0160310822
15299910.0 -0.3218114905 0.0204707508 0.3816708235 0.0018867037 0.3821786864 0.0022357014 -0.3183314746 0.0237503526
20299880.0 -0.3187902247 0.0260478022 0.3848785711 0.0017338739 0.3847929218 0.0014706021 -0.3147885176 0.030469712
25299850.0 -0.3157650278 0.0316538142 0.3879058833 0.0003296634 0.3880601459 0.000249242 -0.3109906339 0.0361023006
30299820.0 -0.3128320635 0.0357773721 0.3913598503 -0.0023110121 0.3914799973 -0.0020871855 -0.3069951337 0.0410006446
35299790.0 -0.3100214968 0.0398227917 0.3948300326 -0.0056098918 0.3948628424 -0.0052995593 -0.3037848815 0.0450464645
40299760.0 -0.3072074815 0.043594313 0.3979555328 -0.0087094699 0.3978895012 -0.0089810594 -0.3003878951 0.0483978051
45299730.0 -0.3046640262 0.0466760128 0.4007975138 -0.0124381877 0.401156522 -0.0129405333 -0.2973554919 0.052017186
50299700.0 -0.3023690453 0.0495745878 0.4036277732 -0.0170795861 0.4035326247 -0.0171445785 -0.2943672877 0.0545938477
55299670.0 -0.3003729254 0.0521328988 0.4058162304 -0.0220160236 0.40556448 -0.0221166634 -0.2914475434 0.0572937159
60299640.0 -0.2979425289 0.0550071361 0.4075617367 -0.0268591143 0.407621218 -0.0268205853 -0.2891044543 0.0595589632
65299610.0 -0.2962495148 0.0573288338 0.4092051781 -0.0316823315 0.4093740418 -0.0320960541 -0.2873069978 0.0616514867
70299580.0 -0.2946729898 0.0599577046 0.4104628339 -0.036777131 0.4106086725 -0.0369787192 -0.2849118428 0.0639387354
75299550.0 -0.293045064 0.062834168 0.4112193347 -0.042090967 0.4113875226 -0.0421473775 -0.2834114808 0.0658533472
80299520.0 -0.2915706719 0.0649695852 0.4124073021 -0.0475205066 0.4122341966 -0.0477371676 -0.2815548272 0.0682595227
85299490.0 -0.2903260879 0.0667486074 0.4127490754 -0.0523715809 0.4128428122 -0.0524212993 -0.2800431063 0.0701487468
90299460.0 -0.2889208561 0.0692954807 0.412993179 -0.0581305896 0.4133666639 -0.0581218231 -0.2783024425 0.0719798576
95299430.0 -0.287515255 0.071545158 0.4137205661 -0.063092663 0.4136903402 -0.06316711 -0.2767503518 0.0745309776
100299400.0 -0.2863558155 0.0743396574 0.4134720857 -0.0682331919 0.4132153166 -0.0682014817 -0.2753403995 0.0760979742
105299370.0 -0.2852154022 0.0765211044 0.4131002758 -0.073639256 0.4135029119 -0.0737046342 -0.2737864592 0.0780691464
110299340.0 -0.2840162635 0.0784534305 0.4127356725 -0.0783214231 0.4131686318 -0.0785655193 -0.272994371 0.0800905742
115299310.0 -0.2829275714 0.0811609246 0.4127848638 -0.0838444855 0.412956164 -0.0838301401 -0.271533272 0.0824442893
120299280.0 -0.2822046573 0.0832412208 0.4125370219 -0.0889865805 0.4125340934 -0.0890643654 -0.2705880615 0.0845001529
125299250.0 -0.2808668846 0.0854227314 0.4116081461 -0.093746392 0.4120355437 -0.0938306845 -0.2697048386 0.0863476359
130299220.0 -0.2803758706 0.0882503588 0.4110705886 -0.0988024557 0.4111562449 -0.0989007638 -0.2684199439 0.0886421053
135299190.0 -0.2795913688 0.0907009248 0.4108118939 -0.1037043104 0.4105864582 -0.1040850247 -0.2671148824 0.0911073126
140299160.0 -0.2784908896 0.0932615191 0.4096712074 -0.1092965942 0.4099268801 -0.1093562697 -0.2662215063 0.093523849
145299130.0 -0.2771693486 0.0959442743 0.4088766336 -0.1144089324 0.4087441661 -0.1141688753 -0.2655160956 0.095788482
150299100.0 -0.2761915753 0.0982588856 0.4075312757 -0.1190809868 0.4079307915 -0.1185493296 -0.264350411 0.0986327928
155299070.0 -0.275677222 0.1009510905 0.4068184935 -0.1244851343 0.4065877006 -0.1237688838 -0.2631349018 0.1008164671
160299040.0 -0.2747439962 0.1033904841 0.4054620858 -0.1284743646 0.4051389555 -0.1289165381 -0.2627224296 0.1033049244
165299010.0 -0.2736828328 0.1058747848 0.4039760801 -0.1337450457 0.4041432931 -0.133689526 -0.2615439424 0.1058684862
170298980.0 -0.272909184 0.1084925889 0.4028985732 -0.1383744745 0.4027799779 -0.1384398693 -0.2602304854 0.1082332935
175298950.0 -0.2718872341 0.1112630704 0.4016723836 -0.1430936862 0.4012395695 -0.143002816 -0.2595709057 0.1106890367
180298920.0 -0.270992714 0.1139493263 0.4002130331 -0.1479050442 0.4000805494 -0.1477101213 -0.2584227689 0.1134983071
185298890.0 -0.2694635012 0.1163785871 0.3982292306 -0.1529223256 0.3983870771 -0.1524929108 -0.2570933495 0.1159013001
190298860.0 -0.2686211878 0.1194433454 0.3971076741 -0.1573717366 0.3971989635 -0.1573200267 -0.256602509 0.1180092888
195298830.0 -0.2678152154 0.1217897324 0.3952644924 -0.1620927221 0.3951919797 -0.1618243046 -0.2553368881 0.1207996635
200298800.0 -0.266452705 0.124499745 0.3935400156 -0.1666796216 0.3937922219 -0.1667016379 -0.2544129611 0.1233220307
205298770.0 -0.2656025961 0.1274913593 0.3915452703 -0.1713323249 0.3917571316 -0.1710727214 -0.2534094199 0.1255819489
210298740.0 -0.2645027284 0.1298906343 0.3896151441 -0.1754368376 0.389912496 -0.1754183018 -0.2521006756 0.1284708288
215298710.0 -0.2634161249 0.1329573434 0.3882144791 -0.1801911318 0.3876258655 -0.1806438414 -0.2509083406 0.131011059
220298680.0 -0.2618931755 0.1353702099 0.3857593652 -0.1845259507 0.3858539818 -0.1845965734 -0.2501284068 0.133339754
225298650.0 -0.2607175453 0.1380252924 0.3838600591 -0.189292144 0.3840352101 -0.1891251914 -0.2490334193 0.1357938877
230298620.0 -0.2597705072 0.141092902 0.3820708822 -0.1932218972 0.3825039698 -0.1932421341 -0.2480480726 0.1383950413
235298590.0 -0.2583119533 0.1439823317 0.3796295925 -0.1978523936 0.3800036208 -0.1978229163 -0.2466211222 0.1413135543
240298560.0 -0.2571264699 0.1462068107 0.3778557941 -0.2025081736 0.3777610583 -0.2023525547 -0.245361104 0.1440239397
245298530.0 -0.2558069004 0.1491434773 0.3755434584 -0.2064525882 0.3755470745 -0.2065397823 -0.2436564278 0.1459840227
250298500.0 -0.2539829058 0.1516942777 0.3726721729 -0.2108883144 0.3728866994 -0.2106768942 -0.2428500497 0.1486009601
255298470.0 -0.2530643671 0.154155443 0.3705328843 -0.2147168746 0.3706713035 -0.215094509 -0.2412513562 0.1511681337
260298440.0 -0.2515993403 0.1568925968 0.3682592293 -0.219355764 0.3685495099 -0.2192686704 -0.2396438636 0.1534522947
265298410.0 -0.2498258234 0.1597135269 0.3659698949 -0.223489665 0.3663806471 -0.2233342856 -0.2381688033 0.1562439463
270298380.0 -0.2484986143 0.1624697737 0.3635226327 -0.2272358748 0.3637721136 -0.2273391648 -0.2368426748 0.1588264988
275298350.0 -0.2468898208 0.1653229602 0.3607472421 -0.2317326275 0.3611101721 -0.2315729716 -0.2351642657 0.1608769907
280298320.0 -0.2450278271 0.1678612995 0.3586882181 -0.2357556851 0.3585945029 -0.2356093953 -0.2331913178 0.163822362
285298290.0 -0.2435355181 0.1707668509 0.3560874619 -0.2399659946 0.3557622566 -0.239886914 -0.2318066811 0.1660745571
290298260.0 -0.2417461391 0.1733476568 0.35327191 -0.2435541856 0.3534175004 -0.2439716973 -0.2300629439 0.168560028
295298230.0 -0.2399080919 0.1756079776 0.3503917352 -0.2476642151 0.3507668396 -0.2479575718 -0.2283785037 0.1708769433
300298200.0 -0.2387973854 0.1783517512 0.3483131109 -0.2515282504 0.348023972 -0.2522175622 -0.2267559644 0.1735391776
305298170.0 -0.2365672459 0.1806221551 0.3449378642 -0.2558593277 0.3449493966 -0.2557179822 -0.2244502319 0.1755770828
310298140.0 -0.2348501309 0.1834443053 0.3425457147 -0.2595945108 0.3426151571 -0.2594024391 -0.2231767702 0.1781924644
315298110.0 -0.2329311043 0.1859153497 0.3394468076 -0.2633718825 0.3395801569 -0.2633903087 -0.2212923696 0.1805077241
320298080.0 -0.2311487847 0.1883663264 0.3363017741 -0.2675534183 0.3364193472 -0.2672444401 -0.2196327462 0.1832420317
325298050.0 -0.2293384548 0.1904916628 0.3334234901 -0.2711480728 0.3333692044 -0.2712766852 -0.2177844389 0.1852678258
330298020.0 -0.2277208105 0.1929639862 0.330246222 -0.2750579866 0.3302664935 -0.2749729351 -0.216128266 0.1879204343
335297990.0 -0.2256009471 0.1954182911 0.3271049159 -0.2787120546 0.3269491928 -0.278669222 -0.2144693834 0.1905862272
340297960.0 -0.2241316253 0.1982732589 0.3237642166 -0.2824932066 0.323639202 -0.2823154292 -0.2121094677 0.1929543045
345297930.0 -0.2221665142 0.2008335685 0.3207286095 -0.2858426234 0.320472071 -0.2862069568 -0.2107587232 0.1951289872
350297900.0 -0.2201633206 0.2031624667 0.3170379994 -0.2896599551 0.3172195725 -0.2895789702 -0.2089563807 0.1977278086
355297870.0 -0.2177846895 0.2061892275 0.3139473997 -0.2930788476 0.3143271895 -0.292837632 -0.2072568237 0.200184121
360297840.0 -0.2160793279 0.2084285591 0.3112611041 -0.2963547436 0.3112741654 -0.2959669478 -0.2051371827 0.2027529663
365297810.0 -0.214333746 0.2108800133 0.3078811784 -0.3000370771 0.3077655841 -0.299849633 -0.202933005 0.2049814069
370297780.0 -0.2117909676 0.2132652331 0.3039619053 -0.3030139014 0.3043702876 -0.3027926048 -0.2007963514 0.2076651568
375297750.0 -0.2094521076 0.2157177411 0.3012570357 -0.3060230634 0.3010044097 -0.3066263712 -0.1989562242 0.2097869192
380297720.0 -0.207431129 0.2178164279 0.2974246262 -0.3097511273 0.2976103691 -0.3094258555 -0.1970679482 0.2120660253
385297690.0 -0.2057122003 0.2203364858 0.2943012139 -0.312812976 0.293828606 -0.3127872219 -0.1944659514 0.2142469586
390297660.0 -0.203393146 0.2226891582 0.2907205067 -0.3161633536 0.2905834886 -0.3159439842 -0.1925191425 0.216241822
395297630.0 -0.2009474469 0.2250340072 0.2871706469 -0.3189687336 0.287152064 -0.3194140806 -0.1899915506 0.2188485111
400297600.0 -0.1984878605 0.227465715 0.2833359288 -0.322410967 0.2836994281 -0.3226441189 -0.1881928243 0.2207655115
405297570.0 -0.1962666107 0.2298680637 0.2796845867 -0.3252044447 0.2802418312 -0.3252765797 -0.1859809246 0.2228189267
410297540.0 -0.1938102404 0.2318173192 0.2762528066 -0.3285502823 0.2766345502 -0.328552697 -0.1838926286 0.2250950217
415297510.0 -0.1914895666 0.2337098729 0.2722489038 -0.3315817172 0.2729995116 -0.3314734529 -0.1817393723 0.2271504807
420297480.0 -0.1893731176 0.2365360566 0.2686045378 -0.3346293742 0.2689398752 -0.3344854525 -0.179273852 0.2288819744
425297450.0 -0.1864299023 0.2382143139 0.2654828109 -0.3371343747 0.2659952172 -0.3374896887 -0.177121061 0.231471049
430297420.0 -0.1841219716 0.2404134282 0.261414888 -0.3401869396 0.2617111499 -0.3399556579 -0.1749512762 0.233036724
435297390.0 -0.1818867438 0.2424749823 0.2574351717 -0.3428776317 0.2574431776 -0.3432284626 -0.1717527902 0.235001917
440297360.0 -0.1790948534 0.2446058744 0.2538076771 -0.3457849494 0.2540709493 -0.3458665699 -0.1695756414 0.2371362925
445297330.0 -0.1768272419 0.2466349961 0.2503963311 -0.3488493622 0.2503558415 -0.3483087507 -0.1670077065 0.2384563228
450297300.0 -0.1743406537 0.248168318 0.2466583941 -0.351344256 0.2462024215 -0.3515617575 -0.1646522867 0.2403231683
455297270.0 -0.1716825101 0.2506255431 0.2420748893 -0.3538691275 0.2425898383 -0.3541282265 -0.1619905327 0.2424055997
460297240.0 -0.1691152015 0.2524726035 0.2383014115 -0.3567169391 0.2388725873 -0.356523002 -0.1596321505 0.2444758435
465297210.0 -0.1660428107 0.2546171814 0.2347770499 -0.3591482495 0.2344980159 -0.3595126218 -0.1571473185 0.2457160158
470297180.0 -0.1634867753 0.2561620105 0.2305529505 -0.3616005404 0.2307512399 -0.3618167171 -0.1544434196 0.2484320798
475297150.0 -0.1611185712 0.2578716562 0.2265341516 -0.3636638169 0.2266423058 -0.3638520114 -0.1515120597 0.2494739694
480297120.0 -0.1582707127 0.2600521204 0.22270597 -0.3665968101 0.222477032 -0.3669387947 -0.1486247806 0.2512946344
485297090.0 -0.1555575883 0.261875837 0.2187501518 -0.3687702552 0.2185544272 -0.3685165463 -0.1462064787 0.2530090097
490297060.0 -0.1530387391 0.2635967101 0.2145102003 -0.3710985937 0.2145526086 -0.3711687518 -0.1435547242 0.254845019
495297030.0 -0.1502658216 0.2651094007 0.2103810148 -0.3734750807 0.2108292675 -0.3735460278 -0.1410481929 0.2568981329
500297000.0 -0.147443545 0.2670272236 0.2060867783 -0.3753123455 0.206233466 -0.3754633806 -0.1380310548 0.2588348001
505296970.0 -0.1446507635 0.2686192076 0.202486623 -0.3779094118 0.2021801911 -0.3781781823 -0.1354393587 0.2602639969
510296940.0 -0.1419328044 0.2702298708 0.1979014137 -0.3801308709 0.1979301201 -0.3804807886 -0.1326578462 0.2618337246
515296910.0 -0.1387975408 0.2722355794 0.1939321695 -0.3822524484 0.1937896037 -0.3822506706 -0.1299372105 0.263489746
520296880.0 -0.1358386394 0.2736217516 0.1897176866 -0.3844921438 0.1898455419 -0.3841440177 -0.1272155057 0.2646531264
525296850.0 -0.1330844257 0.2747859669 0.184984606 -0.3860305226 0.1856139465 -0.3863278953 -0.124623597 0.2663959186
530296820.0 -0.1301201687 0.2768742018 0.1810143421 -0.3886149594 0.181271932 -0.3882706207 -0.1217511231 0.2679560165
535296790.0 -0.1275908108 0.2784675266 0.1771373305 -0.3900826959 0.1771752689 -0.3901185242 -0.119213195 0.2693375141
540296760.0 -0.1245185162 0.2798187253 0.1725999121 -0.3922404273 0.1725924371 -0.3921707479 -0.1162560145 0.2710149605
545296730.0 -0.1217316341 0.2813353609 0.1680042234 -0.393835624 0.168438782 -0.3940459566 -0.1138744869 0.2722009536
550296700.0 -0.1185499921 0.2827934868 0.1638950396 -0.3956474799 0.1640998216 -0.3961485839 -0.111028466 0.2737382227
555296670.0 -0.1156982478 0.2837816808 0.1599299483 -0.3972619148 0.1598177458 -0.3973990003 -0.1079287509 0.2755276196
560296640.0 -0.1126054788 0.285584929 0.1552035408 -0.399105764 0.1551282602 -0.399392185 -0.1051517757 0.2763691706
565296610.0 -0.1099372627 0.2870167968 0.1508974261 -0.4009946281 0.1511564316 -0.4009699084 -0.1024518353 0.2773735296
570296580.0 -0.106849681 0.2878264297 0.1465746545 -0.4023593602 0.1465485476 -0.4024211229 -0.0997593541 0.279226059
575296550.0 -0.1040469802 0.2896331358 0.1424579678 -0.4043644048 0.1419097275 -0.4037471617 -0.0963565441 0.2800219967
580296520.0 -0.1006410944 0.2905231843 0.1376638714 -0.4054850726 0.1377145405 -0.4055301556 -0.0933089025 0.281162687
585296490.0 -0.0981863266 0.2914965653 0.1335765421 -0.4067719817 0.1336420725 -0.4069733468 -0.0905257702 0.2823024969
590296460.0 -0.0944781861 0.2930887877 0.1287826914 -0.4077539087 0.1292362974 -0.4081120613 -0.0877739976 0.2834400334
595296430.0 -0.0916590508 0.2939909098 0.1242702951 -0.409491735 0.124060784 -0.4097579467 -0.0846709178 0.2840845823
600296400.0 -0.0886831402 0.2950115553 0.1199250532 -0.4108739699 0.1198828261 -0.4104435805 -0.0818724181 0.2851495613
605296370.0 -0.0856861726 0.2962438762 0.1154283346 -0.4118149103 0.1155940874 -0.4121860118 -0.0784841503 0.2862681849
610296340.0 -0.082467526 0.2973182728 0.1108198874 -0.4133287137 0.1111811044 -0.4132706934 -0.0756282953 0.2873319946
615296310.0 -0.0790213133 0.2981243108 0.1060870984 -0.4141450797 0.1060839502 -0.4148878663 -0.0722698043 0.2879394535
620296280.0 -0.0761721945 0.2988543105 0.1019274537 -0.4153756765 0.1020101447 -0.415438714 -0.0697409981 0.2891156194
625296250.0 -0.073369998 0.2997629095 0.0979492485 -0.416652459 0.0978419045 -0.4167744691 -0.0659986268 0.2896749721
630296220.0 -0.0693926327 0.3005901628 0.0924095046 -0.4175342679 0.0925671902 -0.4174891293 -0.0634853176 0.2908185223
635296190.0 -0.0668669459 0.3017755615 0.0884833625 -0.4183798913 0.088370163 -0.4184209761 -0.0602836006 0.2913909683
640296160.0 -0.0637371017 0.3023834081 0.0837908163 -0.418900678 0.0839975494 -0.419330584 -0.0573102501 0.2920176569
645296130.0 -0.060526856 0.3034915687 0.078894598 -0.4197946952 0.0791024274 -0.420104367 -0.0538082827 0.2928448171
650296100.0 -0.0571771094 0.3043403498 0.0745902558 -0.4207522861 0.0748681073 -0.420791653 -0.0507927 0.2935880067
655296070.0 -0.0539759951 0.3048316 0.070395509 -0.4217829784 0.0699183457 -0.4217258601 -0.0474588525 0.2940079394
660296040.0 -0.051102441 0.305415675 0.0654250677 -0.4223254312 0.0657089718 -0.4225082452 -0.0442477539 0.2948713933
665296010.0 -0.0473820076 0.3056905038 0.0605863124 -0.4230624564 0.060867803 -0.4230367007 -0.0411726968 0.2959520833
670295980.0 -0.0448727077 0.3068809927 0.0566010035 -0.4230978556 0.0565419887 -0.4235518347 -0.0386445611 0.2964399646
675295950.0 -0.0412792159 0.3073453907 0.0519232625 -0.4239216203 0.0519592148 -0.4239409452 -0.0354152816 0.2970123264
680295920.0 -0.0383887747 0.3078778263 0.0470907099 -0.4243223939 0.0467179799 -0.4249035799 -0.0321315229 0.2979200044
685295890.0 -0.0344882317 0.3088974633 0.042218168 -0.424950383 0.042337725 -0.4250902707 -0.0288438425 0.2982515425
690295860.0 -0.031846141 0.3092653001 0.0379636526 -0.4253246656 0.0379475277 -0.425774127 -0.025697817 0.299256661
695295830.0 -0.0286898471 0.3092668693 0.0334092053 -0.4256921442 0.0332630913 -0.4258477853 -0.0226105995 0.2992709219
700295800.0 -0.0250101575 0.3098159951 0.0286172819 -0.4259941912 0.0283558699 -0.4259920096 -0.0196638048 0.2998531656
705295770.0 -0.0221643933 0.3108428764 0.0242840671 -0.4264964967 0.0241519577 -0.4265499729 -0.0166226151 0.3005459914
710295740.0 -0.0187554193 0.3109810835 0.019557699 -0.4271194001 0.0196841906 -0.4267857162 -0.0134267847 0.3000844117
715295710.0 -0.0157420221 0.3108293637 0.0151311535 -0.4269020294 0.0148773909 -0.4270616857 -0.0104399757 0.3009188143
720295680.0 -0.0122252818 0.3114009555 0.0099984106 -0.4269122599 0.0105305591 -0.4269871409 -0.0068265111 0.3012043169
725295650.0 -0.0088435276 0.311672714 0.0054380597 -0.4268780782 0.0056347431 -0.4271041124 -0.0041986076 0.3015260402
730295620.0 -0.0055144796 0.31228232 0.0008482126 -0.4272806135 0.0012987842 -0.4267780778 -0.0012511842 0.3015132559
735295590.0 -0.0023593507 0.3124764283 -0.0036556032 -0.4270926781 -0.0034895253 -0.4267142417 0.0017637395 0.3013373956
740295560.0 0.0006756587 0.3126008422 -0.0086242701 -0.4267958281 -0.008186512 -0.4267915014 0.0054287753 0.3017992377
745295530.0 0.004007816 0.312709302 -0.0131246149 -0.4263484648 -0.0131294214 -0.4265298203 0.0085620895 0.3013685098
750295500.0 0.0074490088 0.3126269161 -0.0173927123 -0.4262604197 -0.0174018774 -0.4264903675 0.0118002283 0.3017896578
755295470.0 0.010559986 0.3123362711 -0.0217951054 -0.4259705273 -0.0222108027 -0.4263229189 0.0152785689 0.3013684317
760295440.0 0.0135582956 0.3124863583 -0.0265833836 -0.4261409543 -0.0267724804 -0.4261328126 0.0178888721 0.3016396573
765295410.0 0.016886214 0.3125402287 -0.0313487984 -0.4254534074 -0.031576497 -0.4257276164 0.0212018924 0.3015383736
770295380.0 0.0200280454 0.3121268772 -0.0357516865 -0.4249255908 -0.0361327032 -0.4245404089 0.0241386085 0.3012208392
775295350.0 0.0233826189 0.3120606646 -0.0406448885 -0.4241823356 -0.0402906359 -0.4245026663 0.0268781628 0.3014763283
780295320.0 0.0266557895 0.3119975437 -0.045248116 -0.4237505159 -0.0446730385 -0.4237812469 0.0302382353 0.3007026728
785295290.0 0.0298731838 0.3115375421 -0.049921801 -0.423111652 -0.0501162651 -0.4237003362 0.0338332905 0.3006147843
790295260.0 0.0337002443 0.3118586877 -0.054211986 -0.4225574461 -0.0538170389 -0.4225251923 0.0369765838 0.3007704704
795295230.0 0.0366665575 0.311261874 -0.0586357015 -0.4222833657 -0.058421659 -0.4224100451 0.0405872073 0.3001565573
800295200.0 0.0396210035 0.3112583266 -0.0634477421 -0.4213411616 -0.0635716141 -0.4213362852 0.0435225689 0.3000149496
805295170.0 0.0430876421 0.3108938574 -0.0678717048 -0.4206078177 -0.0679950013 -0.4210860383 0.0467164343 0.2999860066
810295140.0 0.0460671651 0.3103084836 -0.0719369306 -0.4197182552 -0.0724055179 -0.4199869943 0.0500994553 0.2995686841
815295110.0 0.0494477588 0.3099103544 -0.0768825791 -0.4187173049 -0.07656083 -0.419016267 0.0531099899 0.2989398656
820295080.0 0.0525259148 0.3100804777 -0.0812100887 -0.418172853 -0.0810067467 -0.4181510453 0.056403195 0.2986562813
825295050.0 0.0565465761 0.3090527175 -0.0858817094 -0.4171711919 -0.0860015394 -0.4173105997 0.0596336196 0.2984818499
830295020.0 0.0591379939 0.3088879615 -0.0904072906 -0.416130026 -0.0905126011 -0.4163667783 0.0633418608 0.297580811
