!Created with skrf (http://scikit-rf.org).
# Hz S RI R 50.0 
!freq ReS11 ImS11 ReS21 ImS21 ReS12 ImS12 ReS22 ImS22
300000.0 -0.7748067302 -0.1036412491 -0.0013393856 0.0009779066 0.0009419983 0.0012863914 -0.0482219162 -0.0598389332
5299970.0 -0.785414408 -0.0059547332 0.0001931665 6.18486e-05 0.0002342829 0.0001598266 -0.0500891721 0.0155841762
10299940.0 -0.7880822719 -0.0040730688 -0.0002329781 9.35488e-05 -4.22926e-05 -0.0001934164 -0.0439016975 0.033864812
15299910.0 -0.7936130293 -0.0018079218 0.0001019488 -1.07515e-05 3.48799e-05 6.93463e-05 -0.0354022558 0.0480350967
20299880.0 -0.7998775375 0.0020751107 7.45548e-05 -0.0001391399 -5.01826e-05 5.9185e-05 -0.0253563085 0.0599802501
25299850.0 -0.8064862459 0.0075380569 9.17744e-05 -9.08053e-05 5.80275e-05 0.0001544001 -0.0140207622 0.0692005087
30299820.0 -0.8122777875 0.0153608767 2.79969e-05 -0.0002167053 3.58123e-05 -5.39022e-05 -0.0020380691 0.0761902038
35299790.0 -0.8173646944 0.0245471859 -6.44822e-05 0.0001124275 4.16269e-05 1.32847e-05 0.0091778148 0.0808474757
40299760.0 -0.8216585899 0.0338576077 8.4576e-06 5.40897e-05 4.23131e-05 -1.9164e-06 0.0205931501 0.0835204235
45299730.0 -0.8249131113 0.043048934 -0.0001099678 0.0001101469 0.00017576 0.0003361002 0.0314658077 0.0854256511
50299700.0 -0.8270496214 0.0532656713 -4.02685e-05 -0.0002062066 -9.45142e-05 -0.0001263444 0.0413235981 0.0846540211
55299670.0 -0.8294843528 0.0634657475 -4.0534e-06 -1.02452e-05 0.0002263495 -1.86473e-05 0.0508985658 0.0834680076
60299640.0 -0.8304441056 0.0735324315 1.19857e-05 -0.0001197251 -5.36617e-05 -3.84675e-05 0.0594907753 0.0816033426
65299610.0 -0.8310306335 0.0838074664 -1.96907e-05 -6.22034e-05 -2.81348e-05 -3.64624e-05 0.0671647437 0.0790110949
70299580.0 -0.8317468793 0.0934274019 9.58739e-05 8.5466e-05 -5.17865e-05 -5.28537e-05 0.0739881033 0.0760749055
75299550.0 -0.8320671911 0.1035895244 1.39577e-05 7.75965e-05 2.72326e-05 0.0001228151 0.0804203995 0.0723183044
80299520.0 -0.8322529295 0.1136184781 -9.15935e-05 7.62709e-05 8.8668e-05 4.48015e-05 0.0859104407 0.0691454064
85299490.0 -0.8312835192 0.1224672108 0.000146049 -0.0001620935 -3.96167e-05 -0.0001939979 0.0909816479 0.0648095109
90299460.0 -0.8304805351 0.1322260476 -1.39008e-05 -4.20156e-05 -7.93636e-05 6.25381e-05 0.0957178563 0.0613410993
95299430.0 -0.8289898986 0.1414844298 9.3375e-06 9.41102e-05 4.69943e-05 0.0002125729 0.0996861106 0.0570157968
100299400.0 -0.8275702543 0.1509328779 -5.44748e-05 6.1775e-06 3.89246e-05 0.0001383632 0.1037316642 0.0528301226
105299370.0 -0.8270297757 0.1600508408 -3.73069e-05 -5.89476e-05 -9.62564e-05 0.0001067186 0.1069898561 0.0486379372
110299340.0 -0.8253637344 0.1698348337 0.0001203579 -7.91126e-05 -0.0002522496 -1.93556e-05 0.1096382079 0.0447812228
115299310.0 -0.824329315 0.1783947904 -1.0091e-06 -3.63657e-05 4.0571e-06 -1.4024e-05 0.112436521 0.0405107863
120299280.0 -0.8219791127 0.1867735691 -6.12603e-05 6.1755e-06 -0.0001227098 -0.0001557773 0.1144709288 0.036762718
125299250.0 -0.8207264084 0.1964674176 3.83247e-05 -0.0001280997 9.85361e-05 -7.29946e-05 0.1163406285 0.0327881431
130299220.0 -0.8187952478 0.2057099941 0.0001066213 9.97494e-05 -4.58586e-05 -6.82084e-05 0.1182337542 0.0286452526
135299190.0 -0.8167282362 0.2141141743 6.91267e-05 0.0002554861 -0.000180338 -3.68982e-05 0.1198438534 0.0251080549
140299160.0 -0.8145239589 0.223205253 -7.37936e-05 0.000158113 -0.0001405378 0.0001053601 0.1213248259 0.0218425581
145299130.0 -0.8126461374 0.2327167998 0.0001457133 -9.25829e-05 3.16278e-05 -0.0001360845 0.1220385272 0.018035651
150299100.0 -0.810386557 0.2410851092 8.78187e-05 6.30347e-05 4.10948e-05 0.0001048416 0.1230805504 0.0149248019
155299070.0 -0.8081837065 0.2492382944 5.5451e-05 -7.41665e-05 -1.78133e-05 5.06097e-05 0.1239992829 0.0115568518
160299040.0 -0.8054530733 0.2581071557 7.62204e-05 7.15705e-05 0.0001123807 9.688e-06 0.1241524419 0.0082315037
165299010.0 -0.8029470665 0.2670788387 -0.000103033 0.0001830508 0.0001398638 -8.56828e-05 0.1246254406 0.0048552709
170298980.0 -0.800206477 0.2754810634 -0.0001826194 0.0001051376 5.47946e-05 0.0001155159 0.125066626 0.0015910722
175298950.0 -0.7971223846 0.2844257228 0.0002833815 -0.0001379929 -0.0002514891 -0.0001187665 0.1251139461 -0.0011969178
180298920.0 -0.7948642066 0.2931754048 0.0001526927 7.95846e-05 0.0001707556 9.43465e-05 0.1253013247 -0.0043371975
185298890.0 -0.7915560361 0.3005181735 0.0001810197 0.0001627375 0.00013941 -7.11629e-05 0.1254246105 -0.0074410337
190298860.0 -0.7883470877 0.3096950461 6.38389e-05 0.0002511892 -0.0001125396 0.000251468 0.1254320853 -0.009949691
195298830.0 -0.7852699467 0.317793789 -0.000115758 -2.18785e-05 0.0001878945 0.0001467318 0.1251489467 -0.0130978182
200298800.0 -0.781378403 0.3262234265 6.14812e-05 0.0001444722 -0.0001644649 -0.0002849014 0.1248258738 -0.0156854281
205298770.0 -0.7781911547 0.3344293307 -2.23801e-05 -1.04233e-05 -6.47651e-05 8.66463e-05 0.1246012232 -0.0187785877
210298740.0 -0.7749541639 0.3423022961 2.29472e-05 2.74167e-05 -0.0001061333 0.0001078622 0.1241667206 -0.0213069503
215298710.0 -0.7714544988 0.3505944938 7.18455e-05 -1.64124e-05 -5.27435e-05 8.90473e-05 0.1233907761 -0.0238873105
220298680.0 -0.7676482845 0.358904517 -0.0001222225 -2.10648e-05 0.0001642791 0.0001920946 0.123118786 -0.0262179577
225298650.0 -0.764155249 0.3668496857 0.0001100731 1.60744e-05 0.0001610118 0.0001561307 0.1224482582 -0.0287612349
230298620.0 -0.7603219631 0.374836994 0.0001434995 -6.51518e-05 1.32386e-05 0.0001273108 0.1219187128 -0.0315250619
235298590.0 -0.7564594479 0.3834121275 0.0001217688 -0.0002047803 5.65733e-05 -0.0001258395 0.1209239692 -0.0335306839
240298560.0 -0.7524367552 0.3910672556 -6.96588e-05 0.0001768575 -5.35e-07 2.786e-07 0.1202942955 -0.0362683293
245298530.0 -0.748408867 0.3982865167 0.0001316391 6.28934e-05 5.27529e-05 -0.0001388966 0.1196734637 -0.0385832328
250298500.0 -0.743843858 0.4067989407 0.0001639602 4.8427e-06 0.0001897061 -5.80012e-05 0.11861843 -0.0406237031
255298470.0 -0.7394425447 0.4140249258 0.0002518195 7.0274e-05 -5.3741e-05 -2.3345e-06 0.1180975327 -0.0433148401
260298440.0 -0.7353734503 0.4215382526 5.3827e-05 0.0001990458 -0.0001190929 -0.0001722646 0.1173123504 -0.0453369229
265298410.0 -0.7308714946 0.4299050517 0.0001759897 5.26758e-05 9.15565e-05 -4.0921e-06 0.1166734007 -0.0473082158
270298380.0 -0.7269482473 0.4372259152 0.0002463955 -2.40348e-05 -0.0001585641 1.44763e-05 0.1154936332 -0.0494874342
275298350.0 -0.7223429721 0.4450395964 2.01896e-05 0.0001855475 -0.0001000094 -9.63192e-05 0.1146818951 -0.0516541237
280298320.0 -0.7173072564 0.452244563 9.33012e-05 -8.7186e-06 -6.08786e-05 3.11656e-05 0.1140482397 -0.0534793372
285298290.0 -0.7128280306 0.4602018539 0.0001563255 -7.98127e-05 0.0002168906 0.0001012396 0.1129340903 -0.0556182644
290298260.0 -0.7084510755 0.4676539489 0.0001188654 9.27142e-05 0.0001526805 4.86315e-05 0.112149057 -0.0573118904
295298230.0 -0.7021065562 0.4744287103 9.1504e-06 0.0001960176 -7.45506e-05 9.5519e-06 0.1114612392 -0.0596568321
300298200.0 -0.6979639302 0.4816444051 0.0002438838 -1.05532e-05 -1.10755e-05 0.0001925027 0.1102803869 -0.0612784103
305298170.0 -0.6922971655 0.4883721966 0.0001524877 0.0001194518 0.0001966299 8.12109e-05 0.1093884265 -0.0638237463
310298140.0 -0.6872517952 0.4961203578 -0.0002792672 0.0001752575 -6.16111e-05 0.0001993989 0.108111458 -0.065151919
315298110.0 -0.6825002996 0.5031615749 0.0001845351 -2.20256e-05 -0.0001302963 0.0001383135 0.1069790722 -0.0673162907
320298080.0 -0.6775529497 0.5104287778 0.0001094281 -2.47606e-05 5.45858e-05 -0.0002408029 0.1060292921 -0.0691831013
325298050.0 -0.6719758635 0.517402368 9.04973e-05 5.35982e-05 0.0001488067 2.43014e-05 0.1043965682 -0.0711789116
330298020.0 -0.666463357 0.5241504087 -6.38276e-05 0.000113182 9.55539e-05 3.89666e-05 0.1025360383 -0.0725284013
335297990.0 -0.6609662484 0.5305522132 0.0003055717 0.0002314973 9.05599e-05 2.14944e-05 0.1012090949 -0.0735917635
340297960.0 -0.6558339143 0.5378224865 0.0003745617 -6.59551e-05 0.0001493657 -0.0001502643 0.1004137717 -0.0749276367
345297930.0 -0.6499513731 0.5444026555 9.86005e-05 0.0001323605 0.0002274082 -3.0783e-05 0.0986384343 -0.0769223655
350297900.0 -0.6446992202 0.5508257199 6.13102e-05 -4.45608e-05 6.3798e-05 6.25802e-05 0.0971525141 -0.0774838712
355297870.0 -0.6378313249 0.5580786399 0.0002191753 0.0001819525 -1.76675e-05 0.0001028072 0.0958737002 -0.0794189313
360297840.0 -0.6327207843 0.5640159676 0.0001447361 0.0001531236 7.6824e-06 -0.0001192385 0.0942994327 -0.0807032813
365297810.0 -0.6270752383 0.5702683007 3.30329e-05 -2.25667e-05 0.0001134775 7.72992e-05 0.0929711332 -0.0821246268
370297780.0 -0.6210002268 0.576755921 0.0003198144 0.0001394213 6.99353e-05 -1.09184e-05 0.0918911539 -0.0832365342
375297750.0 -0.6147800106 0.5831312232 7.54874e-05 0.0002308276 0.0001561145 -8.09e-07 0.0902300019 -0.0846541141
380297720.0 -0.6089334336 0.589093333 0.0002483792 3.23381e-05 -1.79457e-05 -2.74343e-05 0.0884423409 -0.0857180701
385297690.0 -0.6031890007 0.5955030105 -3.0031e-05 -7.20038e-05 -3.929e-06 5.24264e-05 0.087308354 -0.0871438164
390297660.0 -0.5967382653 0.6011104762 -3.16184e-05 -2.61887e-05 0.0001557537 0.0001794932 0.085803526 -0.0880706235
395297630.0 -0.5904332413 0.6076340458 0.0001636934 0.0001920812 0.0002042625 4.84518e-05 0.0844478447 -0.0891406803
400297600.0 -0.5841535916 0.6141895521 0.0001725688 -4.4147e-05 -0.0001829721 0.0001600939 0.0829932472 -0.0905764146
405297570.0 -0.5778753572 0.6196053702 0.0001099882 -0.0001455224 0.0001691577 1.89801e-05 0.0813136276 -0.0916122945
410297540.0 -0.5708630667 0.6254532 2.56599e-05 -5.3462e-05 0.0002452543 0.000139232 0.0799723456 -0.0924026475
415297510.0 -0.564260498 0.6309738877 -0.0001656246 0.0001333316 0.000117539 0.0001806643 0.0783162047 -0.0939425042
420297480.0 -0.5589531681 0.637224502 1.44852e-05 5.08151e-05 -6.43649e-05 -0.000132807 0.0767653829 -0.0951096209
425297450.0 -0.5516843397 0.6428151649 0.0002088051 -4.05579e-05 7.58261e-05 -5.16353e-05 0.0751798921 -0.0961475388
430297420.0 -0.5455207441 0.6487889747 0.0001422625 1.18718e-05 -2.25135e-05 -0.0001524143 0.0734898765 -0.0973791762
435297390.0 -0.5384962085 0.6535940327 0.0001111641 9.80218e-05 0.0002355823 -3.97377e-05 0.0724990804 -0.0982041846
440297360.0 -0.5317498811 0.6590914738 0.0001749748 0.0001320579 8.00032e-05 -5.78491e-05 0.0708790996 -0.099084214
445297330.0 -0.5250590403 0.6641959291 0.0004887997 -0.0001015848 3.19598e-05 -0.0001193912 0.0693355725 -0.1006170934
450297300.0 -0.5179734835 0.669363174 -2.0295e-05 6.87871e-05 -0.0001507919 -2.67716e-05 0.0676739078 -0.1013508319
455297270.0 -0.5114496906 0.674866076 0.0001643121 -3.91412e-05 7.13711e-05 0.000102969 0.0661838652 -0.1020751363
460297240.0 -0.5050023317 0.6798602773 -1.36612e-05 4.82219e-05 -1.24571e-05 4.95075e-05 0.0643710613 -0.1026185582
465297210.0 -0.4977308284 0.6845901646 0.0002310838 4.78503e-05 0.0002182208 7.51787e-05 0.0632437511 -0.1040650694
470297180.0 -0.4899909956 0.6895221039 0.0002069687 -0.0001123656 -3.3073e-06 0.0002215311 0.0615774706 -0.1044763355
475297150.0 -0.483578758 0.6943783916 0.0001112668 -0.0001745323 0.0002253319 -1.22714e-05 0.0601457726 -0.1055693108
480297120.0 -0.4762569917 0.6992461419 6.9636e-06 0.0001444678 -4.39244e-05 7.79554e-05 0.0588569717 -0.1060133639
485297090.0 -0.4685730473 0.7044296885 4.52996e-05 9.46866e-05 -9.9199e-05 5.63593e-05 0.0572642893 -0.1065946943
490297060.0 -0.4619605379 0.7086177612 0.0001062209 8.34248e-05 5.8604e-05 -6.60608e-05 0.0551523371 -0.1075467127
495297030.0 -0.4550795204 0.7132407669 -8.737e-06 0.0001983527 6.77732e-05 5.9991e-05 0.0537150364 -0.1080379076
500297000.0 -0.447521689 0.7180079936 0.000195064 1.20545e-05 0.0001905657 -3.72732e-05 0.0523151272 -0.108519065
505296970.0 -0.4402698902 0.7224238224 1.0338e-05 3.97386e-05 0.0003415486 -6.29858e-05 0.0504203552 -0.1092169455
510296940.0 -0.4331282339 0.726383931 6.39749e-05 0.0003636014 0.0001855857 9.01826e-05 0.048824931 -0.1099002635
515296910.0 -0.4247002731 0.7306991195 0.0002856942 3.01077e-05 0.0001903345 7.62047e-05 0.047475266 -0.1105856423
520296880.0 -0.4177794341 0.7356107059 0.000158557 -4.01368e-05 4.64185e-05 5.44762e-05 0.0456446448 -0.1107971253
525296850.0 -0.4105052098 0.7389085775 0.0001751299 -0.0001238146 -0.0001119183 2.50355e-05 0.0441016542 -0.1110898317
530296820.0 -0.4024956367 0.7434444139 0.0002210179 0.000132142 -1.96035e-05 5.71502e-05 0.042479769 -0.1116580118
535296790.0 -0.395745234 0.7469866075 -2.90018e-05 0.0001605491 0.0001803183 0.0001324631 0.0399602266 -0.112315856
540296760.0 -0.3883047314 0.7506536035 0.0001710141 1.40917e-05 2.69286e-05 -0.0001766669 0.0388622846 -0.1124737739
545296730.0 -0.380910797 0.7550868249 -1.43503e-05 0.0001551996 9.69139e-05 0.0001032623 0.0368499399 -0.1129373299
550296700.0 -0.373049872 0.759097378 0.0002541921 -6.57936e-05 0.0003216701 -0.0002269728 0.0353088674 -0.1135389727
555296670.0 -0.3649039331 0.7616016001 0.0002857822 2.7254e-05 0.0001777925 0.0001580469 0.0337052139 -0.1135294371
560296640.0 -0.3571128918 0.7657576292 6.71654e-05 -0.0001539987 0.0001539526 -0.0002127746 0.0319749428 -0.1140848105
565296610.0 -0.3500605821 0.7697061711 -0.0001640021 6.26359e-05 -6.9547e-06 6.5079e-06 0.0301888601 -0.1142776211
570296580.0 -0.342446298 0.7723016851 0.0002065767 9.20075e-05 0.0003068757 -0.0001141885 0.0285834917 -0.1148289436
575296550.0 -0.3346997134 0.7765344512 0.0003192691 0.0001215833 2.63191e-05 8.51534e-05 0.0267549299 -0.1147824121
580296520.0 -0.3257572821 0.7793030069 5.7635e-06 3.3499e-06 0.0003658533 0.0001993364 0.0251084171 -0.115288091
585296490.0 -0.3187120022 0.7821765155 0.0001981641 -5.44689e-05 0.000238861 -0.0001761498 0.0234797575 -0.1157127552
590296460.0 -0.3105804866 0.7856775567 0.000303037 0.0001921112 0.0001851594 0.0002147063 0.0213345171 -0.1155086218
595296430.0 -0.3026057496 0.7887143941 0.0001547397 3.51521e-05 0.0001885064 -4.04674e-05 0.0198307167 -0.1161170706
600296400.0 -0.2944889613 0.7919608155 0.000271052 -2.95269e-05 0.0001226471 7.09078e-05 0.0181590896 -0.1163547196
605296370.0 -0.2872681478 0.7945877152 -1.67704e-05 -6.90045e-05 0.0001265144 -2.95178e-05 0.016787103 -0.1160620134
610296340.0 -0.2789026471 0.797531752 0.0001650588 9.98678e-05 0.0001052225 -8.70546e-05 0.0151321185 -0.1162686426
615296310.0 -0.2705003916 0.7998403844 4.10704e-05 -4.398e-06 -0.0001093078 -0.0001330881 0.0134933105 -0.1166609988
620296280.0 -0.2626983831 0.8020798437 0.0001724177 0.0001071657 0.0003389041 -0.0001395383 0.0114164841 -0.1167994888
625296250.0 -0.2551669151 0.8056574419 -7.5196e-06 3.23422e-05 0.0002357848 -8.53876e-05 0.0100346448 -0.1169199152
630296220.0 -0.2458364181 0.8079582089 -3.74849e-05 8.4886e-06 0.000233207 0.0001871404 0.0083142563 -0.1166781961
635296190.0 -0.2382099061 0.8107939801 2.55826e-05 -2.68613e-05 7.46327e-05 -4.66357e-05 0.0071167349 -0.1170286929
640296160.0 -0.2312311759 0.812366432 5.89686e-05 -6.15855e-05 0.0002560237 -0.0002719853 0.0050217646 -0.1170110243
645296130.0 -0.2222435521 0.815389982 0.0002425928 -0.0001888314 0.0001462213 9.48569e-05 0.0035177042 -0.1166166734
650296100.0 -0.213943473 0.8168292516 0.0002047557 -0.0001741785 1.22115e-05 5.4663e-06 0.0017983044 -0.1170321243
655296070.0 -0.2060311784 0.8191331785 0.0003289201 5.10368e-05 0.0003695733 2.63659e-05 0.0005126998 -0.1168817171
660296040.0 -0.197848491 0.821050888 7.84719e-05 6.93477e-05 0.0002904031 -8.82248e-05 -0.0011119194 -0.1166622154
665296010.0 -0.1893405245 0.822203921 3.60198e-05 -6.86503e-05 -2.38926e-05 4.99412e-05 -0.0032421261 -0.1161329714
670295980.0 -0.1817731575 0.8244233004 0.0001967197 0.0001367051 0.0001438993 -9.40474e-05 -0.0046562767 -0.1157764717
675295950.0 -0.1731340285 0.8264187771 -2.20965e-05 -2.16485e-05 0.0001468209 0.0002019461 -0.0066670967 -0.1154380468
680295920.0 -0.1644544628 0.82822157 0.0003555331 -0.0001155507 0.0002123617 -6.40497e-05 -0.0077570595 -0.115260216
685295890.0 -0.1564001085 0.8301421407 0.0001318276 -1.50022e-05 0.0001280212 -0.0001530275 -0.009632258 -0.1149674921
690295860.0 -0.1484178282 0.8310052547 2.59566e-05 -0.0001045788 0.0001437047 0.0001504951 -0.0113796775 -0.1144943666
695295830.0 -0.1404900503 0.8320720689 0.0003724401 -8.28207e-05 4.48158e-05 0.0001906022 -0.013009167 -0.1144320057
700295800.0 -0.1315577869 0.8336078999 3.37569e-05 -6.71092e-05 1.27933e-05 -8.71639e-05 -0.0148581444 -0.1140210707
705295770.0 -0.1238738193 0.8350640191 0.0001568586 -0.0001613826 9.32575e-05 0.000167733 -0.0162307364 -0.1130801318
710295740.0 -0.1151414856 0.8367798661 0.000191239 -1.85097e-05 0.0001966592 -8.057e-07 -0.018189798 -0.1133327743
715295710.0 -0.1074882519 0.8378282834 4.79804e-05 -8.64444e-05 8.6939e-05 -0.0001916859 -0.0196794776 -0.1129803743
720295680.0 -0.0986941216 0.8382676651 5.02584e-05 -9.72665e-05 6.9184e-05 -8.80552e-05 -0.0212067637 -0.11243673
725295650.0 -0.0904581871 0.8390697262 0.0002090934 0.0001077233 0.000304446 -8.6593e-06 -0.0233588577 -0.1115269757
730295620.0 -0.082027147 0.8402538657 0.0002001116 0.0001351619 0.0001482388 5.2166e-06 -0.024792877 -0.1114986598
735295590.0 -0.0739775682 0.8412625748 9.62651e-05 3.38689e-05 0.000154482 -0.0002251166 -0.0266980177 -0.1110679806
740295560.0 -0.0660631801 0.8420327663 0.0001439587 0.000135019 3.86359e-05 -0.0002122657 -0.0280831052 -0.1106144395
745295530.0 -0.0563245492 0.8423426358 0.0002060191 5.30612e-05 7.42134e-05 -0.0002561353 -0.029561355 -0.1099648229
750295500.0 -0.0483531891 0.8428495665 0.0001007338 0.0002267657 7.6205e-06 -0.0001637582 -0.0311425302 -0.1096067477
755295470.0 -0.0403306097 0.8428375558 -1.85052e-05 7.38733e-05 0.0001003857 -9.78605e-05 -0.0328835255 -0.109368899
760295440.0 -0.0319927194 0.8436250485 -0.0001110725 -4.53182e-05 0.0001954367 -0.0001449054 -0.0343990992 -0.1087519714
765295410.0 -0.023896188 0.8444373005 0.000216116 4.59231e-05 6.09914e-05 4.12214e-05 -0.0357675332 -0.1080823125
770295380.0 -0.0156509602 0.8442628857 0.0001001667 -1.19875e-05 0.0001957629 -5.36458e-05 -0.0379359279 -0.1076521863
775295350.0 -0.0069343834 0.8439653912 0.0003067971 -8.86167e-05 0.0001100704 7.355e-07 -0.0396710705 -0.1068371236
780295320.0 0.0015351537 0.8440193818 -9.96261e-05 -0.0001418383 0.0001384262 -0.0001079921 -0.0406376403 -0.1065543586
785295290.0 0.0088541529 0.8433397374 0.0002330603 -0.0001031073 0.0001130022 -5.65863e-05 -0.0420108982 -0.1057984783
790295260.0 0.0183915257 0.8434349281 6.84788e-05 -8.8199e-06 9.51003e-05 -8.35925e-05 -0.043476065 -0.1050644166
795295230.0 0.0259953467 0.8434808875 7.17359e-05 8.6485e-06 0.0002661808 5.81e-06 -0.0450978157 -0.1043564396
800295200.0 0.0342061666 0.8434591852 -9.38135e-05 -3.1174e-06 0.0002218966 -6.63037e-05 -0.046626819 -0.1035572142
805295170.0 0.043220357 0.843151516 0.0001700806 -0.0001974032 -1.63482e-05 -0.0002217948 -0.0484870291 -0.1030402045
810295140.0 0.0513513717 0.8426717553 9.54042e-05 5.61979e-05 0.0001407467 -9.31856e-05 -0.0493594317 -0.1020232224
815295110.0 0.0598095368 0.8419666595 6.71719e-05 -0.000105344 6.45627e-05 -3.53619e-05 -0.0508036419 -0.1009795508
820295080.0 0.0675421094 0.8410861606 -3.74535e-05 -0.0001275435 0.000154066 -0.0001506903 -0.0524291284 -0.1003677732
825295050.0 0.0768240444 0.8401167075 0.0005099068 -9.10872e-05 0.0002141758 9.39796e-05 -0.0534330011 -0.0997713265
830295020.0 0.0843575967 0.8396572517 -4.29978e-05 6.11393e-05 8.91004e-05 -5.14538e-05 -0.0545746188 -0.0988529686
835294990.0 0.0924673638 0.8391342347 0.0001604939 -3.68447e-05 0.0001643862 -1.56772e-05 -0.0564030707 -0.0976459333
840294960.0 0.1004927705 0.8380916576 0.0001595191 0.0003185493 0.0001921694 -1.56768e-05 -0.057844612 -0.0967007539
845294930.0 0.1086343828 0.8365115936 0.0001329772 2.33665e-05 0.0003143676 -1.41856e-05 -0.0592313366 -0.0956453005
850294900.0 0.1173161122 0.8363029714 0.0001065247 0.0001435721 0.0002434584 -0.0001660427 -0.0606457196 -0.0948618956
