!Created with skrf (http://scikit-rf.org).
# Hz S RI R 50.0 
!freq ReS11 ImS11 ReS21 ImS21 ReS12 ImS12 ReS22 ImS22
300000.0 -0.7767568308 -0.1518895404 0.0001022884 -0.0010368308 0.0005785249 0.0002875832 -0.0479575274 -0.0687613971
5299970.0 -0.7850269659 -0.0073045833 0.0001673228 -5.90607e-05 -4.98538e-05 2.78537e-05 -0.0493967181 0.0146231205
10299940.0 -0.7877072285 -0.0043229833 8.69819e-05 -3.30501e-05 0.0001543235 4.61936e-05 -0.0439652988 0.0321588328
15299910.0 -0.7930812091 -0.0016448188 -3.38923e-05 -6.9669e-06 6.61133e-05 7.85247e-05 -0.0357936372 0.0466376826
20299880.0 -0.7997445932 0.0021906733 5.95535e-05 -0.0001670068 -0.0002305229 0.0002015021 -0.025905059 0.0583269631
25299850.0 -0.8062592854 0.0083173729 0.0001150507 -6.41773e-05 8.70179e-05 6.69189e-05 -0.0153390281 0.0678875514
30299820.0 -0.8120082883 0.0164717996 -3.21044e-05 9.98904e-05 -0.0001263764 -8.34061e-05 -0.0036459374 0.0746211477
35299790.0 -0.8163215436 0.0251108356 2.47638e-05 4.89e-05 -6.16284e-05 5.07289e-05 0.0075878826 0.0793895671
40299760.0 -0.8215945996 0.0346252234 -1.28069e-05 0.0002207689 -1.80475e-05 3.90598e-05 0.0189617611 0.0824357438
45299730.0 -0.8246375419 0.0448638087 0.0001080815 6.33714e-05 8.38798e-05 -0.0001015695 0.0293766379 0.0841429527
50299700.0 -0.8266039816 0.05367735 1.99039e-05 5.79869e-05 7.16477e-05 4.43194e-05 0.0395134683 0.0841756405
55299670.0 -0.8284664867 0.064348226 4.61995e-05 -2.33674e-05 2.08956e-05 3.30634e-05 0.0481561206 0.0834870199
60299640.0 -0.8296093285 0.0746835603 -2.63048e-05 6.4141e-06 6.3359e-05 6.11754e-05 0.0570206089 0.0813357396
65299610.0 -0.83100482 0.0851693193 0.0001056482 -8.02488e-05 3.6001e-05 8.31603e-05 0.0647081466 0.0793466402
70299580.0 -0.8312507865 0.0945839326 2.39095e-05 0.0001009011 0.0001652232 2.78958e-05 0.0717780296 0.0766058703
75299550.0 -0.8310322363 0.1046880958 -8.08744e-05 -8.72885e-05 -1.94068e-05 0.0002308297 0.0780965811 0.073582074
80299520.0 -0.8311042731 0.114613411 -2.92641e-05 8.76365e-05 7.52915e-05 2.6226e-05 0.0836155549 0.0701333643
85299490.0 -0.8306819754 0.1237510115 -0.0001494925 -3.26575e-05 -3.97094e-05 -6.29894e-05 0.088752512 0.0667330099
90299460.0 -0.8297963072 0.1340316031 0.0002201305 -8.64547e-05 -0.0001214837 0.0001435188 0.093546725 0.0628816295
95299430.0 -0.8291200795 0.1432892947 2.53702e-05 6.95421e-05 5.25013e-05 3.64976e-05 0.0973947798 0.059172782
100299400.0 -0.8276839111 0.1529756102 0.0001518104 4.14881e-05 -0.0001489115 0.0002941922 0.1008882921 0.0553884518
105299370.0 -0.8263257256 0.1625294261 -0.0001780656 7.1145e-05 5.01385e-05 6.89731e-05 0.1046131207 0.0513610895
110299340.0 -0.8253128993 0.1706876089 -7.1073e-06 -2.07025e-05 0.0001374661 0.0002322134 0.1072367794 0.0477619766
115299310.0 -0.8238164923 0.1805825696 0.0001141736 7.38042e-05 -6.33117e-05 0.0001217678 0.1100562019 0.0437789729
120299280.0 -0.8220080821 0.1895116486 -1.59219e-05 8.09441e-05 0.0001415012 -2.76217e-05 0.1122708314 0.0401100428
125299250.0 -0.8204566574 0.1982018912 -2.00107e-05 2.0705e-06 -9.04607e-05 0.0001757649 0.1144521082 0.0359223767
130299220.0 -0.8182512238 0.2074953852 0.0002051671 0.000292613 -0.0001056624 0.000154415 0.1158094386 0.0327200826
135299190.0 -0.8165458957 0.216677545 0.0003286386 7.65232e-05 8.93122e-05 8.42635e-05 0.117318933 0.0288608532
140299160.0 -0.8145881475 0.2255255516 1.52291e-05 0.0001107934 0.0001799576 0.0001055886 0.1190917971 0.0253394531
145299130.0 -0.8119461229 0.2342353924 6.7377e-06 3.1414e-06 -0.0001262009 0.0001693162 0.1196599598 0.022291066
150299100.0 -0.8096366015 0.2428119334 4.98991e-05 4.82868e-05 0.0001114406 -0.0001326225 0.1207445875 0.0186050562
155299070.0 -0.8077575566 0.2519874682 0.0002113361 8.74177e-05 0.0001435615 1.86357e-05 0.1216519644 0.0154868935
160299040.0 -0.8049798973 0.2611133922 6.01213e-05 3.14499e-05 4.43083e-05 0.0001103159 0.1226217329 0.0123396737
165299010.0 -0.802021026 0.2690858319 -7.73585e-05 4.25992e-05 0.0002598771 0.0002068702 0.1230190618 0.0089703979
170298980.0 -0.7994201078 0.2778900462 9.54348e-05 1.59438e-05 0.0001805822 4.47644e-05 0.123575616 0.0060119418
175298950.0 -0.7966903368 0.2870441854 0.0001119881 0.0001557822 -0.0001731446 0.0001179619 0.1239320522 0.0025940611
180298920.0 -0.793661815 0.2946085885 0.0001568176 -5.50033e-05 2.61315e-05 5.92424e-05 0.1244308062 0.0001255479
185298890.0 -0.7901727185 0.3043175458 0.0003372132 -9.334e-05 2.36787e-05 7.09865e-05 0.1241751115 -0.0031786406
190298860.0 -0.7872302435 0.3124857586 -3.32965e-05 0.0003500016 0.0001697438 7.0444e-05 0.1246599426 -0.0055657033
195298830.0 -0.7835392954 0.3207388409 0.0002571356 8.99391e-05 1.35834e-05 1.43082e-05 0.1245346475 -0.0086377668
200298800.0 -0.7807773882 0.3292276465 0.0001700329 -0.000100818 6.15194e-05 -1.01267e-05 0.1245685381 -0.0112364133
205298770.0 -0.7774345525 0.3368218239 0.0001536363 -3.95563e-05 -0.0001544707 0.0001999599 0.1242569914 -0.0136655934
210298740.0 -0.7736031891 0.3454968384 -8.65117e-05 7.80462e-05 0.0001745434 4.39731e-05 0.1240074713 -0.0163152801
215298710.0 -0.7699260473 0.3543704542 0.0002200118 0.000271018 9.62078e-05 0.0001651293 0.123518491 -0.0185881225
220298680.0 -0.7673408546 0.3624131848 3.98055e-05 0.0001348722 -8.07927e-05 8.93552e-05 0.1237129715 -0.0210370659
225298650.0 -0.7630897181 0.3704114262 5.88552e-05 -2.8662e-05 7.85421e-05 -0.0001723208 0.1229458202 -0.0230126322
230298620.0 -0.7589592857 0.378897117 0.0001367961 -4.20726e-05 -6.3415e-05 7.15945e-05 0.1226978947 -0.0257355736
235298590.0 -0.7545649645 0.3874674789 0.0001021574 4.8142e-06 0.0001392461 -3.29589e-05 0.1221172647 -0.0279152249
240298560.0 -0.7507420693 0.3954934814 0.0002756922 -0.0001094651 0.0001767034 0.0002299102 0.1217965222 -0.0303981961
245298530.0 -0.746687031 0.4024610228 -4.10369e-05 0.0001117568 0.0001495713 0.0002262523 0.1212018949 -0.0323375225
250298500.0 -0.7426554829 0.410611902 8.55019e-05 0.0001679774 0.0001648294 -2.12746e-05 0.1207737207 -0.0341354253
255298470.0 -0.7372538022 0.4185173647 0.0001837132 0.0002703445 3.34508e-05 -0.0001702361 0.1201661455 -0.0367059312
260298440.0 -0.7334595614 0.4258266895 9.57308e-05 0.0002026443 0.0001795453 7.98355e-05 0.1194741285 -0.0386142966
265298410.0 -0.7293897456 0.433805488 2.14636e-05 -0.0001406889 0.000160006 0.0001679785 0.11905898 -0.040823698
270298380.0 -0.7245103365 0.4415662792 4.86663e-05 0.0002322945 0.0001167266 0.0001486549 0.1185423054 -0.0425270541
275298350.0 -0.7198843817 0.4489988966 0.0002072366 0.0001624675 0.0002460843 0.0001081045 0.1178296893 -0.0441808876
280298320.0 -0.7154047225 0.4561137403 0.0001707869 0.0002128021 0.0001620909 0.0001378081 0.1171763667 -0.0465833242
285298290.0 -0.7100890165 0.4643938332 0.0001613138 5.38752e-05 7.75036e-05 0.0001272272 0.1159285371 -0.0481879246
290298260.0 -0.7054191767 0.4720123304 0.0003489488 5.86924e-05 0.0002499623 0.0002161384 0.115596457 -0.0499367153
295298230.0 -0.7005987492 0.4791629369 0.0001799282 -0.0001006779 0.0001290534 0.000161153 0.1147319022 -0.0515133679
300298200.0 -0.6946132601 0.4858677219 0.0001783093 0.0001147285 0.0001430627 0.0001943802 0.1140125199 -0.0534916505
305298170.0 -0.690399986 0.4939744157 7.08453e-05 -0.0002397423 0.0001854501 0.0001803269 0.1136702083 -0.0550048443
310298140.0 -0.6845229857 0.500700955 -6.63813e-05 5.11304e-05 0.0001729384 0.0002189678 0.1126789344 -0.0562737388
315298110.0 -0.6793360741 0.5080613677 0.0001724947 -4.78529e-05 0.0002386407 0.0001098346 0.1117811181 -0.0583271692
320298080.0 -0.6740021073 0.5156833518 8.9949e-06 0.0002310365 0.0003530495 0.0002190328 0.1109649729 -0.0601300883
325298050.0 -0.6683295973 0.5223843544 0.0001300601 0.0001021582 0.0002873569 0.0003466326 0.1098497362 -0.0620026095
330298020.0 -0.6631055242 0.5287990169 0.0002578656 8.27457e-05 0.0001559402 0.0001358528 0.1084664461 -0.0636069491
335297990.0 -0.6578460476 0.5357722739 0.0001372919 0.0001773116 0.0002396136 1.26919e-05 0.1074679313 -0.0653499844
340297960.0 -0.6527539647 0.5427192313 4.50079e-05 -3.19435e-05 4.40396e-05 0.0001411711 0.1063126518 -0.066626416
345297930.0 -0.6460179521 0.5489171097 0.0002099514 0.0001019886 -4.31702e-05 8.96878e-05 0.1051586953 -0.0679901083
350297900.0 -0.6405948036 0.5561162807 0.0004163686 1.0548e-05 9.18832e-05 1.97193e-05 0.1039768248 -0.0689358652
355297870.0 -0.6345494215 0.5623662909 0.0002908819 0.000213138 0.0001907991 0.0003221402 0.1026173469 -0.0706798738
360297840.0 -0.6288324778 0.5690441762 0.0002059614 0.0002675505 -1.836e-07 7.72233e-05 0.1016912522 -0.0715684569
365297810.0 -0.6221412035 0.5753043245 0.0003271926 0.0001123188 0.0001130852 3.52173e-05 0.1004545419 -0.0728563803
370297780.0 -0.6157755271 0.5817400269 0.0001728048 2.48477e-05 0.0001694907 3.55721e-05 0.0992631231 -0.0741491069
375297750.0 -0.6102997412 0.5883174869 0.0001688813 -1.05533e-05 0.0002860779 9.27668e-05 0.0980706092 -0.0753290125
380297720.0 -0.6037881313 0.5948559435 0.0002725688 2.76953e-05 0.000168099 0.0001169811 0.0973358691 -0.0763961663
385297690.0 -0.5980242697 0.6007373068 3.66708e-05 0.0002748677 0.0002620788 0.0001699457 0.095734029 -0.0772012678
390297660.0 -0.5911640565 0.6069058063 9.04335e-05 8.23256e-05 0.0001693748 0.0002854659 0.0947478249 -0.0788017746
395297630.0 -0.5853325166 0.6127589359 0.0002953482 0.0002790001 0.000233566 6.97941e-05 0.0933657727 -0.0793618874
400297600.0 -0.578510602 0.6192172073 0.0003753849 0.000219281 0.0003672279 0.0001621815 0.0920573197 -0.0806209504
405297570.0 -0.5724256195 0.624759647 0.0003139936 0.0002118491 0.0002722234 7.02169e-05 0.0908630727 -0.0819371842
410297540.0 -0.566083196 0.6309715623 0.0002856305 0.0001087251 6.69418e-05 -5.71327e-05 0.0896012969 -0.0823909323
415297510.0 -0.5595320781 0.6364764812 0.000324548 4.066e-05 0.0001712402 -0.0001059595 0.0884727043 -0.0831707475
420297480.0 -0.5519023883 0.6418592172 0.0001285832 0.0001278683 0.0002090519 9.42627e-05 0.0871020336 -0.0846498688
425297450.0 -0.5456971355 0.6478299448 0.0001696804 5.93225e-05 0.0001939731 3.68366e-05 0.0859280848 -0.0854516915
430297420.0 -0.5391711115 0.6531130945 0.0002678858 0.0002312188 0.000113876 4.60163e-05 0.0842776868 -0.086318413
435297390.0 -0.5320554255 0.6592910898 0.000277642 0.0002205649 0.0001900916 1.16716e-05 0.0834513703 -0.087170772
440297360.0 -0.5250550832 0.6646491768 0.0002884715 0.0001708897 0.0002865982 0.0001663906 0.0815988816 -0.0882084775
445297330.0 -0.5180867607 0.6699367803 0.0002354685 -0.0001348336 0.0003256731 -6.0398e-05 0.0805481044 -0.0891539119
450297300.0 -0.5113735407 0.6743736899 0.0004326617 -1.84148e-05 0.0001491254 0.0001347704 0.079072643 -0.0895679001
455297270.0 -0.5041535153 0.6796601763 0.0003177563 -1.74736e-05 0.0003467211 7.32521e-05 0.0779347791 -0.0906488971
460297240.0 -0.4975504093 0.6853441371 0.0002792363 -0.0001228626 0.0003073618 8.6789e-05 0.0766684962 -0.0911645407
465297210.0 -0.4900583753 0.6901724444 0.0001863059 0.0001721104 0.0001610986 4.98618e-05 0.0750658322 -0.0922451247
470297180.0 -0.4832110107 0.6945527617 0.0002920968 -3.0343e-05 5.91157e-05 -2.25976e-05 0.0734434548 -0.0928815816
475297150.0 -0.4761073624 0.7006781632 0.0002831439 0.000326851 0.0001209364 2.64254e-05 0.0723918196 -0.093817285
480297120.0 -0.4690154344 0.7048301531 0.0002324744 9.5269e-05 0.0003169795 0.0002183784 0.0711478898 -0.0942219058
485297090.0 -0.4611547861 0.7095312558 7.88284e-05 -3.64802e-05 0.0001949264 6.799e-07 0.0695015348 -0.094917655
490297060.0 -0.4542118495 0.7137870702 0.0003780927 0.0001118874 0.0002570832 4.36452e-05 0.0682617558 -0.095558639
495297030.0 -0.447081204 0.7189479752 6.80015e-05 -6.4133e-05 0.0001388087 9.16452e-05 0.0665845935 -0.0965671738
500297000.0 -0.4385711905 0.7231850011 0.0003492168 0.0001916136 0.0004528373 0.0002092307 0.0655003772 -0.0970534176
505296970.0 -0.4317398819 0.7268112347 0.0003811614 0.0001968553 0.0003024681 0.0002477959 0.0636252567 -0.0973897652
510296940.0 -0.4244384199 0.7321328663 0.0001850798 -3.16344e-05 0.0002163149 9.3835e-06 0.0624084398 -0.098249856
515296910.0 -0.4167822854 0.7362076089 0.0002825919 9.95524e-05 0.0002302196 -9.99759e-05 0.0612168196 -0.098844078
520296880.0 -0.4091015238 0.7405421382 0.0004299365 9.15451e-05 0.0003528781 1.4087e-06 0.059996151 -0.0992445491
525296850.0 -0.4016730933 0.7445153352 2.99819e-05 1.20763e-05 0.0003231144 2.01971e-05 0.0584986343 -0.1000872553
530296820.0 -0.3941280069 0.7483639726 0.0003510612 0.0003370412 0.0003286921 -1.49551e-05 0.05650326 -0.1005031237
535296790.0 -0.3866173869 0.7524490701 0.0001402093 4.3996e-06 0.000249917 -7.21896e-05 0.0552664623 -0.1013685674
540296760.0 -0.3781495577 0.755897036 0.0001346928 3.80045e-05 0.0002954024 7.0959e-06 0.0538094026 -0.1013731032
545296730.0 -0.3707904857 0.7596337354 0.0001292098 0.0001856403 0.0003854474 -0.0001197193 0.0521685196 -0.1019103779
550296700.0 -0.3633439022 0.7640623906 0.000380509 0.0001263394 0.0002624095 0.0001971488 0.0511156337 -0.1024656633
555296670.0 -0.3549640819 0.7673747603 0.0001163465 0.0001104489 0.0003031493 -7.32916e-05 0.0492257909 -0.1029361948
560296640.0 -0.347470945 0.7702733922 0.0007606182 1.02564e-05 0.0003064951 -0.0001356259 0.0480527145 -0.1032113277
565296610.0 -0.3396865244 0.7738010374 0.0001839743 0.0001409591 0.0002061079 -1.65687e-05 0.0464024455 -0.1037300444
570296580.0 -0.3318442185 0.7768824509 0.0004984498 0.000352302 0.0004631769 0.0002248592 0.0450558233 -0.1039211775
575296550.0 -0.3235064773 0.7806762278 0.0004170622 0.0002695193 0.000173285 2.6201e-06 0.043968435 -0.1045805269
580296520.0 -0.3159094017 0.7837493399 5.94627e-05 4.45646e-05 0.0003475511 1.12803e-05 0.0422417059 -0.1047665064
585296490.0 -0.3078431625 0.7864101757 0.0002458915 -8.8017e-06 0.0002932305 0.0001020022 0.0405892302 -0.1055059822
590296460.0 -0.2999874011 0.7897365763 0.0001544091 -2.40314e-05 0.0002748198 0.0002366346 0.0393766612 -0.1055389086
595296430.0 -0.2912739703 0.7934983609 0.0002355397 -4.52481e-05 0.0002629298 0.0002363717 0.0374332654 -0.105877096
600296400.0 -0.2835437354 0.7956350384 0.0002738373 1.08031e-05 0.0003682913 0.00016894 0.036526549 -0.1062398849
605296370.0 -0.2751251895 0.7987874863 0.0001181341 0.0001341248 0.0004713382 5.9836e-05 0.0349773135 -0.1061876009
610296340.0 -0.2677970879 0.8016025847 0.0003781535 0.0003023452 0.0003083107 0.0001283431 0.0332444743 -0.1064402877
615296310.0 -0.2592139304 0.804057447 0.0003635931 0.0001674853 0.0002111124 0.000111934 0.0317849339 -0.1067524516
620296280.0 -0.2505609683 0.8060365238 7.75585e-05 3.25327e-05 0.0004640246 -0.0001177639 0.0302724585 -0.1071701406
625296250.0 -0.2429321745 0.8090583776 0.0002967992 8.46884e-05 0.0002997475 7.98869e-05 0.0288500321 -0.1070632032
630296220.0 -0.2343081533 0.8118640846 0.000405661 -0.0001102975 0.0004280694 -4.47376e-05 0.027514459 -0.1070835772
635296190.0 -0.2262609164 0.8135207355 0.0002885314 0.0001566555 0.0001959979 4.43869e-05 0.0260702432 -0.1070576722
640296160.0 -0.2179496976 0.8150108132 0.0004661648 -8.63717e-05 0.0002626051 -3.6964e-05 0.0245726849 -0.1076592543
645296130.0 -0.210445235 0.8179805166 0.0004736877 -2.47937e-05 0.0004207238 0.0001269764 0.0231171047 -0.1077781789
650296100.0 -0.2017587122 0.8206215997 0.0005405325 -7.53004e-05 0.0004076991 3.88409e-05 0.0212242792 -0.1075239097
655296070.0 -0.193049107 0.8219849985 8.59631e-05 5.46356e-05 0.0003081469 -0.0001494372 0.0201142696 -0.1074397807
660296040.0 -0.1854344586 0.8241808111 0.0005963242 -6.9238e-06 0.0002301542 0.0001145743 0.018557987 -0.1077906044
665296010.0 -0.1768876568 0.8259823935 0.0003796133 0.00021501 0.0004491868 2.40307e-05 0.0171638483 -0.1076012367
670295980.0 -0.1673434817 0.8276414112 0.0003760306 -0.000428153 0.0004995587 4.54114e-05 0.0155583615 -0.1076271561
675295950.0 -0.1599959859 0.828624357 0.0004991156 9.55611e-05 0.000234145 0.0001096905 0.0144443329 -0.1074938535
680295920.0 -0.1519362431 0.8309974684 0.0004668053 0.0001327978 0.0004529423 3.6991e-06 0.0126871575 -0.1077915742
685295890.0 -0.1432800305 0.83217569 0.0003995302 -0.00011379 0.0002146375 -0.000145965 0.011499803 -0.107690511
690295860.0 -0.1342556323 0.8337666203 0.0002396426 -0.0003432621 0.0003277941 -0.0001694279 0.0096425882 -0.1073724803
695295830.0 -0.1262046838 0.8343240062 9.44355e-05 -0.0001393956 0.0004421108 6.8938e-06 0.0082959056 -0.1072603315
700295800.0 -0.1179874242 0.8352865067 0.0003651407 -9.7514e-05 0.0004374135 -0.0001249344 0.006961709 -0.107325244
705295770.0 -0.1089631721 0.8373307484 0.0005015078 -3.25506e-05 0.0004879903 0.0001074192 0.0052984252 -0.1071562665
710295740.0 -0.1009840129 0.838044329 0.0004406349 -0.0001690371 0.0003681533 -7.11666e-05 0.0039096484 -0.1066479958
715295710.0 -0.093280167 0.8394220493 0.0002777282 -7.89442e-05 0.000195108 -0.0002266563 0.0024347045 -0.106897414
720295680.0 -0.084313318 0.8394999224 0.0002005029 1.5289e-05 0.0002770296 -5.04437e-05 0.0013421082 -0.1062836562
725295650.0 -0.0749031147 0.8407234296 0.000244491 -9.22585e-05 0.0001819151 5.10643e-05 -0.000373674 -0.106403429
730295620.0 -0.0675687117 0.8414931141 0.0005225205 -4.11117e-05 0.0003403014 2.36283e-05 -0.0015734116 -0.1063812631
735295590.0 -0.0584149592 0.8414279041 0.0004036441 -0.0002411741 0.0004648177 -1.74021e-05 -0.0028589456 -0.1060567451
740295560.0 -0.0499692983 0.8424486714 0.0005208219 -0.0001586272 0.0004491035 -4.62996e-05 -0.0043152179 -0.1057460925
745295530.0 -0.0418422024 0.8428091337 0.0003402997 -0.0001869747 0.0004687764 -0.0001418249 -0.0059318418 -0.1055125698
750295500.0 -0.0340273005 0.8431789613 0.0003183197 -0.0002311395 0.000417417 2.8423e-06 -0.0074770061 -0.1053402237
755295470.0 -0.0244176098 0.8433139196 0.0005272997 -5.33598e-05 0.0004665043 -8.81167e-05 -0.0088967552 -0.1046787052
760295440.0 -0.0159331511 0.8436293278 0.000395671 0.0001372991 0.0003530219 -7.26169e-05 -0.0104324839 -0.1045955625
765295410.0 -0.0079492315 0.8436188585 0.0005080416 -8.44574e-05 0.0004156483 5.13276e-05 -0.0115304556 -0.1038262472
770295380.0 0.0002820156 0.8445656502 0.0003444032 -3.60789e-05 0.0003033326 5.4841e-06 -0.0125615105 -0.1036378405
775295350.0 0.008845913 0.843741182 0.0005122347 -4.35052e-05 0.0002696685 -6.60554e-05 -0.0146236981 -0.103617253
780295320.0 0.017575482 0.8433517431 0.0005815264 -6.29315e-05 0.0004123946 1.59663e-05 -0.0158384761 -0.102434769
785295290.0 0.026386875 0.8440249133 0.0004826315 -2.8005e-06 0.0003638367 0.0001679744 -0.0173368291 -0.1023553993
790295260.0 0.0342970789 0.8427553529 0.0005007839 -7.30662e-05 0.0004352765 -4.7269e-06 -0.0185401546 -0.1021800762
795295230.0 0.042482252 0.8428334349 0.0005922148 -0.0001566274 0.0001514337 -0.0002018761 -0.0196687611 -0.1012660012
800295200.0 0.0511058026 0.8422678977 0.00020768 -0.0001303758 0.0003841832 -0.0001057046 -0.0211337592 -0.1011962196
805295170.0 0.0598171881 0.8418830632 0.0004318989 -0.0001884926 0.0005956581 -0.0002459024 -0.0227136781 -0.1004429015
810295140.0 0.068163688 0.8414451738 0.0004674637 -6.61605e-05 0.0005520784 -0.0001815886 -0.0237313752 -0.0999733847
815295110.0 0.0770497707 0.8400626715 0.0003879001 -0.0002802936 0.0002109362 9.48035e-05 -0.0251182426 -0.0992027425
820295080.0 0.0852606533 0.8394223634 0.00040701 -1.13384e-05 8.34946e-05 -9.33898e-05 -0.0266635499 -0.0987850281
825295050.0 0.0939265853 0.8384497746 0.0004894674 1.012e-06 0.0003976566 -9.78865e-05 -0.0275597112 -0.0983043648
830295020.0 0.1015858364 0.8380486261 0.0004894753 -0.0002338479 0.0002127306 -1.61046e-05 -0.0293037188 -0.0977675265
835294990.0 0.1096396569 0.8365598024 0.0003936531 -0.0002564904 0.0004658364 -0.0002617541 -0.0302108813 -0.0973004816
840294960.0 0.1185656541 0.8351448902 0.000659145 -0.0002019826 0.0005330498 -0.0003220252 -0.0317129526 -0.0960463765
845294930.0 0.1270446535 0.8343901066 0.0004684701 -0.000252261 0.0003037159 -2.77737e-05 -0.0327978348 -0.0957884387
850294900.0 0.1350593135 0.8324753032 0.0003784163 -0.0001074824 0.0006780914 -0.0002708572 -0.0340752069 -0.094961477
