!Created with skrf (http://scikit-rf.org).
# Hz S RI R 50.0 
!freq ReS11 ImS11 ReS21 ImS21 ReS12 ImS12 ReS22 ImS22
300000.0 -0.2373103245 -0.1169031844 0.4664408455 0.0762500056 0.4660895662 0.078096499 -0.234837214 -0.1230497512
5299970.0 -0.245277506 0.0054774433 0.4737451156 0.0060893723 0.4742470317 0.0060076949 -0.2437886853 0.0054293354
10299940.0 -0.2418850431 0.0184077882 0.4761948248 0.0067107712 0.4761215249 0.0073404033 -0.2400982116 0.0180760615
15299910.0 -0.2369342672 0.0283852371 0.479470257 0.0081987734 0.4799462198 0.0085307718 -0.2363384173 0.0274251078
20299880.0 -0.2316554966 0.0362698945 0.4842210953 0.0085266624 0.4845581743 0.008327566 -0.2311953619 0.0353190875
25299850.0 -0.2258652484 0.0425788511 0.4897392364 0.0081216568 0.4897860574 0.0076648868 -0.2262812179 0.0417924238
30299820.0 -0.220045496 0.0476886239 0.4949269946 0.005497632 0.4950104774 0.0051847801 -0.2209215086 0.0467205998
35299790.0 -0.2144396597 0.0519120589 0.499809529 0.0023218612 0.5005553446 0.0023983637 -0.2159022381 0.0516064202
40299760.0 -0.2092024299 0.054617183 0.5054576505 -0.0016271426 0.5057572571 -0.0015322788 -0.210601915 0.0547426869
45299730.0 -0.2040293465 0.0571562387 0.5103200081 -0.0061983321 0.5110528993 -0.0064996768 -0.2057286586 0.0577388917
50299700.0 -0.1992221988 0.0591666498 0.5145044189 -0.0119049872 0.5146657158 -0.0120796702 -0.2010966051 0.0602152752
55299670.0 -0.1949306624 0.0605164301 0.5184162964 -0.0172862632 0.5182478637 -0.017895762 -0.197560092 0.0619677813
60299640.0 -0.1909323536 0.0619377222 0.5220163594 -0.0239193064 0.5219110472 -0.0241224229 -0.1937337441 0.0632406607
65299610.0 -0.187231251 0.0625505424 0.5246729658 -0.0302287874 0.5250902552 -0.0305727338 -0.1901732871 0.0647669838
70299580.0 -0.183775097 0.0632839088 0.5269092315 -0.0368250015 0.527309367 -0.0370741346 -0.1873326064 0.0659073502
75299550.0 -0.1812752796 0.0637495605 0.529118321 -0.0440139428 0.5293535638 -0.0441203431 -0.1843452218 0.0672770873
80299520.0 -0.1786459902 0.0645155357 0.5312991047 -0.0504673987 0.5313599843 -0.0510736385 -0.1816926821 0.0683514419
85299490.0 -0.1760272777 0.0647274419 0.5318826451 -0.0574393335 0.5326944736 -0.057343396 -0.1796220066 0.0685743951
90299460.0 -0.1738497821 0.0653902443 0.5329982917 -0.0643642803 0.5332443071 -0.0645438237 -0.1770064762 0.0699098072
95299430.0 -0.1713282453 0.0658335082 0.5339251057 -0.0712435568 0.5344456921 -0.0716244508 -0.1751104963 0.0703828777
100299400.0 -0.1695874279 0.0661634185 0.5347923819 -0.0782833924 0.5345675998 -0.0786662782 -0.173341877 0.0716075582
105299370.0 -0.1677789854 0.0664850605 0.5348752455 -0.0851097498 0.5356307587 -0.0853533264 -0.1709983153 0.0721473467
110299340.0 -0.1659163503 0.0669514897 0.5350762392 -0.0916558321 0.5354675315 -0.0917365478 -0.1699103732 0.0731460088
115299310.0 -0.1647458179 0.0676757664 0.5351401788 -0.0981926059 0.5352590769 -0.098803198 -0.1684443528 0.0742847102
120299280.0 -0.1632021379 0.0684261781 0.5350040661 -0.1061891357 0.5347949139 -0.1058942246 -0.1669569655 0.0745869701
125299250.0 -0.1620375079 0.0686017078 0.5347438209 -0.1124174103 0.5348775123 -0.1121761835 -0.1653788298 0.075827673
130299220.0 -0.1606958169 0.0692275408 0.5341822433 -0.1192626068 0.5341583056 -0.1197458805 -0.1641293837 0.0770577872
135299190.0 -0.1598824888 0.0702752582 0.5340413863 -0.1254516022 0.5336886366 -0.1264180154 -0.1629326883 0.0776481187
140299160.0 -0.1586614783 0.0709340444 0.5326593741 -0.1328242311 0.5330160817 -0.1322277102 -0.1621788473 0.0785272217
145299130.0 -0.1578511337 0.0715463186 0.5318200785 -0.1390149898 0.5320634114 -0.139376175 -0.1608110717 0.0799537808
150299100.0 -0.1565313733 0.0723583507 0.5305436003 -0.1454494854 0.5304454514 -0.1456599233 -0.1598350966 0.0813576781
155299070.0 -0.1557207179 0.0734473683 0.5292006487 -0.1522040835 0.5296241122 -0.1522336603 -0.1589002519 0.0823939676
160299040.0 -0.1548962289 0.0744338642 0.5281156095 -0.1588795884 0.528036896 -0.1588681331 -0.1580027839 0.0836852603
165299010.0 -0.1540014266 0.0752834368 0.5268711725 -0.1649050564 0.5265007298 -0.1656195666 -0.1565509315 0.0844946606
170298980.0 -0.1530660902 0.0762412482 0.5247059656 -0.1713586921 0.5250316721 -0.1717733305 -0.1559435734 0.0857489542
175298950.0 -0.1521773302 0.0773972022 0.5233372551 -0.1777030157 0.5235234579 -0.1782332951 -0.1551414312 0.087369676
180298920.0 -0.1515253348 0.0785460287 0.5215987381 -0.1842603522 0.5215271858 -0.1841885733 -0.1540358581 0.0884461553
185298890.0 -0.1507353398 0.0794524122 0.5205889973 -0.1901166969 0.5198534148 -0.1901788916 -0.152902156 0.0895246738
190298860.0 -0.1496683971 0.0807795717 0.5170924141 -0.1968013687 0.51850935 -0.1962962273 -0.1524144344 0.0909112902
195298830.0 -0.1490025633 0.0821531203 0.5162486485 -0.2024436791 0.5162329271 -0.2027424875 -0.1512178351 0.0922681378
200298800.0 -0.1483345742 0.0826640268 0.5143758994 -0.2090710254 0.5142063789 -0.2090387394 -0.1502753386 0.0935103129
205298770.0 -0.1478680845 0.0839388354 0.5114383925 -0.214607884 0.5117347131 -0.2144192429 -0.149132513 0.095085765
210298740.0 -0.1469439246 0.085367639 0.509682212 -0.2208953598 0.5092243334 -0.2209529929 -0.1485108142 0.0962357078
215298710.0 -0.1463577201 0.0865700592 0.5069287744 -0.2265149759 0.5071239421 -0.2270194231 -0.1476518036 0.0980445668
220298680.0 -0.1452294943 0.0878610899 0.5044738049 -0.2324010389 0.5044586749 -0.2329007957 -0.1463455042 0.0989242068
225298650.0 -0.1445128538 0.0891855912 0.5018255764 -0.2383682665 0.5023935723 -0.2379972526 -0.1455870006 0.1003397385
230298620.0 -0.1436785746 0.0905815305 0.4996032525 -0.2443797143 0.5000412191 -0.2444926608 -0.1446923231 0.1017677079
235298590.0 -0.143350995 0.091892373 0.4971466379 -0.2505010862 0.4971751954 -0.2501723289 -0.1433326116 0.1031491288
240298560.0 -0.1423100892 0.0933045126 0.4944047075 -0.2554871927 0.4942706923 -0.2558320298 -0.1424295634 0.1045577583
245298530.0 -0.141533532 0.0941537792 0.4916590255 -0.2614376329 0.4918113152 -0.2617498879 -0.1415271841 0.1063410139
250298500.0 -0.1410470633 0.0954814994 0.488961852 -0.2670855506 0.4887893182 -0.2671509354 -0.1407244721 0.1076781583
255298470.0 -0.1396930512 0.0975690736 0.4861087782 -0.2724185071 0.4868953802 -0.2729251799 -0.1395818108 0.1095418107
260298440.0 -0.139124495 0.0981968474 0.4832312234 -0.2777536803 0.4832158253 -0.2778146832 -0.1386395847 0.1102499514
265298410.0 -0.1385564269 0.0994761959 0.4797072114 -0.2838131129 0.4800035744 -0.2841497597 -0.136750386 0.111786883
270298380.0 -0.1377515083 0.1006992783 0.4767721459 -0.2888584711 0.4770683404 -0.2889718647 -0.1361974246 0.1136268423
275298350.0 -0.1368168019 0.1025630772 0.473371874 -0.2943365414 0.4735334099 -0.2945951237 -0.1345264709 0.115183391
280298320.0 -0.1361584426 0.1037232888 0.4707690797 -0.2993788661 0.4707145741 -0.3000162279 -0.1334306563 0.1163702383
285298290.0 -0.1352922332 0.104849088 0.4667965353 -0.3052044309 0.4675064182 -0.3047855206 -0.1325624453 0.1179222989
290298260.0 -0.1340392155 0.1066188172 0.4644539923 -0.3102846619 0.4643503932 -0.310596493 -0.1309791528 0.1192297872
295298230.0 -0.1333911472 0.1074192121 0.4608769259 -0.316256793 0.4607989426 -0.3161913745 -0.1302261815 0.1207549495
300298200.0 -0.1323964441 0.1091054372 0.4576930262 -0.3209842641 0.4575323664 -0.3207175716 -0.1288089141 0.1222134688
305298170.0 -0.1313795539 0.1098741703 0.4539705606 -0.3264136159 0.4541604891 -0.3265085083 -0.127179144 0.1228871214
310298140.0 -0.130179032 0.1113029493 0.4501340328 -0.3315140774 0.4505473311 -0.3312426028 -0.1259215005 0.1243912415
315298110.0 -0.129653411 0.112393828 0.446910118 -0.3364148075 0.4466806541 -0.3368976313 -0.1245956629 0.1257156874
320298080.0 -0.1284129362 0.1137129779 0.4424543957 -0.3421639539 0.4431993227 -0.3423013144 -0.1235437115 0.127131129
325298050.0 -0.128300115 0.1145907644 0.4389276022 -0.3466080362 0.4395208781 -0.3470555128 -0.1223469504 0.128469683
330298020.0 -0.1275905174 0.1161737052 0.4350430437 -0.3521522773 0.4355187545 -0.3518582351 -0.1215182544 0.1296574469
335297990.0 -0.1266028253 0.1173033048 0.4310579945 -0.3563535332 0.4313343913 -0.3565727532 -0.1199665456 0.1309608687
340297960.0 -0.1255471429 0.1188333839 0.4267885375 -0.3618820907 0.4268916631 -0.3616764994 -0.1185009379 0.1325621783
345297930.0 -0.1250047029 0.1197211606 0.4227424232 -0.3664464042 0.4230876124 -0.3664674453 -0.1173543699 0.1336301637
350297900.0 -0.1240120468 0.1210624852 0.418982859 -0.370423581 0.4195100903 -0.3707430983 -0.1164851618 0.1350940107
355297870.0 -0.1231418268 0.1226814572 0.4150560476 -0.3751470911 0.4149100935 -0.3750198313 -0.114596468 0.1364501776
360297840.0 -0.1220354018 0.1237269006 0.4104507834 -0.3795399808 0.4109630412 -0.3801356026 -0.1133396482 0.1379978579
365297810.0 -0.1210995324 0.1252804207 0.4062644284 -0.3842031783 0.4064593582 -0.3846461307 -0.1121623244 0.1393493922
370297780.0 -0.1200255333 0.1265529756 0.4018564822 -0.3889534769 0.4024112478 -0.3890023979 -0.1106102598 0.1408137089
375297750.0 -0.119040817 0.1275893203 0.3982412463 -0.39287002 0.3982714486 -0.3933425807 -0.1088557674 0.1420848358
380297720.0 -0.1180450318 0.1289677269 0.3939240948 -0.3978356303 0.3935988587 -0.3978177722 -0.1075317137 0.1435572227
385297690.0 -0.117188757 0.1303723804 0.3893347111 -0.4017136059 0.3896865156 -0.4022445587 -0.1059235733 0.145032811
390297660.0 -0.1154855512 0.131281487 0.3845345532 -0.4058841185 0.385086327 -0.4062824225 -0.1043173304 0.1459518749
395297630.0 -0.1142932329 0.1329043572 0.380475337 -0.4097983973 0.3803931503 -0.4101390479 -0.1028383593 0.1473235501
400297600.0 -0.1138273005 0.1339760317 0.3757966505 -0.4143909361 0.3764671244 -0.4145071408 -0.1011511647 0.1489315002
405297570.0 -0.1123813949 0.1346270355 0.3713949879 -0.4180843666 0.371687063 -0.4186353969 -0.0993900222 0.1499813254
410297540.0 -0.1110769358 0.1365108248 0.3666894572 -0.4228212673 0.3669315636 -0.4224461535 -0.0978738791 0.1512556659
415297510.0 -0.1102821742 0.137463573 0.36198394 -0.4267409009 0.3624586889 -0.4268512169 -0.0962205936 0.1526628008
420297480.0 -0.1086571332 0.1382921352 0.3575313604 -0.4306295973 0.3574825177 -0.430895379 -0.0943757547 0.1540723419
425297450.0 -0.1069240835 0.1394497344 0.3524027346 -0.4344003463 0.3526985106 -0.4344069013 -0.0929001464 0.1545614278
430297420.0 -0.1061486548 0.1405265524 0.3483712203 -0.4385217529 0.3482592805 -0.4379657967 -0.0907607011 0.1561091079
435297390.0 -0.1046797991 0.1414818865 0.3429803992 -0.4426586152 0.3431354464 -0.442292563 -0.0895296704 0.1578711851
440297360.0 -0.1032602105 0.1428217016 0.33795826 -0.4456231011 0.3378492522 -0.445829055 -0.0876704743 0.1586705763
445297330.0 -0.1019661922 0.1433479772 0.3331665888 -0.4492040457 0.3335212452 -0.4494173738 -0.0859508594 0.1595162189
450297300.0 -0.1006654173 0.1449128032 0.3285641258 -0.4530902086 0.3287901876 -0.4528713851 -0.0839709946 0.1609149919
455297270.0 -0.0994578967 0.1457441305 0.3234053798 -0.4565190205 0.3236636779 -0.4568464982 -0.082263453 0.1620243761
460297240.0 -0.097908872 0.1470279559 0.3185253199 -0.4606410091 0.3183083421 -0.4605561343 -0.080295413 0.1630037567
465297210.0 -0.0965978578 0.148172401 0.3130588434 -0.4639607328 0.3130446051 -0.4640306272 -0.0783655884 0.1644792987
470297180.0 -0.0950371245 0.1488682764 0.307927581 -0.4669359997 0.3085999358 -0.4669771419 -0.0766956095 0.1649305577
475297150.0 -0.0939876816 0.1501757931 0.3029243967 -0.4702355857 0.303291892 -0.4705954352 -0.0748733189 0.165913383
480297120.0 -0.0917435054 0.1511484914 0.2979963908 -0.4733555286 0.2985138056 -0.4735791149 -0.0734887041 0.1666430723
485297090.0 -0.090680464 0.1518325444 0.2926307595 -0.4770376701 0.2924988319 -0.4768541553 -0.0713662663 0.1681139585
490297060.0 -0.0887097866 0.1528363215 0.2871385455 -0.4801665676 0.287464316 -0.4801315793 -0.0693225415 0.1687200438
495297030.0 -0.0875319112 0.1535749575 0.2825171747 -0.4832206083 0.2822475369 -0.4833806319 -0.0675272555 0.1698318419
500297000.0 -0.0857142592 0.154977107 0.2771334259 -0.4859702208 0.2773562698 -0.4863185884 -0.0657734456 0.1706326551
505296970.0 -0.0842079503 0.1557354327 0.272065956 -0.4891977891 0.2720476911 -0.4890488152 -0.0637319328 0.1713984479
510296940.0 -0.0827416297 0.1566931297 0.26639407 -0.49286173 0.2666313932 -0.4925564794 -0.0611657915 0.1724895026
515296910.0 -0.0812324175 0.1581856391 0.2604021372 -0.4950713418 0.2606581311 -0.4947525423 -0.0596578095 0.172428843
520296880.0 -0.0796904497 0.1588791967 0.2558793138 -0.4977064575 0.255368824 -0.4975312448 -0.0575091247 0.1740359771
525296850.0 -0.0778667686 0.1595265301 0.2502544445 -0.5004273869 0.2498540269 -0.5003368379 -0.0556153642 0.1745425179
530296820.0 -0.0766802881 0.1604092021 0.2445061018 -0.5029805202 0.2448037626 -0.5030730929 -0.0536202696 0.1752403812
535296790.0 -0.0743362543 0.1613851485 0.238779882 -0.5054344835 0.2393640204 -0.5056794148 -0.0515187852 0.1760592336
540296760.0 -0.0728948311 0.1621866316 0.2333154708 -0.5085305707 0.2331512326 -0.5082756753 -0.0495435113 0.1765720115
545296730.0 -0.0715659827 0.1633911906 0.2280380994 -0.5107243463 0.2277299656 -0.5103512149 -0.0476326973 0.1774507229
550296700.0 -0.0693668094 0.1639047668 0.2223046962 -0.5130666246 0.222020809 -0.5133020319 -0.0457043103 0.1778659213
555296670.0 -0.0680556255 0.1647564677 0.2170336833 -0.5156502448 0.2166375582 -0.5154131954 -0.0436546996 0.1780993922
560296640.0 -0.0657981595 0.1656413037 0.2108009258 -0.5180001379 0.2112973691 -0.5177953384 -0.0417226424 0.1794065493
565296610.0 -0.0647558075 0.1663072942 0.2059209887 -0.5203330286 0.2055673903 -0.5196951423 -0.0394656296 0.1801603359
570296580.0 -0.0628787738 0.1673122835 0.1992898418 -0.5222017547 0.1997670713 -0.5222193173 -0.0374095969 0.1803649394
575296550.0 -0.0612509733 0.1679579911 0.1944143587 -0.5243380866 0.1939656854 -0.524526763 -0.0356866938 0.1810504069
580296520.0 -0.0594003499 0.1691684493 0.1883098925 -0.5264934245 0.1880351174 -0.5262801854 -0.0338077194 0.1813502866
585296490.0 -0.0574787777 0.1695837559 0.1826655519 -0.5284370233 0.1824577531 -0.5282400332 -0.0310768457 0.1822328579
590296460.0 -0.0554180753 0.1704361598 0.1769730714 -0.5304829119 0.1770803475 -0.5304926841 -0.0296300289 0.1825677477
595296430.0 -0.0538725215 0.1713522577 0.1708547455 -0.5325014432 0.1705824866 -0.5321611855 -0.0273396689 0.182806639
600296400.0 -0.0519828712 0.1719062009 0.1648343525 -0.5340045693 0.1652110954 -0.533990531 -0.0253212402 0.1831641728
605296370.0 -0.0507731854 0.1729528372 0.1600443194 -0.5353151159 0.1592892429 -0.5358966924 -0.0230558349 0.1838766755
610296340.0 -0.0484699269 0.1737094004 0.1537771271 -0.5367236871 0.1539125282 -0.5370491701 -0.0213183358 0.1844329526
615296310.0 -0.0466693593 0.1739609894 0.147870666 -0.538992772 0.147344245 -0.5390967072 -0.0188320603 0.1847533773
620296280.0 -0.045478604 0.1753403004 0.1418354469 -0.5407026836 0.1417976493 -0.5403149721 -0.0175012962 0.1851227371
625296250.0 -0.0436945332 0.1754858307 0.1356214818 -0.54181844 0.136308703 -0.5421496474 -0.0154397191 0.1852331321
630296220.0 -0.0417809156 0.1764824051 0.1299707636 -0.5431867872 0.1300064568 -0.5434991791 -0.0128502022 0.1856071994
635296190.0 -0.0402208389 0.1772705528 0.1244429519 -0.5444704416 0.1239105791 -0.5445859519 -0.0109034949 0.1856995088
640296160.0 -0.0383444537 0.1779670881 0.1185228059 -0.5465935991 0.1183053334 -0.5459124644 -0.0092932744 0.1858933605
645296130.0 -0.036262364 0.1786688031 0.1122328138 -0.5471817265 0.1124465912 -0.5473153078 -0.0071487077 0.1858255175
650296100.0 -0.0345811754 0.179068977 0.1069802669 -0.5485825602 0.1063833349 -0.5486031163 -0.0044798417 0.1864896326
655296070.0 -0.0330373433 0.1794970761 0.1005016253 -0.5496116289 0.1007395949 -0.5491488576 -0.002974735 0.1868504308
660296040.0 -0.0310541727 0.1802883258 0.09471091 -0.5505982443 0.0944955967 -0.5507116919 -0.0005045945 0.1867618463
665296010.0 -0.0294952448 0.1807710929 0.0881898988 -0.5507374938 0.0881688952 -0.5512236296 0.0015480783 0.1873290662
670295980.0 -0.0276993544 0.1815887222 0.082378721 -0.552515461 0.0824754311 -0.5518672632 0.0033016326 0.1866448514
675295950.0 -0.0260136494 0.1820298078 0.0765183402 -0.553176765 0.0767642102 -0.5531320321 0.0050312409 0.1873094837
680295920.0 -0.024402991 0.1826657279 0.0710111177 -0.5537149648 0.0707823372 -0.5534804969 0.00799062 0.1868623793
685295890.0 -0.02214859 0.1832539719 0.0648964698 -0.5547101915 0.0647884554 -0.5546486851 0.0095549239 0.187341669
690295860.0 -0.0205228067 0.183730793 0.0583193779 -0.5551817018 0.0583089002 -0.5553959911 0.0117633261 0.1875474841
695295830.0 -0.0188676824 0.1839501574 0.0534144006 -0.5560595315 0.0526707077 -0.5557706523 0.0135483658 0.1876833473
700295800.0 -0.0172067638 0.1846068029 0.0474605673 -0.5563956974 0.0468364253 -0.5563488673 0.0156966272 0.1877109514
705295770.0 -0.0154996168 0.1850475262 0.0409958552 -0.5570629995 0.0407554839 -0.5565859794 0.0179863877 0.1876983149
710295740.0 -0.0137936965 0.1849222251 0.0352339931 -0.5567825036 0.0348851919 -0.557399913 0.0202713041 0.1875947305
715295710.0 -0.0117500267 0.1856400482 0.0289818344 -0.5572860836 0.0288529882 -0.5575213947 0.0219038524 0.1871826341
720295680.0 -0.0095826317 0.1860701631 0.0225264437 -0.557548435 0.0223974707 -0.5581697826 0.024205061 0.1871570516
725295650.0 -0.0083239683 0.1865208404 0.017323184 -0.5578172958 0.0169445031 -0.5580263371 0.0259184206 0.1875479816
730295620.0 -0.007156859 0.1867089384 0.0108621095 -0.5573471487 0.0107340061 -0.5574317858 0.0281663771 0.1876546031
735295590.0 -0.0050524027 0.1870972514 0.0051259354 -0.5582915133 0.0047040119 -0.5578877221 0.0301466871 0.1869159859
740295560.0 -0.0034273518 0.187111498 -0.0013292753 -0.5578375424 -0.0007938038 -0.5583657044 0.0317987095 0.1871659552
745295530.0 -0.0017163413 0.1877883827 -0.0065529664 -0.5573805021 -0.0065137518 -0.5576054441 0.0338006052 0.186512968
750295500.0 -0.0001786417 0.1882620415 -0.0128143881 -0.5578691771 -0.0130874164 -0.5578196249 0.0359841126 0.1864551756
755295470.0 0.0016060017 0.1883788957 -0.0185782566 -0.5578676724 -0.0185876743 -0.5577716121 0.0381910257 0.1865375717
760295440.0 0.0035830492 0.1889740012 -0.0254807777 -0.5575979311 -0.0250223684 -0.557092385 0.0405404688 0.1853497111
765295410.0 0.005489453 0.1883910072 -0.0310466771 -0.5564843027 -0.03070809 -0.556815551 0.0423520242 0.1855253148
770295380.0 0.0070043952 0.1890868474 -0.0364331519 -0.5562654359 -0.036800907 -0.5568888526 0.0444557239 0.1855093472
775295350.0 0.0085406431 0.1888699065 -0.0428491904 -0.556232273 -0.0429124881 -0.5557892603 0.0463481821 0.1852338843
780295320.0 0.0103175038 0.1893471529 -0.048730797 -0.5550551387 -0.0489192647 -0.5554572964 0.0485691149 0.184503735
785295290.0 0.0122840524 0.189416044 -0.0546837462 -0.5549424723 -0.0546840711 -0.555089824 0.0502070952 0.1846849975
790295260.0 0.0140379675 0.1890424198 -0.0605142735 -0.5542097212 -0.0604799083 -0.554704615 0.0523619606 0.184363112
795295230.0 0.0156885678 0.1891661833 -0.066480643 -0.553703093 -0.0666725061 -0.5537680114 0.0541800601 0.1831749452
800295200.0 0.0168559369 0.1895830325 -0.0719822824 -0.5526384431 -0.0727156434 -0.5530070708 0.0561761592 0.183118321
805295170.0 0.0185523202 0.1893826797 -0.0782238944 -0.5522348204 -0.0782796506 -0.5521881179 0.0586313476 0.1826530808
810295140.0 0.0210477096 0.1899543545 -0.0841698557 -0.5512758444 -0.0846282846 -0.551303459 0.0607312687 0.1820271796
815295110.0 0.022570126 0.1896405633 -0.090237763 -0.5500287258 -0.0897691504 -0.5503520823 0.0621694143 0.1817006413
820295080.0 0.0239797587 0.1896207596 -0.0955489258 -0.5490478376 -0.0960077929 -0.5493810511 0.0640533077 0.1820235713
825295050.0 0.0256031308 0.189206559 -0.1020637202 -0.548474465 -0.1020809239 -0.5483488816 0.0668716839 0.181061959
830295020.0 0.0275700323 0.1892910435 -0.1077158702 -0.5473083332 -0.1077984618 -0.5469402432 0.0682221539 0.1798063793
