!Created with skrf (http://scikit-rf.org).
# Hz S RI R 50.0 
!freq ReS11 ImS11 ReS21 ImS21 ReS12 ImS12 ReS22 ImS22
300000.0 -0.0993330569 -0.0707999524 0.6287681469 0.0651607262 0.6231571679 0.0665014319 -0.098911097 -0.0767060162
5299970.0 -0.1020823305 0.0134202811 0.6305663002 0.00981759 0.6307024326 0.0103781058 -0.1009775791 0.0131195541
10299940.0 -0.0974412564 0.0293133214 0.6339563025 0.0150595184 0.6341977955 0.0156735106 -0.0955935231 0.0305570779
15299910.0 -0.0899019109 0.0427439949 0.640366162 0.0204737242 0.6406532168 0.0204157891 -0.0885981466 0.0436054461
20299880.0 -0.0816699504 0.0529843336 0.6486277428 0.0244091889 0.6485416995 0.0241384642 -0.0799033996 0.0545899624
25299850.0 -0.0723786368 0.0620477031 0.657776899 0.0255217765 0.6576672138 0.0258191697 -0.0697285335 0.0635890563
30299820.0 -0.0623277076 0.0686081936 0.6676269863 0.0246334047 0.667495269 0.0247877799 -0.0596333874 0.0699454911
35299790.0 -0.0525336219 0.0738717119 0.6773889303 0.0214312701 0.676960314 0.0214742365 -0.0498828722 0.0750677972
40299760.0 -0.0432865378 0.0770318323 0.686029213 0.0174853107 0.6866894951 0.0180745143 -0.0404254805 0.0774154348
45299730.0 -0.0341060605 0.0794745763 0.6949091496 0.0116708105 0.6956167943 0.0122391524 -0.0312514819 0.0798871014
50299700.0 -0.0255933639 0.0801933852 0.7034323061 0.0046059197 0.7035677147 0.0057864928 -0.0227618412 0.0804985734
55299670.0 -0.0173402748 0.0804109553 0.7109128879 -0.0032015793 0.7105809271 -0.0030468537 -0.0144898694 0.0807298683
60299640.0 -0.0100037846 0.0802219116 0.7172515438 -0.011517062 0.7179243799 -0.0108117547 -0.0079952956 0.0796249301
65299610.0 -0.0038699371 0.0787004674 0.723332682 -0.0200284358 0.7235722567 -0.0200967641 -0.0009738552 0.0786266986
70299580.0 0.0025175297 0.0777304896 0.7287331675 -0.0289475731 0.7283506101 -0.0288721797 0.0049084613 0.0768420888
75299550.0 0.0083384266 0.0757487293 0.7329451912 -0.0387637781 0.7327906886 -0.0390362297 0.010045377 0.0748828269
80299520.0 0.0132006498 0.0735933142 0.7375088231 -0.0490855779 0.7371685568 -0.0490397275 0.0151145745 0.0727393857
85299490.0 0.0176741834 0.0714366008 0.7403784671 -0.0579708604 0.7398327039 -0.0583155945 0.0194892914 0.0698486101
90299460.0 0.0218556194 0.0691710232 0.7427778114 -0.068798285 0.7432587699 -0.0688495884 0.0235181274 0.0680936401
95299430.0 0.0260494647 0.0665615286 0.745774001 -0.0786716208 0.7457211918 -0.0788185229 0.0275419366 0.0653747195
100299400.0 0.0289350421 0.0646758272 0.7464379075 -0.0891274588 0.7470780548 -0.0888794629 0.0310372079 0.0625371475
105299370.0 0.0323403277 0.0621175202 0.7484117273 -0.0993944706 0.7492596416 -0.099309715 0.0341957232 0.0608665127
110299340.0 0.0349082276 0.0597037305 0.7498380133 -0.1092173656 0.7495861384 -0.1091367174 0.0361396287 0.0578634434
115299310.0 0.0372637818 0.0573074696 0.7508748822 -0.1194940989 0.7506653279 -0.1192040194 0.0389264606 0.0556005316
120299280.0 0.0397539843 0.0545842225 0.7509400524 -0.1291978398 0.7516297526 -0.1293850432 0.0413337265 0.053204783
125299250.0 0.0420041287 0.0523295519 0.7522223579 -0.1390368835 0.7515356106 -0.1386950413 0.0429884367 0.0504259279
130299220.0 0.0435656333 0.0503562657 0.7507544972 -0.1490728137 0.7510912708 -0.149018036 0.0449189517 0.048161148
135299190.0 0.0453822591 0.0480945073 0.7512380099 -0.1591445342 0.7511161356 -0.1583130387 0.0467234849 0.0462793432
140299160.0 0.0467058565 0.0461764993 0.7506902425 -0.1689697059 0.7507747305 -0.1686678789 0.0478557771 0.044274994
145299130.0 0.0482997393 0.0438741485 0.7501434259 -0.1785930597 0.7494054471 -0.1784250234 0.0493681406 0.0421188109
150299100.0 0.0497583767 0.0420237783 0.7486972592 -0.1870651961 0.7486562351 -0.1875573536 0.0507344324 0.040243904
155299070.0 0.0502552217 0.0398002868 0.7483108379 -0.1978788114 0.7475476413 -0.1977896359 0.0518415125 0.0384733035
160299040.0 0.0519278265 0.0381822203 0.7463667865 -0.2073866528 0.7457853334 -0.2075445101 0.0520073216 0.036434055
165299010.0 0.0524623362 0.0364099618 0.744574097 -0.2170102358 0.7448727809 -0.2166459494 0.0534857809 0.0351297319
170298980.0 0.0532581862 0.033902845 0.7425055512 -0.2261301628 0.7427635149 -0.226206815 0.0541935135 0.0326535774
175298950.0 0.0538895077 0.0321856082 0.7416041024 -0.2351913686 0.7408467192 -0.2354387575 0.0547550734 0.0316923665
180298920.0 0.0544186604 0.0304660494 0.7389819794 -0.2446288317 0.7393239469 -0.2441753592 0.0555043979 0.0298108441
185298890.0 0.0554871817 0.0290383605 0.7366754125 -0.2533566361 0.7361583163 -0.2535585175 0.0559802351 0.0282824893
190298860.0 0.0553305003 0.0274075835 0.7344132897 -0.2628917789 0.7346316302 -0.2629928328 0.0561985783 0.0264245861
195298830.0 0.0560720493 0.0252062339 0.7316689359 -0.2716027628 0.7320887232 -0.2713412074 0.0570794771 0.0249682285
200298800.0 0.056310739 0.0242494709 0.7291875829 -0.2812166385 0.7288422359 -0.2812419016 0.0566844375 0.0237481473
205298770.0 0.0567214421 0.0228237453 0.7257599051 -0.2899068628 0.726268994 -0.2894360492 0.0572180178 0.0212690002
210298740.0 0.0570427755 0.0210681282 0.7232730653 -0.2981663394 0.7233160408 -0.2976946619 0.0577922956 0.021245888
215298710.0 0.056873745 0.0198214365 0.7207083527 -0.3072621017 0.7200642018 -0.3071818729 0.0578501305 0.0193965953
220298680.0 0.057903753 0.017721574 0.7168736009 -0.3162416779 0.7170784926 -0.3156613201 0.057669471 0.0177697731
225298650.0 0.0578292909 0.0168198907 0.7136080483 -0.3246388054 0.7138042542 -0.3243535975 0.0573784624 0.0162633663
230298620.0 0.0578793585 0.0157103285 0.7106615135 -0.3328014289 0.7110939225 -0.3327427851 0.0576283988 0.0152527208
235298590.0 0.0580402978 0.0147035166 0.7071168413 -0.3413414679 0.7071061443 -0.3408877067 0.0578932841 0.0138333685
240298560.0 0.0580091535 0.0132851082 0.703013943 -0.3500144689 0.702900001 -0.3496271463 0.0577563299 0.0130115754
245298530.0 0.0579679181 0.0119796598 0.6998452437 -0.3579585957 0.6996328777 -0.3584438275 0.0584696446 0.011049889
250298500.0 0.0586187583 0.0110215194 0.6953369195 -0.3664544379 0.69508557 -0.3658565398 0.0580803356 0.0102374436
255298470.0 0.058469177 0.0095163752 0.6912926812 -0.373765856 0.6919211657 -0.3735836366 0.0583802936 0.0088387799
260298440.0 0.0578905101 0.008179354 0.6874968115 -0.3831220852 0.6878284675 -0.3825696166 0.0584988895 0.0078026809
265298410.0 0.058710512 0.0074353894 0.6838593976 -0.3913053147 0.6842421347 -0.3907572182 0.0580772436 0.0068323175
270298380.0 0.0583529754 0.0063761025 0.6799005514 -0.3987059085 0.6794709331 -0.3980896049 0.0582053331 0.0057268542
275298350.0 0.0591382196 0.0050552072 0.6754331056 -0.4063838021 0.6754149123 -0.406639385 0.0586593145 0.0043165841
280298320.0 0.0586088409 0.0044996799 0.6709585173 -0.4146136519 0.6710817298 -0.4143938147 0.0587034575 0.0037448625
285298290.0 0.0587421992 0.0031102275 0.6664711042 -0.4226932597 0.6661402509 -0.4221829051 0.0586007491 0.0023287766
290298260.0 0.0590241329 0.0020633568 0.661524335 -0.4296334607 0.661699755 -0.4299562519 0.0587348317 0.0019801526
295298230.0 0.0589371869 0.0010116745 0.6575020613 -0.4375102903 0.6574450099 -0.4372830611 0.0595174006 0.0005182005
300298200.0 0.0584407884 -0.0001912073 0.6529278559 -0.4451112109 0.6528983092 -0.445298245 0.0588998111 -0.0007846709
305298170.0 0.058913193 -0.0014606817 0.6475000102 -0.4535106315 0.6482776173 -0.452809997 0.0594025299 -0.0022033881
310298140.0 0.0586449774 -0.0022972012 0.6427063051 -0.4605416272 0.6434720148 -0.4602547263 0.0593609591 -0.0029004081
315298110.0 0.0583158729 -0.0042679987 0.637988416 -0.4683249786 0.6386728942 -0.4681581094 0.0587463315 -0.0041958768
320298080.0 0.0586865568 -0.0047944472 0.6321918725 -0.4759791962 0.6325818329 -0.4757859323 0.058900323 -0.0051572563
325298050.0 0.0577264481 -0.0061900488 0.6277102092 -0.4831009459 0.6274542945 -0.4835003434 0.0579910973 -0.006410068
330298020.0 0.0574647998 -0.0072769106 0.6212514756 -0.4907289832 0.6217894245 -0.4907086468 0.0575224415 -0.0076255849
335297990.0 0.0571254492 -0.0087184898 0.6160348137 -0.4977627671 0.6153166387 -0.4974434549 0.0567696366 -0.0077779374
340297960.0 0.0562136607 -0.0087745878 0.6099044169 -0.5044339416 0.6095824265 -0.5047572807 0.0567437816 -0.008574383
345297930.0 0.0559122976 -0.0092504832 0.60433438 -0.5120542876 0.6041531489 -0.5118887696 0.0564431798 -0.0097833265
350297900.0 0.0551074649 -0.010802443 0.5977475893 -0.5188355005 0.5980081682 -0.518085409 0.055453877 -0.0097075953
355297870.0 0.054916849 -0.0103699589 0.5923324459 -0.524900133 0.5928461341 -0.5248118072 0.055385818 -0.0106884975
360297840.0 0.0546196536 -0.0113795532 0.5875252026 -0.5316884534 0.5875284211 -0.5315860219 0.0549505653 -0.0110394718
365297810.0 0.0541087894 -0.0120994292 0.5807026856 -0.5386779611 0.581118633 -0.538497893 0.054694684 -0.0117962444
370297780.0 0.0541856194 -0.0132183706 0.5743301493 -0.5442445916 0.575002704 -0.5440443154 0.0541079568 -0.0126623864
375297750.0 0.0538705424 -0.0137797624 0.5686324818 -0.5513511238 0.5696856985 -0.5511665447 0.0541619225 -0.0130925551
380297720.0 0.0535603267 -0.014115982 0.5629123009 -0.5576729173 0.5630356061 -0.5566431408 0.0536210447 -0.0140890718
385297690.0 0.0530768462 -0.0151264349 0.5559197355 -0.5637432799 0.5560433313 -0.5634259467 0.0534409746 -0.0142075976
390297660.0 0.0528916998 -0.0154746007 0.5506197973 -0.5702442116 0.5500458225 -0.5696644584 0.0528534591 -0.0151106369
395297630.0 0.0524250589 -0.0162037756 0.5440501891 -0.5758363951 0.5442855077 -0.5759944432 0.0530865493 -0.0157877009
400297600.0 0.0517192235 -0.016670587 0.537184638 -0.5824529576 0.5374824968 -0.5821941661 0.0524246753 -0.0162131075
405297570.0 0.0513717028 -0.0176820685 0.5307385742 -0.5876813076 0.5311355667 -0.5875296302 0.0515558047 -0.0167701925
410297540.0 0.0515210715 -0.0180804027 0.5250233557 -0.5943171894 0.525063038 -0.5936006913 0.0515588333 -0.017320351
415297510.0 0.051504632 -0.0188408778 0.5182609885 -0.599727864 0.5184365799 -0.6001611278 0.0513402581 -0.0177025128
420297480.0 0.0509746891 -0.0188794231 0.5112291828 -0.6054299602 0.5115290761 -0.6056709874 0.0504654722 -0.0191351974
425297450.0 0.050329433 -0.0207201519 0.5053013991 -0.6116683688 0.5056169996 -0.6113609903 0.0494059451 -0.019050114
430297420.0 0.0499064871 -0.0206999388 0.4981582493 -0.6156507248 0.49827142 -0.61630423 0.0495971881 -0.0200583924
435297390.0 0.0493478319 -0.0211193291 0.4907320023 -0.6225775857 0.4910344688 -0.6223044307 0.050172121 -0.0206317964
440297360.0 0.0493296817 -0.0215819191 0.4844209131 -0.6276004061 0.4844058237 -0.6277422296 0.0488403229 -0.0214539721
445297330.0 0.0488012543 -0.0227866605 0.4781161384 -0.6328581309 0.4775840268 -0.6327450731 0.0489756217 -0.0222244409
450297300.0 0.0486497206 -0.0230960756 0.4709156146 -0.637845822 0.4708441565 -0.6386346235 0.048262496 -0.0229556395
455297270.0 0.0484559968 -0.0238068977 0.4639640837 -0.6438620523 0.4636660702 -0.6436706171 0.0483548629 -0.0232441776
460297240.0 0.0478832473 -0.0243177215 0.4561260839 -0.6487560451 0.4563474656 -0.6487043369 0.0476566013 -0.0236325626
465297210.0 0.0476744793 -0.0249764185 0.4491430491 -0.6540631391 0.4493106646 -0.6543337616 0.0475241117 -0.0247766673
470297180.0 0.046926855 -0.0256708264 0.4418305704 -0.6587632653 0.4422421784 -0.6585356437 0.0472127833 -0.0247061846
475297150.0 0.0466872977 -0.0261224478 0.4347644975 -0.6627051387 0.4347881383 -0.6630288181 0.0476763555 -0.0255877467
480297120.0 0.0463280056 -0.0261140041 0.4274602127 -0.6683339936 0.4277307594 -0.6685075633 0.0471304221 -0.026229767
485297090.0 0.0457447109 -0.0270118965 0.4204716061 -0.6726059882 0.4205500491 -0.6724457363 0.0465643765 -0.0267459904
490297060.0 0.0447141573 -0.0275771178 0.4133692618 -0.6780307361 0.4134853437 -0.6772198145 0.0459073867 -0.0265808515
495297030.0 0.0446529568 -0.0278616694 0.4049035903 -0.6814349563 0.4057902382 -0.6818683926 0.0450270962 -0.0276539397
500297000.0 0.0442746015 -0.028761205 0.3975817157 -0.6861223773 0.3970655549 -0.6858708638 0.0450386497 -0.0274464281
505296970.0 0.04408549 -0.0293286944 0.3903727374 -0.6905836037 0.3902188706 -0.6908198858 0.0446045799 -0.0278686817
510296940.0 0.0435256703 -0.0291958741 0.3828093884 -0.694995277 0.3822945824 -0.6951552217 0.0443122096 -0.0282401947
515296910.0 0.0424737404 -0.0298279238 0.3750460005 -0.6991215578 0.3751771608 -0.6985434175 0.0437517139 -0.028704742
520296880.0 0.0420021555 -0.0303866875 0.3671800895 -0.7037361454 0.3672254901 -0.7031981186 0.0434034079 -0.0296018881
525296850.0 0.0420112972 -0.0314015521 0.3590726949 -0.7072297105 0.3599116078 -0.7074018524 0.0424907271 -0.0297748406
530296820.0 0.0416076971 -0.0313268987 0.351956525 -0.7113110863 0.35204789 -0.711358856 0.0424606938 -0.0300720695
535296790.0 0.04053282 -0.0315589321 0.3445804759 -0.7150596797 0.3442729527 -0.714415072 0.0420983114 -0.031269039
540296760.0 0.0403946212 -0.031637651 0.3360580983 -0.7193448367 0.3362144733 -0.7189094099 0.0409682881 -0.0305416115
545296730.0 0.0398471046 -0.0325844193 0.3273952294 -0.7223707459 0.3277048434 -0.7227427741 0.0403480014 -0.0313898248
550296700.0 0.0398536606 -0.0327160104 0.319839615 -0.7260205973 0.3201100267 -0.7264331853 0.0397073795 -0.0319466745
555296670.0 0.0386331424 -0.0329777504 0.3118650512 -0.7295390551 0.3127852563 -0.7294587221 0.0395304303 -0.0318208436
560296640.0 0.0385050754 -0.0330435227 0.304133289 -0.7328494818 0.3048873108 -0.7329486739 0.0390331065 -0.0326112068
565296610.0 0.0377840949 -0.0335765191 0.296171355 -0.7363635393 0.2962829326 -0.7361157372 0.03815428 -0.0331337649
570296580.0 0.0370899473 -0.0338690847 0.2882803858 -0.7399051544 0.287785159 -0.7389144349 0.0378462721 -0.0325647844
575296550.0 0.0361897059 -0.034140577 0.2793582247 -0.7425821977 0.2796781832 -0.7425036561 0.0377528338 -0.0336221424
580296520.0 0.0361244456 -0.0348143735 0.2716943158 -0.7460977222 0.2721882327 -0.7458449029 0.036727117 -0.0342065541
585296490.0 0.0354730508 -0.035593927 0.2638914142 -0.7479604788 0.2642602269 -0.7486910718 0.0362313828 -0.0342322436
590296460.0 0.0355639106 -0.0354891831 0.2559176359 -0.7506052141 0.2559323671 -0.7509670642 0.0350970338 -0.0346910233
595296430.0 0.0349554988 -0.0356148959 0.2470101683 -0.7545561076 0.247259492 -0.753720062 0.0353576703 -0.035482026
600296400.0 0.0339444408 -0.0363312873 0.2386641041 -0.7568186728 0.2390597852 -0.7563415086 0.0343596052 -0.0355069883
605296370.0 0.0335210466 -0.0365306153 0.2309086529 -0.7591169495 0.2308645828 -0.7592000701 0.0340016133 -0.0356924974
610296340.0 0.0331804975 -0.0368952656 0.221792943 -0.7618549423 0.2230504439 -0.7617792203 0.0336545694 -0.0361000582
615296310.0 0.0327650695 -0.0377083939 0.2142605593 -0.7637667326 0.2139532383 -0.7642951292 0.0333076716 -0.0361770703
620296280.0 0.032323549 -0.0381205139 0.2059924673 -0.7664763757 0.2056775645 -0.76625422 0.0323323972 -0.0367091974
625296250.0 0.0313699321 -0.0386738258 0.1980421102 -0.7689614708 0.1977335743 -0.7689695455 0.0326850246 -0.0369691902
630296220.0 0.0318269257 -0.0379916345 0.1885960789 -0.7708415686 0.1887000141 -0.7705232378 0.0315614154 -0.0370420221
635296190.0 0.029651809 -0.0391262305 0.1804187034 -0.7729056647 0.1808118549 -0.7729457794 0.0312595207 -0.0376194028
640296160.0 0.0296623652 -0.0387561829 0.1718294142 -0.7744539971 0.1724211393 -0.7742846839 0.0307629802 -0.0378929392
645296130.0 0.0292506223 -0.0391034503 0.163557846 -0.7758263534 0.1637047075 -0.7758237293 0.0299841218 -0.0377024607
650296100.0 0.0285292776 -0.039505263 0.1552458625 -0.7781757798 0.1554475121 -0.7786528991 0.0301918224 -0.0390309869
655296070.0 0.0277573741 -0.0401875794 0.1463963373 -0.7798937834 0.147149032 -0.7798471537 0.0294058742 -0.0387719474
660296040.0 0.0267743848 -0.0404429813 0.1385650743 -0.7815520122 0.1387006171 -0.7815847448 0.0292261977 -0.038747535
665296010.0 0.0267548562 -0.0403681451 0.1292436505 -0.7824266873 0.1296676978 -0.7822819172 0.0280191165 -0.0383634935
670295980.0 0.0248115788 -0.0403616605 0.1210932735 -0.7834551083 0.1212115546 -0.7842550468 0.0271151368 -0.0391165194
675295950.0 0.0250666988 -0.0401622535 0.1129846157 -0.785423496 0.1127946542 -0.7850302131 0.0266762822 -0.0394019306
680295920.0 0.0242049727 -0.0409227675 0.10361414 -0.7863972377 0.1034387957 -0.7870636317 0.0261594499 -0.0386126913
685295890.0 0.0241770404 -0.0404198519 0.0950817341 -0.7876027315 0.0944443512 -0.7880268457 0.0257366499 -0.039259502
690295860.0 0.023661327 -0.0407582116 0.0867798738 -0.7878523702 0.0868676385 -0.7886518804 0.0250128119 -0.0385121195
695295830.0 0.0228278623 -0.0409556712 0.0788937997 -0.7892348493 0.077992417 -0.7892405914 0.0245764281 -0.0391382152
700295800.0 0.0222628925 -0.0418776329 0.0694561008 -0.7899252808 0.0694592852 -0.7898869499 0.0234322657 -0.0383898862
705295770.0 0.0214874668 -0.0407548924 0.060324422 -0.790582567 0.0612127483 -0.7906019978 0.0230779401 -0.0388422257
710295740.0 0.0214086495 -0.0415211085 0.0528035718 -0.7923159725 0.0529704664 -0.7921580479 0.0225115511 -0.0399023971
715295710.0 0.0199473376 -0.0416176214 0.0443581226 -0.792247818 0.0432508674 -0.7918735484 0.022364787 -0.039685566
720295680.0 0.0196949016 -0.0418840338 0.0350730708 -0.7928049882 0.0354235817 -0.7921541061 0.0213929197 -0.0390267565
725295650.0 0.0194769408 -0.0416495002 0.0265627055 -0.7925227796 0.0263923528 -0.793111887 0.0202556932 -0.0396784645
730295620.0 0.018765282 -0.0414297426 0.0180081008 -0.7924783354 0.0177836479 -0.7932744842 0.0193383046 -0.0402494824
735295590.0 0.0177580086 -0.0413136128 0.0096076664 -0.7932712788 0.0090145829 -0.7930652103 0.0189522664 -0.0404004814
740295560.0 0.0171646404 -0.0414640677 0.0005977647 -0.79290066 0.0008310375 -0.7929320995 0.0189366251 -0.0399662444
745295530.0 0.0165851258 -0.0415553177 -0.0082894836 -0.7925865813 -0.0079600491 -0.7928522013 0.018366923 -0.040578697
750295500.0 0.0162600895 -0.0416968311 -0.016842208 -0.7922724247 -0.0164136285 -0.7929341186 0.0172676789 -0.0404906657
755295470.0 0.0155984758 -0.0421185011 -0.024632879 -0.7926161996 -0.0246675685 -0.7930149787 0.0175662037 -0.0409094509
760295440.0 0.0147324675 -0.0419184941 -0.0338314036 -0.7926277587 -0.0339018102 -0.7927157848 0.0165020199 -0.0404483355
765295410.0 0.0143583207 -0.0419234837 -0.0427586145 -0.7920854634 -0.0429088239 -0.7926002124 0.0159828448 -0.0404762658
770295380.0 0.0131913188 -0.0421519672 -0.0514262091 -0.7914129207 -0.0512381616 -0.7914064753 0.0148092425 -0.0409556342
775295350.0 0.012781549 -0.0428165833 -0.0602114608 -0.790300198 -0.0591491153 -0.7906959095 0.0137462223 -0.040468535
780295320.0 0.0125850198 -0.0423586663 -0.0681126988 -0.7899278237 -0.0674129079 -0.7900219836 0.0137013656 -0.041353056
785295290.0 0.0115652811 -0.0427941731 -0.0770304388 -0.7888998908 -0.0771731975 -0.789396283 0.0139798075 -0.0405572289
790295260.0 0.0114716077 -0.0417793264 -0.0850753297 -0.7880039155 -0.0845771162 -0.7884772895 0.0128689798 -0.0410217869
795295230.0 0.0106272047 -0.0425200068 -0.0936752479 -0.787030296 -0.0931665674 -0.7871467223 0.012469673 -0.0402904045
800295200.0 0.0094680876 -0.0419791764 -0.1032175752 -0.7855912149 -0.1025316767 -0.7862683607 0.0116992856 -0.0410495116
805295170.0 0.0090640596 -0.0422980881 -0.1109197857 -0.7848468761 -0.1108898956 -0.7853496435 0.0113057189 -0.0405294372
810295140.0 0.0080066532 -0.0427403944 -0.1196158769 -0.7832533622 -0.1194412337 -0.7835794649 0.0113477363 -0.0403153416
815295110.0 0.0078508757 -0.0426253154 -0.1281641566 -0.7819896827 -0.1278142629 -0.7820318816 0.0098956316 -0.0402371276
820295080.0 0.0066444839 -0.0417000471 -0.1368156698 -0.7807879658 -0.1363149657 -0.7804880115 0.0095765383 -0.0400579564
825295050.0 0.0072416397 -0.041967381 -0.1442974207 -0.7791820757 -0.1453412647 -0.7797473418 0.0093643882 -0.0402047581
830295020.0 0.0062448952 -0.0419231936 -0.1534176082 -0.7774921514 -0.1528543542 -0.7772377573 0.0093745517 -0.0402434566
