!Created with skrf (http://scikit-rf.org).
# Hz S RI R 50.0 
!freq ReS11 ImS11 ReS21 ImS21 ReS12 ImS12 ReS22 ImS22
300000.0 -0.3151929124 -0.1297337993 0.3717015401 0.063821125 0.3714825076 0.0650874173 -0.3168743259 -0.1317573244
5299970.0 -0.3248406493 0.0027090061 0.3781459076 0.0033739473 0.3789877988 0.0034105435 -0.3256407155 0.0022063282
10299940.0 -0.3225276428 0.0141646348 0.3801580826 0.0027410063 0.3799029539 0.0028928827 -0.323282499 0.0126589444
15299910.0 -0.3190500608 0.0225330867 0.3819699146 0.0023623173 0.3822870521 0.0028419793 -0.320491979 0.0198781377
20299880.0 -0.3156601438 0.0288160173 0.3849310392 0.0020277705 0.3855418565 0.0018859722 -0.3174886664 0.0259429635
25299850.0 -0.3115796869 0.0346846236 0.388626755 0.0005740712 0.3887077765 0.000247609 -0.3147790975 0.0315657023
30299820.0 -0.3082595338 0.039326727 0.3917117694 -0.0022105569 0.3921931581 -0.0019046776 -0.3118585113 0.0356079397
35299790.0 -0.3044760698 0.0437424276 0.3949697678 -0.0050640811 0.3951441335 -0.0049378357 -0.3091022097 0.0402952955
40299760.0 -0.3012770311 0.0470780516 0.3982953084 -0.0088236699 0.3983253078 -0.0086010067 -0.3060727082 0.0434935883
45299730.0 -0.2981179613 0.0497650517 0.4012394227 -0.0124842021 0.401604139 -0.0125941183 -0.3036484955 0.0468277155
50299700.0 -0.2947494648 0.0527884962 0.4037300865 -0.0171252285 0.4036548274 -0.0169054913 -0.3009519616 0.049709196
55299670.0 -0.2920944564 0.0553109122 0.405914386 -0.0216665916 0.4057705502 -0.0219184293 -0.2994641379 0.0525177542
60299640.0 -0.2897748287 0.0577363842 0.4081726586 -0.0266718963 0.4078763449 -0.0268809663 -0.297053123 0.0548198891
65299610.0 -0.2877138188 0.0599993697 0.4100486041 -0.0313213936 0.4097034778 -0.0318622465 -0.2952091342 0.0574126348
70299580.0 -0.2853115351 0.0623324484 0.4110065054 -0.0366146116 0.4111435302 -0.036817221 -0.2934622624 0.0597868645
75299550.0 -0.2835669441 0.0644010165 0.4116730356 -0.0421369782 0.4121891739 -0.042040216 -0.2917579008 0.0624185872
80299520.0 -0.2819077503 0.0662945388 0.4128436735 -0.0468952959 0.4130695266 -0.0474656512 -0.2903615131 0.0649874651
85299490.0 -0.2798965141 0.0683783283 0.4134700073 -0.0527273529 0.413663455 -0.0523389779 -0.2890326817 0.0669710801
90299460.0 -0.2782786568 0.0707830325 0.4134567604 -0.0576438459 0.4136854571 -0.0577980531 -0.2875990202 0.0694354826
95299430.0 -0.2766465404 0.0726908041 0.4138886552 -0.0631829047 0.4142870566 -0.063252943 -0.2863595616 0.0719809489
100299400.0 -0.275179572 0.0745490074 0.4138780839 -0.0681345635 0.4143490433 -0.0682487399 -0.2851527388 0.074561161
105299370.0 -0.2737831596 0.0768065023 0.4136613388 -0.0733987388 0.4142038489 -0.0734696252 -0.2839714204 0.0762885874
110299340.0 -0.2723581315 0.078783658 0.4135651826 -0.0780188678 0.414139236 -0.0781473932 -0.283229398 0.0787376186
115299310.0 -0.2716694902 0.0811934614 0.4133367449 -0.083601861 0.4137469517 -0.0836281239 -0.2823071119 0.0815045495
120299280.0 -0.2703457779 0.0830559911 0.4133145632 -0.0889776318 0.4130567314 -0.0891732975 -0.2810647147 0.0832925015
125299250.0 -0.2693556388 0.0850172174 0.412452557 -0.0938865631 0.4124980651 -0.0939110559 -0.2799188307 0.0861755173
130299220.0 -0.2683076357 0.0873845634 0.4119580916 -0.0991285575 0.4117621814 -0.0994693231 -0.2790349696 0.0882143548
135299190.0 -0.2672385658 0.0900136834 0.4114352335 -0.1040514462 0.4112718401 -0.1040782943 -0.2782200424 0.0907487715
140299160.0 -0.2663105106 0.0921435442 0.4105868227 -0.1094501393 0.4104441289 -0.1089599655 -0.2778884406 0.0932093615
145299130.0 -0.2653486973 0.0947594402 0.4094819075 -0.1138701369 0.4095568937 -0.1140570265 -0.2764453217 0.0958686413
150299100.0 -0.2642447501 0.0968254487 0.4085241791 -0.1188463712 0.4083989804 -0.118953539 -0.2757963756 0.0983202523
155299070.0 -0.2632315729 0.0995408768 0.4069888601 -0.1239215873 0.4074092305 -0.1240078591 -0.2746497578 0.100765419
160299040.0 -0.2622020564 0.1018842189 0.406131921 -0.128813536 0.4059461579 -0.1288187239 -0.273812616 0.1037057646
165299010.0 -0.2612613564 0.1043887885 0.404973813 -0.1333260325 0.4047733229 -0.1335523118 -0.2726336447 0.1059935556
170298980.0 -0.2602135254 0.1066386227 0.4031522971 -0.1381142572 0.4035808992 -0.1382709608 -0.2720285521 0.1083886498
175298950.0 -0.2591557471 0.1091626527 0.4021301519 -0.1430896169 0.4025997959 -0.1431030636 -0.270787553 0.1113883782
180298920.0 -0.2582667735 0.1117517484 0.4008168068 -0.1475924269 0.4011622239 -0.1481808178 -0.2700013161 0.1142935929
185298890.0 -0.2569708824 0.1140158888 0.3992839603 -0.1527376853 0.3992211385 -0.1526281742 -0.2686922189 0.1165254034
190298860.0 -0.2558415763 0.1171227167 0.3972539 -0.1571343849 0.39769041 -0.1571857567 -0.2678530456 0.1192086275
195298830.0 -0.2548899796 0.1196981958 0.3959343609 -0.1618418145 0.3962198711 -0.161763854 -0.2670012066 0.1220245567
200298800.0 -0.2532902983 0.1218790935 0.3942866314 -0.1665748271 0.3943806223 -0.166730682 -0.2654697213 0.1246384595
205298770.0 -0.2525801722 0.1246695206 0.3923728206 -0.1708120686 0.3922652831 -0.1710182778 -0.2642938657 0.1274411538
210298740.0 -0.251626954 0.1274548983 0.3907225739 -0.1755684656 0.3904394285 -0.1756027778 -0.2636023966 0.1299962117
215298710.0 -0.2504132834 0.1298442439 0.3883745929 -0.1801214076 0.3887236089 -0.1803353801 -0.2623479285 0.1327324098
220298680.0 -0.2488163821 0.1327434017 0.3864506763 -0.1847096287 0.3866589554 -0.1848476059 -0.2606455376 0.1355297585
225298650.0 -0.2478746204 0.1352962466 0.3843333198 -0.1888631687 0.3847710618 -0.1887414154 -0.2599175387 0.1379419924
230298620.0 -0.2465063332 0.1379669149 0.3828136334 -0.1935364381 0.3829650404 -0.1936572105 -0.2586561942 0.1408165265
235298590.0 -0.245500041 0.140657738 0.3805887245 -0.1981831887 0.3803836373 -0.1981558731 -0.2569820359 0.1436365313
240298560.0 -0.2439002524 0.1433238494 0.3779699949 -0.2019157764 0.3784468129 -0.2020005766 -0.2559109725 0.1459872955
245298530.0 -0.24276864 0.1456523177 0.3761662337 -0.2065112209 0.3762547954 -0.2067845145 -0.2546039748 0.1488281082
250298500.0 -0.241446775 0.1483668899 0.3737508208 -0.2105709593 0.3737383699 -0.2106975083 -0.2532962061 0.1515414076
255298470.0 -0.2402316044 0.1512178017 0.3719131237 -0.2148891883 0.372299933 -0.2152040912 -0.2521557627 0.1544116622
260298440.0 -0.238520237 0.1536363471 0.3694566658 -0.2187905353 0.3693289197 -0.2189287046 -0.2506269988 0.1566085599
265298410.0 -0.2376058654 0.1562280019 0.3670393597 -0.223218312 0.3666286226 -0.2235556327 -0.2486979371 0.1594012371
270298380.0 -0.2359953797 0.158689343 0.3644365564 -0.2274892893 0.3645486535 -0.2274519722 -0.2473709409 0.1622077001
275298350.0 -0.2343569353 0.1613576452 0.361264888 -0.2313325674 0.3620094262 -0.2315735361 -0.2455755692 0.1651266745
280298320.0 -0.2331872773 0.1640443304 0.3596524159 -0.2352250808 0.3594256052 -0.2358593049 -0.2441926075 0.1676174382
285298290.0 -0.231497298 0.1664849867 0.3567142069 -0.23953238 0.3570095581 -0.2393481476 -0.2431074994 0.1702714399
290298260.0 -0.2299640423 0.1692439151 0.3547369953 -0.2434673836 0.3545837398 -0.2438033072 -0.2411716229 0.1731315835
295298230.0 -0.2284206616 0.1715402744 0.3513874016 -0.2478874305 0.3515898254 -0.2477173823 -0.2391215 0.1753944836
300298200.0 -0.2268432038 0.174595529 0.3489364841 -0.2518620513 0.3491020642 -0.2517296205 -0.2376023095 0.1782219966
305298170.0 -0.2250018722 0.1761689973 0.3459315299 -0.2552812455 0.3466733893 -0.2555829499 -0.2358371138 0.1804336031
310298140.0 -0.2233303116 0.1787655243 0.3433049827 -0.2596531554 0.3435508038 -0.2592647257 -0.2338634174 0.1830663176
315298110.0 -0.2218566135 0.1812804807 0.3404904175 -0.2640902001 0.340550418 -0.2638128285 -0.2317042395 0.1857454516
320298080.0 -0.2198881549 0.1838744149 0.3370932357 -0.2674154876 0.3379340913 -0.2674686306 -0.2303222021 0.1878632601
325298050.0 -0.2186870054 0.1856014291 0.3343524112 -0.2709259441 0.3351351285 -0.2711633229 -0.2284429154 0.1902838414
330298020.0 -0.2170146539 0.1884082839 0.3311695607 -0.2749859458 0.3319542504 -0.2750649463 -0.2270515981 0.1929707781
335297990.0 -0.2151607688 0.1910077534 0.328240891 -0.2784972731 0.3284960697 -0.2788050157 -0.2248774689 0.1958216821
340297960.0 -0.2136966624 0.1934810621 0.3248106829 -0.2820923522 0.3251189249 -0.2823595523 -0.222861524 0.1983914829
345297930.0 -0.2120982116 0.1956960937 0.3220245904 -0.285793084 0.3219235398 -0.2859733169 -0.2212150081 0.200383827
350297900.0 -0.2101706935 0.1978359302 0.3188245272 -0.2890619145 0.3189867187 -0.2891914973 -0.2193075392 0.2026515904
355297870.0 -0.208312731 0.2003977453 0.3155270004 -0.2925064457 0.3155195938 -0.2921896877 -0.2170086905 0.20535636
360297840.0 -0.2064141687 0.2025285153 0.3124811586 -0.296380491 0.3123333649 -0.2963679406 -0.2152108689 0.2080296965
365297810.0 -0.2045572743 0.2051061935 0.3091969462 -0.299633905 0.3088395579 -0.299621264 -0.2131609892 0.2100360854
370297780.0 -0.2024447379 0.2071653112 0.3052007731 -0.3029260446 0.3060019846 -0.3030766909 -0.2109836662 0.2126827382
375297750.0 -0.2005628842 0.2095493336 0.3022729478 -0.306254612 0.3026072411 -0.3063915235 -0.2088886798 0.2152810302
380297720.0 -0.1986002061 0.2120649771 0.2989584334 -0.3098068085 0.2986845502 -0.3099821882 -0.2065627602 0.2175218241
385297690.0 -0.1967953004 0.2141256141 0.295544513 -0.3130483824 0.2953459216 -0.3132958981 -0.204120549 0.2199176922
390297660.0 -0.1940444791 0.2158374609 0.291920892 -0.3158425479 0.2919730304 -0.31633602 -0.2017779852 0.2218978802
395297630.0 -0.1918417768 0.2186132747 0.2883288927 -0.3191413235 0.2886279011 -0.3190714696 -0.1999025788 0.2244193918
400297600.0 -0.1898714018 0.2208057456 0.285084978 -0.3223652134 0.2851511158 -0.3224409676 -0.1975286453 0.2267072145
405297570.0 -0.1880239796 0.2223938391 0.2815444249 -0.3253332169 0.2818883457 -0.3254843668 -0.1950598473 0.2291166879
410297540.0 -0.1855144465 0.2250587737 0.2779434519 -0.3288178935 0.2781721827 -0.3282439277 -0.1930321426 0.2311195164
415297510.0 -0.1836760709 0.2268298735 0.27426634 -0.3318416714 0.274602669 -0.3318985966 -0.1901025718 0.2334846722
420297480.0 -0.1811951373 0.228609083 0.2704485925 -0.334693567 0.270849731 -0.3349673741 -0.1877627989 0.2360259324
425297450.0 -0.1786781913 0.2305855612 0.2668444952 -0.3373300139 0.2668065059 -0.3376400975 -0.1854847534 0.2376535948
430297420.0 -0.176255819 0.2326349644 0.2634359702 -0.3402760304 0.2636429236 -0.3403002889 -0.1828056305 0.2401346523
435297390.0 -0.17392584 0.2345668926 0.259093634 -0.3439157809 0.2591833217 -0.3434811777 -0.1806330235 0.2425859087
440297360.0 -0.1716099311 0.2365554374 0.255520853 -0.3463545337 0.2553676261 -0.3463309678 -0.1778905488 0.2444438768
445297330.0 -0.1693976875 0.2381659501 0.2518942148 -0.3485153027 0.2518806229 -0.3490793265 -0.1753927425 0.2462210025
450297300.0 -0.1665694302 0.2399963427 0.2476305535 -0.3514040321 0.2483947897 -0.3517457218 -0.1729805705 0.2483274487
455297270.0 -0.1645718911 0.2419285324 0.2441706976 -0.3542820129 0.2439821726 -0.3546636737 -0.170025966 0.2504456245
460297240.0 -0.1616632209 0.2439647591 0.2402370835 -0.3572757653 0.2401866999 -0.3573526693 -0.1677006051 0.2521822791
465297210.0 -0.1593800481 0.2455937192 0.2360098721 -0.3595337943 0.2359959318 -0.360000297 -0.1646812377 0.2545793278
470297180.0 -0.1566329686 0.2475495991 0.2322555409 -0.3618071139 0.2321958562 -0.3620669661 -0.1621230453 0.2558931848
475297150.0 -0.1540967413 0.2496124102 0.2283191447 -0.364578301 0.2284683026 -0.3649951125 -0.1593933365 0.2581930803
480297120.0 -0.1509543372 0.2514234554 0.2239471229 -0.3670481636 0.2244521639 -0.3668903525 -0.1571795087 0.2599476549
485297090.0 -0.1485229883 0.2527894188 0.2201536045 -0.3693377606 0.2202721822 -0.3696117126 -0.154360346 0.2617804903
490297060.0 -0.1454793627 0.2544307952 0.2156404114 -0.3719120956 0.2162902618 -0.3720380332 -0.1514593805 0.2629762654
495297030.0 -0.1430043946 0.2559034507 0.2118634789 -0.3741894 0.2120555207 -0.3743764427 -0.148352513 0.2651888855
500297000.0 -0.1402613715 0.2578739224 0.2081159203 -0.3764426065 0.2078562507 -0.3768055507 -0.1459900202 0.2670178055
505296970.0 -0.1372931007 0.2595742781 0.2035099847 -0.3790677674 0.2039658226 -0.3785843502 -0.1429529677 0.2685944634
510296940.0 -0.1344198037 0.2610370457 0.19963252 -0.3813691987 0.1998709556 -0.3811186804 -0.1397369486 0.27043313
515296910.0 -0.1315722247 0.2625740703 0.1950389167 -0.382815493 0.1951027839 -0.3829843034 -0.1374432049 0.271487927
520296880.0 -0.1290868002 0.2642603071 0.1912919172 -0.3848591626 0.1912018984 -0.3849587458 -0.1339628332 0.2734892172
525296850.0 -0.1259297196 0.2652515566 0.1865061788 -0.3870368121 0.1864649698 -0.3869231159 -0.131284937 0.2749988507
530296820.0 -0.1235884944 0.2666776931 0.1824849984 -0.3888600506 0.1825274803 -0.3888022006 -0.1283414823 0.2760005331
535296790.0 -0.1197897463 0.2684604995 0.1779903574 -0.390926213 0.1784993068 -0.3912688172 -0.1253230143 0.278380454
540296760.0 -0.1172227391 0.2698529595 0.1739802266 -0.3928993065 0.1736205161 -0.3927452457 -0.1225633812 0.2789349427
545296730.0 -0.114596256 0.2715523134 0.1699525329 -0.3944258302 0.1694618995 -0.3944141195 -0.1193563183 0.2808046461
550296700.0 -0.1113913543 0.2727981005 0.1653064716 -0.3965088081 0.1651256793 -0.3966701913 -0.1162419374 0.2820275519
555296670.0 -0.1084174976 0.2744233139 0.1605997063 -0.3986524847 0.1610812619 -0.3981924266 -0.113732788 0.2831845074
560296640.0 -0.1049104504 0.2752688691 0.1561003415 -0.3998873051 0.1564267177 -0.4001256427 -0.1105947909 0.285152971
565296610.0 -0.1027301971 0.276656402 0.15229306 -0.4014119579 0.1521768717 -0.4013454489 -0.1077211326 0.286055901
570296580.0 -0.0995883891 0.2781120146 0.1478399405 -0.4033066932 0.1477104617 -0.4030807847 -0.1046131714 0.2870574202
575296550.0 -0.0962608693 0.2792271526 0.1435306985 -0.4049539106 0.1432016398 -0.4045552558 -0.101346841 0.2884532812
580296520.0 -0.0934063751 0.2808332975 0.1390465563 -0.4060733256 0.1387989617 -0.4062933732 -0.0985886782 0.2896575804
585296490.0 -0.0900262446 0.2816506262 0.1345188476 -0.4078424795 0.1340997545 -0.4077404234 -0.0952931575 0.2910410822
590296460.0 -0.0867810102 0.2828893673 0.1300676619 -0.409155054 0.1299078657 -0.4094611041 -0.0924715789 0.2921236267
595296430.0 -0.0837662521 0.2837946893 0.1254466186 -0.4104006658 0.1251331699 -0.4105209588 -0.08939365 0.292996552
600296400.0 -0.0809642283 0.2851234548 0.1208045587 -0.4115476642 0.1207201687 -0.411728362 -0.0859671785 0.2942149898
605296370.0 -0.0778343843 0.2862564375 0.1167346553 -0.4126325563 0.1161012181 -0.4131152178 -0.08272815 0.2953023046
610296340.0 -0.0742952838 0.2874240953 0.1122091662 -0.4135955782 0.1120183419 -0.414317215 -0.0799917682 0.2964120483
615296310.0 -0.0711434678 0.2882975795 0.107503295 -0.415274492 0.1070916978 -0.4153765881 -0.0765684459 0.2972852535
620296280.0 -0.0685489779 0.2896258377 0.1027374053 -0.4161404986 0.1024336475 -0.4161245957 -0.0737416338 0.2986098177
625296250.0 -0.065530301 0.2905425938 0.0985081824 -0.4174405382 0.0982963461 -0.4176143034 -0.070675408 0.2992008647
630296220.0 -0.062167876 0.2914427198 0.0935976904 -0.4182742311 0.0936454626 -0.4183594753 -0.0672582623 0.3003460617
635296190.0 -0.0590119692 0.2923113448 0.0892974426 -0.4192212222 0.0892302499 -0.4194476992 -0.0644738348 0.300590554
640296160.0 -0.0559696239 0.2932638107 0.0848656009 -0.420681852 0.0844158372 -0.4204328928 -0.0609322888 0.3019883993
645296130.0 -0.0526726353 0.2944346481 0.0801575439 -0.4213132688 0.0800537108 -0.4207807358 -0.0579241927 0.3021632699
650296100.0 -0.0495403746 0.2946798885 0.0756099413 -0.4217622158 0.0751298953 -0.4219815043 -0.0544012824 0.3030869988
655296070.0 -0.0468427682 0.2957761996 0.0709933491 -0.4229753787 0.0707516741 -0.4224842893 -0.052099357 0.3040513296
660296040.0 -0.0434881136 0.2965995942 0.0663101418 -0.4233736398 0.0663095072 -0.423493489 -0.0483691769 0.3044371437
665296010.0 -0.0402571556 0.2973978822 0.0612387198 -0.4239472315 0.0615647483 -0.4239519213 -0.0452379042 0.3053148202
670295980.0 -0.0374134572 0.2982389735 0.0571398451 -0.424595432 0.0570285357 -0.4242556893 -0.0422812655 0.3054343455
675295950.0 -0.0340547439 0.2985827236 0.0526216855 -0.4247504312 0.0527773868 -0.4253206008 -0.0389419162 0.3065068613
680295920.0 -0.0316356258 0.2995804622 0.0481226722 -0.4255793197 0.0479352698 -0.4256358844 -0.0356368606 0.3067385642
685295890.0 -0.0277264243 0.3000922637 0.0430830732 -0.4262788956 0.0431790434 -0.4261560103 -0.0324147873 0.3075064758
690295860.0 -0.0246837596 0.3005939161 0.0388066087 -0.4263654616 0.0387601157 -0.4265177286 -0.0291395758 0.307679336
695295830.0 -0.0215635423 0.3009516645 0.0341402883 -0.4266832481 0.0339277091 -0.4270250208 -0.0257535902 0.3082576157
700295800.0 -0.0184380723 0.3016408296 0.029616228 -0.4269693472 0.0296637052 -0.4273715183 -0.0225608745 0.3089027836
705295770.0 -0.0154942205 0.302046574 0.0251409741 -0.4273584961 0.024785945 -0.4276571714 -0.019528331 0.3093705997
710295740.0 -0.0124670902 0.3024852737 0.0205353659 -0.4277558644 0.0199532141 -0.4281185828 -0.0159070348 0.3099161309
715295710.0 -0.0088039807 0.3029714592 0.0157865685 -0.428043245 0.0153324355 -0.4280558136 -0.0125779095 0.3094121073
720295680.0 -0.005631276 0.3033011871 0.0108878662 -0.4281106916 0.0106336898 -0.4281470411 -0.0095541621 0.3099954834
725295650.0 -0.0032279562 0.3037514672 0.0068969962 -0.4281382499 0.006305011 -0.427997078 -0.0066148917 0.3104446278
730295620.0 -0.000314508 0.3041921708 0.0020135923 -0.4278261738 0.0014262871 -0.4281314416 -0.0035255549 0.3110686562
735295590.0 0.0028662322 0.3039589323 -0.0027360701 -0.4279597605 -0.0028991782 -0.4277615572 0.0001086226 0.310630846
740295560.0 0.0059324519 0.304382985 -0.0073828734 -0.4279698408 -0.0074742869 -0.4280335923 0.0033051395 0.3109918968
745295530.0 0.0091028717 0.3047373584 -0.0120168101 -0.4270664742 -0.0114503116 -0.4276710993 0.0059633122 0.3109838486
750295500.0 0.0120049723 0.3049252544 -0.0160688268 -0.4277797749 -0.0168480064 -0.4274377356 0.0097694493 0.3111063125
755295470.0 0.014842042 0.304967837 -0.020593251 -0.427606078 -0.0211794159 -0.4275477361 0.0129324611 0.3113428127
760295440.0 0.018361378 0.3051161155 -0.0262828626 -0.4270348327 -0.0260260943 -0.4268202732 0.0163188172 0.3109841389
765295410.0 0.0217735494 0.3047061223 -0.0306512565 -0.4264820594 -0.0301587393 -0.4265859132 0.0194807379 0.3111915036
770295380.0 0.0246987337 0.3048621599 -0.0349496011 -0.4256620851 -0.0350888013 -0.4268108918 0.0226526926 0.3109553521
775295350.0 0.0274219176 0.3049101545 -0.0394892618 -0.4260178833 -0.0394873447 -0.4258705043 0.0261114493 0.3109955719
780295320.0 0.0306375948 0.3051544509 -0.0438864547 -0.4249999741 -0.0438513814 -0.425410034 0.0292004368 0.3107359725
785295290.0 0.0335845518 0.3047533142 -0.0487852452 -0.4246167654 -0.0486194472 -0.42511964 0.0322096033 0.3111748669
790295260.0 0.0367669591 0.3045742694 -0.053482364 -0.4241674878 -0.0529987787 -0.4245442081 0.0355724343 0.3107324061
795295230.0 0.0398427839 0.3041698468 -0.0576234342 -0.4235795221 -0.0579483444 -0.4238399786 0.0388203352 0.3102099505
800295200.0 0.0424591604 0.3041858863 -0.0621381814 -0.4225212322 -0.0621374537 -0.4234660925 0.0417026523 0.3097237251
805295170.0 0.0456165827 0.3040761364 -0.0665218693 -0.4220644611 -0.0668394626 -0.4227799033 0.0458301138 0.3096400635
810295140.0 0.0488222402 0.3041567964 -0.071339802 -0.4214749619 -0.071496588 -0.421561457 0.0490722355 0.309333554
815295110.0 0.0515869396 0.303613581 -0.075764909 -0.4207763389 -0.0757803813 -0.4209513469 0.0518992231 0.308957751
820295080.0 0.0544744704 0.3032320657 -0.0800142672 -0.4196957353 -0.0801643591 -0.4202880894 0.0543736953 0.308948418
825295050.0 0.0576465504 0.3023975118 -0.0846229105 -0.4188754684 -0.0851519012 -0.4191966699 0.0586346418 0.3083695087
830295020.0 0.0608206206 0.302224915 -0.0892620515 -0.4180629672 -0.0895103151 -0.4179579259 0.0613637207 0.3074748938
