!Created with skrf (http://scikit-rf.org).
# Hz S RI R 50.0 
!freq ReS11 ImS11 ReS21 ImS21 ReS12 ImS12 ReS22 ImS22
300000.0 -0.7744503649 -0.1706476703 -0.0021655613 -0.0005309073 -0.0007709075 0.0012786378 -0.762403486 -0.1875226672
5299970.0 -0.7856112013 -0.0096325861 0.0001350617 0.0001566481 -6.46679e-05 0.0001817408 -0.7848975595 -0.009375294
10299940.0 -0.789761745 -0.005643762 3.58567e-05 0.0001132314 -5.27594e-05 -9.0944e-06 -0.7877946034 -0.0055409561
15299910.0 -0.793865163 -0.0032352299 7.27665e-05 0.000220641 7.26363e-05 -0.0002058843 -0.793346049 -0.0030576847
20299880.0 -0.8009614628 0.0007501156 3.02977e-05 2.73829e-05 3.88609e-05 -0.0001122304 -0.7995418482 0.0017901922
25299850.0 -0.8074928781 0.0068827282 -1.4524e-05 0.0001377563 -0.000122085 8.3351e-05 -0.8059578628 0.0080770101
30299820.0 -0.8144653721 0.0138670415 -0.000152201 -0.0001207688 -9.08684e-05 0.0001164702 -0.8114625502 0.0156272699
35299790.0 -0.8187055557 0.0229675287 -0.0002875722 0.0001209763 8.96523e-05 -5.85377e-05 -0.8173971612 0.02436122
40299760.0 -0.8236091052 0.0317067983 -0.0001155147 -5.44435e-05 -8.52271e-05 0.0001958834 -0.821445115 0.0337174444
45299730.0 -0.8269801171 0.0416311446 1.608e-06 9.99286e-05 -0.0002118778 0.000166996 -0.8244285615 0.0436339591
50299700.0 -0.8292931539 0.0516286344 -0.0002151169 -0.0001561222 -5.53764e-05 -1.56234e-05 -0.8264978092 0.0540080106
55299670.0 -0.8312614078 0.0612641741 -6.83807e-05 6.99158e-05 -0.0001467545 -2.26489e-05 -0.8287966327 0.0634653449
60299640.0 -0.832621204 0.0717783113 -3.32243e-05 -0.0001274626 4.42447e-05 -0.0001683017 -0.8294427187 0.0739455378
65299610.0 -0.8335952834 0.0819009989 6.81977e-05 0.000121214 8.5103e-05 7.72322e-05 -0.8303535065 0.0838761685
70299580.0 -0.8338459189 0.0911221479 0.0001430113 0.0001594249 -9.92971e-05 -6.55669e-05 -0.8310433144 0.0936419489
75299550.0 -0.8338519235 0.1012741616 4.8701e-06 -0.0002954872 6.92346e-05 -2.97225e-05 -0.8306856465 0.1042693078
80299520.0 -0.8341431449 0.1120383983 0.0001586817 -0.0002801618 -2.84739e-05 -0.0002176541 -0.8310973685 0.1137951266
85299490.0 -0.8330970178 0.1210964601 -9.2737e-06 -0.0001814717 7.18114e-05 -2.99119e-05 -0.8297993466 0.1235098437
90299460.0 -0.8316341766 0.1312439064 0.0001308539 2.9988e-05 1.11094e-05 1.52713e-05 -0.8287098734 0.1328226174
95299430.0 -0.8310017658 0.1403873404 0.0001343052 6.30367e-05 0.0001299782 -0.0002064506 -0.8279111704 0.1425812029
100299400.0 -0.8307042203 0.1498363883 0.0002115541 -0.0001800948 0.0001070219 -1.29942e-05 -0.8269753046 0.1518020607
105299370.0 -0.8292569379 0.1593034453 3.63904e-05 6.19034e-05 3.2854e-06 -1.01628e-05 -0.8261110098 0.1607526304
110299340.0 -0.8279015705 0.168849839 0.0002098636 0.0001685759 -0.0001776174 -6.91254e-05 -0.8246286404 0.1692461139
115299310.0 -0.8258548412 0.1776232586 -8.84326e-05 -6.77279e-05 -5.20793e-05 -5.42612e-05 -0.8231886951 0.1792841114
120299280.0 -0.8244444022 0.186633262 0.0003681616 -1.00429e-05 0.0002342832 -6.93391e-05 -0.8208486685 0.1883861783
125299250.0 -0.822479271 0.1952603851 -2.63941e-05 3.73848e-05 0.000166982 -0.0001364532 -0.8197564562 0.1970847262
130299220.0 -0.8209624269 0.2053254472 7.75928e-05 1.24869e-05 -4.81751e-05 7.61425e-05 -0.8179451324 0.2059842237
135299190.0 -0.8190667102 0.2142371874 -5.39388e-05 -0.0001677387 -4.58233e-05 5.5784e-05 -0.8161518184 0.2144435124
140299160.0 -0.8174871637 0.223211787 0.0001139247 -4.1302e-05 -6.78419e-05 -6.78238e-05 -0.8140097257 0.2234672821
145299130.0 -0.8149064262 0.2321937756 -8.1493e-05 -3.69235e-05 -0.0001382498 -3.16961e-05 -0.8121061929 0.232390101
150299100.0 -0.8124901203 0.2412425606 -1.71442e-05 8.52361e-05 -5.16262e-05 0.0001519404 -0.8094697179 0.241404191
155299070.0 -0.8098774078 0.2499032676 -0.0001940799 -8.6352e-06 -4.64904e-05 9.62835e-05 -0.806787929 0.2507844934
160299040.0 -0.8074096989 0.2591188894 -0.0001530178 0.0001375507 2.37783e-05 3.97237e-05 -0.8044450224 0.2587220074
165299010.0 -0.8043405413 0.2678385051 0.0002624669 -7.41924e-05 4.6467e-06 2.62466e-05 -0.8014588682 0.2671703877
170298980.0 -0.8016561904 0.2764880468 -0.0001482515 1.88229e-05 -0.0001890502 0.0001319413 -0.7994791079 0.2760888869
175298950.0 -0.7992223025 0.2843241988 0.0001554532 -0.0002009131 6.3414e-05 6.3347e-06 -0.7963527592 0.2847744489
180298920.0 -0.7957032327 0.293298513 3.2465e-06 6.3356e-05 -7.75453e-05 -0.0001004674 -0.7930477305 0.2935841201
185298890.0 -0.79284908 0.3022855505 -0.0001505316 -0.0001575596 -3.56216e-05 -6.17137e-05 -0.7902743835 0.3015198015
190298860.0 -0.7896513163 0.3113178914 0.0001033993 -0.0001388044 -0.0002496748 4.32143e-05 -0.7873405173 0.3099182688
195298830.0 -0.7866488464 0.3192741228 -0.0002513545 0.0001089494 2.62178e-05 -0.0001548271 -0.784064561 0.3178945986
200298800.0 -0.782941272 0.3278250948 -0.0002809661 -8.53084e-05 5.38502e-05 0.0001902263 -0.7808898329 0.3264877088
205298770.0 -0.779294282 0.3367385796 -8.58922e-05 0.0001060295 -0.0001252518 -0.0001086453 -0.7773750559 0.3354528167
210298740.0 -0.7763522278 0.3448591827 0.0001202349 -1.80279e-05 3.20443e-05 -0.0002547365 -0.7741933291 0.3430093208
215298710.0 -0.7718700308 0.3536652549 0.0001373756 5.11501e-05 -2.03952e-05 -4.7313e-06 -0.7704905902 0.3511169801
220298680.0 -0.7690055112 0.3609732762 -8.0316e-05 0.0001233171 7.13641e-05 -2.46248e-05 -0.7665820812 0.3595518438
225298650.0 -0.7648629648 0.3697445729 4.3337e-05 7.68708e-05 -2.03017e-05 -7.89305e-05 -0.7627601499 0.3678190518
230298620.0 -0.7614651036 0.377560935 4.52652e-05 0.0001093832 -0.000190935 -0.0001977433 -0.7590266586 0.375596959
235298590.0 -0.7571510253 0.3860693909 2.42062e-05 4.4926e-05 -6.77957e-05 -5.66898e-05 -0.7547429231 0.3833056833
240298560.0 -0.7524455485 0.3937917124 0.0001816124 2.7456e-05 0.0001610324 9.02477e-05 -0.7506483169 0.3909594411
245298530.0 -0.7485988333 0.401894795 0.000226951 0.0001825899 -6.29046e-05 0.0001269303 -0.747349844 0.3988815609
250298500.0 -0.7446789809 0.4090303929 -8.92258e-05 3.28612e-05 -6.48959e-05 2.84641e-05 -0.7429141757 0.4067599484
255298470.0 -0.7405572827 0.4175208418 -5.19684e-05 -0.0001739941 6.27377e-05 8.92589e-05 -0.7387390251 0.4141391574
260298440.0 -0.7367627418 0.4249264237 -0.0001628183 -0.0001044359 0.0001115483 0.0001212912 -0.7341127576 0.4221411933
265298410.0 -0.731742814 0.4328438868 -8.63873e-05 0.0001011689 -8.95402e-05 -7.12588e-05 -0.7298603459 0.4303574809
270298380.0 -0.7271807199 0.4401684049 0.0001021768 0.0001489917 4.35435e-05 0.000109894 -0.7248468362 0.4379954529
275298350.0 -0.7235023265 0.4481668163 -7.21059e-05 0.0001525319 0.0001384216 0.0001039015 -0.7204968841 0.4454359484
280298320.0 -0.7185242164 0.4555916151 -3.4947e-06 5.32958e-05 -0.0001723276 7.33415e-05 -0.7162162574 0.4527145782
285298290.0 -0.7131904398 0.4632184269 3.71695e-05 0.0002123218 -7.33831e-05 -4.70191e-05 -0.7117319907 0.4607365316
290298260.0 -0.7087869609 0.4710162133 -1.72323e-05 -0.0001785363 7.93607e-05 6.47356e-05 -0.7062721632 0.4677036022
295298230.0 -0.7040568711 0.4781019106 0.0002700534 0.0001433296 -0.0002061674 -7.3512e-05 -0.7011900221 0.4745216807
300298200.0 -0.6990962426 0.4856240391 1.22051e-05 4.14308e-05 -1.23781e-05 4.58047e-05 -0.6969384629 0.4824540563
305298170.0 -0.694305753 0.492726539 0.0001452515 2.9536e-06 7.15634e-05 0.0001165045 -0.6912587327 0.489699862
310298140.0 -0.6893429607 0.4996382637 -9.86269e-05 0.0001857635 0.0002237483 -0.0001311976 -0.686239655 0.4969774612
315298110.0 -0.6844859373 0.5067931861 9.2606e-06 -0.0001345744 7.11527e-05 -0.0001132143 -0.6810285287 0.5038652017
320298080.0 -0.6788061148 0.5138058671 -0.0001585279 4.02886e-05 -0.0003221966 -3.22797e-05 -0.6764202778 0.5100874795
325298050.0 -0.6736858466 0.5208437955 3.23265e-05 6.22316e-05 -5.0967e-06 1.4269e-06 -0.6701271616 0.5174997194
330298020.0 -0.6682135643 0.5277290526 -5.34817e-05 2.91588e-05 9.86609e-05 0.0002289481 -0.66508844 0.5240884347
335297990.0 -0.6628618543 0.5348092678 5.37623e-05 -0.0001524436 6.76606e-05 1.08125e-05 -0.6594054136 0.5314956837
340297960.0 -0.6577005888 0.5416390705 -4.83775e-05 0.0001061908 -0.0003020758 1.41854e-05 -0.6539086469 0.5386437591
345297930.0 -0.652145469 0.5480615541 0.000125296 6.8999e-05 -2.33534e-05 -2.12747e-05 -0.6492155439 0.5446699112
350297900.0 -0.6462248371 0.5552012476 -4.06575e-05 -0.0001683641 9.74683e-05 -8.22122e-05 -0.643066567 0.5514574329
355297870.0 -0.6405230859 0.5616620087 -7.90541e-05 -2.37004e-05 -0.0001421128 -4.97886e-05 -0.636852913 0.5585693763
360297840.0 -0.6351130076 0.5679562293 -0.0002213408 3.13772e-05 1.66564e-05 3.90415e-05 -0.6303461519 0.5650272678
365297810.0 -0.6294043879 0.5746727916 -2.43506e-05 -0.0001626948 -1.67204e-05 -0.0001877695 -0.6259128972 0.5706893015
370297780.0 -0.6234379005 0.5806072492 -0.0002077996 4.34037e-05 0.0002133163 -0.0001100357 -0.6195542499 0.5779561557
375297750.0 -0.6187442354 0.5869836076 9.73863e-05 -7.63405e-05 0.0001419947 -4.30526e-05 -0.6133334612 0.5840324448
380297720.0 -0.6117797429 0.5935516506 0.00012361 -6.4068e-06 -4.73267e-05 6.8501e-06 -0.6065528669 0.5903432505
385297690.0 -0.6060739625 0.5992944017 -9.63247e-05 7.60727e-05 2.42821e-05 0.0001324174 -0.6010246379 0.5966653281
390297660.0 -0.5987830116 0.6056021325 4.28585e-05 0.0002212838 0.0001500228 9.09475e-05 -0.5942911656 0.6019126261
395297630.0 -0.5930812848 0.612111094 -0.0001516021 0.0001501444 -6.34138e-05 -3.52361e-05 -0.5879050952 0.607529043
400297600.0 -0.5868540419 0.6181684793 2.29117e-05 -8.68683e-05 3.38058e-05 9.6031e-06 -0.582565595 0.6141722303
405297570.0 -0.5804567158 0.6234334995 4.32472e-05 9.0236e-05 -3.46778e-05 6.95522e-05 -0.5752039972 0.6201281601
410297540.0 -0.5740581701 0.6299258968 -3.18057e-05 1.17446e-05 -3.11949e-05 -1.57198e-05 -0.569369424 0.626160427
415297510.0 -0.5677549272 0.6351486486 -0.0001048289 -3.49766e-05 0.000108839 2.7773e-05 -0.5627137454 0.6313397981
420297480.0 -0.5609227349 0.6410591677 7.16069e-05 -0.0001250967 -7.09401e-05 -5.64733e-05 -0.5563091692 0.6378819985
425297450.0 -0.5542938202 0.6467868089 3.71101e-05 0.0001268071 -5.96771e-05 -0.0001418716 -0.5494753929 0.6425476991
430297420.0 -0.5479820101 0.6519875916 3.5659e-05 8.7058e-05 0.0001380963 1.4842e-05 -0.5427181901 0.6488013893
435297390.0 -0.5409336792 0.6574607371 1.31934e-05 0.0001807767 -0.0001888105 0.0001080363 -0.537183523 0.6541995182
440297360.0 -0.5347851019 0.6629598239 -0.00011645 -3.89031e-05 0.0001424364 -0.0001033523 -0.5303672262 0.66000317
445297330.0 -0.5273951931 0.667917198 7.06606e-05 -5.07137e-05 0.0002201114 -2.5018e-05 -0.5229915914 0.6649075881
450297300.0 -0.5205902386 0.6735014488 7.01334e-05 -0.0001851163 7.83798e-05 0.0002025603 -0.5159084618 0.669601916
455297270.0 -0.513805629 0.678574536 7.05353e-05 0.0001254979 0.0001729048 0.0001070286 -0.5094302677 0.6752144837
460297240.0 -0.5065183175 0.6841119593 3.87818e-05 -5.89067e-05 -7.743e-06 -0.0002758801 -0.5025396959 0.6799322118
465297210.0 -0.4993168597 0.6887668326 -2.27653e-05 8.72e-06 -9.2314e-06 -0.0001285061 -0.4952177641 0.6859092339
470297180.0 -0.4924522473 0.693916214 -0.0001279425 -1.16551e-05 -0.0001619378 -6.63586e-05 -0.4882291796 0.6904489571
475297150.0 -0.48523259 0.6986227468 -0.0001617878 2.825e-07 6.08221e-05 6.7604e-05 -0.4816157855 0.6954423069
480297120.0 -0.4768259063 0.703855201 -2.72722e-05 -5.99354e-05 0.0001840875 0.0001247805 -0.4748886878 0.7001790011
485297090.0 -0.4696758934 0.7084207076 2.0879e-05 -6.04228e-05 -5.80902e-05 -0.0001832528 -0.4673355357 0.704802933
490297060.0 -0.4622744855 0.7139791401 -6.16982e-05 -0.0002220731 -9.81571e-05 -0.0001468592 -0.4597706157 0.7092010366
495297030.0 -0.4550906295 0.7183400294 -4.99161e-05 0.0001353355 -8.7493e-05 -0.0001106582 -0.4524913745 0.713522059
500297000.0 -0.4477755662 0.7222779342 -3.28402e-05 0.0001031551 -6.53999e-05 -0.0001499648 -0.4453919468 0.7188473055
505296970.0 -0.4396151974 0.7270870796 4.32062e-05 -5.50182e-05 0.0001849546 0.0001110814 -0.4376979427 0.7225104354
510296940.0 -0.4324439082 0.7317331885 0.0001575044 -1.0455e-06 8.3621e-06 0.0001027666 -0.4301451341 0.7273384758
515296910.0 -0.4245325301 0.7357363407 -4.09e-05 -0.0001007869 9.6266e-05 -9.16859e-05 -0.4228849055 0.7312160894
520296880.0 -0.4160845724 0.7401909454 0.0001227292 0.0001006929 -0.0001956535 8.0896e-06 -0.415391853 0.7358719347
525296850.0 -0.4090187543 0.743995493 4.75942e-05 7.29406e-05 -4.67116e-05 4.18014e-05 -0.4081919222 0.7397320264
530296820.0 -0.4013249809 0.7479001507 0.0001439803 2.51891e-05 -0.0002639078 -3.44618e-05 -0.4006040922 0.7434371577
535296790.0 -0.393163134 0.7518520347 -6.75818e-05 8.39955e-05 -0.0001150087 -2.17908e-05 -0.3935522185 0.748087729
540296760.0 -0.3849897782 0.7558573262 -7.6455e-06 -0.0001493472 0.0002025 0.0001114817 -0.3853558341 0.7513237962
545296730.0 -0.3775784898 0.760325265 -8.32466e-05 0.0001306698 1.85565e-05 -9.18013e-05 -0.377763987 0.7555582451
550296700.0 -0.3691425226 0.7634536691 -1.96145e-05 5.66433e-05 -1.46581e-05 -1.379e-05 -0.3702093838 0.759197743
555296670.0 -0.3614046689 0.7670573636 -2.35524e-05 -0.000146654 3.09133e-05 0.0001080855 -0.3624909623 0.7624245926
560296640.0 -0.3529609457 0.770496545 9.53283e-05 8.30095e-05 -7.01923e-05 8.03925e-05 -0.3545649799 0.7665852835
565296610.0 -0.3456094579 0.7743227049 -8.506e-07 -0.0001284688 -0.0001308145 0.0001104299 -0.3471577073 0.7699768431
570296580.0 -0.337075689 0.778315305 -3.86e-06 4.72131e-05 0.0001612455 -0.0002216214 -0.3394201054 0.7730267602
575296550.0 -0.3286160911 0.7811218179 5.05205e-05 -5.11852e-05 -7.52265e-05 -3.4486e-06 -0.3308397412 0.7769302336
580296520.0 -0.3214650783 0.7848096623 -4.09086e-05 -6.144e-07 4.83558e-05 -3.9425e-05 -0.3238748385 0.7797359801
585296490.0 -0.3125003142 0.7877844969 1.77027e-05 -4.2116e-05 6.45319e-05 -6.76651e-05 -0.3159921917 0.7834593448
590296460.0 -0.3038556191 0.7909792032 0.0001092919 -5.5034e-05 0.0001839326 -0.0002100977 -0.3080202756 0.7860830683
595296430.0 -0.2958744754 0.7936762415 -2.88723e-05 2.64332e-05 0.0001202598 2.81492e-05 -0.2999269991 0.7891536288
600296400.0 -0.2884599391 0.7967564313 1.50485e-05 1.27421e-05 5.95735e-05 -2.72806e-05 -0.29211657 0.791469968
605296370.0 -0.280145414 0.7992423869 -0.0001919693 -4.72219e-05 0.0001107607 4.96735e-05 -0.2839317073 0.7953493525
610296340.0 -0.271276359 0.8028303673 -1.13494e-05 -2.2004e-05 -4.70119e-05 0.0002087621 -0.2759282776 0.7973585773
615296310.0 -0.2629284412 0.8057654307 -0.0001492229 -5.01048e-05 -4.74e-07 7.93645e-05 -0.2676022623 0.8006117862
620296280.0 -0.2552088323 0.8081130448 1.89328e-05 -8.97618e-05 7.95393e-05 3.43052e-05 -0.2603212535 0.8032921119
625296250.0 -0.2475045861 0.8103706168 -3.37793e-05 2.02121e-05 -9.30321e-05 0.0001970957 -0.2518670464 0.8052060825
630296220.0 -0.2389382269 0.8134076549 -0.0001702891 -0.00010118 -7.24502e-05 1.34185e-05 -0.2434590053 0.8083198397
635296190.0 -0.2300690539 0.8155303539 -0.0001117876 0.0001416977 7.1406e-06 2.05758e-05 -0.2357263375 0.8098007219
640296160.0 -0.2220721284 0.8177153207 0.0001155984 -8.65711e-05 -1.75352e-05 8.21326e-05 -0.2269860018 0.812452496
645296130.0 -0.2135405593 0.8209841861 -7.80295e-05 -3.63884e-05 -7.9902e-06 -8.65556e-05 -0.2195553317 0.8146974775
650296100.0 -0.2056192763 0.8223127282 -0.0001112798 -1.72099e-05 1.13505e-05 0.0001188973 -0.2111438209 0.8168463638
655296070.0 -0.1974158757 0.8247212844 -6.1555e-05 2.6447e-06 -4.44181e-05 2.58617e-05 -0.2030635336 0.8188899065
660296040.0 -0.1891465284 0.8265777011 9.95448e-05 -0.0001765754 0.0001240401 -2.6734e-05 -0.1941190805 0.8209686374
665296010.0 -0.1808698303 0.8283502988 2.21596e-05 -6.34656e-05 7.28619e-05 -4.15916e-05 -0.1862384915 0.8224226691
670295980.0 -0.1726812131 0.8305477589 1.44394e-05 -0.0001653775 0.0001553127 -0.0002076338 -0.1784543513 0.8241846061
675295950.0 -0.1643856802 0.8320677892 -0.0002754843 -2.59002e-05 -7.02249e-05 0.0001093424 -0.1700168319 0.8266276787
680295920.0 -0.1570611043 0.8337904051 -9.71938e-05 2.20377e-05 3.69818e-05 -0.000184105 -0.1609268353 0.827723963
685295890.0 -0.1474116966 0.8357231122 1.62895e-05 -0.0001526982 0.0002380298 -3.04387e-05 -0.1532948314 0.8298105177
690295860.0 -0.1395157061 0.8370196854 -6.45615e-05 1.95257e-05 -2.4042e-06 -3.83896e-05 -0.1456467468 0.8311773467
695295830.0 -0.1305903077 0.8388203768 -0.0001656848 -0.0002764641 -1.98062e-05 -3.02238e-05 -0.1369542353 0.8329268571
700295800.0 -0.1221499186 0.8404625273 -7.44505e-05 -0.0001071986 -0.0001201014 2.94799e-05 -0.1290347423 0.8337035984
705295770.0 -0.1149376312 0.8411719768 -0.0001303025 8.15476e-05 9.92995e-05 -5.601e-05 -0.1203849485 0.8356651326
710295740.0 -0.1072961764 0.8421311752 -4.41438e-05 0.0002863443 -8.9044e-05 1.62747e-05 -0.1118321863 0.836302481
715295710.0 -0.0974917536 0.8432604879 0.0001466265 -0.0001229129 -0.0001684604 2.3733e-05 -0.1033841689 0.8367353151
720295680.0 -0.0892146971 0.8445154709 3.00657e-05 2.69129e-05 0.0002440182 0.0001691769 -0.0948708535 0.8380432941
725295650.0 -0.0817085701 0.8460643342 -2.13885e-05 5.1528e-05 -2.41266e-05 4.55864e-05 -0.087019109 0.839298383
730295620.0 -0.0740533398 0.8468549969 0.0002402413 9.8344e-05 0.0001207331 2.06613e-05 -0.0789707825 0.8399263056
735295590.0 -0.0655768898 0.8482079818 -1.0284e-05 -0.000122627 -9.33186e-05 6.0526e-06 -0.0698452923 0.8404149728
740295560.0 -0.0579350516 0.8473907361 -8.75942e-05 -3.67786e-05 -4.26312e-05 0.0001402602 -0.0617259405 0.8416335961
745295530.0 -0.0490864411 0.8490137178 2.15544e-05 0.0001407502 -6.95016e-05 -1.1854e-06 -0.0536677834 0.8417307447
750295500.0 -0.0409140077 0.8493738307 -0.000113443 -5.0425e-05 3.42578e-05 -0.0001199976 -0.0448905697 0.8422632857
755295470.0 -0.031905306 0.849697328 -0.0001504574 -0.000106391 -0.0001556057 5.1911e-06 -0.0371964118 0.8431283724
760295440.0 -0.0242409846 0.8508730367 8.06586e-05 1.80688e-05 -2.19171e-05 -8.17831e-05 -0.0280964002 0.842583909
765295410.0 -0.0159033182 0.850622494 0.0001040111 1.55618e-05 -5.10366e-05 -0.0001401442 -0.0197013045 0.8433544422
770295380.0 -0.0083397217 0.8516214384 -4.72313e-05 -8.18175e-05 0.0001412236 -2.7528e-06 -0.011297411 0.8434025823
775295350.0 7.30728e-05 0.851062699 -4.45024e-05 8.34584e-05 -7.5045e-06 0.0001101461 -0.0037140155 0.8432631212
780295320.0 0.0086890539 0.8508676751 0.0001978268 -1.90756e-05 -0.0001250288 -0.0002679395 0.0048978605 0.843649934
785295290.0 0.0170852821 0.8510679126 -0.000192762 2.5887e-05 -1.89074e-05 1.27419e-05 0.0130142807 0.8434047727
790295260.0 0.0246386324 0.8512182431 0.0002108378 -0.0001961811 -3.84235e-05 9.97801e-05 0.0217769829 0.8431619508
795295230.0 0.0329867103 0.8503534765 0.0001668875 6.33655e-05 4.93872e-05 5.27414e-05 0.0296440916 0.8423611869
800295200.0 0.0410808668 0.8505114045 -3.5312e-06 -4.25163e-05 -7.5821e-05 -5.32717e-05 0.0383095462 0.8420480283
805295170.0 0.048641932 0.8506253134 -0.0001228798 4.15565e-05 -6.65636e-05 -6.68533e-05 0.0473111972 0.8418598139
810295140.0 0.0575999081 0.8507458547 -0.0001474976 0.0002063047 9.74253e-05 8.82669e-05 0.0553649957 0.8409409728
815295110.0 0.0646586242 0.8496842393 0.0001613372 7.3393e-06 0.0001182539 -0.0001433552 0.0630006635 0.841375625
820295080.0 0.0737156055 0.8492994782 4.47791e-05 -6.391e-05 -0.0001258715 -1.60576e-05 0.0711973599 0.8404102754
825295050.0 0.0817246536 0.8483712781 -0.0001271994 -4.20857e-05 5.76099e-05 -3.84303e-05 0.0797631047 0.8394422346
830295020.0 0.0902460356 0.8476437788 5.46768e-05 -0.0002194767 2.10395e-05 -4.63747e-05 0.0879638156 0.8383061743
835294990.0 0.0978257089 0.8467159841 -3.55899e-05 -6.91272e-05 -7.8059e-06 0.0001357605 0.0967855602 0.8377223107
840294960.0 0.1065680375 0.8454601724 -5.11648e-05 3.86354e-05 -0.0001996394 -0.0001758775 0.1055146225 0.8370858265
845294930.0 0.1144194677 0.8446330651 0.0001575093 -6.44879e-05 -1.73003e-05 -3.1703e-05 0.1133091335 0.8358003423
850294900.0 0.1240084279 0.8429837817 -0.0001376398 0.0002518197 -0.0001095928 -4.50258e-05 0.1212933549 0.8349429501
