!Created with skrf (http://scikit-rf.org).
# Hz S RI R 50.0 
!freq ReS11 ImS11 ReS21 ImS21 ReS12 ImS12 ReS22 ImS22
300000.0 -0.0999787575 -0.069207133 0.6315227884 0.0632332625 0.6250215992 0.0655152707 -0.1026334895 -0.0765987117
5299970.0 -0.1023229927 0.0130771451 0.6304245849 0.0098503196 0.6307138585 0.0102020741 -0.100923404 0.0129051678
10299940.0 -0.097099936 0.0294218915 0.6338367318 0.0154011937 0.633988843 0.0153806597 -0.0958797683 0.0304204397
15299910.0 -0.0899058688 0.0425395077 0.6403335441 0.0202901567 0.6407131296 0.0204158025 -0.0884897635 0.0437095324
20299880.0 -0.0815304527 0.0532144652 0.6485050432 0.0245611118 0.6485398546 0.0239608577 -0.0798348334 0.0544702134
25299850.0 -0.0721664596 0.0621620441 0.6572701268 0.0248591779 0.6575750226 0.0254748942 -0.069530823 0.0633410697
30299820.0 -0.0621428417 0.0685557292 0.6671379272 0.0241471595 0.6669749585 0.0244752677 -0.0597977978 0.0699804568
35299790.0 -0.0526813298 0.0736798197 0.6774209827 0.0214511638 0.6768187602 0.0217692705 -0.0498537712 0.0747575778
40299760.0 -0.04317394 0.077226909 0.6857791092 0.0172900423 0.6867240541 0.017637419 -0.0403061368 0.0774002923
45299730.0 -0.0339799438 0.079408939 0.6950216887 0.0118146931 0.6954715598 0.0118757282 -0.0311550948 0.0800618108
50299700.0 -0.0256226247 0.0800233847 0.7032287751 0.0048260039 0.7036490999 0.0051179882 -0.0227637915 0.0805270929
55299670.0 -0.017441211 0.0803454385 0.7108679228 -0.0035854755 0.710986043 -0.0026683217 -0.0148765908 0.0808537012
60299640.0 -0.0098527313 0.0802486629 0.7174756125 -0.0114486039 0.7170510612 -0.0108360095 -0.0079251555 0.0793362924
65299610.0 -0.003805669 0.0789511807 0.7231147567 -0.0203999152 0.7233876359 -0.0198167914 -0.0013098358 0.0787262092
70299580.0 0.002298681 0.0776622599 0.7288568576 -0.0297595275 0.7283488212 -0.029091756 0.0046647204 0.0766324972
75299550.0 0.0080237135 0.0760024391 0.733132886 -0.0389021289 0.7325344418 -0.0391497996 0.0100645957 0.0747313563
80299520.0 0.0130681934 0.0735003518 0.7371614107 -0.0490272358 0.7371667589 -0.0490275288 0.0151084687 0.0725613304
85299490.0 0.0176116331 0.0713628398 0.7405526068 -0.0585788747 0.7406982264 -0.0586549434 0.019284455 0.0696904159
90299460.0 0.0215911436 0.0690563626 0.7423919361 -0.0688771447 0.7430935449 -0.0685760097 0.0235193037 0.0681011257
95299430.0 0.0256617666 0.0663994727 0.7458122858 -0.0787295948 0.7458772657 -0.079510458 0.0272689639 0.0654147344
100299400.0 0.0290080925 0.0644344261 0.7470614799 -0.0892107664 0.7471001685 -0.0890278225 0.0309777892 0.0626313291
105299370.0 0.0322421457 0.0621540981 0.7484784043 -0.0995104168 0.7491026175 -0.0992675362 0.0339861882 0.0607589585
110299340.0 0.0348751377 0.059479648 0.7499932431 -0.1092618065 0.7493611554 -0.10918744 0.0359485708 0.057792068
115299310.0 0.0375120829 0.0574169481 0.7503592558 -0.1194179406 0.7505365217 -0.1191968862 0.0390133485 0.0557770188
120299280.0 0.0399468508 0.0546773262 0.7512865824 -0.1293370548 0.7518216429 -0.1297204312 0.0409013234 0.0529659715
125299250.0 0.0419368362 0.0521735507 0.7515807414 -0.1396518407 0.7515578411 -0.1391025612 0.0428310652 0.0504402155
130299220.0 0.0434658209 0.0503331957 0.7514001382 -0.1495854611 0.7514396695 -0.1491845928 0.0449963937 0.048388264
135299190.0 0.0454190679 0.0482169023 0.7516643661 -0.159226336 0.7512554785 -0.1587924434 0.0465897676 0.0459320514
140299160.0 0.046681078 0.0461963442 0.7507029045 -0.1688624696 0.7506746925 -0.1687258845 0.048046556 0.0446660407
145299130.0 0.0481863187 0.0437067741 0.7503716684 -0.1786479099 0.7495735844 -0.1785215179 0.0492230659 0.0418964469
150299100.0 0.0497268858 0.0421898471 0.7484544527 -0.1874996315 0.7491320752 -0.1880864099 0.0506736329 0.0400750208
155299070.0 0.0504840736 0.0398088934 0.7479365964 -0.1986189917 0.7475137281 -0.1980007417 0.051759599 0.0381093359
160299040.0 0.0518375823 0.0380914275 0.7464104665 -0.2072003016 0.7455756555 -0.2077873882 0.0522455796 0.0359486775
165299010.0 0.0522753076 0.0362182818 0.7447459461 -0.2170116944 0.7445735433 -0.2170437142 0.0537530007 0.0347750518
170298980.0 0.0534739277 0.0338936393 0.7427465053 -0.2264062573 0.743064271 -0.2263184071 0.0542021181 0.0328883812
175298950.0 0.0538838089 0.032155115 0.7413648654 -0.2352917916 0.7407501643 -0.2353432451 0.0549086444 0.0313935854
180298920.0 0.054421266 0.0304654582 0.7388929265 -0.2447164906 0.7386568858 -0.2445890844 0.0556198983 0.0296345098
185298890.0 0.0555279407 0.0288147858 0.7366890496 -0.2536257619 0.7362728575 -0.2535972098 0.0557252766 0.028290042
190298860.0 0.0553946543 0.0271383408 0.7337740051 -0.263262733 0.7347272588 -0.2630689111 0.056323528 0.0263687941
195298830.0 0.0560182836 0.0252018923 0.731735881 -0.2717958102 0.7320130305 -0.2716538217 0.0571916417 0.0252400136
200298800.0 0.0564307521 0.0241485789 0.7289646413 -0.2812045848 0.7289629884 -0.2815184012 0.0568683195 0.0236493955
205298770.0 0.0569811757 0.0226677613 0.7257776917 -0.2903611641 0.7254526013 -0.2897045501 0.0572558584 0.0213969836
210298740.0 0.0573231806 0.0210276644 0.7231211232 -0.2983454672 0.7230517871 -0.2980948562 0.0579828941 0.0213982781
215298710.0 0.0567915936 0.0196510197 0.7199727658 -0.3076056828 0.7203299971 -0.3075857448 0.0577039664 0.0198632385
220298680.0 0.0578613419 0.0177051218 0.7169498144 -0.3160341941 0.7162326357 -0.3157594952 0.0577114949 0.0179429333
225298650.0 0.057823218 0.0165735435 0.7138280353 -0.3247096527 0.7136897243 -0.3245420151 0.0574873485 0.0164454834
230298620.0 0.0578597451 0.015709855 0.7105962221 -0.3331487607 0.7109969017 -0.3330580442 0.0575052765 0.0150974938
235298590.0 0.0576777608 0.0146586636 0.7067163624 -0.3411704656 0.7066847665 -0.3410263119 0.0578721895 0.0138034005
240298560.0 0.0579363337 0.0134559757 0.7035751341 -0.350484602 0.7026238156 -0.3503251381 0.0577906309 0.0130822564
245298530.0 0.0578045071 0.0120406977 0.6998765691 -0.3579888246 0.6996013491 -0.358335927 0.0582207706 0.0111250751
250298500.0 0.0585082762 0.0108248999 0.6948278543 -0.3666101115 0.6947360579 -0.3658407159 0.0576067659 0.0104318297
255298470.0 0.0581377377 0.0092967136 0.6914534986 -0.3744890895 0.691517584 -0.3743903505 0.0581858841 0.009028694
260298440.0 0.057999945 0.0081409377 0.6876472589 -0.383329305 0.6874350644 -0.3826926401 0.0584657721 0.0081301699
265298410.0 0.0589245269 0.0074544656 0.6835006006 -0.3909897236 0.6838215447 -0.3904210646 0.0581876165 0.0067809824
270298380.0 0.0585608247 0.0061898476 0.6799017906 -0.3983917589 0.6796006099 -0.3985690209 0.0579141353 0.0058185125
275298350.0 0.0590982514 0.0052839426 0.6751488708 -0.4068298874 0.6752437233 -0.4065159599 0.0583124392 0.0046064347
280298320.0 0.0584836755 0.0042468659 0.6711686322 -0.4146849332 0.6706247131 -0.4143739556 0.0586064706 0.0033761257
285298290.0 0.05850002 0.0031717121 0.6666058491 -0.4223833584 0.6658225621 -0.4227174099 0.058355317 0.0020338066
290298260.0 0.0592550435 0.0020157825 0.6620148263 -0.4297287697 0.6620616007 -0.4298753806 0.0585932311 0.0016895346
295298230.0 0.0590198045 0.0008031344 0.6578942981 -0.4374907098 0.6570289638 -0.4371577873 0.059264814 0.0007716729
300298200.0 0.058454547 -0.0003576333 0.6527097539 -0.4452166741 0.6527769578 -0.445831438 0.0588325136 -0.0005521151
305298170.0 0.0587086003 -0.0015295876 0.6475275273 -0.4535504036 0.6478924021 -0.4529856593 0.0595673236 -0.0018579195
310298140.0 0.0583059654 -0.002473247 0.642956322 -0.4607766765 0.6433948919 -0.4608689312 0.0594412414 -0.0030364577
315298110.0 0.0582481263 -0.0040371378 0.6377454842 -0.4683780583 0.6378353102 -0.468542037 0.0588578177 -0.0046167401
320298080.0 0.0587026476 -0.0050096645 0.6319656757 -0.4763259903 0.6325308413 -0.4759731912 0.0586975583 -0.0054690587
325298050.0 0.0579636142 -0.0060491629 0.6273913877 -0.483745683 0.6271057702 -0.4833589386 0.0579061886 -0.0064165709
330298020.0 0.0575534444 -0.0074570379 0.6211994367 -0.490895695 0.6216027797 -0.4908747068 0.0573360203 -0.0078894368
335297990.0 0.0572166107 -0.0088075686 0.6160448914 -0.4976450085 0.6152846059 -0.4976643291 0.056489059 -0.0077133383
340297960.0 0.0562679491 -0.0091530283 0.6095660938 -0.5047139884 0.6092682404 -0.5053237884 0.057194955 -0.0087793925
345297930.0 0.055610318 -0.0094076602 0.6045474501 -0.511911022 0.6037294229 -0.5118388506 0.0564145455 -0.0097799971
350297900.0 0.0551923883 -0.0108800713 0.5973283744 -0.5186670645 0.5980828424 -0.5188504081 0.0555532669 -0.0097752324
355297870.0 0.0549268011 -0.0105978487 0.5920917915 -0.5251417938 0.5929608586 -0.5248886292 0.0551243538 -0.0104378073
360297840.0 0.0546072904 -0.0115830549 0.5873643586 -0.5314830749 0.587219287 -0.5312141989 0.0548681392 -0.0108906389
365297810.0 0.0540610531 -0.0120771368 0.5806111076 -0.5389615151 0.581180554 -0.5389058084 0.0548394065 -0.011683245
370297780.0 0.0541400757 -0.0131984779 0.5748700164 -0.5446346396 0.5750634883 -0.5442820367 0.0541615684 -0.0122547019
375297750.0 0.0538535623 -0.0139062043 0.5686620996 -0.5509903738 0.569381387 -0.5511965402 0.0542412205 -0.0130632453
380297720.0 0.0534930134 -0.0142685648 0.5625955057 -0.55810279 0.5627247701 -0.5568994642 0.0533610629 -0.013960523
385297690.0 0.0526853323 -0.0151858892 0.5561639203 -0.563800422 0.5560757588 -0.5635281965 0.0532931422 -0.0140050301
390297660.0 0.0526398199 -0.0154939635 0.5502062432 -0.5700616896 0.5497851412 -0.5695808946 0.0526397187 -0.0152316918
395297630.0 0.0521655605 -0.0160972991 0.5438522148 -0.5762317117 0.5441558876 -0.5764191583 0.0530649729 -0.0155634237
400297600.0 0.0517470916 -0.0164774637 0.5367236943 -0.582475101 0.5375926824 -0.5822360281 0.0522463297 -0.0160881957
405297570.0 0.0511270328 -0.017517341 0.5306991222 -0.587764137 0.5309134161 -0.5877866509 0.0517082865 -0.0167809424
410297540.0 0.0512448249 -0.0182474947 0.5244100549 -0.5942969805 0.5248018948 -0.5937909141 0.0512373489 -0.0170915105
415297510.0 0.0510973689 -0.0187841855 0.5180086804 -0.5999559181 0.5185497467 -0.6002107784 0.051064566 -0.0179018665
420297480.0 0.0508586965 -0.0188504952 0.5111995532 -0.6052612106 0.5114654871 -0.6058876309 0.0501140295 -0.0188521858
425297450.0 0.049965863 -0.0206238619 0.5043939711 -0.6114868401 0.5046948728 -0.6109814768 0.049490849 -0.0190874368
430297420.0 0.0499645272 -0.020970298 0.4978443083 -0.6159664283 0.498044053 -0.6165664227 0.0493606294 -0.0201363813
435297390.0 0.0495294987 -0.0213014166 0.4907906298 -0.6226521599 0.4909677864 -0.6221215506 0.0497690046 -0.0208193873
440297360.0 0.0492705336 -0.0216374129 0.4846959952 -0.627743693 0.4841594346 -0.6278401118 0.0489142112 -0.0213643916
445297330.0 0.0486169399 -0.0229648818 0.47765551 -0.6329230905 0.4778474996 -0.6326539151 0.0487856877 -0.0222998813
450297300.0 0.0486951485 -0.0229118034 0.4704384893 -0.6387035634 0.469951723 -0.6386813198 0.0484793773 -0.0230890325
455297270.0 0.0481132027 -0.0238091881 0.4626184535 -0.6434202198 0.4633662851 -0.6438487587 0.0478336244 -0.0233862004
460297240.0 0.0477267361 -0.0244795292 0.4555288488 -0.6488123256 0.4559445275 -0.6490883277 0.0477056065 -0.023700539
465297210.0 0.0477098121 -0.0249959167 0.4492214032 -0.6540199862 0.4488991272 -0.6539506263 0.0474646505 -0.0247316899
470297180.0 0.0469916223 -0.0256962811 0.4412336015 -0.6587545693 0.4415433985 -0.6587618581 0.0471969553 -0.0249590782
475297150.0 0.0467393265 -0.0265598868 0.434545586 -0.6627213348 0.4344123736 -0.6631837802 0.0470124732 -0.0256676818
480297120.0 0.0460898828 -0.0262308093 0.4268263412 -0.6684429243 0.4272773046 -0.668648888 0.0471793772 -0.0260836437
485297090.0 0.0454733145 -0.0270448151 0.4201058477 -0.6724433566 0.419861342 -0.6725976303 0.0463461688 -0.0269770139
490297060.0 0.0447279814 -0.0279555435 0.412748645 -0.6785342327 0.4124081612 -0.6770273963 0.0459472649 -0.0268734743
495297030.0 0.0443533103 -0.0280740266 0.4050280152 -0.6820254615 0.4051456849 -0.682150935 0.0451347021 -0.027732554
500297000.0 0.0441513213 -0.0291460308 0.3973361264 -0.6865673271 0.3968033272 -0.6858250154 0.0448207753 -0.0274770482
505296970.0 0.0438117127 -0.0293380329 0.3899209696 -0.690402359 0.3897096562 -0.6911464088 0.0447198865 -0.0281670152
510296940.0 0.0434636027 -0.0296480711 0.3819942616 -0.6956699952 0.3819390854 -0.6951802186 0.0441669789 -0.0283332342
515296910.0 0.0423153864 -0.0297702669 0.3747062004 -0.6994993605 0.3743442328 -0.6993863808 0.0439047202 -0.028976203
520296880.0 0.0421633019 -0.0304450547 0.3670267626 -0.7037543754 0.3668952497 -0.7030087345 0.0434374622 -0.029457863
525296850.0 0.0421037911 -0.0315091318 0.3593239327 -0.7074579495 0.3594803522 -0.7072287623 0.0422861949 -0.0298627914
530296820.0 0.0415141696 -0.0317038921 0.3515495462 -0.7114448734 0.3513091227 -0.7111773899 0.042385761 -0.0300268761
535296790.0 0.0402252745 -0.0320345301 0.344179105 -0.715427383 0.3435675096 -0.7147228016 0.0419326228 -0.031151431
540296760.0 0.0400466599 -0.0319457397 0.335778704 -0.7192075172 0.3357815109 -0.7189396874 0.0407911409 -0.0305210258
545296730.0 0.0395817043 -0.0326549962 0.3272235924 -0.7222328321 0.3275649325 -0.7228223264 0.0402553497 -0.0312907342
550296700.0 0.0398978944 -0.0327765983 0.3193288656 -0.7262009192 0.319885737 -0.7265607753 0.0396076539 -0.0315168206
555296670.0 0.0387093833 -0.0332307671 0.3123875256 -0.7295972871 0.3122577057 -0.7293257664 0.0393277598 -0.031714789
560296640.0 0.0384590366 -0.0331503505 0.3038986008 -0.7329681586 0.3040334256 -0.7329409079 0.0387259479 -0.0326025655
565296610.0 0.0372165534 -0.0339503324 0.2956911003 -0.7366741264 0.295798751 -0.7358541855 0.0380556023 -0.0330946776
570296580.0 0.0371693071 -0.0339737973 0.2876003395 -0.73981391 0.2869871803 -0.7395325603 0.0377190365 -0.0326696026
575296550.0 0.036148264 -0.0344172527 0.2797043956 -0.7428100512 0.279742562 -0.7430629985 0.0373779876 -0.033634709
580296520.0 0.0364100057 -0.0346493152 0.2708980718 -0.7465381695 0.2718860094 -0.7457942338 0.036440963 -0.0341258728
585296490.0 0.0354513743 -0.0359057745 0.2637358846 -0.748128948 0.2635691933 -0.7483817155 0.0361206225 -0.0342908099
590296460.0 0.0352923341 -0.0354954797 0.2555274911 -0.7508388611 0.2550446272 -0.7508847687 0.0347254385 -0.0346467703
595296430.0 0.0349535567 -0.0356955316 0.2465403958 -0.7541590441 0.2469017654 -0.7537962307 0.0349685124 -0.0350692403
600296400.0 0.0340047947 -0.0362534623 0.238749335 -0.7568309586 0.2386057614 -0.7567462662 0.0342402454 -0.0355530867
605296370.0 0.0335062079 -0.0367464311 0.2301128128 -0.7589012242 0.2308440854 -0.759408694 0.0337177409 -0.0357478097
610296340.0 0.0333737807 -0.0369719502 0.2219206137 -0.761430182 0.2221978116 -0.7615843542 0.0337696398 -0.0363060757
615296310.0 0.0328203233 -0.0377894457 0.2136033383 -0.7636902947 0.2137337249 -0.7649134559 0.0331349286 -0.0362577516
620296280.0 0.0322311431 -0.0380025166 0.2055269867 -0.7659449655 0.2056388597 -0.7662112819 0.0318839615 -0.0367131614
625296250.0 0.0309870013 -0.0385971731 0.1979342048 -0.7691979887 0.1974649419 -0.7689779128 0.0325258857 -0.0371850818
630296220.0 0.0318806301 -0.0383886661 0.1883075401 -0.7709931333 0.188320757 -0.7704443539 0.0315531905 -0.0372062147
635296190.0 0.0296076369 -0.0392080505 0.1805069149 -0.7722732915 0.180226129 -0.7730404456 0.0311137813 -0.03743494
640296160.0 0.0294625847 -0.0390421802 0.1711742512 -0.7745631467 0.1721914354 -0.774090443 0.0301610274 -0.0376365771
645296130.0 0.0290495328 -0.0391959872 0.1623583449 -0.7758431879 0.1638575685 -0.7765951275 0.0302768861 -0.0380760333
650296100.0 0.028662515 -0.0395677905 0.1546486261 -0.7779755171 0.1548953178 -0.7782892388 0.0299283357 -0.0390878254
655296070.0 0.0272731418 -0.0401835858 0.1457254061 -0.7803965889 0.1465854365 -0.779809358 0.0293017368 -0.038566386
660296040.0 0.026600966 -0.040572867 0.1381753122 -0.781533458 0.1379199907 -0.7814117244 0.0288225535 -0.0387949435
665296010.0 0.0268909762 -0.0404727985 0.1289249191 -0.7827658477 0.1295456671 -0.7827343056 0.0282075207 -0.0382218158
670295980.0 0.0248465929 -0.040554653 0.1208112524 -0.784123843 0.120883614 -0.7838012507 0.0270845068 -0.0392723899
675295950.0 0.0248388301 -0.0404288529 0.1123422952 -0.7850864101 0.1126480946 -0.7848136938 0.026802183 -0.0393899492
680295920.0 0.0239790196 -0.0411310201 0.1035972368 -0.7865416609 0.1029584681 -0.7868856351 0.0261835512 -0.0387851197
685295890.0 0.0238395293 -0.0403426616 0.0952658961 -0.7873030267 0.0945218283 -0.7876887458 0.025504092 -0.0391630395
690295860.0 0.0235538099 -0.040862504 0.0862191268 -0.7880355718 0.0863081643 -0.7891332111 0.0251581957 -0.0385000666
695295830.0 0.0226606187 -0.0413419043 0.07853958 -0.7896182858 0.0775976242 -0.7891320754 0.0242225484 -0.0391729983
700295800.0 0.0221014976 -0.0416799443 0.0689771016 -0.7902507722 0.0688248582 -0.7894542002 0.0235425044 -0.0384534867
705295770.0 0.0213428328 -0.0408950668 0.060395355 -0.7909674593 0.0605440501 -0.7905870272 0.0226637983 -0.0389567012
710295740.0 0.0213532985 -0.0414066711 0.0520099297 -0.7920049641 0.0526509093 -0.7921143245 0.0226105178 -0.0396770957
715295710.0 0.0196716127 -0.0416840394 0.0439108399 -0.7921016864 0.0429607173 -0.7918726909 0.0222835108 -0.0395983405
720295680.0 0.0196086309 -0.0415849138 0.034752553 -0.7928368113 0.0351207117 -0.7923627228 0.0213435056 -0.0387583626
725295650.0 0.0191787613 -0.0415729094 0.0260673599 -0.7928540419 0.02589033 -0.7927424251 0.0200967817 -0.0390682839
730295620.0 0.0187024478 -0.0413009889 0.0175059743 -0.7924984428 0.0174756434 -0.7930563993 0.0194849076 -0.0397996615
735295590.0 0.0179726516 -0.0418321981 0.0092509161 -0.7930581165 0.0087027563 -0.793004888 0.0188321964 -0.040054281
740295560.0 0.0169293738 -0.04169434 -0.0003171431 -0.7931699741 5.21243e-05 -0.7929281485 0.0189305199 -0.039714978
745295530.0 0.0166086355 -0.0415545364 -0.0086460415 -0.7930779819 -0.0086242516 -0.7931292475 0.0181315866 -0.0401913643
750295500.0 0.0161230688 -0.0417390214 -0.0166327447 -0.7926599121 -0.0168504156 -0.793097207 0.0174208105 -0.0400444411
755295470.0 0.0156716263 -0.0421716491 -0.0256882209 -0.7923805129 -0.0251856946 -0.7928509323 0.0175362513 -0.0406870571
760295440.0 0.0150817793 -0.0417721002 -0.0344112706 -0.7923577812 -0.0345586476 -0.7928250489 0.0164016943 -0.0405227186
765295410.0 0.0141446051 -0.0419568207 -0.0431376117 -0.7917981708 -0.043048577 -0.7919529051 0.0159932258 -0.0403021666
770295380.0 0.0129471068 -0.0420753346 -0.052525423 -0.7913734886 -0.0518134528 -0.7915286579 0.0149071544 -0.0408080105
775295350.0 0.0126347927 -0.0430685955 -0.0604217336 -0.7901182298 -0.0599260317 -0.7907147221 0.0135188979 -0.0404024889
780295320.0 0.0123114964 -0.0424985909 -0.0687536547 -0.7897329821 -0.068291642 -0.7898342731 0.0133913274 -0.0411208427
785295290.0 0.0113431513 -0.0429370811 -0.077837699 -0.7885134569 -0.0771440541 -0.7889440154 0.0135915797 -0.04062125
790295260.0 0.0113236956 -0.0418574387 -0.0853669459 -0.788130141 -0.0848249539 -0.7883263671 0.012823431 -0.0407556813
795295230.0 0.0104716911 -0.0423909522 -0.094363937 -0.7868076323 -0.0938595207 -0.787212664 0.0124683609 -0.0400892814
800295200.0 0.0094664224 -0.0420350752 -0.1040070917 -0.7860510773 -0.102812342 -0.7860808661 0.0117083577 -0.040868905
805295170.0 0.0092135748 -0.0424345036 -0.1116094543 -0.7847863265 -0.1113615844 -0.7849772866 0.0111631504 -0.0408043081
810295140.0 0.0080898195 -0.0427123508 -0.1194156158 -0.7832786293 -0.1197614951 -0.7835524161 0.0111134274 -0.040317819
815295110.0 0.007982748 -0.0426728102 -0.1284438319 -0.7818880207 -0.1282883864 -0.7821161288 0.0099987677 -0.0402991045
820295080.0 0.0065745756 -0.0418623935 -0.13719513 -0.7804305353 -0.1365000093 -0.7804231884 0.0093796834 -0.0405332304
825295050.0 0.0069345169 -0.0420660976 -0.1446596738 -0.7792938684 -0.1452923028 -0.7791824957 0.0090489918 -0.0402862075
830295020.0 0.0060597165 -0.0418623541 -0.1540894337 -0.7767988016 -0.1536106452 -0.7770753201 0.0093705466 -0.0400778968
