!Created with skrf (http://scikit-rf.org).
# Hz S RI R 50.0 
!freq ReS11 ImS11 ReS21 ImS21 ReS12 ImS12 ReS22 ImS22
300000.0 -0.2324559603 -0.1355060365 0.4657186087 0.0897402536 0.4672389229 0.0886228687 -0.2351134099 -0.1372738098
5299970.0 -0.2418541477 0.0050988637 0.4749598348 0.0061915291 0.4752171362 0.0061873673 -0.2438566486 0.0045256858
10299940.0 -0.238628733 0.0186339779 0.4774165406 0.0070439247 0.4770733491 0.007067327 -0.240799266 0.0171985223
15299910.0 -0.2335347555 0.0285926871 0.4804956393 0.0079981398 0.4805246576 0.0081525038 -0.2366203504 0.0263312735
20299880.0 -0.2284123011 0.0368827441 0.4850587918 0.0083242275 0.4854867684 0.0080878372 -0.2317218476 0.0339362237
25299850.0 -0.2224804987 0.043664158 0.4906861349 0.0077325986 0.4909979916 0.0072873446 -0.2266708662 0.0400053036
30299820.0 -0.2170603456 0.048873078 0.4956726609 0.0048199403 0.4960510789 0.0050658991 -0.2216123569 0.0447519526
35299790.0 -0.2112197902 0.0530545537 0.5008590433 0.0017212025 0.5012836828 0.0016426804 -0.2164319029 0.0491026019
40299760.0 -0.2058402867 0.0561431835 0.5063529233 -0.0024249516 0.5065852713 -0.0024518251 -0.2117268239 0.0521575338
45299730.0 -0.2009215597 0.058620742 0.5109365274 -0.006539077 0.5113820209 -0.0070098096 -0.2066842451 0.054977555
50299700.0 -0.1959846662 0.0610017843 0.515154718 -0.0125445939 0.515547004 -0.012662486 -0.2025018567 0.0569567871
55299670.0 -0.1919634043 0.0625105393 0.5187677563 -0.0181538069 0.5189197485 -0.018762326 -0.1988964998 0.0586353735
60299640.0 -0.1876836704 0.0641379755 0.5222818 -0.0247861869 0.5221214828 -0.0247583727 -0.1953111822 0.0596685461
65299610.0 -0.1841102155 0.0651592256 0.5255788998 -0.0309823725 0.525317991 -0.0313067968 -0.191689309 0.0606018774
70299580.0 -0.1807288589 0.0657779527 0.5272149843 -0.0369955193 0.5279385213 -0.0376651748 -0.1889125106 0.0618284077
75299550.0 -0.1779015009 0.0667906658 0.5295416997 -0.0447059156 0.529715987 -0.0445669218 -0.185911651 0.0628811793
80299520.0 -0.1752282593 0.0676870259 0.5314813286 -0.0515802169 0.5318829059 -0.0515147613 -0.1837105536 0.063650608
85299490.0 -0.1723675232 0.0683652252 0.5327151583 -0.0581886926 0.5330044204 -0.058267373 -0.1813287399 0.0639535326
90299460.0 -0.1700919642 0.0690631905 0.5331963989 -0.0651646849 0.5335436142 -0.0649621857 -0.1789677087 0.0650084923
95299430.0 -0.1679348865 0.0698360511 0.5341187601 -0.0721826011 0.5348549811 -0.0724946134 -0.1771338645 0.0657598407
100299400.0 -0.1658114916 0.0701978302 0.5345714415 -0.0786666834 0.5348791922 -0.0789607775 -0.1756263223 0.0665368707
105299370.0 -0.1640227934 0.0709162442 0.5353882785 -0.0854834905 0.535474479 -0.0858964877 -0.1736076182 0.0665610425
110299340.0 -0.1621841687 0.0716417005 0.5356020702 -0.0920304673 0.5356190116 -0.0920872244 -0.1726530775 0.0672127822
115299310.0 -0.1608293243 0.0726813789 0.5352785031 -0.0993450208 0.5352085827 -0.099370806 -0.1712718346 0.0684871777
120299280.0 -0.1596016596 0.0733170516 0.535452027 -0.1065414605 0.5353413719 -0.1063748898 -0.1698601342 0.0687440417
125299250.0 -0.157805438 0.0739989844 0.5346902232 -0.1129945605 0.5347527144 -0.1129196436 -0.16850176 0.0701627331
130299220.0 -0.1566294346 0.0746959444 0.5342472388 -0.119604957 0.5339948035 -0.1204199813 -0.1674813932 0.0705315858
135299190.0 -0.1555941982 0.075712715 0.5334870081 -0.1262578342 0.5337704926 -0.1263042035 -0.1663926089 0.0711261432
140299160.0 -0.1540367598 0.0766217636 0.5328226158 -0.1332071754 0.5325863421 -0.1328284206 -0.1656931503 0.0718436361
145299130.0 -0.1534777149 0.0776493864 0.5320708335 -0.1392471185 0.5319211069 -0.1394915187 -0.1646599656 0.0728753524
150299100.0 -0.1520514616 0.078818096 0.530710221 -0.1461292331 0.5303703192 -0.1461842978 -0.1640918007 0.0741421778
155299070.0 -0.1508686643 0.0801302253 0.5291868619 -0.1526023987 0.5295095527 -0.1525578344 -0.163127259 0.0749996688
160299040.0 -0.1498918668 0.0811215842 0.5280910202 -0.1586653789 0.5280978927 -0.1590351107 -0.1622727006 0.0761381092
165299010.0 -0.1489210405 0.0822646059 0.5267636679 -0.1656079635 0.5266006359 -0.1655065494 -0.1611856784 0.07689555
170298980.0 -0.1479792438 0.0835105908 0.5248809344 -0.1717506544 0.5253321422 -0.1720814577 -0.1607959154 0.0778835797
175298950.0 -0.1467615007 0.0846029102 0.5234716377 -0.1778099615 0.5239190626 -0.1784553022 -0.1602589129 0.0795201643
180298920.0 -0.1461922103 0.086085453 0.5218180332 -0.1843763549 0.5218272509 -0.1846407691 -0.158998169 0.0804229506
185298890.0 -0.1448456203 0.086985241 0.5200594994 -0.1905809002 0.5197500877 -0.1903556941 -0.1581301402 0.080988658
190298860.0 -0.1437688048 0.088764001 0.5177766214 -0.1967949526 0.5182621792 -0.196729642 -0.157742164 0.0824169593
195298830.0 -0.1430482229 0.0902222143 0.5160284544 -0.2026562121 0.5162980833 -0.2028683955 -0.1570721335 0.0838294549
200298800.0 -0.1420905518 0.0910482279 0.5141263803 -0.2092860428 0.5136673862 -0.2091390428 -0.1560233653 0.0845343811
205298770.0 -0.1416643398 0.0924562349 0.5118701975 -0.2146292607 0.5121119185 -0.2150906899 -0.1552578821 0.0860331642
210298740.0 -0.1400207465 0.0939835619 0.5095543832 -0.2207131914 0.5090496427 -0.221030732 -0.1548087561 0.0869625517
215298710.0 -0.139204387 0.0954239451 0.5064586829 -0.2265247759 0.507206416 -0.2273302086 -0.1538330941 0.0887017733
220298680.0 -0.1381979504 0.096733215 0.5047065193 -0.2325865429 0.504686276 -0.2327791852 -0.1532044542 0.0895505767
225298650.0 -0.1371947085 0.0981754681 0.5015560464 -0.2385848841 0.5021409689 -0.238017728 -0.152393712 0.0906334149
230298620.0 -0.1361281336 0.1001388222 0.4993639824 -0.2445850855 0.4999199563 -0.2446152817 -0.1519941174 0.0919977034
235298590.0 -0.135601099 0.1012245674 0.4973101984 -0.2508446126 0.4973974799 -0.2500083587 -0.150954779 0.0937082534
240298560.0 -0.1340842808 0.102740998 0.4944296724 -0.2553971588 0.4942301387 -0.2558484235 -0.1503151177 0.0943566021
245298530.0 -0.1333799175 0.1039973284 0.491825778 -0.2613985031 0.4913830207 -0.2613985998 -0.1497539866 0.0957886543
250298500.0 -0.1324211887 0.105227795 0.4886833817 -0.2668710005 0.4889313815 -0.2669211987 -0.1488024584 0.0973728522
255298470.0 -0.1311764046 0.1070010082 0.4858855346 -0.2725072328 0.4865257465 -0.2727254263 -0.1480686349 0.0990202717
260298440.0 -0.1300562377 0.1085589383 0.4831098475 -0.2778300902 0.4830617718 -0.2779664832 -0.1470747292 0.0997484797
265298410.0 -0.129339675 0.1099811555 0.4800719463 -0.2836663477 0.479972262 -0.2841746454 -0.1455968499 0.1010050298
270298380.0 -0.1283905539 0.1111437917 0.4768950519 -0.2891445991 0.4770149077 -0.2893287236 -0.1449988132 0.1027651067
275298350.0 -0.127109649 0.1129184933 0.4736220721 -0.2943277968 0.4739483116 -0.2943932475 -0.1445571259 0.104121309
280298320.0 -0.1260408511 0.1143004757 0.4708675373 -0.2996288191 0.4710991701 -0.2999236624 -0.1433037458 0.105465898
285298290.0 -0.1249289237 0.1158661293 0.4672787405 -0.3052143499 0.4675846147 -0.304840198 -0.142546207 0.1069199915
290298260.0 -0.1237942627 0.1172631041 0.4647103986 -0.3104111146 0.464109101 -0.3106109343 -0.1412379409 0.1084807643
295298230.0 -0.1226118401 0.11835353 0.4606849423 -0.3158541151 0.4609033908 -0.3161126162 -0.1403322321 0.1092221086
300298200.0 -0.1212219016 0.1203568805 0.457713696 -0.3211934962 0.457525582 -0.3207351539 -0.1395839134 0.110653844
305298170.0 -0.1201955827 0.1212652169 0.4537766729 -0.3261558537 0.4543213265 -0.3267431897 -0.1383902171 0.112087624
310298140.0 -0.1186038664 0.1223520192 0.4502793771 -0.3310475907 0.4507608749 -0.3313909647 -0.1372758258 0.1132665564
315298110.0 -0.1177116699 0.1236765531 0.4472999996 -0.3368191036 0.4469076805 -0.3370570431 -0.1364715903 0.1144555071
320298080.0 -0.1164780223 0.1251430222 0.4426171772 -0.3418515483 0.4434152945 -0.342110086 -0.1356335723 0.1156022884
325298050.0 -0.1158084191 0.1258779431 0.4393094216 -0.3464871108 0.4399411656 -0.3466206042 -0.1343464544 0.1168566049
330298020.0 -0.114980556 0.1277862365 0.4350648919 -0.3517953716 0.4359797006 -0.3518544594 -0.1339234449 0.1180969012
335297990.0 -0.1134104384 0.1289694441 0.4314505152 -0.3566512335 0.4316577781 -0.3568262175 -0.1328524918 0.1193203244
340297960.0 -0.1123839864 0.1302381232 0.4269495689 -0.3617731816 0.427083209 -0.361503665 -0.1318714448 0.1211404852
345297930.0 -0.1114789333 0.1314327419 0.4236061347 -0.3663051937 0.4230098622 -0.3663725399 -0.1308788809 0.1221673431
350297900.0 -0.110069384 0.132903139 0.4191486368 -0.370381616 0.4194566942 -0.3711360608 -0.1297129235 0.1232940914
355297870.0 -0.1087990864 0.1341788784 0.4150106208 -0.3749298672 0.4148767735 -0.3746684553 -0.1283194979 0.1248425847
360297840.0 -0.1076714184 0.135484257 0.4104850562 -0.3796714747 0.4113364321 -0.3802145626 -0.1277599221 0.1265136428
365297810.0 -0.1061956574 0.1369065225 0.406821191 -0.3842812903 0.4064589576 -0.3845050243 -0.1269309507 0.1274593753
370297780.0 -0.1046864165 0.1383727331 0.4021059937 -0.3889249073 0.4026586067 -0.3885268966 -0.1255823127 0.128839324
375297750.0 -0.103435701 0.139753363 0.3984549279 -0.3931098184 0.3981249195 -0.3934285227 -0.1245416602 0.1304221684
380297720.0 -0.1022570968 0.1410642873 0.3941543739 -0.3976354649 0.3938130202 -0.3977966373 -0.1232305476 0.131633385
385297690.0 -0.1008291095 0.1421433779 0.3894503216 -0.4016077816 0.3896138736 -0.4021421162 -0.1218210835 0.1331118871
390297660.0 -0.0990238159 0.1432192651 0.3848440837 -0.4056850421 0.3852659785 -0.4064566836 -0.1206311882 0.1341685311
395297630.0 -0.0972795838 0.144587914 0.3805423742 -0.4101338704 0.3802801311 -0.4099765834 -0.1192678773 0.1354050441
400297600.0 -0.09631217 0.1457324676 0.3760419355 -0.4143878423 0.3763399363 -0.4143091748 -0.1183609886 0.1373008295
405297570.0 -0.0949054117 0.1464661826 0.3718620728 -0.4181072377 0.3715253309 -0.4187673337 -0.1169553164 0.1384174165
410297540.0 -0.0931510743 0.1482923015 0.3670785876 -0.4225909192 0.3672964898 -0.4222894612 -0.1157445047 0.1395639802
415297510.0 -0.0919755879 0.1492721396 0.3624335172 -0.4264374766 0.3628232043 -0.4267289218 -0.1141563466 0.1409421955
420297480.0 -0.0905081002 0.1501820276 0.3572540047 -0.4305060998 0.357764316 -0.4305065055 -0.1123884209 0.1423738148
425297450.0 -0.0881918443 0.1513500438 0.3528322066 -0.4342504981 0.3527152605 -0.4343882248 -0.111320618 0.1430479506
430297420.0 -0.0873261253 0.1525016637 0.3488774681 -0.4381053393 0.3484385274 -0.4380667277 -0.1096176696 0.1445618347
435297390.0 -0.0852631032 0.1535494098 0.343171522 -0.4430274592 0.3432076367 -0.4420050665 -0.1087969628 0.1459159365
440297360.0 -0.0832822193 0.1543232923 0.3381696017 -0.4455794561 0.3384723594 -0.4461173974 -0.1074803784 0.1475978475
445297330.0 -0.0816195368 0.1553044641 0.3337055685 -0.4491847124 0.3334936181 -0.4499683591 -0.1055737148 0.1487169076
450297300.0 -0.0800035585 0.1565070535 0.3287956515 -0.4531271175 0.3289301205 -0.4527639533 -0.1041978262 0.1496838521
455297270.0 -0.0785594276 0.1571473512 0.3239693757 -0.4565014924 0.32427782 -0.4565320319 -0.1028301977 0.1507356335
460297240.0 -0.0765608101 0.1585609061 0.3187442391 -0.4604935695 0.3187342063 -0.4600712377 -0.1013175372 0.1513605435
465297210.0 -0.075065513 0.1592427467 0.3137104918 -0.4637603049 0.3131603568 -0.4638210717 -0.0994868824 0.1533743559
470297180.0 -0.0733046425 0.1598959962 0.3083192947 -0.4664237454 0.3089519767 -0.4669337704 -0.0981728193 0.1540079097
475297150.0 -0.0715548153 0.1613588819 0.3034707555 -0.470038919 0.3033942337 -0.4702817125 -0.0967720566 0.1550431274
480297120.0 -0.0695594999 0.1623337943 0.2983507267 -0.4734435429 0.2987599001 -0.4734912588 -0.0957498169 0.1561684453
485297090.0 -0.0677673435 0.162501965 0.2932716563 -0.4768637736 0.2932197026 -0.4770150753 -0.0941024139 0.1576316724
490297060.0 -0.0654078641 0.163722684 0.2875638867 -0.4798601462 0.288049677 -0.4805011496 -0.0924829083 0.1584817009
495297030.0 -0.0641472179 0.164245672 0.2830803095 -0.482846042 0.282815022 -0.4834897207 -0.0902891252 0.1593260567
500297000.0 -0.0620235415 0.1651587963 0.2770773179 -0.4855829147 0.2775238335 -0.4864468606 -0.089039091 0.1608327113
505296970.0 -0.0596221647 0.1660481035 0.272145096 -0.4893679373 0.2721793648 -0.488774917 -0.0874872868 0.1610029703
510296940.0 -0.0582455128 0.1669233995 0.2668852213 -0.492970035 0.2672385618 -0.4927023561 -0.0858327495 0.1625886918
515296910.0 -0.0563452249 0.167708559 0.2608599347 -0.4946413028 0.2609269894 -0.4946688497 -0.0841663755 0.1628012017
520296880.0 -0.0543795617 0.1683704823 0.2560445015 -0.4975692582 0.2557515831 -0.4976345653 -0.0824589451 0.1646827553
525296850.0 -0.0523071928 0.1689266467 0.2505039076 -0.5001902962 0.2503358919 -0.5003044438 -0.0808910606 0.1652678815
530296820.0 -0.0507157919 0.1700271032 0.2448694617 -0.5030217653 0.2450500522 -0.5029112774 -0.0790743114 0.1654710013
535296790.0 -0.047864955 0.1706631882 0.2393517597 -0.5054402077 0.2393538406 -0.5054287246 -0.0768707084 0.1670327954
540296760.0 -0.0461490543 0.1714219577 0.2338626141 -0.5080237895 0.2338502355 -0.5079455599 -0.0758188872 0.1674149715
545296730.0 -0.0445677748 0.1723301322 0.2284963113 -0.5104548255 0.2281747392 -0.5103363789 -0.0743450731 0.1684554614
550296700.0 -0.0421575472 0.1728232189 0.222881393 -0.5129401694 0.2225011636 -0.5132883649 -0.0722966817 0.1693252791
555296670.0 -0.0404533479 0.1734524369 0.2172555209 -0.5156606678 0.2171869921 -0.5154047551 -0.0711708477 0.1697892638
560296640.0 -0.0379429724 0.1738325743 0.2113534726 -0.5176770588 0.2117105756 -0.5177837954 -0.0690373075 0.1710725606
565296610.0 -0.0365523075 0.1744645829 0.2061951093 -0.5199291689 0.2061772969 -0.5193382829 -0.0674564356 0.1719191243
570296580.0 -0.0343886028 0.1752796566 0.2005290133 -0.5221030329 0.200270959 -0.5220602362 -0.0657320534 0.1724449525
575296550.0 -0.0321605764 0.1756492891 0.1950913327 -0.5243574627 0.1947047353 -0.5242894944 -0.0640964598 0.1732864916
580296520.0 -0.030235244 0.1767715219 0.1892536238 -0.5263754032 0.1887823877 -0.526425578 -0.0625902253 0.1741403554
585296490.0 -0.0280205457 0.1768413327 0.1837011511 -0.5278715756 0.1829807741 -0.5283798708 -0.0605156962 0.1750550981
590296460.0 -0.0254953084 0.1776462171 0.1775931953 -0.5304325757 0.1776658315 -0.5304726318 -0.0591574874 0.1757202375
595296430.0 -0.0237452215 0.1780715345 0.1711225375 -0.5319035978 0.1711151068 -0.5323088995 -0.0572452102 0.1763308244
600296400.0 -0.0213679876 0.1784978666 0.1656059526 -0.5338872662 0.1657985442 -0.5336707232 -0.0553943299 0.1768303815
605296370.0 -0.0201816113 0.1790682691 0.1603159983 -0.5356969588 0.1598131083 -0.5356424113 -0.0536864769 0.1775699845
610296340.0 -0.0173496142 0.1794937641 0.1545148676 -0.536926432 0.1545168739 -0.5370736648 -0.0519953923 0.1782663237
615296310.0 -0.0152355923 0.1798066988 0.1483063317 -0.5387976203 0.1480518306 -0.5391196306 -0.0498407402 0.1788383212
620296280.0 -0.0136490669 0.1803712401 0.1423623182 -0.5404391533 0.1423364749 -0.5402075622 -0.0484882583 0.1799850117
625296250.0 -0.0115107454 0.1805779831 0.1362980003 -0.5418391617 0.1368329306 -0.5419002944 -0.0470185216 0.1800133891
630296220.0 -0.0093726175 0.1813393751 0.1306076222 -0.5432172011 0.1307967358 -0.5431423058 -0.045041982 0.1806630484
635296190.0 -0.0073955334 0.1817661919 0.1250204991 -0.5442825744 0.1245599183 -0.5443383235 -0.0433903508 0.1814543357
640296160.0 -0.0052791901 0.1819946371 0.1189074274 -0.5460536591 0.118980131 -0.5460034023 -0.0415686682 0.1813567311
645296130.0 -0.002956995 0.1827354809 0.1132345166 -0.5471010721 0.1133363654 -0.5467851966 -0.0403381413 0.181883892
650296100.0 -0.0010931575 0.1825076766 0.107595449 -0.5481786467 0.1066409262 -0.5485454031 -0.0373276123 0.1827616009
655296070.0 0.0011291234 0.1827969649 0.1005331902 -0.5494516709 0.1009107534 -0.5490919955 -0.0364866017 0.1834762144
660296040.0 0.0031951566 0.183223903 0.0952672411 -0.5503525145 0.0949508829 -0.5504363789 -0.0343738303 0.1836286279
665296010.0 0.0053166327 0.1833717949 0.0889485074 -0.5510702033 0.088793283 -0.5511629905 -0.0324351255 0.1843350278
670295980.0 0.0071395535 0.1840162415 0.0833061383 -0.5523895676 0.0831613024 -0.5518223033 -0.0310493384 0.1844675104
675295950.0 0.0092338219 0.1836004656 0.077434461 -0.5527007234 0.0771084431 -0.5529464845 -0.0290897749 0.1852731957
680295920.0 0.0110795005 0.1840815812 0.071821973 -0.5534047886 0.0713214128 -0.553503346 -0.0273913815 0.1853781876
685295890.0 0.0135400893 0.1843539221 0.0652737576 -0.5546316588 0.0651495815 -0.5544992305 -0.025366447 0.1862026585
690295860.0 0.0151361054 0.1844346465 0.0598898714 -0.5552809359 0.0592052537 -0.555296388 -0.0240122959 0.1861820859
695295830.0 0.0174981122 0.184402755 0.0536136951 -0.5555959328 0.0533737478 -0.5556519127 -0.0217716375 0.1868555585
700295800.0 0.019607551 0.1845914202 0.0477498607 -0.5563866857 0.0472610904 -0.5563528589 -0.0199103477 0.1871804073
705295770.0 0.0212533021 0.1847057654 0.0418907264 -0.5569390795 0.0411421427 -0.5564228371 -0.0181323402 0.1878113509
710295740.0 0.0230955859 0.1843989526 0.0355031881 -0.5570667875 0.0353538862 -0.5573245252 -0.0162459744 0.1880903572
715295710.0 0.0252444116 0.1849617304 0.029735025 -0.5575373716 0.0292871372 -0.5577857962 -0.0145429312 0.1879549274
720295680.0 0.0276663535 0.184705982 0.0235662926 -0.5572832247 0.0232593407 -0.5579002019 -0.0127199769 0.1882604237
725295650.0 0.0291247018 0.1848441692 0.0176635369 -0.5574350281 0.0174595056 -0.5581288958 -0.0112252167 0.1888415053
730295620.0 0.0306375894 0.1845457846 0.0117511238 -0.5577890672 0.0113373554 -0.5576547435 -0.0091309717 0.1894085908
735295590.0 0.0332352162 0.1846318479 0.0055103561 -0.5582321976 0.0055436448 -0.5580596159 -0.0073521993 0.1891475403
740295560.0 0.0350231684 0.1841444178 -0.0004187509 -0.558156714 -0.0001047506 -0.5581038792 -0.0059249753 0.189840283
745295530.0 0.0370294232 0.1843655514 -0.0060864996 -0.557509484 -0.0056864875 -0.5582395961 -0.0043578636 0.1897472239
750295500.0 0.0385389244 0.1842534823 -0.0119096681 -0.5576500579 -0.0128265313 -0.5578253123 -0.0020549307 0.1901139607
755295470.0 0.0406291918 0.1840165006 -0.0177897292 -0.5582110337 -0.0183058635 -0.5579495851 4.515e-07 0.1906091754
760295440.0 0.0426564099 0.1841257534 -0.0249129284 -0.5573121482 -0.0242833802 -0.5571989186 0.0020758228 0.1898615917
765295410.0 0.0449884159 0.1831503779 -0.0304527853 -0.5567353709 -0.0301412241 -0.5570111502 0.0035331883 0.1904104127
770295380.0 0.0464692546 0.1834947716 -0.036038723 -0.5561245456 -0.0361903125 -0.5569081287 0.0053230598 0.1906247685
775295350.0 0.0483783222 0.1828975993 -0.0417152284 -0.5563065162 -0.0421205339 -0.5559228419 0.0073001298 0.1906433846
780295320.0 0.0502979268 0.1829580141 -0.0479758111 -0.5551651591 -0.0481164028 -0.5557206339 0.0094424181 0.1909157726
785295290.0 0.0521994295 0.182536504 -0.0534941823 -0.5553744942 -0.0538883249 -0.5553898548 0.0106146321 0.1914503038
790295260.0 0.0542831079 0.1818314063 -0.059856966 -0.5545221729 -0.0599000254 -0.555166797 0.0125429837 0.1914640339
795295230.0 0.0560550464 0.1813745669 -0.066106763 -0.5539683019 -0.0663559833 -0.5543292519 0.0145388009 0.1906344718
800295200.0 0.0576583564 0.1813090463 -0.0712993687 -0.552971154 -0.0718650891 -0.5531361408 0.0162919364 0.1909077477
805295170.0 0.0594565776 0.1807031487 -0.0775185235 -0.5522738358 -0.0778188765 -0.5526702372 0.0186872687 0.1907300012
810295140.0 0.0620438938 0.1803593633 -0.0834403427 -0.5514486378 -0.0836576827 -0.551382556 0.0202529747 0.191042231
815295110.0 0.0636936431 0.1798969942 -0.0894776833 -0.5505667405 -0.0892622906 -0.5506612024 0.0219764998 0.1911028205
820295080.0 0.0651961465 0.1794289029 -0.0947559049 -0.5492971347 -0.0950032931 -0.5496603589 0.0229600524 0.1916301154
825295050.0 0.0669914993 0.1788351284 -0.1014093668 -0.5485424951 -0.1012525151 -0.5483053311 0.0260556183 0.191220819
830295020.0 0.0690372638 0.1780840596 -0.1070744405 -0.547296429 -0.1069644924 -0.5471418201 0.0272369177 0.1906709202
