!Created with skrf (http://scikit-rf.org).
# Hz S RI R 50.0 
!freq ReS11 ImS11 ReS21 ImS21 ReS12 ImS12 ReS22 ImS22
300000.0 -0.1021597693 -0.0679615736 0.6315509254 0.0620131245 0.6251321465 0.061653879 -0.1012308548 -0.0709725758
5299970.0 -0.101986094 0.0130755273 0.630585445 0.0099300382 0.6309295561 0.0100613177 -0.1008401201 0.0132914422
10299940.0 -0.0971108578 0.0293244618 0.633611207 0.0150391583 0.634489243 0.0158813794 -0.0957203528 0.0303802896
15299910.0 -0.0900189521 0.0425762419 0.6405534993 0.0203845843 0.6403346884 0.020229173 -0.0886159602 0.0435994409
20299880.0 -0.0818612865 0.0529705627 0.6486015093 0.0246074057 0.6484553542 0.0240386967 -0.0799176651 0.0545004234
25299850.0 -0.0722858413 0.0622666527 0.6577587633 0.0250459668 0.6578324677 0.0251098963 -0.0698058886 0.0631953146
30299820.0 -0.0624006491 0.0686701171 0.6670819045 0.0245969785 0.667327244 0.0242282568 -0.0598109506 0.0698715291
35299790.0 -0.0524928945 0.0736754855 0.6767384345 0.0208897348 0.6772062457 0.0214774339 -0.0499788533 0.074928526
40299760.0 -0.0432427212 0.0772165359 0.6861441249 0.0171809997 0.6866431786 0.0174462775 -0.0405741962 0.0775850205
45299730.0 -0.0341240924 0.0794307734 0.6949944341 0.0119379791 0.6954797946 0.0118641378 -0.0313817112 0.079495173
50299700.0 -0.0257090856 0.0801219094 0.703684962 0.0052151625 0.7036647707 0.0052791619 -0.0228491503 0.0806202999
55299670.0 -0.017607554 0.0803139587 0.7109118214 -0.0031315931 0.710900431 -0.0026276445 -0.0147480653 0.0803111759
60299640.0 -0.009999213 0.0801884079 0.7174182386 -0.0117695403 0.7178039141 -0.0108150487 -0.0076291563 0.0795264084
65299610.0 -0.0036717897 0.0787562922 0.7233338751 -0.0197123243 0.7241072869 -0.0198301886 -0.0012897298 0.0786846679
70299580.0 0.0023652953 0.0776291579 0.7286517651 -0.0292532091 0.7285807047 -0.0293386981 0.0049317532 0.0767068132
75299550.0 0.0082692614 0.0759736735 0.7325367188 -0.0387436334 0.7327861654 -0.0389156733 0.0100741169 0.0746130645
80299520.0 0.0129300259 0.0735417156 0.7372065502 -0.049317342 0.7376501539 -0.0485273571 0.014935382 0.0726233306
85299490.0 0.0177149 0.0712955153 0.740379119 -0.0583758484 0.7404872797 -0.0581951186 0.0195014096 0.0697784123
90299460.0 0.0217781683 0.0689447396 0.7425733221 -0.0691753704 0.7434692274 -0.0686470334 0.0236339194 0.067966016
95299430.0 0.025919745 0.0666795875 0.7460000717 -0.0785518187 0.7457238975 -0.0789956822 0.0275877457 0.0655429155
100299400.0 0.0288864763 0.0646922772 0.7467820761 -0.0883655567 0.747355187 -0.0891855937 0.0311754979 0.0628884265
105299370.0 0.0326609541 0.0620007452 0.74871686 -0.0997975639 0.7494320815 -0.0991930567 0.0341835937 0.0606523646
110299340.0 0.0349113191 0.0599092825 0.7502166198 -0.1089179477 0.7495947206 -0.1088507673 0.0361400446 0.0579410266
115299310.0 0.0375968635 0.0572469095 0.7509477805 -0.1192806449 0.7506689454 -0.1189887295 0.0391607103 0.0557017695
120299280.0 0.0399909317 0.0546514623 0.7511516259 -0.129274812 0.7516551162 -0.129337021 0.0412384716 0.0531341549
125299250.0 0.04204026 0.0521788428 0.7520622355 -0.1390908504 0.7517415953 -0.1384389715 0.0428536887 0.0507547864
130299220.0 0.0434987738 0.0502609769 0.7512708947 -0.1490723158 0.7514840941 -0.1490431416 0.0448021845 0.0486612388
135299190.0 0.0451325897 0.0481433664 0.7514764436 -0.1591848494 0.7513334911 -0.1588659737 0.0467215372 0.0464687084
140299160.0 0.0465280767 0.0463052761 0.7507729554 -0.1687239612 0.7510759712 -0.169149333 0.0476728488 0.0443715466
145299130.0 0.0481530752 0.0437164453 0.7502312918 -0.1783200872 0.7496789453 -0.1782855639 0.0493370838 0.0421365764
150299100.0 0.0498100866 0.0423934352 0.7489212024 -0.1873573283 0.7492153532 -0.1874166853 0.0507815928 0.0404736835
155299070.0 0.0502985295 0.0399164211 0.7476871878 -0.198293875 0.7480093307 -0.1974182849 0.0517222825 0.0385464982
160299040.0 0.0516529165 0.038172841 0.7464160154 -0.2068741801 0.7459972892 -0.2075425555 0.0520212671 0.0362704919
165299010.0 0.0525142336 0.0364559746 0.7447554283 -0.2171464207 0.7447737 -0.2172046121 0.0532011143 0.0349541834
170298980.0 0.0531430255 0.0339543546 0.7430252117 -0.2262616368 0.7429189404 -0.2261563761 0.0541614405 0.0331677628
175298950.0 0.0538149526 0.0323858862 0.7412774878 -0.2349962049 0.7408200697 -0.2354256096 0.0546514644 0.0312886448
180298920.0 0.0541821492 0.03081165 0.7390296305 -0.2447650814 0.7390967029 -0.2441435826 0.0554960469 0.029721964
185298890.0 0.0555717718 0.0287960042 0.7362957421 -0.2537899188 0.7363992123 -0.2536904102 0.0559498691 0.0285315287
190298860.0 0.055354856 0.0274660496 0.734344105 -0.2630431249 0.7345954524 -0.262543901 0.0563261527 0.0261445271
195298830.0 0.0560844431 0.0253087719 0.7318374683 -0.2719308537 0.732170628 -0.2714586445 0.0568726412 0.0250567108
200298800.0 0.055967272 0.0241919785 0.7288753662 -0.2810802597 0.7296120304 -0.2806409744 0.0566481217 0.0239510719
205298770.0 0.0569231073 0.0227502785 0.7261431194 -0.2899709086 0.7259099526 -0.2897678911 0.0573729002 0.0213416918
210298740.0 0.0572373297 0.0209601718 0.7230784985 -0.2981624898 0.7232337212 -0.2977676932 0.0578292404 0.0210504405
215298710.0 0.0566654653 0.0197576128 0.7201841291 -0.3072333377 0.7203879864 -0.3074997336 0.0575634912 0.0194833325
220298680.0 0.0574848394 0.0178879319 0.7165715428 -0.3155426203 0.7168038108 -0.3154943974 0.0576389257 0.0179135032
225298650.0 0.0577922692 0.0168092936 0.713399631 -0.3244224626 0.7140527531 -0.3246536207 0.0574859995 0.0165931014
230298620.0 0.0578730102 0.0158749378 0.7107061536 -0.332560407 0.7109759941 -0.3333080508 0.057455461 0.0148046164
235298590.0 0.057956888 0.0146607431 0.7069137763 -0.3413233578 0.7070398648 -0.3407058561 0.0578049844 0.0137871996
240298560.0 0.0579750594 0.0135012398 0.7037562485 -0.3502151617 0.703334615 -0.3499115713 0.0575963688 0.013094474
245298530.0 0.0580050408 0.0119676687 0.7002816594 -0.3581503418 0.7001322166 -0.3585450258 0.058206304 0.0111073384
250298500.0 0.0588472373 0.0108681794 0.6952034244 -0.3666903837 0.6953521629 -0.3657796839 0.0580864615 0.0102718696
255298470.0 0.0583341073 0.0095469234 0.6915306013 -0.3737841035 0.6918364778 -0.3742260617 0.058273512 0.0090702069
260298440.0 0.0578151188 0.008280486 0.6873906449 -0.3832758594 0.6880865317 -0.3823267011 0.0586632111 0.0079380946
265298410.0 0.0589744906 0.0075168748 0.6834768805 -0.3909423921 0.6842573803 -0.3905288915 0.0584221408 0.0070586781
270298380.0 0.0584930982 0.0060367303 0.679688507 -0.3983738925 0.6800935268 -0.3985386576 0.0581726723 0.0059047997
275298350.0 0.058741903 0.0049649629 0.6756733232 -0.4069143235 0.6757860306 -0.4068700666 0.0582890253 0.0041704377
280298320.0 0.0587567188 0.0041243577 0.6712687492 -0.4151515601 0.6709998306 -0.4140273709 0.0588254462 0.0035461097
285298290.0 0.0587996656 0.0030779738 0.6671973391 -0.4220891661 0.6664061065 -0.4224245161 0.0585723866 0.0024323092
290298260.0 0.0590283575 0.0019321989 0.6617031452 -0.4299852748 0.6622029985 -0.4303237055 0.0585532777 0.0018155437
295298230.0 0.0590230023 0.0010037609 0.6579976221 -0.4374434249 0.6573988117 -0.4375537129 0.0593972567 0.0004610602
300298200.0 0.0582085688 -0.0001625818 0.6534085898 -0.4454007862 0.6531205258 -0.4457415056 0.0585989912 -0.0004399172
305298170.0 0.0586143663 -0.0013817389 0.6473419344 -0.4538487259 0.6479430528 -0.4530265895 0.0595321866 -0.0020771852
310298140.0 0.0583627136 -0.0022623277 0.6430530064 -0.4608503014 0.6436093578 -0.4604524037 0.0592649266 -0.0027927472
315298110.0 0.0581772164 -0.0042028987 0.6375496135 -0.4683689488 0.6378012175 -0.4682952075 0.0586084265 -0.0041368339
320298080.0 0.0585894478 -0.0046386764 0.6322630829 -0.476400635 0.6327694904 -0.475928874 0.0584255797 -0.0050272921
325298050.0 0.0577461485 -0.005929296 0.6270771452 -0.4841419532 0.6272349717 -0.4836473022 0.0578029839 -0.0061306241
330298020.0 0.0575401158 -0.0070423478 0.6216655183 -0.4906048324 0.6220554091 -0.4906712655 0.0571634852 -0.0075004923
335297990.0 0.0572333544 -0.0085922397 0.6159709403 -0.4977737239 0.6154466851 -0.4982282635 0.0563336778 -0.0076332541
340297960.0 0.0561250133 -0.008745608 0.6103528581 -0.5050289067 0.609787054 -0.5052848285 0.0568567982 -0.0082825701
345297930.0 0.0557973256 -0.0090512519 0.6044541973 -0.5122152586 0.6040079613 -0.5119083813 0.0562734286 -0.0099442123
350297900.0 0.0553075547 -0.010815658 0.5978177882 -0.5186946335 0.5981138774 -0.5180642955 0.0551312116 -0.0097559025
355297870.0 0.0549449682 -0.0101754127 0.592458608 -0.5249085726 0.5930387318 -0.5251338982 0.054914536 -0.010543103
360297840.0 0.054786642 -0.0115049392 0.5873904086 -0.5315999267 0.5878504871 -0.5317921422 0.0549190923 -0.0108842799
365297810.0 0.0540454954 -0.0119390991 0.5808806491 -0.538125544 0.5814736001 -0.5381508457 0.0545771303 -0.0117130804
370297780.0 0.0545026243 -0.0129917385 0.5747077811 -0.5445467987 0.5751738059 -0.5439941716 0.054087531 -0.0125295739
375297750.0 0.0535986921 -0.0138807349 0.5687287001 -0.5507699709 0.5693216808 -0.5511746878 0.0543328295 -0.0131684749
380297720.0 0.0536927115 -0.014397919 0.5626789264 -0.5574797453 0.5633126652 -0.5566126894 0.053278085 -0.0140477809
385297690.0 0.0530026568 -0.015020226 0.556692882 -0.563704778 0.5565450914 -0.5635813743 0.0533148887 -0.0143992872
390297660.0 0.0528072492 -0.0152123866 0.550651706 -0.5696758585 0.5504706237 -0.5699218558 0.0526308009 -0.0150902494
395297630.0 0.052358301 -0.015919599 0.5439594734 -0.575754589 0.5443703266 -0.576203463 0.0531336956 -0.0158215589
400297600.0 0.0518236646 -0.0166809648 0.5370748531 -0.5823230673 0.5379787809 -0.582151993 0.0523387628 -0.0162587727
405297570.0 0.0515331751 -0.0175766263 0.5313648047 -0.588017606 0.5315262234 -0.5876005632 0.0519099424 -0.0169430136
410297540.0 0.0516780639 -0.0182850061 0.5256095642 -0.5941352274 0.5253670725 -0.5940765045 0.0516526669 -0.0171227077
415297510.0 0.0510792617 -0.0186373927 0.5186567827 -0.5998393031 0.5188986795 -0.6003214204 0.0513957245 -0.0179510794
420297480.0 0.0510614082 -0.0190549431 0.5111817876 -0.6055398598 0.5115435343 -0.6059782315 0.0506739474 -0.0190443693
425297450.0 0.0503996027 -0.0203750076 0.5052055238 -0.6113641699 0.505307921 -0.6113302282 0.0495708626 -0.0188543066
430297420.0 0.049845151 -0.0210635266 0.4978939222 -0.6162225896 0.4981776212 -0.616686782 0.0497242846 -0.0200853916
435297390.0 0.0494224419 -0.0212183635 0.4911457585 -0.6225362785 0.4906644366 -0.6225042789 0.0501500899 -0.0204571373
440297360.0 0.049513322 -0.0214484923 0.4843221314 -0.6274942924 0.4846632288 -0.6281295081 0.0487929954 -0.0213542249
445297330.0 0.0485367407 -0.0230668886 0.4779835764 -0.6332777899 0.4780506153 -0.6324352073 0.0491608528 -0.0222792514
450297300.0 0.0486410067 -0.0231303064 0.470738639 -0.6383084173 0.4709379272 -0.638559096 0.0484195318 -0.0230010026
455297270.0 0.0483725933 -0.0236985082 0.4636963041 -0.6439169016 0.4639962269 -0.6438103912 0.0482779193 -0.023099664
460297240.0 0.0477226457 -0.0240214116 0.4561977347 -0.6486197233 0.4565060259 -0.6485318782 0.047840404 -0.0234405231
465297210.0 0.047600615 -0.0246939104 0.4493458078 -0.6540734315 0.4494158767 -0.6542253862 0.0475418665 -0.0246178744
470297180.0 0.0467856992 -0.0255278477 0.4419698545 -0.6588757606 0.4420808327 -0.6585837016 0.0471370113 -0.0247587555
475297150.0 0.0465793129 -0.0263008777 0.4347526419 -0.662838548 0.4349640689 -0.6632090365 0.0472760917 -0.0255107965
480297120.0 0.0462126172 -0.0259795209 0.427246288 -0.6686992438 0.4278001557 -0.6688729305 0.0470110565 -0.0258816589
485297090.0 0.0456446454 -0.0269091503 0.4205031382 -0.6721503287 0.4205425307 -0.6730717783 0.0466155297 -0.0268991254
490297060.0 0.0446666828 -0.0276862949 0.4128735522 -0.6780524538 0.4133359993 -0.6773543576 0.046010173 -0.0265772195
495297030.0 0.0446287314 -0.0279245733 0.4052806346 -0.681841986 0.4060670343 -0.68208739 0.0451936567 -0.0275241514
500297000.0 0.044028037 -0.0288326303 0.3979436752 -0.6860686714 0.3973560292 -0.6860383518 0.0447931224 -0.0272955403
505296970.0 0.0439266682 -0.0289820445 0.3901293922 -0.6902133863 0.3900161563 -0.6907278003 0.0445185474 -0.0279578209
510296940.0 0.0433268262 -0.0292072185 0.3824378294 -0.6953833682 0.3827065678 -0.695274407 0.0443447933 -0.0278787167
515296910.0 0.0427026894 -0.0294870815 0.3745858049 -0.6995174179 0.3750940349 -0.6992087869 0.0437974925 -0.0287877449
520296880.0 0.0422154075 -0.0301714553 0.3674595265 -0.7038435826 0.3673906981 -0.7032787613 0.0432656848 -0.0293864156
525296850.0 0.0420892108 -0.0313984847 0.3591604655 -0.7072774052 0.3597432724 -0.7074532039 0.0427336781 -0.0295476382
530296820.0 0.041493466 -0.0312523692 0.3516821856 -0.7116757804 0.3516855961 -0.7115017395 0.0424551382 -0.0299527182
535296790.0 0.0405501323 -0.0315409186 0.3444230346 -0.7151910905 0.3440814444 -0.7148407718 0.0418315633 -0.0310746993
540296760.0 0.0402723363 -0.0316988105 0.3364692818 -0.7192868139 0.3357874557 -0.7190812019 0.040832897 -0.0304731872
545296730.0 0.0397861307 -0.0325069408 0.3281630242 -0.7221782642 0.328171928 -0.7224229969 0.0403435311 -0.0314342136
550296700.0 0.0399811758 -0.0326632974 0.3196326217 -0.7257315166 0.3202517638 -0.7261104701 0.0397423116 -0.0315542094
555296670.0 0.0388403054 -0.0331635078 0.3119797775 -0.72951183 0.3127161843 -0.7292591489 0.0392653393 -0.0321642506
560296640.0 0.0388768328 -0.0330703921 0.3041211693 -0.7332985563 0.3040614946 -0.7329019894 0.0391151306 -0.0328250818
565296610.0 0.0374855167 -0.0339778583 0.2962254975 -0.7361960404 0.2964001998 -0.7365731158 0.0377643411 -0.0333942629
570296580.0 0.0370984357 -0.0341374308 0.2881438952 -0.7398656385 0.2878598986 -0.7397715136 0.0377403772 -0.0326656239
575296550.0 0.0364235592 -0.034362279 0.2802235045 -0.743080514 0.2801092259 -0.7429831973 0.0378015732 -0.0332817118
580296520.0 0.0362423366 -0.0346414062 0.2716743443 -0.7462641254 0.2721159204 -0.7459010989 0.0366327414 -0.0340515137
585296490.0 0.0355979894 -0.0356230699 0.2638217921 -0.7479732044 0.2640632724 -0.7483942773 0.0362442184 -0.0343439865
590296460.0 0.0356676457 -0.035594215 0.2556397931 -0.7508001899 0.255664514 -0.7514170003 0.0348672866 -0.0347563644
595296430.0 0.0349202712 -0.0357374688 0.2469775289 -0.7543799761 0.2471649761 -0.7544915247 0.0352559969 -0.0349386704
600296400.0 0.0338283479 -0.036321977 0.2392029347 -0.7572967334 0.2393677912 -0.7569508428 0.0343782951 -0.0356315899
605296370.0 0.0334030603 -0.0365514374 0.230770327 -0.7593306895 0.231095477 -0.7593819334 0.0338589352 -0.0355203428
610296340.0 0.0331245176 -0.0369470756 0.2220452753 -0.7620071777 0.2229248303 -0.7616254725 0.0337496427 -0.0361761137
615296310.0 0.0328498407 -0.0375611556 0.2137853731 -0.7639914796 0.2138734027 -0.7646959352 0.0334391318 -0.0362376405
620296280.0 0.0321675889 -0.0379497165 0.2059941955 -0.7664254223 0.2059295221 -0.7659162637 0.0323389504 -0.0367592909
625296250.0 0.0311825837 -0.0385080254 0.1981005872 -0.7692667055 0.197600761 -0.7693219068 0.0325687252 -0.0369016294
630296220.0 0.0317904074 -0.0381639991 0.1885257665 -0.7711310728 0.1884606921 -0.7703924628 0.0316803059 -0.0367388599
635296190.0 0.0299370648 -0.0389899764 0.1809234486 -0.7729149711 0.1804897474 -0.7729813427 0.0312348058 -0.0374897578
640296160.0 0.0296474803 -0.0387768635 0.1720361488 -0.774501863 0.1721943758 -0.7743346379 0.030477436 -0.0377518673
645296130.0 0.0290963137 -0.0390211767 0.1636934238 -0.7762640065 0.164040094 -0.7763591738 0.0300210863 -0.0377726503
650296100.0 0.0285428123 -0.0393855571 0.155479668 -0.7778568712 0.1559174311 -0.7786490726 0.0300890477 -0.0389866652
655296070.0 0.0275581195 -0.0400098732 0.1462237179 -0.7803137014 0.1469848425 -0.7802433562 0.0294125749 -0.038501543
660296040.0 0.0266434884 -0.0404433811 0.138257469 -0.7815491684 0.1382157508 -0.7817385322 0.0288069546 -0.0388238666
665296010.0 0.0271977951 -0.0404101969 0.129292002 -0.7827188073 0.1293629093 -0.7831964778 0.0283428578 -0.0385461823
670295980.0 0.0250515914 -0.0402938335 0.1208893815 -0.7840268985 0.1213639692 -0.7841375843 0.0271638882 -0.0390043351
675295950.0 0.0251463358 -0.0402516692 0.1129431524 -0.7852914037 0.1129906807 -0.7849582249 0.0263023729 -0.0392588546
680295920.0 0.0239679848 -0.0411725091 0.1036585138 -0.7866746612 0.1034762795 -0.7871336 0.0260561453 -0.0384968835
685295890.0 0.0240903163 -0.0401351839 0.0954228959 -0.7877120861 0.0951364491 -0.7876890225 0.0254440226 -0.0390891484
690295860.0 0.0236355235 -0.0408645122 0.0868107434 -0.7879285496 0.086660122 -0.7889077424 0.0248131146 -0.0384046701
695295830.0 0.0230478944 -0.0412554109 0.078720334 -0.7894482287 0.0776419841 -0.7893809081 0.0243687572 -0.0392434667
700295800.0 0.0223929063 -0.0413951266 0.0695904703 -0.7902565441 0.0691505587 -0.7898928796 0.0236101224 -0.0382637586
705295770.0 0.0215032628 -0.040492897 0.0608075303 -0.7907950014 0.0614499668 -0.7911686735 0.022907688 -0.0391239812
710295740.0 0.0214571699 -0.0412609567 0.0525122756 -0.7920104336 0.0528438156 -0.7926133342 0.0227697012 -0.0399976766
715295710.0 0.0198188172 -0.0415065988 0.0440740621 -0.7922670001 0.0435986522 -0.7921882971 0.0221313991 -0.0394803024
720295680.0 0.0196400353 -0.041829818 0.0355916234 -0.792507589 0.035491116 -0.7927081462 0.0214678632 -0.0389651218
725295650.0 0.0192618256 -0.0415965245 0.0262718833 -0.7927881424 0.0264871949 -0.7932475413 0.0202450748 -0.0393623216
730295620.0 0.0188884347 -0.0413841549 0.0180907652 -0.7924715337 0.0178977173 -0.7931650709 0.0192182901 -0.0398763403
735295590.0 0.0180433005 -0.0414102933 0.0094096337 -0.7932670086 0.0091314382 -0.7935772267 0.0191272174 -0.0402757596
740295560.0 0.017061482 -0.0415354693 0.0009525764 -0.7928946235 0.0008015698 -0.7933727156 0.0190437484 -0.0397148398
745295530.0 0.016762587 -0.0414317937 -0.0081940015 -0.7925486834 -0.0080162869 -0.7934710438 0.0183600257 -0.0405605261
750295500.0 0.0162977459 -0.0415648147 -0.0166761535 -0.7932110341 -0.0162592147 -0.7932424697 0.0174827023 -0.0402805635
755295470.0 0.0157679834 -0.0419999157 -0.0248468228 -0.7925584107 -0.0248655955 -0.7932895325 0.0174556494 -0.0409234398
760295440.0 0.0148199839 -0.0418180195 -0.033581841 -0.7927276518 -0.0339599241 -0.7927070739 0.0166638103 -0.0403821226
765295410.0 0.0143782544 -0.0418413568 -0.0426351346 -0.7922219281 -0.0429993345 -0.7926231043 0.0159989739 -0.0403848616
770295380.0 0.0131338639 -0.0419426757 -0.0518545046 -0.7914609153 -0.0512936264 -0.7916101237 0.0148385864 -0.0408214624
775295350.0 0.0129996879 -0.0427356581 -0.059976736 -0.7904557498 -0.059471835 -0.790726753 0.0139076136 -0.0404821464
780295320.0 0.0123027633 -0.0422624484 -0.0682558917 -0.79003297 -0.0675754891 -0.7906592935 0.0135591429 -0.0412478235
785295290.0 0.011359296 -0.0430970933 -0.0775168912 -0.7887819053 -0.0769605278 -0.7896419304 0.0138694324 -0.0407539695
790295260.0 0.0116785688 -0.0418886802 -0.0843853626 -0.7882503294 -0.0846760439 -0.7883776751 0.0126879582 -0.0409440369
795295230.0 0.0108734775 -0.042437054 -0.0941807729 -0.7874858294 -0.0938121309 -0.7878278544 0.0127207347 -0.0402006106
800295200.0 0.0098064206 -0.0420067935 -0.1036145973 -0.7859630834 -0.1022144461 -0.78610365 0.0119868619 -0.0407807181
805295170.0 0.0090002527 -0.0423168775 -0.1113512041 -0.7847175706 -0.1111360299 -0.7854622717 0.0113561084 -0.0402792023
810295140.0 0.0082024317 -0.0427763456 -0.1192560103 -0.7834448374 -0.1195425066 -0.7839435986 0.011201863 -0.0401710255
815295110.0 0.0082237951 -0.0427438849 -0.1281850584 -0.7825291831 -0.1280241033 -0.78246088 0.0099130646 -0.0402679208
820295080.0 0.0071078423 -0.0415293354 -0.1363193761 -0.7805324991 -0.1358508194 -0.7808108152 0.0098096154 -0.0400205003
825295050.0 0.0070456997 -0.0420402277 -0.1448232919 -0.7789427727 -0.1445377262 -0.7792283697 0.0095405975 -0.0402215658
830295020.0 0.0060927824 -0.0416330019 -0.1538011593 -0.7773455391 -0.1537750043 -0.7770157874 0.0094063342 -0.0399159305
