!Created with skrf (http://scikit-rf.org).
# Hz S RI R 50.0 
!freq ReS11 ImS11 ReS21 ImS21 ReS12 ImS12 ReS22 ImS22
300000.0 -0.3154124426 -0.1329912057 0.3710442799 0.0683673276 0.3709190687 0.0667123808 -0.3135974821 -0.1345008103
5299970.0 -0.3249495228 0.0027527801 0.3783207443 0.0032051986 0.3787198318 0.0035489648 -0.3256598991 0.0019294693
10299940.0 -0.3226038385 0.0142704642 0.3799395547 0.0026847351 0.3797095199 0.0029525586 -0.3231347957 0.0126585838
15299910.0 -0.3189793849 0.022282501 0.3817735759 0.0025724881 0.3822971385 0.0028546245 -0.3205609257 0.019732669
20299880.0 -0.3155673398 0.0288428175 0.3850361374 0.0016843753 0.3852843152 0.0020516406 -0.3176836567 0.0257842644
25299850.0 -0.3116645678 0.0346724133 0.3886099 0.0006519945 0.3888649478 0.0002655049 -0.3146984721 0.0312856075
30299820.0 -0.3081823769 0.0391443787 0.3918643774 -0.0021408452 0.3921435957 -0.0019216204 -0.3117714923 0.0355452941
35299790.0 -0.3040944389 0.0434768117 0.3949093104 -0.0049337236 0.3953333758 -0.0053812896 -0.3089007583 0.0399810454
40299760.0 -0.3012051832 0.0468359342 0.3983728178 -0.0083878001 0.3984051851 -0.0086791267 -0.3060196799 0.0432714768
45299730.0 -0.2978032495 0.0500125695 0.4011297059 -0.0123886231 0.4012886659 -0.0128547331 -0.3035404785 0.0466645823
50299700.0 -0.2945144077 0.052815318 0.4036260006 -0.0171894685 0.4039166364 -0.0170084797 -0.3008958463 0.0498075896
55299670.0 -0.2921582963 0.0552449157 0.4058707874 -0.0214964712 0.4059011693 -0.0218177604 -0.2991889401 0.0522320682
60299640.0 -0.28979407 0.0580329854 0.4078783507 -0.027035204 0.4081642867 -0.0268252407 -0.2969970232 0.0551253815
65299610.0 -0.2871502785 0.0600993053 0.4098797065 -0.0317205631 0.4096812635 -0.0315732409 -0.2951369354 0.0576149938
70299580.0 -0.2854009843 0.0619628788 0.4106293902 -0.036711023 0.4114022718 -0.0368230643 -0.2932664473 0.0598271313
75299550.0 -0.2834273059 0.0640640989 0.4113639648 -0.0420755039 0.4119677258 -0.0421444954 -0.2916477755 0.0622964455
80299520.0 -0.2818087054 0.0665626616 0.4129733929 -0.0472875749 0.4130183368 -0.0473586852 -0.2901775101 0.0649625968
85299490.0 -0.2798288039 0.0683281944 0.4133071498 -0.0527425888 0.4134279693 -0.0524807473 -0.289107515 0.0668552275
90299460.0 -0.2783376437 0.070577747 0.4137649461 -0.0576577509 0.4136997211 -0.0576615629 -0.2874456976 0.0692662101
95299430.0 -0.276705109 0.0726145939 0.4138654548 -0.0629595059 0.4142631818 -0.0630530323 -0.2861340892 0.0716393583
100299400.0 -0.2750862806 0.0746369981 0.4137524415 -0.0680851958 0.4142386287 -0.0682787424 -0.2854455079 0.0743734252
105299370.0 -0.2737518412 0.0769457214 0.4135872653 -0.0733622708 0.4141560505 -0.0734347118 -0.2837378532 0.0763305058
110299340.0 -0.2725885715 0.078455127 0.4138332704 -0.0778456178 0.4137590793 -0.0782243671 -0.2828919201 0.0785971624
115299310.0 -0.2715808385 0.0812270539 0.4135349627 -0.0834961968 0.4134724157 -0.0837116484 -0.2821570124 0.0813199747
120299280.0 -0.2705116773 0.0831138691 0.4133544788 -0.0888915596 0.4130129014 -0.0890098183 -0.2808731903 0.0834699844
125299250.0 -0.269317144 0.0850085533 0.4121767234 -0.0939033714 0.4124053503 -0.0939880814 -0.2800502331 0.0860921769
130299220.0 -0.2683297672 0.0874856413 0.4120264017 -0.0988828603 0.4115898339 -0.0994036455 -0.2788407973 0.0885760641
135299190.0 -0.2672499534 0.0898059805 0.4112086267 -0.1036816827 0.4110797636 -0.104319849 -0.2779570684 0.0907707505
140299160.0 -0.2661607334 0.0923800099 0.4105319212 -0.1093522424 0.410659809 -0.1086355523 -0.2778102638 0.0931496276
145299130.0 -0.2654503011 0.0946635646 0.409453709 -0.1137680732 0.4094848975 -0.1138001004 -0.2763272682 0.0955598932
150299100.0 -0.2641157996 0.0970228437 0.4083679728 -0.1191408971 0.4085225079 -0.1188440714 -0.2758204821 0.0985775151
155299070.0 -0.2631005666 0.0994390457 0.4071082792 -0.1236293637 0.4074846153 -0.1239487882 -0.2744704106 0.1011029387
160299040.0 -0.2622149218 0.1021618653 0.4061691014 -0.1287535923 0.4061717108 -0.1292866291 -0.2736636004 0.1036712748
165299010.0 -0.2611365219 0.1044723788 0.4049214924 -0.1335202519 0.4048811582 -0.1339041887 -0.2724307192 0.1061857073
170298980.0 -0.2601443622 0.1069006232 0.4031111866 -0.13840366 0.403465956 -0.1383445781 -0.2718576868 0.1085958966
175298950.0 -0.2592290048 0.1092261168 0.4021209336 -0.1432760096 0.4023612388 -0.1435527089 -0.2708659872 0.1116317638
180298920.0 -0.2584197575 0.1118596366 0.4009265615 -0.1480464567 0.4007519859 -0.1483137561 -0.2699917243 0.1140669078
185298890.0 -0.25690429 0.1141371629 0.3991933144 -0.1526270574 0.399066318 -0.1524505895 -0.2687253692 0.1163950945
190298860.0 -0.2558277236 0.1170612226 0.3973200832 -0.1570470151 0.3976958328 -0.1572208372 -0.2676930347 0.1192961906
195298830.0 -0.2542349921 0.1197145269 0.3958072754 -0.1619358996 0.3961294521 -0.1622401133 -0.266458638 0.1222382581
200298800.0 -0.2532715228 0.1219329423 0.3942225358 -0.1670705025 0.3944916397 -0.1668480107 -0.2656981045 0.1244678277
205298770.0 -0.2526191949 0.1244733499 0.3923790692 -0.1708611904 0.3927585551 -0.1710724143 -0.2645812413 0.1272395281
210298740.0 -0.2514377322 0.1273506333 0.3903412653 -0.1754465764 0.3905940834 -0.1756781744 -0.2635961233 0.1302743689
215298710.0 -0.25041651 0.1300420664 0.3884693476 -0.1801948168 0.388270348 -0.1802947428 -0.2619484645 0.132685174
220298680.0 -0.2489042135 0.1326430926 0.3867598498 -0.1848909565 0.3867082815 -0.1847324622 -0.2607864719 0.1354627491
225298650.0 -0.2477412632 0.1353508654 0.3846380569 -0.1891084931 0.3850412516 -0.1886752543 -0.2597656768 0.1384207844
230298620.0 -0.2465722329 0.138038928 0.3826852775 -0.193590825 0.3829046405 -0.1935960232 -0.2584744749 0.1406866521
235298590.0 -0.2454777793 0.1407447958 0.3807234279 -0.1981553121 0.3808001013 -0.1981414049 -0.2572318654 0.1437861102
240298560.0 -0.2438500776 0.1430570291 0.3782864811 -0.201985448 0.3784769596 -0.2021610887 -0.2559761899 0.1458573957
245298530.0 -0.2426965611 0.1456112132 0.3760553415 -0.2065261131 0.3760949209 -0.2066740503 -0.2544477135 0.1487494225
250298500.0 -0.2416676457 0.1481981495 0.37411881 -0.2104144742 0.3740539325 -0.2105534012 -0.2535089653 0.1519752751
255298470.0 -0.239959802 0.1510578921 0.3717113039 -0.2144618359 0.3719959603 -0.2149755851 -0.2518982812 0.1543173397
260298440.0 -0.2386958733 0.1536320941 0.3694441884 -0.2183130741 0.3693837348 -0.219013458 -0.2504812707 0.1568595487
265298410.0 -0.23721678 0.1562081654 0.3667713154 -0.223369572 0.366884473 -0.2237137148 -0.248623848 0.1593405125
270298380.0 -0.2360519095 0.1585113795 0.3644371548 -0.2273141992 0.3645227012 -0.2274648438 -0.2472423542 0.1621296115
275298350.0 -0.2342681686 0.1616069274 0.3613036537 -0.2315934385 0.3620355017 -0.2314207385 -0.2456545847 0.1647987562
280298320.0 -0.2331610664 0.1639901302 0.3595479866 -0.235265009 0.3594928617 -0.2357165147 -0.2442516669 0.1676300416
285298290.0 -0.2315081975 0.1665915794 0.3566856126 -0.2396332861 0.3569957512 -0.239430188 -0.2426369729 0.1703885163
290298260.0 -0.2299359113 0.1693563283 0.354632804 -0.2437123125 0.3542560364 -0.2438418923 -0.2409446639 0.1728968136
295298230.0 -0.2284695246 0.1714516024 0.3514835693 -0.2479125828 0.3516799801 -0.2480173831 -0.2390428396 0.1755984303
300298200.0 -0.2268247509 0.1745149059 0.3489541011 -0.2518459063 0.3491046117 -0.2515872066 -0.2372959696 0.1781684733
305298170.0 -0.2249795769 0.1764965521 0.3460235995 -0.2558983498 0.3463085954 -0.2557736845 -0.2354849525 0.1807309936
310298140.0 -0.2231876195 0.1789545082 0.3433577688 -0.2595931446 0.3437812995 -0.259318019 -0.2336801181 0.1831507816
315298110.0 -0.2218505486 0.1810748342 0.3406393828 -0.2635335835 0.3404489943 -0.2635414182 -0.2320775194 0.1854013146
320298080.0 -0.2200599964 0.1835182157 0.3373782651 -0.2676251456 0.3382529198 -0.2676166534 -0.2306546134 0.1881003228
325298050.0 -0.2186019876 0.1856097505 0.3343354287 -0.270972292 0.3346460848 -0.2713343327 -0.2282933243 0.1904346954
330298020.0 -0.2169763688 0.1884630177 0.3312684337 -0.2749050655 0.3318533414 -0.2749183545 -0.2268578547 0.1928714486
335297990.0 -0.2152207376 0.1909824516 0.3283857494 -0.278712059 0.3281429728 -0.2786944426 -0.2249213513 0.1955906968
340297960.0 -0.213669528 0.1932826347 0.3248557293 -0.2825106761 0.3249622259 -0.2823857796 -0.2229559168 0.1979927972
345297930.0 -0.211899123 0.1955499239 0.3218833962 -0.2862178353 0.3219642407 -0.2859490914 -0.2212968634 0.2004069519
350297900.0 -0.2101336279 0.1979341605 0.3189354739 -0.2888806355 0.3189614257 -0.289500538 -0.2194159952 0.2029245221
355297870.0 -0.2083338993 0.2003728306 0.3153741857 -0.2927394487 0.315621741 -0.2924349598 -0.2170123515 0.205281383
360297840.0 -0.2061803689 0.2027858489 0.3122059171 -0.2962631965 0.3124802521 -0.2962539383 -0.2149717467 0.2076719411
365297810.0 -0.2044812691 0.2051026527 0.3087668713 -0.2993330132 0.3090590614 -0.2999003643 -0.2132245463 0.2103763355
370297780.0 -0.2025164538 0.207432944 0.3052799059 -0.302995865 0.3056879363 -0.3034051764 -0.21100695 0.2127710703
375297750.0 -0.2003931744 0.2097581385 0.3021567115 -0.306498313 0.302545467 -0.3064560271 -0.2090539857 0.2149990131
380297720.0 -0.1986207249 0.2124420372 0.2988738763 -0.3101447242 0.2988409951 -0.3097982851 -0.2065441566 0.2177141206
385297690.0 -0.1966266567 0.2140162686 0.2954375285 -0.3128569621 0.295673534 -0.3134146241 -0.2044107431 0.2201981121
390297660.0 -0.1940869752 0.2162495053 0.2918594447 -0.3158001795 0.2923032877 -0.3161163014 -0.2018758568 0.2221073315
395297630.0 -0.1918412035 0.2182626014 0.2883520824 -0.319073344 0.2885398752 -0.3191125301 -0.1995725416 0.224144667
400297600.0 -0.1904237746 0.2204186786 0.2851741809 -0.3224384485 0.2853328344 -0.3224840072 -0.1977370988 0.2269069095
405297570.0 -0.1880618228 0.2222045649 0.2816919023 -0.3253056241 0.2815210954 -0.325563255 -0.1947761689 0.2288213284
410297540.0 -0.1854902068 0.2248040184 0.2779889322 -0.3288110757 0.2780788431 -0.3287148218 -0.1928881595 0.2316124449
415297510.0 -0.1836097469 0.2268481743 0.2742372546 -0.3317447904 0.2746393782 -0.3317115742 -0.1900676243 0.2335718656
420297480.0 -0.1815629972 0.2286642283 0.27079959 -0.334787108 0.2706631069 -0.3347505491 -0.1875984382 0.2360427251
425297450.0 -0.1786430051 0.2309779955 0.2668345903 -0.3378370045 0.2666134118 -0.3376481957 -0.1854795405 0.2373981335
430297420.0 -0.1764371054 0.2327299512 0.26332927 -0.3402142737 0.263223551 -0.3403400926 -0.1827139007 0.2400779153
435297390.0 -0.1739612789 0.2345386909 0.2590301821 -0.343709237 0.2591028396 -0.3433730275 -0.1805767391 0.2422646347
440297360.0 -0.171471202 0.2364300696 0.2550956668 -0.3463225006 0.2554299912 -0.3465046081 -0.1784467784 0.2445912101
445297330.0 -0.1691995552 0.2381235689 0.2516723895 -0.3485301801 0.251795798 -0.3493185475 -0.175383798 0.2465360411
450297300.0 -0.1667511075 0.2405006173 0.2477962157 -0.3517945779 0.248258824 -0.3515968665 -0.1726578275 0.2483272348
455297270.0 -0.1646006318 0.2422163777 0.2443083133 -0.3542736145 0.2440969925 -0.3545585208 -0.1702197929 0.2502251773
460297240.0 -0.1612774586 0.2441062654 0.2399727308 -0.357151731 0.2400478224 -0.3571760862 -0.16765131 0.252084611
465297210.0 -0.1591600332 0.2457680592 0.2360326169 -0.3593948725 0.2357723742 -0.3598349043 -0.1647011941 0.2545205626
470297180.0 -0.1566667782 0.2474196305 0.2320797463 -0.3617575526 0.2321733825 -0.3620808681 -0.1621510736 0.255947629
475297150.0 -0.1541447408 0.2497866901 0.2282160242 -0.3646057055 0.2283039655 -0.3647818661 -0.1594700351 0.2578799479
480297120.0 -0.1509518648 0.2513974422 0.2241040119 -0.3672310999 0.2243196645 -0.3670607033 -0.1570005258 0.2601332265
485297090.0 -0.1485576752 0.2527849835 0.2198713987 -0.3694754831 0.2198220877 -0.3695381631 -0.1540277964 0.261907019
490297060.0 -0.145270951 0.2548607703 0.2153762795 -0.3720586368 0.2161752995 -0.3720482755 -0.1515417699 0.2632886188
495297030.0 -0.1431254297 0.2560334582 0.2119362274 -0.3743966711 0.2118108825 -0.3743542527 -0.1483447887 0.2649866358
500297000.0 -0.1403407297 0.2578220864 0.2075790339 -0.3763690182 0.2077321678 -0.376809761 -0.1458487132 0.2671081094
505296970.0 -0.1371339215 0.2593208713 0.203857965 -0.3788908767 0.2035182291 -0.3782309079 -0.1426102939 0.2682040962
510296940.0 -0.1345396374 0.2609835757 0.1993324668 -0.3814661336 0.199683638 -0.3812807241 -0.1396934852 0.2703033887
515296910.0 -0.1318831325 0.2627134178 0.1953253031 -0.3828907302 0.1947904193 -0.3831263424 -0.1371745175 0.2712258992
520296880.0 -0.1290019711 0.2642913227 0.1911198306 -0.3850441999 0.190650459 -0.3851058083 -0.1338497465 0.2733198047
525296850.0 -0.1262154728 0.2652471823 0.1868557478 -0.3867826634 0.1865185314 -0.3870007628 -0.1310851557 0.2747815855
530296820.0 -0.1235382386 0.266864783 0.1820815857 -0.3889510031 0.1826603238 -0.3890169957 -0.1285700401 0.2764383726
535296790.0 -0.1201877647 0.2683363814 0.1782508766 -0.3909826957 0.1781233694 -0.3909350535 -0.1252791156 0.2780565175
540296760.0 -0.1170497147 0.2701320462 0.1736059062 -0.3928500643 0.1735572209 -0.3927955005 -0.1224378797 0.2794921965
545296730.0 -0.1145425233 0.2717965412 0.1698205075 -0.3946943842 0.1693977621 -0.3945797592 -0.1193459353 0.280790976
550296700.0 -0.11137808 0.2728429252 0.1652295135 -0.3965945468 0.1648318906 -0.3967923414 -0.1163797284 0.282144629
555296670.0 -0.1085563989 0.2744720952 0.1613071782 -0.3986114685 0.160791085 -0.3980956052 -0.1138630161 0.2831773662
560296640.0 -0.1050604989 0.2751014508 0.1559789702 -0.3997408243 0.1565946226 -0.4000835354 -0.1105058786 0.2849522871
565296610.0 -0.1025202116 0.2766943291 0.1521401795 -0.4014139801 0.151835636 -0.4014320758 -0.107181554 0.2864953531
570296580.0 -0.0992159864 0.278071986 0.1475641593 -0.4033731474 0.147733083 -0.4034708885 -0.1044390722 0.2875454739
575296550.0 -0.0959893244 0.2791120997 0.1430868827 -0.4047364019 0.1427617718 -0.4048301684 -0.1013360804 0.2886158443
580296520.0 -0.0933612594 0.2808682151 0.1388593412 -0.4063716289 0.1386311132 -0.4063150156 -0.0983295169 0.2895698447
585296490.0 -0.0903151121 0.2817314707 0.1349934083 -0.4075802759 0.134096513 -0.4078408392 -0.0953890807 0.291155319
590296460.0 -0.0865039405 0.2829350642 0.1297148388 -0.4091515554 0.1297011715 -0.4094653729 -0.0924370023 0.2919257789
595296430.0 -0.0838994339 0.2841144152 0.1250494696 -0.4103591847 0.1249207267 -0.4103657849 -0.0892277065 0.2932754111
600296400.0 -0.0808616191 0.2852265396 0.1207189415 -0.4118790877 0.1204992311 -0.4116810362 -0.0859830832 0.29397042
605296370.0 -0.0778752178 0.2862630314 0.1170823661 -0.4128630994 0.1161075568 -0.4131344431 -0.0828361379 0.2952289261
610296340.0 -0.0743231167 0.2875550899 0.1118213323 -0.4136927139 0.1121120989 -0.414306414 -0.0802082534 0.2968653241
615296310.0 -0.0713083134 0.2884514328 0.1072940895 -0.4158630105 0.1069886487 -0.4152920994 -0.0765885903 0.2975257865
620296280.0 -0.0684903216 0.2897972705 0.1026257304 -0.4163465357 0.1024733866 -0.416524355 -0.073659803 0.2986730243
625296250.0 -0.0653173867 0.2905164394 0.0983130991 -0.4174977949 0.0983729661 -0.4174268374 -0.0708459997 0.2990159597
630296220.0 -0.0621810197 0.2914950895 0.0936017179 -0.4187436576 0.0933168941 -0.4183707105 -0.0672459347 0.2999189972
635296190.0 -0.0592646686 0.2923133557 0.089289774 -0.4189681545 0.0887766116 -0.4193323005 -0.0643093076 0.3008126445
640296160.0 -0.0556701893 0.292995342 0.0844946262 -0.4204089199 0.0843465084 -0.4203163965 -0.0612345491 0.3018720443
645296130.0 -0.052749786 0.2944411541 0.0799926444 -0.4209842655 0.080112252 -0.421057721 -0.0581250582 0.302039656
650296100.0 -0.0496245438 0.2946504327 0.0756864571 -0.4219514504 0.0750321507 -0.4220357113 -0.0545034798 0.3028340974
655296070.0 -0.0466942513 0.2956880289 0.0709123393 -0.4227070609 0.0704466648 -0.4225647911 -0.0518371286 0.3041170755
660296040.0 -0.043626071 0.2966112367 0.066271164 -0.4233586825 0.0660721025 -0.4237151505 -0.0481812621 0.3043532513
665296010.0 -0.0401798719 0.2971750141 0.0613045534 -0.4236337024 0.0613504434 -0.4238311251 -0.0448370819 0.3050541862
670295980.0 -0.0371145649 0.2980060695 0.0570917184 -0.4245309893 0.0569213307 -0.4242983516 -0.0420952117 0.3055424973
675295950.0 -0.0339197048 0.2988091562 0.0526612062 -0.4250405637 0.052574859 -0.4251317558 -0.0388362889 0.3061751514
680295920.0 -0.0316301489 0.2993821231 0.0480447181 -0.4254633947 0.0476333677 -0.4255951795 -0.0351695756 0.3068606136
685295890.0 -0.0276047037 0.3000889671 0.0429027133 -0.4263010942 0.0428548256 -0.4262267524 -0.0321766652 0.3073974427
690295860.0 -0.0247578197 0.3005361026 0.0385904278 -0.4265851202 0.0383347228 -0.4266955583 -0.0292084699 0.3078137584
695295830.0 -0.0214421517 0.3009464863 0.0343055283 -0.4270602319 0.033961275 -0.4267884202 -0.0261408997 0.3084363318
700295800.0 -0.0184408157 0.3018240502 0.0295778861 -0.4272940732 0.0291597773 -0.4272338785 -0.0223965476 0.3088136524
705295770.0 -0.0154124691 0.3020733044 0.0246754595 -0.4274552138 0.0249066315 -0.4275798875 -0.0194910718 0.309439223
710295740.0 -0.0122118061 0.3025354372 0.0199547506 -0.4277479017 0.0196564184 -0.4278772924 -0.0162864761 0.3095561716
715295710.0 -0.0089801286 0.3028561461 0.0154722638 -0.4279029127 0.0156593045 -0.4279724623 -0.012883188 0.3095113865
720295680.0 -0.0057094143 0.303340168 0.0106138007 -0.428007908 0.0108052839 -0.4283109387 -0.0097008648 0.3097692648
725295650.0 -0.0033700741 0.3038405594 0.0065948407 -0.4278290729 0.0062506167 -0.4280351462 -0.0066085845 0.3105190667
730295620.0 -0.0005398633 0.3039450167 0.0018171851 -0.4276979563 0.0014939816 -0.4279020469 -0.0034484364 0.3110382673
735295590.0 0.002955905 0.3044021014 -0.0029107617 -0.4280214239 -0.0031856692 -0.4278123657 3.14528e-05 0.3105075736
740295560.0 0.006100496 0.3041369968 -0.0076138986 -0.4275756227 -0.0075819081 -0.4280927362 0.0032483515 0.311019269
745295530.0 0.0091860616 0.3046278165 -0.0121743172 -0.427482221 -0.0116161684 -0.4274799823 0.0061446258 0.3107643761
750295500.0 0.0120413372 0.3047994554 -0.0163086875 -0.4275338573 -0.0170488689 -0.4275989017 0.0098239569 0.3111071335
755295470.0 0.0152703163 0.3050293964 -0.0209103126 -0.4276918788 -0.0209988075 -0.4275471339 0.0128243084 0.3113057109
760295440.0 0.0182553721 0.3053470784 -0.0260046591 -0.4270171405 -0.0261047397 -0.4265122853 0.0163513533 0.3105041526
765295410.0 0.0216281628 0.3050414668 -0.0303872533 -0.4266076907 -0.0305708276 -0.4267820617 0.0196272111 0.3110605238
770295380.0 0.0240765625 0.3051427813 -0.034583803 -0.4262117512 -0.0350256943 -0.4265891571 0.022643269 0.3111290426
775295350.0 0.0273083654 0.3052208475 -0.0397584981 -0.4259916012 -0.0396592081 -0.4257355581 0.0260294256 0.3106502105
780295320.0 0.0307467306 0.3051864594 -0.0438147209 -0.4252513904 -0.0443373375 -0.4253259605 0.0293416463 0.3110042477
785295290.0 0.033679381 0.3048669728 -0.0488416091 -0.424796656 -0.0485600828 -0.4248542869 0.0322105825 0.3106816855
790295260.0 0.0366668144 0.3044127433 -0.0531332998 -0.4242354258 -0.0532024095 -0.4244602211 0.0357121603 0.3106911298
795295230.0 0.039771367 0.3043400752 -0.0579178841 -0.4237119846 -0.0582331407 -0.4235959221 0.0389580903 0.3098215857
800295200.0 0.0428576689 0.3042337139 -0.0620216186 -0.422425097 -0.0625162926 -0.4229581632 0.0417062161 0.3096838919
805295170.0 0.0456408807 0.3043814328 -0.0667697486 -0.4220171458 -0.0671718361 -0.422597454 0.0457602777 0.3093056377
810295140.0 0.0490400139 0.303973825 -0.0715414585 -0.421434381 -0.0714766876 -0.4213983199 0.0488149655 0.3091427367
815295110.0 0.0515842568 0.3034545159 -0.0756691315 -0.4207214955 -0.0759390201 -0.4210900885 0.0517249064 0.3092555256
820295080.0 0.0548478237 0.303115504 -0.0801573268 -0.419498716 -0.0801259542 -0.4202155302 0.0543586844 0.3088828744
825295050.0 0.0576439526 0.3024921727 -0.0849498814 -0.4189314851 -0.0854416353 -0.4190286974 0.0582765935 0.3084464674
830295020.0 0.06095447 0.3024177017 -0.0894482727 -0.4179695561 -0.0894172992 -0.4179609468 0.0612946257 0.3073205516
