!Created with skrf (http://scikit-rf.org).
# Hz S RI R 50.0 
!freq ReS11 ImS11 ReS21 ImS21 ReS12 ImS12 ReS22 ImS22
300000.0 -0.3161166544 -0.1099019945 0.3712115362 0.0545014227 0.3718743553 0.0590631878 -0.3144015206 -0.1171655936
5299970.0 -0.323669048 0.0044558213 0.3786637452 0.0030760641 0.3783648144 0.0029696795 -0.3260900076 0.0030890767
10299940.0 -0.3209499217 0.015333062 0.3800074504 0.0025104372 0.3797980877 0.0023341519 -0.3240214511 0.0124841081
15299910.0 -0.3180767838 0.0235767365 0.3819133253 0.0021772941 0.3820394449 0.0021682202 -0.3212336321 0.0199868868
20299880.0 -0.3142521073 0.0301034563 0.3848965393 0.0017815145 0.3851984429 0.0014586082 -0.3185048002 0.0259269994
25299850.0 -0.3105003678 0.035567351 0.3882406942 -0.0002137631 0.3882853458 0.0003036278 -0.3155309173 0.0311531746
30299820.0 -0.3066022237 0.0404136791 0.3920088162 -0.002356726 0.3919238661 -0.0024021429 -0.3125130379 0.0355225834
35299790.0 -0.3030125819 0.044963084 0.3953615658 -0.0052971884 0.395298045 -0.0049906109 -0.3096662752 0.0393220181
40299760.0 -0.2996167813 0.0479395255 0.3984163626 -0.008523126 0.3982850524 -0.0087919737 -0.3069362638 0.043224979
45299730.0 -0.2962934928 0.0515851221 0.4011084639 -0.0129983555 0.4010674174 -0.0128149413 -0.3047330644 0.0460117339
50299700.0 -0.2931302079 0.054244105 0.4033471292 -0.0175695693 0.4038153804 -0.0172790441 -0.3022152453 0.0491754755
55299670.0 -0.2908515754 0.0568083167 0.4056193652 -0.0218076994 0.4057864948 -0.022129091 -0.2999948311 0.0522265925
60299640.0 -0.28815571 0.0590629257 0.4075588909 -0.0270456074 0.407497841 -0.0272659163 -0.2977610975 0.0548102062
65299610.0 -0.2860379731 0.0616791838 0.4094931015 -0.0313650116 0.4094127714 -0.0317336072 -0.2960175964 0.0571624751
70299580.0 -0.2836577543 0.0635307755 0.4102877852 -0.0367457495 0.4104047023 -0.0368735479 -0.2944765028 0.0596183489
75299550.0 -0.2816964251 0.0657418023 0.4113819591 -0.0420767139 0.4114177552 -0.0422873229 -0.2928396515 0.0622879655
80299520.0 -0.2803733615 0.0677081275 0.412882336 -0.0471339153 0.4127308748 -0.0472891934 -0.2916013823 0.0640933674
85299490.0 -0.2784329772 0.0697895367 0.4130484648 -0.0526091677 0.4129511888 -0.0526489377 -0.2904481339 0.066674197
90299460.0 -0.2770656314 0.0722604901 0.4136950554 -0.0578589298 0.4133740009 -0.0577582741 -0.2887546465 0.0688891963
95299430.0 -0.2755659936 0.0743230741 0.4137547588 -0.0636495362 0.4137931432 -0.0631497201 -0.2878165501 0.0714074123
100299400.0 -0.2742652862 0.0763408159 0.4135446641 -0.0684326959 0.4138955033 -0.0683470325 -0.2867660341 0.0734662776
105299370.0 -0.2728157555 0.0785308019 0.4135268596 -0.0734319287 0.4137706139 -0.0736762184 -0.2851402882 0.0760147547
110299340.0 -0.2718046933 0.0804018414 0.4134380296 -0.0785734012 0.4136715184 -0.0787865754 -0.2845419364 0.0784228942
115299310.0 -0.2707874272 0.0824357514 0.4132679758 -0.083894969 0.4131988327 -0.0837612003 -0.2833749099 0.0803557371
120299280.0 -0.2697721361 0.0844309131 0.4128050645 -0.0889261122 0.4132594523 -0.0890205789 -0.2825326136 0.0828466796
125299250.0 -0.26877137 0.0865604554 0.4122986583 -0.09379652 0.4125138392 -0.0940288674 -0.2812827908 0.0849489877
130299220.0 -0.2677169578 0.089156865 0.4116834291 -0.0986881936 0.4114982892 -0.0992104733 -0.2805154855 0.0877342986
135299190.0 -0.2666317899 0.0910564271 0.4106166038 -0.1037432136 0.410695551 -0.1041569116 -0.2796297222 0.0898060005
140299160.0 -0.2658024322 0.0937657154 0.4100083758 -0.1089324936 0.4102778256 -0.1094743359 -0.2787554777 0.0922252995
145299130.0 -0.2649612392 0.0959728883 0.4093121735 -0.1139768989 0.4088205618 -0.1138556136 -0.2780039062 0.0948110331
150299100.0 -0.2638100597 0.0981335762 0.4078585571 -0.1191211355 0.4082585573 -0.1190413857 -0.2770640494 0.0969683576
155299070.0 -0.2630037024 0.1009072159 0.4072673079 -0.1240328946 0.4070671134 -0.1239356186 -0.2763291712 0.09916569
160299040.0 -0.2617761346 0.1034484928 0.4053624486 -0.1286606739 0.405889045 -0.1288188758 -0.2754211384 0.1023711429
165299010.0 -0.2610181203 0.1055044079 0.4048869021 -0.1336995389 0.4047634728 -0.1337322835 -0.2744000304 0.1047081032
170298980.0 -0.260148766 0.1078064544 0.4026051012 -0.1384555778 0.4031300458 -0.1384080177 -0.2732146031 0.1072907736
175298950.0 -0.258959797 0.1106034542 0.4023473967 -0.1432165749 0.4023862476 -0.1432896742 -0.2725749284 0.1098660896
180298920.0 -0.2578513397 0.1127993555 0.4004426783 -0.1482635324 0.4005137248 -0.1477596305 -0.2711255804 0.1125274796
185298890.0 -0.256905156 0.1155398847 0.3986030235 -0.1528646999 0.3989184436 -0.1528240812 -0.2705409508 0.114748006
190298860.0 -0.255619672 0.1177083359 0.3968799156 -0.1574207546 0.3974674555 -0.157603011 -0.2687638951 0.1173148231
195298830.0 -0.2547312961 0.1200717643 0.395891992 -0.1618940378 0.3957550568 -0.1623625152 -0.2679862525 0.1202520517
200298800.0 -0.2537111362 0.122784966 0.3942252749 -0.1659387915 0.3939534125 -0.1664793644 -0.2666548989 0.1229422691
205298770.0 -0.25248215 0.1254598942 0.3922210287 -0.1712624529 0.3923853373 -0.1712220693 -0.2658196389 0.1252398637
210298740.0 -0.2514852978 0.1278613028 0.3906678695 -0.1758796484 0.3903771746 -0.1758316164 -0.2642589376 0.128186821
215298710.0 -0.2503938571 0.1305180564 0.3887412608 -0.1802302365 0.3883980549 -0.1799770096 -0.2634781974 0.1309122528
220298680.0 -0.2494461285 0.1328728688 0.3866666638 -0.1850756538 0.3863704155 -0.185044221 -0.2619573173 0.1338399111
225298650.0 -0.2475258832 0.1356900276 0.3841402601 -0.18881339 0.3843331944 -0.1890787493 -0.2609901822 0.1363649866
230298620.0 -0.2467539812 0.1379996357 0.3827833573 -0.193656975 0.3825258229 -0.1935889308 -0.2590457893 0.139033497
235298590.0 -0.2451789182 0.1405411669 0.3802930964 -0.1978516118 0.3804248286 -0.1978150383 -0.2583950921 0.1412468755
240298560.0 -0.2441704277 0.143217157 0.3782730229 -0.2020675092 0.3783896 -0.2021502647 -0.2570722364 0.1440461461
245298530.0 -0.2425843758 0.1458045625 0.3757803567 -0.2066441291 0.3758715633 -0.2067697283 -0.2557378787 0.1471281038
250298500.0 -0.2414413394 0.1483930648 0.373418157 -0.210503908 0.3738669145 -0.2103897425 -0.2541423197 0.1497454199
255298470.0 -0.2403081199 0.150922195 0.371337667 -0.2151389454 0.3715424691 -0.2148920677 -0.252621513 0.1521045855
260298440.0 -0.2385889996 0.1535338187 0.3691118166 -0.2194705432 0.3688591975 -0.219104074 -0.2506990246 0.1546525047
265298410.0 -0.2369873368 0.1564014215 0.3663915812 -0.2240705052 0.3664299395 -0.2234856729 -0.2495441912 0.1573084439
270298380.0 -0.2357273252 0.1586470315 0.3640035994 -0.2272321856 0.3641566727 -0.2277027258 -0.247785417 0.1603298002
275298350.0 -0.2338745085 0.1614051217 0.3613559706 -0.2319026488 0.3617967001 -0.2320665529 -0.2462298912 0.1631208968
280298320.0 -0.2325618665 0.1635658885 0.3587721642 -0.2352821949 0.3588163074 -0.2361655895 -0.2445301027 0.165904148
285298290.0 -0.2310206696 0.1663281489 0.3564362292 -0.2393339496 0.3566925385 -0.2397535965 -0.2431693248 0.1684513444
290298260.0 -0.2293931279 0.1688337947 0.3537834618 -0.2439305594 0.3537860189 -0.2437220094 -0.24071764 0.1712480153
295298230.0 -0.2277232916 0.1713590933 0.3513907424 -0.2477703226 0.350963068 -0.2479782644 -0.2395759403 0.1737070277
300298200.0 -0.2257676999 0.1735198122 0.3483697319 -0.2514668986 0.348689053 -0.2520245827 -0.237438298 0.1765577535
305298170.0 -0.2239626316 0.1763246527 0.3458892421 -0.2559775296 0.3457900142 -0.2562175599 -0.2352652387 0.1792356034
310298140.0 -0.2218870762 0.1783640983 0.3431665432 -0.2603251275 0.3429001782 -0.2599987455 -0.233900732 0.1818881752
315298110.0 -0.2205729514 0.1808685642 0.3398680456 -0.2638346753 0.3401031013 -0.2639409746 -0.2315165873 0.1842166508
320298080.0 -0.2186001471 0.1832723136 0.3367583918 -0.2678878227 0.3371816997 -0.2677754964 -0.229937067 0.186494916
325298050.0 -0.2169131745 0.1853742013 0.3339828287 -0.2715293323 0.3342612015 -0.2717575123 -0.2281867837 0.189384667
330298020.0 -0.2151201862 0.1881257742 0.330742266 -0.2751943461 0.3307778521 -0.2751344048 -0.2265428368 0.1916800083
335297990.0 -0.213284593 0.1902485333 0.3275284383 -0.2791069296 0.3276581943 -0.2791836885 -0.2247834286 0.1945587033
340297960.0 -0.2117430023 0.1927514272 0.3243287773 -0.2827531036 0.3246293837 -0.2824700219 -0.2222371144 0.1968521222
345297930.0 -0.2100008507 0.1949951106 0.3211509071 -0.2858704949 0.3212548148 -0.2858359272 -0.2205453015 0.199710678
350297900.0 -0.207676001 0.197877301 0.3181392288 -0.2895278343 0.3184123023 -0.289700358 -0.2185970464 0.2023527473
355297870.0 -0.2060261016 0.1998805074 0.3149669193 -0.2925984106 0.3146349054 -0.2932038222 -0.2165724826 0.2045111067
360297840.0 -0.2036692017 0.2020003233 0.3111848736 -0.2965058733 0.3114317089 -0.2969142187 -0.2144551929 0.2074840846
365297810.0 -0.2017611666 0.2044883847 0.3078237659 -0.300220306 0.3080458793 -0.3002142507 -0.2122374263 0.2100408536
370297780.0 -0.1994379477 0.2066550071 0.3046135877 -0.3029938069 0.3046303213 -0.3036767416 -0.2100879776 0.2122718467
375297750.0 -0.1975404891 0.2092893412 0.301736594 -0.3066704469 0.3014216484 -0.3068747543 -0.2079552401 0.2149325166
380297720.0 -0.1955086758 0.2114428646 0.2980137932 -0.309762446 0.2979319152 -0.3100317783 -0.2056392544 0.2173591741
385297690.0 -0.193319277 0.2139239305 0.2944734842 -0.3131507525 0.294291799 -0.3132054417 -0.2034412716 0.2198818975
390297660.0 -0.1908671113 0.215990812 0.2910311163 -0.3169591094 0.2909833459 -0.3168454937 -0.2012221532 0.2219902173
395297630.0 -0.188873423 0.2180472573 0.2879673649 -0.3193486177 0.2873971006 -0.3196660385 -0.1988750843 0.2245550908
400297600.0 -0.1867281713 0.220491246 0.2842137686 -0.3229698265 0.2844153961 -0.3228554545 -0.1973191486 0.2264535046
405297570.0 -0.1841953055 0.222373044 0.2803889851 -0.3257139423 0.2804227749 -0.3262004303 -0.194953821 0.2292791259
410297540.0 -0.1817626703 0.2246327586 0.276115891 -0.329097659 0.2764930018 -0.3286738696 -0.1923368822 0.2313517887
415297510.0 -0.1797645923 0.2268059537 0.2734426796 -0.3318363121 0.2730474335 -0.3320703216 -0.190029166 0.2339355631
420297480.0 -0.1770258161 0.2284547101 0.2690104617 -0.3350441856 0.2694344053 -0.3347790678 -0.1874815117 0.2359604663
425297450.0 -0.1743266274 0.2306053219 0.2652454135 -0.337732732 0.2662146506 -0.3378048722 -0.1850041819 0.2384413917
430297420.0 -0.1725432995 0.2329137265 0.2619099822 -0.3410503852 0.2621265383 -0.3407773203 -0.1828428611 0.2403324486
435297390.0 -0.1698766998 0.2345664342 0.2582200423 -0.3432134923 0.2585020219 -0.3436295701 -0.1801298276 0.2427445547
440297360.0 -0.1671914278 0.2366100036 0.253958128 -0.3462173536 0.2539181031 -0.346190583 -0.1775412203 0.2444529865
445297330.0 -0.1647965969 0.2383979462 0.2501643523 -0.3492098371 0.250430061 -0.3490123271 -0.175116631 0.2464078807
450297300.0 -0.1621183496 0.2403219301 0.2461932386 -0.3518455555 0.2466069781 -0.3519071234 -0.1728241266 0.2490894929
455297270.0 -0.1597125914 0.2423052984 0.242749972 -0.3544108505 0.2431460536 -0.3544398192 -0.1700853152 0.2508643752
460297240.0 -0.1577913799 0.244219836 0.2385853535 -0.3568172552 0.2383219686 -0.3570039571 -0.1673103335 0.2534625012
465297210.0 -0.154555784 0.2461125928 0.2348685505 -0.3597140671 0.2353713085 -0.3593273865 -0.1650766581 0.2545159107
470297180.0 -0.1523341713 0.2477070445 0.2312430477 -0.362049856 0.2312625445 -0.3623078116 -0.1629943912 0.2567478786
475297150.0 -0.1497514004 0.2495156007 0.2267108011 -0.3641089879 0.2269992875 -0.3641993729 -0.1595307907 0.2584245457
480297120.0 -0.147075519 0.2509742564 0.222790243 -0.3668861176 0.2230419559 -0.3667832604 -0.1569499338 0.2608549592
485297090.0 -0.1443793984 0.2527593099 0.2190538082 -0.3693380375 0.2191601566 -0.3694497693 -0.1547351355 0.2624404966
490297060.0 -0.1416606 0.2542106258 0.2147858954 -0.371521656 0.2147017444 -0.3713131881 -0.1520253385 0.2640146648
495297030.0 -0.1392061919 0.2561667913 0.2105983875 -0.3739823054 0.2103738371 -0.3736379429 -0.1489395386 0.2655940831
500297000.0 -0.1360063497 0.2573167169 0.2062700689 -0.3758511259 0.2066841182 -0.3760165064 -0.146488545 0.2673088601
505296970.0 -0.1336892828 0.2589817008 0.2021669417 -0.3780201806 0.2021327595 -0.3782070973 -0.1439449222 0.26946471
510296940.0 -0.1307989495 0.2610388252 0.1985908512 -0.3805975215 0.1983771072 -0.3805557787 -0.1407248498 0.2713162732
515296910.0 -0.1283434304 0.262403944 0.1937856102 -0.382235904 0.1941682584 -0.3824268768 -0.1380809237 0.2727651503
520296880.0 -0.1253839379 0.2639610561 0.1894280098 -0.384379763 0.1900070758 -0.3844700665 -0.1351353706 0.2744167338
525296850.0 -0.1225408318 0.2654136403 0.1857726065 -0.3865450849 0.1856491976 -0.3867242857 -0.1320210066 0.2759000709
530296820.0 -0.1198480991 0.2666824955 0.181510179 -0.3882099277 0.1813255803 -0.3883227216 -0.129995976 0.2774914444
535296790.0 -0.1168041536 0.2681203629 0.1769006459 -0.3904352016 0.1772868382 -0.3901170986 -0.1269551709 0.2789478399
540296760.0 -0.1140322018 0.2694426524 0.1728556988 -0.392595622 0.1725040066 -0.3928064091 -0.1240861315 0.2806766231
545296730.0 -0.1114038309 0.2710658418 0.1686504106 -0.3939570701 0.1685256901 -0.3940680518 -0.1212267383 0.2817771633
550296700.0 -0.1088559639 0.2721380473 0.1643056092 -0.3958267068 0.1647842125 -0.3959919779 -0.1180986591 0.2837100186
555296670.0 -0.105369272 0.2733853046 0.1599213728 -0.3976049843 0.1601088417 -0.3977281661 -0.1156756026 0.2849719646
560296640.0 -0.102817278 0.2744476979 0.1555403136 -0.3988205074 0.1556950923 -0.399367339 -0.112224984 0.2862865446
565296610.0 -0.099733899 0.2758378962 0.1509610197 -0.400751693 0.1513533436 -0.4007310975 -0.1096906674 0.2875397381
570296580.0 -0.0970200724 0.2766384203 0.1467227578 -0.4021469618 0.1473016987 -0.4025710158 -0.1062484784 0.2891891223
575296550.0 -0.0940108766 0.2783808251 0.1424140667 -0.4039609992 0.1428245954 -0.4035418147 -0.1034558952 0.2899287823
580296520.0 -0.0909750084 0.2793617149 0.138291405 -0.4055554915 0.1380057851 -0.4054479706 -0.1007574104 0.2912289545
585296490.0 -0.0879996803 0.2804033688 0.1338442015 -0.4070626187 0.133753884 -0.4068073685 -0.0977350858 0.2922769382
590296460.0 -0.0853244053 0.2813097853 0.1292951868 -0.4078174773 0.1291347326 -0.4084982968 -0.0944095392 0.2940334505
595296430.0 -0.0822249852 0.2827611262 0.1250098527 -0.4097368521 0.1246614123 -0.4097079083 -0.0915368713 0.2946108861
600296400.0 -0.0791400566 0.2837953293 0.120385651 -0.4109201859 0.1207397134 -0.4109371052 -0.0884537948 0.296101525
605296370.0 -0.0761263217 0.2847229078 0.1158228789 -0.412747918 0.1160686709 -0.4123517951 -0.0851747652 0.2971688211
610296340.0 -0.0735684488 0.2855671129 0.1116929309 -0.4133721616 0.1115373939 -0.4134176077 -0.0821271455 0.2985793844
615296310.0 -0.0702032345 0.2864540978 0.106502626 -0.4143979382 0.1068801938 -0.4143948245 -0.0789909396 0.2993724672
620296280.0 -0.0673822931 0.2871266719 0.1027428694 -0.4152238491 0.1025293398 -0.4156695306 -0.0765945942 0.2999042134
625296250.0 -0.0638878232 0.2883382072 0.0971665976 -0.4166104003 0.0978898033 -0.4167929376 -0.0729233366 0.3010514149
630296220.0 -0.0611811543 0.288977758 0.0930363816 -0.4176963888 0.0935009404 -0.4179131331 -0.0699343047 0.3022619285
635296190.0 -0.0581476801 0.2899573258 0.0888037798 -0.4180629202 0.0887726258 -0.4183515533 -0.0667095542 0.3028955056
640296160.0 -0.0551748309 0.2903513866 0.084592383 -0.419329796 0.0843104488 -0.4196101099 -0.0636277438 0.3036849283
645296130.0 -0.0522570974 0.2912625517 0.0797113242 -0.4203319596 0.0800481698 -0.4202986561 -0.0607495356 0.3044466932
650296100.0 -0.0489160884 0.2926049371 0.0752203943 -0.4211308855 0.0753557206 -0.4207855041 -0.057680061 0.3053336139
655296070.0 -0.0456312361 0.2927444516 0.0706521292 -0.4217417876 0.0704581072 -0.4218608573 -0.0538768743 0.3062149626
660296040.0 -0.0429860542 0.2935456441 0.0663365509 -0.4222832171 0.0663839221 -0.4223861113 -0.0514237983 0.3065091675
665296010.0 -0.0394563778 0.2937957375 0.0618023181 -0.4229242357 0.0619794374 -0.4230192674 -0.0482618262 0.3074740098
670295980.0 -0.0363591571 0.2947539817 0.0569040809 -0.4236049268 0.0573388248 -0.4234720365 -0.0450661042 0.3079028927
675295950.0 -0.0333920113 0.2951046166 0.0522154795 -0.4246526916 0.0528189399 -0.424524166 -0.041870653 0.3085896587
680295920.0 -0.0302776992 0.2957521626 0.0478581087 -0.4248562627 0.0474495661 -0.4248938352 -0.0385109109 0.3093130542
685295890.0 -0.0270532686 0.2961119819 0.0433556498 -0.4254165792 0.0431033408 -0.4255585792 -0.0353922017 0.3100352326
690295860.0 -0.0236805936 0.2966628736 0.0382947067 -0.4253042653 0.0384496706 -0.4254397486 -0.0322449207 0.3103530293
695295830.0 -0.0205690675 0.2970143676 0.0329361231 -0.4261084194 0.0337886164 -0.4263666328 -0.0290091987 0.3111888455
700295800.0 -0.0174140032 0.2971713094 0.0287239099 -0.4261239666 0.0295866358 -0.4265915687 -0.0260247793 0.3111089703
705295770.0 -0.0143378176 0.2977193646 0.0246403823 -0.4267603557 0.0248596439 -0.4267121304 -0.0228046603 0.3119165628
710295740.0 -0.0113471349 0.2982453236 0.0200428228 -0.4267622891 0.0199032726 -0.4266110121 -0.0200122322 0.3124599932
715295710.0 -0.008416247 0.2984516002 0.0152460072 -0.4270551212 0.0156361191 -0.4271276771 -0.0162914761 0.3125668618
720295680.0 -0.0049809919 0.2980601267 0.0108179953 -0.4269905169 0.0105389477 -0.427628455 -0.0127470633 0.3130322895
725295650.0 -0.0016860833 0.2985958365 0.0056861582 -0.4267988133 0.0062044726 -0.4269199948 -0.0094575965 0.3130150763
730295620.0 0.0010412772 0.2986869001 0.0013670868 -0.4271528392 0.0014909967 -0.4269486629 -0.0062457765 0.3130255005
735295590.0 0.0049894288 0.2988237295 -0.0033333131 -0.4269056471 -0.0027399044 -0.427073342 -0.0033336161 0.3134364918
740295560.0 0.0080180637 0.2992630571 -0.0079261591 -0.4265989933 -0.0080079486 -0.4267674773 0.0003147772 0.3133583217
745295530.0 0.0106107754 0.2988856422 -0.0121962032 -0.4266283266 -0.0123073326 -0.4270286894 0.0035805555 0.3137381061
750295500.0 0.013897445 0.298883597 -0.0168347574 -0.4261692023 -0.0169672632 -0.4264075219 0.006788857 0.3135548919
755295470.0 0.0175642619 0.2991004806 -0.0214656242 -0.4261140261 -0.0212419666 -0.4263394555 0.0094804812 0.3137203831
760295440.0 0.0203663902 0.2990048152 -0.0266802879 -0.4260271668 -0.0260540846 -0.4263302305 0.0124707851 0.3139159733
765295410.0 0.0234398877 0.2985059035 -0.0304337317 -0.4253068052 -0.0308640708 -0.4257954529 0.0167666472 0.3141090425
770295380.0 0.0269838347 0.2990567819 -0.0355558987 -0.4249863633 -0.0354391841 -0.4255057424 0.0199656395 0.3140109003
775295350.0 0.0298162423 0.2991015657 -0.0398723738 -0.4247048699 -0.0396987029 -0.4245847323 0.022488759 0.3135248188
780295320.0 0.0334747859 0.2983648261 -0.0446206621 -0.4244667064 -0.0443928957 -0.4244602742 0.0258618959 0.3136039384
785295290.0 0.036391057 0.2986196196 -0.0493546907 -0.4230772828 -0.0487568978 -0.4237859165 0.0288176739 0.3136349587
790295260.0 0.0395727814 0.2978703273 -0.0539335079 -0.4230977934 -0.0538419981 -0.4236687888 0.0326882119 0.3137475641
795295230.0 0.0425373802 0.2982713248 -0.0581091103 -0.4222628625 -0.0579141419 -0.4224770482 0.0357266754 0.3134033035
800295200.0 0.045823052 0.2976752902 -0.0631394992 -0.4218471915 -0.0630637114 -0.4220053317 0.0390545468 0.3129070081
805295170.0 0.0488558869 0.297364802 -0.0669612785 -0.4207932823 -0.0671893456 -0.4207362357 0.0418158212 0.3123619184
810295140.0 0.0520025151 0.2969739024 -0.0717331195 -0.4204473866 -0.0717387766 -0.4208537716 0.0455071834 0.3125416431
815295110.0 0.0553814944 0.2963401348 -0.0766581459 -0.4190743288 -0.0763660583 -0.4194805221 0.0486916539 0.3118287766
820295080.0 0.0583207687 0.2960077456 -0.0805625069 -0.4187090918 -0.0807326106 -0.4186652537 0.0519246012 0.3114813269
825295050.0 0.0617631036 0.2953554333 -0.0857184098 -0.4172519535 -0.0852496014 -0.4177534799 0.0550387154 0.3113010928
830295020.0 0.0647510155 0.2951888891 -0.0899738268 -0.4164415114 -0.0901830323 -0.4167041485 0.0582524291 0.3105916246
