!Created with skrf (http://scikit-rf.org).
# Hz S RI R 50.0 
!freq ReS11 ImS11 ReS21 ImS21 ReS12 ImS12 ReS22 ImS22
300000.0 -0.0987280419 -0.0716730354 0.6280503774 0.0664505981 0.6217229753 0.0679225612 -0.0968036704 -0.0782729181
5299970.0 -0.1020366046 0.0128579853 0.6305601021 0.0100776681 0.6304589113 0.0101909656 -0.1007820028 0.0132017022
10299940.0 -0.0970223418 0.0291407719 0.6337893875 0.0151690878 0.6338785601 0.015974995 -0.0957895507 0.0304551917
15299910.0 -0.08976528 0.0425731449 0.6403786312 0.020208616 0.640726234 0.0201912797 -0.0882137694 0.0437914358
20299880.0 -0.081606034 0.0532442558 0.648512972 0.024347336 0.6483000241 0.0240277253 -0.079639927 0.0545078285
25299850.0 -0.0721064982 0.0621998383 0.6574138854 0.0248666702 0.65786295 0.0254218968 -0.069350789 0.0635304185
30299820.0 -0.0620853022 0.0686660815 0.6672688878 0.0242465248 0.6674111435 0.0244191699 -0.059438452 0.0704495706
35299790.0 -0.0523544773 0.0737101189 0.6770596485 0.0213679288 0.6769307109 0.0213594727 -0.050035613 0.074987323
40299760.0 -0.0431796179 0.0772673193 0.6864476226 0.0169734017 0.6860570642 0.0174187062 -0.0401342472 0.0774001968
45299730.0 -0.0340506591 0.0792721584 0.6948776256 0.0118929341 0.695725175 0.0120503749 -0.0311434758 0.0799627331
50299700.0 -0.0256956498 0.0799653396 0.7036991709 0.0049236121 0.7036228517 0.0051806439 -0.0225537791 0.0807975179
55299670.0 -0.0176338178 0.0805017839 0.7112493723 -0.0035246672 0.7108234572 -0.0026305746 -0.0148320224 0.080693897
60299640.0 -0.0102485352 0.0801501128 0.7172014563 -0.0114938534 0.7179335579 -0.0108994606 -0.0078090349 0.0796697374
65299610.0 -0.0036944776 0.078692822 0.722675685 -0.020348761 0.7231910529 -0.0198397798 -0.0013229149 0.0785389702
70299580.0 0.0026473654 0.0775920476 0.7284402936 -0.0299287055 0.7285781325 -0.0292262132 0.0047140453 0.0767919379
75299550.0 0.0080156646 0.0757762702 0.7323073155 -0.0387808534 0.7323970257 -0.0389950944 0.0100501278 0.074608081
80299520.0 0.0130876567 0.073694663 0.7371996624 -0.0489907253 0.7368505728 -0.0489682431 0.0150409219 0.0725773215
85299490.0 0.0177004247 0.0716352331 0.7399281003 -0.0584759111 0.7403052645 -0.0586152491 0.0193306538 0.0699428226
90299460.0 0.0218456141 0.0689157616 0.742827143 -0.069501973 0.7434374482 -0.0692481006 0.0235943109 0.067931024
95299430.0 0.0258582378 0.0663752153 0.7457279327 -0.0791246063 0.7458574858 -0.0794017792 0.0272764532 0.065519516
100299400.0 0.0289649782 0.0645794366 0.7464744772 -0.089273554 0.7464764865 -0.0889591677 0.0310541278 0.0624643785
105299370.0 0.0321826734 0.0621683586 0.7485850785 -0.0995592705 0.7486733893 -0.0991400695 0.0339006498 0.0606059623
110299340.0 0.0351024455 0.0597074096 0.7498034198 -0.109525547 0.7498707982 -0.1087539022 0.0361652261 0.0575068748
115299310.0 0.0373534802 0.0573795083 0.7506867527 -0.1193005177 0.7503709794 -0.1193042781 0.038949677 0.0556277925
120299280.0 0.0396798604 0.0547587801 0.7509440446 -0.1294759978 0.7512855824 -0.1298834009 0.0412137271 0.0530304477
125299250.0 0.042047053 0.0522411746 0.7511597108 -0.1392925878 0.7515607628 -0.1391061637 0.0431208394 0.0501394001
130299220.0 0.0437259983 0.0502951066 0.7511900586 -0.1490756009 0.7510946611 -0.1495306516 0.0451205268 0.0482216031
135299190.0 0.0454627295 0.0481981929 0.751155783 -0.1592682965 0.7507599765 -0.1590145755 0.0465894633 0.0458159969
140299160.0 0.0469825099 0.0463168937 0.7507000414 -0.168957659 0.7509659445 -0.169015152 0.0478740985 0.0441884155
145299130.0 0.0479946506 0.0437857096 0.7501758858 -0.1785497341 0.7496917654 -0.1788574539 0.0496292184 0.0419644283
150299100.0 0.0498485577 0.0419690773 0.7483886992 -0.187874506 0.748648638 -0.1876515646 0.0510659767 0.0401427257
155299070.0 0.0505697884 0.0397511051 0.7478614065 -0.1985902955 0.7473146484 -0.1979297156 0.0518851614 0.0383074728
160299040.0 0.0520922855 0.0381057036 0.7460747312 -0.2071007873 0.7458694506 -0.2075351692 0.0524934096 0.0359658547
165299010.0 0.0525282265 0.0364780565 0.7445008797 -0.2172953108 0.7443356572 -0.2169732752 0.0538200813 0.0348029129
170298980.0 0.0534375744 0.0338024349 0.7426379897 -0.2261560618 0.7428943591 -0.2265075403 0.0545477519 0.0328988053
175298950.0 0.0538340162 0.0320174749 0.7409181438 -0.2353353576 0.7406657616 -0.2353316222 0.0550300393 0.0313730594
180298920.0 0.0545546381 0.0306319579 0.7386700324 -0.2444903517 0.7387798484 -0.2442840916 0.0555237421 0.0296345851
185298890.0 0.05550364 0.0286488544 0.7369078507 -0.254196089 0.7360939438 -0.2538075667 0.0558558839 0.0284258269
190298860.0 0.0556861488 0.0273307138 0.7343840785 -0.2633397556 0.7346028855 -0.2634153149 0.0564574872 0.0264431441
195298830.0 0.0561231113 0.0251367333 0.7321947179 -0.2721915486 0.7321277343 -0.27170247 0.0572427995 0.0249522105
200298800.0 0.056359286 0.0241494709 0.7288453206 -0.2812886276 0.7290543446 -0.2812017265 0.05692369 0.0237937665
205298770.0 0.0568900883 0.022857352 0.7258849188 -0.2902863658 0.7260888706 -0.2899513165 0.0573585328 0.0215053556
210298740.0 0.056931222 0.0208263595 0.7227342911 -0.2983020667 0.7234886343 -0.2978992352 0.0577007487 0.0212878068
215298710.0 0.0568572117 0.0195154438 0.7199700585 -0.307734243 0.7199770602 -0.3076547952 0.0577153811 0.0199446616
220298680.0 0.0573370824 0.0174932934 0.7162725668 -0.3162034616 0.7160939196 -0.3162438167 0.057662678 0.0181191353
225298650.0 0.0575876682 0.0164647265 0.7133505061 -0.3247062811 0.7135929516 -0.3247380862 0.0574386729 0.0164106726
230298620.0 0.0576997373 0.0156163863 0.7107024005 -0.3329821331 0.7107691611 -0.3330652514 0.0571060714 0.0150911367
235298590.0 0.0576364771 0.0145387114 0.7065369698 -0.3415040015 0.7066169007 -0.3412535855 0.05753808 0.0139172406
240298560.0 0.0578485563 0.013355541 0.7029343332 -0.3502390583 0.7027723532 -0.3500809495 0.0575828856 0.0131329307
245298530.0 0.0578266145 0.012070254 0.6999271061 -0.3586451668 0.6995932492 -0.3587192013 0.0580678771 0.0111037704
250298500.0 0.0583458424 0.0109164818 0.6950473565 -0.3667839616 0.6946063125 -0.3661296978 0.0579074849 0.0103482705
255298470.0 0.0582520125 0.0094123201 0.6913099185 -0.3744397105 0.6918569045 -0.3741315651 0.0582542241 0.0088953524
260298440.0 0.0579932295 0.0081813736 0.6873169191 -0.3832066195 0.6875641433 -0.3826344406 0.0582420175 0.0078103747
265298410.0 0.0588138621 0.007645798 0.6837993437 -0.3911862574 0.6838109878 -0.3907368667 0.0583068373 0.0066599481
270298380.0 0.0583547504 0.0062220859 0.679429126 -0.3986052383 0.6793487554 -0.3986817166 0.0577399204 0.0057516232
275298350.0 0.0590016146 0.0053440984 0.6755260076 -0.407119084 0.6751586715 -0.4070234894 0.0584400301 0.0043147218
280298320.0 0.0587069072 0.0044024059 0.6709584854 -0.4146259341 0.6706355785 -0.4143637328 0.0584685092 0.0033418106
285298290.0 0.0586901532 0.0031962435 0.6667526769 -0.4224284432 0.6660825871 -0.4224917485 0.0586495033 0.00221526
290298260.0 0.0591380497 0.0019577423 0.6620927461 -0.4296057418 0.6616318377 -0.4302288632 0.058635601 0.0014725267
295298230.0 0.0588482032 0.0009677745 0.6572760519 -0.4381450551 0.6569957869 -0.437601807 0.059215117 -6.30872e-05
300298200.0 0.0583753305 -0.0002042044 0.6530001449 -0.4448920309 0.6530160598 -0.4457937665 0.0586051133 -0.000805526
305298170.0 0.0588721722 -0.00142224 0.647552722 -0.453391009 0.6475689435 -0.4531262448 0.0592337448 -0.0020614968
310298140.0 0.0586027664 -0.0025908263 0.6425726457 -0.4610176806 0.6432080292 -0.4604320681 0.0594163248 -0.0031746536
315298110.0 0.058378494 -0.0042481419 0.6373413679 -0.4685869115 0.6378567424 -0.4687202537 0.0591012788 -0.0046342232
320298080.0 0.0587407378 -0.0052101064 0.6319782828 -0.4769163176 0.6327678942 -0.4758584738 0.0588389365 -0.0054684666
325298050.0 0.0577114238 -0.006305962 0.6271109458 -0.4836109802 0.6268409415 -0.483192419 0.0579762969 -0.0065846057
330298020.0 0.0575424461 -0.0075508527 0.6212805547 -0.4909523936 0.6218027598 -0.4909443699 0.0577853756 -0.0076037337
335297990.0 0.0572985575 -0.0088699846 0.6160974322 -0.4979895654 0.6152062681 -0.4981165659 0.0566585903 -0.0079505229
340297960.0 0.0560253707 -0.0093797821 0.6090703727 -0.5047844614 0.6093118653 -0.50497955 0.0568809443 -0.0085741201
345297930.0 0.0557777913 -0.0095828638 0.6038317194 -0.5120043478 0.6038601924 -0.5121313432 0.0564173391 -0.0097610067
350297900.0 0.0553003869 -0.0108808183 0.5978513403 -0.5188858978 0.5978028225 -0.5187133054 0.0557528873 -0.0098713809
355297870.0 0.0549712381 -0.0107539853 0.5915534168 -0.5252339961 0.592360187 -0.5251551505 0.0554109221 -0.010947978
360297840.0 0.0545564188 -0.0114577144 0.5873096911 -0.531360366 0.5868988958 -0.5317201735 0.055192418 -0.0111592998
365297810.0 0.0539559521 -0.0123278717 0.5804356513 -0.5387085931 0.5808416618 -0.5386140074 0.054931725 -0.0117312609
370297780.0 0.0542234757 -0.0135215238 0.574052133 -0.5447283899 0.5747861905 -0.5441355019 0.0540357627 -0.0121171724
375297750.0 0.0537519474 -0.0138418619 0.568974398 -0.551409038 0.5693654031 -0.5512010114 0.0542124518 -0.0129533421
380297720.0 0.0535643585 -0.014244978 0.5626403847 -0.5579813825 0.5623594536 -0.5572992257 0.053316354 -0.0140063597
385297690.0 0.0526728915 -0.0152298113 0.5559587948 -0.5636510578 0.5558170815 -0.5637848689 0.053186042 -0.0141565521
390297660.0 0.0524930626 -0.0154469494 0.5499985651 -0.5700873985 0.5498011713 -0.5697134576 0.052472985 -0.0150400111
395297630.0 0.0522058703 -0.0162804504 0.5440999053 -0.5760678586 0.5439536091 -0.5760838864 0.0532756008 -0.0155293909
400297600.0 0.0517301993 -0.0167680153 0.5369254566 -0.5828911679 0.5373545537 -0.58216407 0.052312781 -0.0161326072
405297570.0 0.0512015951 -0.017331283 0.5303381857 -0.587621319 0.5310532123 -0.5877076453 0.0514913669 -0.0165800947
410297540.0 0.0512318395 -0.0178369261 0.5250021865 -0.5942698576 0.5248663483 -0.5937881857 0.0511529117 -0.0170570922
415297510.0 0.0512129383 -0.0187328621 0.5178202295 -0.6002331649 0.5184607198 -0.6002541298 0.0509717762 -0.0178143618
420297480.0 0.0508073469 -0.0190751368 0.5107058289 -0.6064623103 0.5109213151 -0.6063259609 0.0502978015 -0.0188168725
425297450.0 0.0502083539 -0.0205604153 0.5049342542 -0.6114211763 0.5048543347 -0.6113291994 0.0495127368 -0.0188578908
430297420.0 0.049823684 -0.0208092794 0.4976949874 -0.6166702341 0.4980263415 -0.6162431879 0.0491826758 -0.0202462885
435297390.0 0.0493123197 -0.0210622396 0.4904397665 -0.6225271147 0.4906342092 -0.6223145976 0.0498706129 -0.0208456525
440297360.0 0.0495251002 -0.0217051626 0.4840445824 -0.6277744848 0.4844187632 -0.6279757739 0.0486788642 -0.0215208864
445297330.0 0.0488726355 -0.0227956835 0.4779889303 -0.6332353032 0.4772681876 -0.6326700668 0.0489000628 -0.0223269285
450297300.0 0.0488011174 -0.0232689853 0.470294999 -0.6379503982 0.470025036 -0.6385386407 0.0482067015 -0.0232387109
455297270.0 0.0482872359 -0.023789472 0.4631799781 -0.6438712887 0.4631298069 -0.6437733475 0.0480643176 -0.0234209532
460297240.0 0.0476744211 -0.0246623869 0.4560167531 -0.6482294295 0.4561871682 -0.6488433775 0.0474263088 -0.0239855603
465297210.0 0.0474901572 -0.0250660095 0.4492309602 -0.6542229407 0.4490370949 -0.6548011816 0.0475458851 -0.0249330261
470297180.0 0.0471267839 -0.0259610924 0.4414340899 -0.6587799602 0.4414818729 -0.6588820887 0.0468435486 -0.0250813448
475297150.0 0.0467527337 -0.0268954499 0.4342818177 -0.6630219727 0.4345567959 -0.6631759094 0.0473051857 -0.0259269782
480297120.0 0.0461260967 -0.0262514076 0.4269404998 -0.668675057 0.4270496425 -0.668670576 0.0469174067 -0.026053926
485297090.0 0.0454812646 -0.0270063266 0.4198958803 -0.672623641 0.4193111549 -0.6728299644 0.0462688166 -0.027085148
490297060.0 0.0446156168 -0.0280554265 0.4129067703 -0.6782594046 0.4129817249 -0.6771788206 0.0461826723 -0.026677773
495297030.0 0.0445929931 -0.028169857 0.4047612598 -0.6818615115 0.4053867755 -0.6819260963 0.045280049 -0.0279117454
500297000.0 0.0440848021 -0.029111133 0.3972054019 -0.6859984667 0.3966477065 -0.6858746838 0.0449022357 -0.0274496473
505296970.0 0.0440820264 -0.0293434992 0.3901595383 -0.690828053 0.3893418675 -0.6909941091 0.0445187506 -0.0281890621
510296940.0 0.043220566 -0.0298147766 0.382238516 -0.6950272345 0.3822998468 -0.6953138498 0.0445207161 -0.0281006192
515296910.0 0.042508459 -0.0297369003 0.3744373246 -0.6991148321 0.3745225823 -0.6990720657 0.0437729913 -0.0288290568
520296880.0 0.0420087482 -0.030788246 0.3667368777 -0.7043051931 0.3666110967 -0.7033586615 0.0433594678 -0.0296048844
525296850.0 0.0420345792 -0.0315485438 0.3584698993 -0.7076336314 0.3594011015 -0.7072435552 0.042771857 -0.0298143108
530296820.0 0.0414543984 -0.031626172 0.3514064231 -0.7115866334 0.351211319 -0.711111118 0.0425470527 -0.0301064323
535296790.0 0.0403563217 -0.0321810063 0.3434735244 -0.7150179453 0.3436503844 -0.7145411835 0.042037407 -0.0310926308
540296760.0 0.0402248593 -0.0318744658 0.3359627551 -0.7196354311 0.3357469465 -0.719292608 0.0407003447 -0.0302873784
545296730.0 0.0396237032 -0.0328887357 0.3273317446 -0.7224042825 0.3274298468 -0.7228520959 0.0404805412 -0.031314633
550296700.0 0.039517837 -0.0328161761 0.3194225399 -0.7258409594 0.3200773155 -0.7265928237 0.0395705762 -0.0316042817
555296670.0 0.0384645773 -0.0331539683 0.3123011272 -0.7297940096 0.312315557 -0.7293564093 0.0395590544 -0.0315754271
560296640.0 0.0382996693 -0.0329787684 0.3034395082 -0.7333179575 0.303855767 -0.7328067245 0.0387648108 -0.0322749187
565296610.0 0.0373641583 -0.0337729111 0.2954378787 -0.7363526555 0.295799103 -0.7360966061 0.0379123093 -0.033005689
570296580.0 0.037001248 -0.0340512731 0.2882087969 -0.7400102735 0.2867227541 -0.7394666263 0.0376552491 -0.0325006463
575296550.0 0.0364181218 -0.0341612274 0.2796254956 -0.7431386941 0.2797264946 -0.7424901739 0.0373190427 -0.0335793559
580296520.0 0.0359139187 -0.0348155409 0.2713329372 -0.7463502604 0.2714947675 -0.7456535998 0.0365711694 -0.0340753833
585296490.0 0.03562605 -0.0357434516 0.2633494459 -0.7484190706 0.2634843922 -0.7485415664 0.0361237984 -0.0341552095
590296460.0 0.035581724 -0.0354861586 0.2553113698 -0.750720546 0.255232771 -0.7511383476 0.0346509208 -0.0343183825
595296430.0 0.0350047257 -0.0358278601 0.2462360502 -0.754482922 0.2466819534 -0.7542429787 0.0349241508 -0.0353643731
600296400.0 0.033990485 -0.0362368272 0.238512636 -0.7567849862 0.2388693912 -0.7565033243 0.0340591232 -0.0354400315
605296370.0 0.0335755289 -0.0364220064 0.2300798933 -0.7594860214 0.2304214394 -0.7592269942 0.0337258927 -0.0355761555
610296340.0 0.0330424321 -0.0369010854 0.2217101415 -0.7621470124 0.2224004885 -0.7616738452 0.033497527 -0.0363122698
615296310.0 0.0330248996 -0.0378353583 0.2135254203 -0.7640533191 0.2132337598 -0.7644580766 0.0331621757 -0.0364265833
620296280.0 0.0320245748 -0.0380271342 0.2052609023 -0.7663560402 0.2051741098 -0.7660192408 0.031932153 -0.0370599522
625296250.0 0.0310223922 -0.0387756114 0.1973947848 -0.7688541793 0.1972010759 -0.7689221886 0.0323548217 -0.037000037
630296220.0 0.0317085031 -0.0383950203 0.1875303234 -0.7707305694 0.1879455963 -0.7704910823 0.0314024887 -0.0371893243
635296190.0 0.0295830789 -0.0392774985 0.180579583 -0.7729370974 0.1800904573 -0.7728333141 0.0308386653 -0.0376039932
640296160.0 0.0293295994 -0.0390565448 0.1714699557 -0.7738529807 0.1718014126 -0.7744317007 0.0303542813 -0.0381839768
645296130.0 0.0290518915 -0.0393088206 0.1629821096 -0.7760735296 0.1635162347 -0.7766120152 0.0303190708 -0.0382259453
650296100.0 0.0285440403 -0.0395135367 0.154692049 -0.7776895097 0.1543239422 -0.7782598062 0.029825059 -0.0392797624
655296070.0 0.0275525629 -0.0401000604 0.1462422127 -0.7799369387 0.1462970419 -0.7798529542 0.029201407 -0.0389723476
660296040.0 0.0265728648 -0.0407426093 0.1376925634 -0.7814703896 0.1377183935 -0.7810879963 0.0288954059 -0.0388328877
665296010.0 0.0268044925 -0.0405067382 0.1286418515 -0.7824603634 0.1288227924 -0.7826110565 0.0284744263 -0.0386900638
670295980.0 0.0247712254 -0.0405110467 0.1205444457 -0.7840897028 0.1207910412 -0.783930799 0.0270304208 -0.0391750543
675295950.0 0.0249319869 -0.0405800819 0.1122753791 -0.785200547 0.1120830732 -0.7844536936 0.0265162978 -0.0391249986
680295920.0 0.0237577801 -0.0412388254 0.1031482095 -0.78614891 0.1024751622 -0.7868295859 0.0264550052 -0.0386184964
685295890.0 0.0237117455 -0.0404360992 0.094776144 -0.7873577326 0.0946970713 -0.7874383357 0.0255530871 -0.0392455825
690295860.0 0.0234471572 -0.0409613246 0.0866437402 -0.787740254 0.0858738628 -0.7887285825 0.025032768 -0.0385663729
695295830.0 0.022784073 -0.0413011043 0.0778228709 -0.7890942524 0.0772518085 -0.7894146054 0.0243712464 -0.0388957394
700295800.0 0.0221462557 -0.0418019014 0.069256978 -0.789621621 0.0688614757 -0.7894229449 0.0236305101 -0.038392604
705295770.0 0.0214416023 -0.0406576814 0.0603751973 -0.7907419699 0.0607746388 -0.7908525978 0.0229933644 -0.0389124942
710295740.0 0.0211076591 -0.0413766578 0.0520786985 -0.7919224573 0.0528569941 -0.7919757915 0.0227576787 -0.0398264803
715295710.0 0.0198037091 -0.0416979539 0.0436860077 -0.79195232 0.0427131355 -0.7915680366 0.0220192957 -0.0391959831
720295680.0 0.0198628903 -0.04189524 0.034662738 -0.7927439151 0.0350813856 -0.7922036868 0.0216552053 -0.0387973947
725295650.0 0.0193253 -0.0417717586 0.0259938741 -0.7923212306 0.0257038351 -0.7925380114 0.0201777718 -0.0389021027
730295620.0 0.0187105732 -0.0414782969 0.0170462651 -0.7926075305 0.0174609061 -0.7930579047 0.0195048958 -0.0397325208
735295590.0 0.0179878128 -0.041620218 0.0089255393 -0.7931829034 0.0087941905 -0.7930538503 0.0187531155 -0.0399292649
740295560.0 0.0170608938 -0.0417323749 0.0003495035 -0.7928528198 1.02269e-05 -0.7931912619 0.0187572917 -0.0394146781
745295530.0 0.0167320012 -0.0416041526 -0.0087456221 -0.7925863405 -0.0087287191 -0.792758946 0.0180873297 -0.0401513226
750295500.0 0.0162996486 -0.0418102793 -0.0172127571 -0.7924836002 -0.0169130992 -0.7929581236 0.0175115423 -0.0400897138
755295470.0 0.0154649018 -0.0422159913 -0.0250968771 -0.7926709457 -0.0252473454 -0.7929583429 0.0172482738 -0.040555958
760295440.0 0.0148176424 -0.0418319531 -0.034134018 -0.7926801069 -0.0338900199 -0.7924774326 0.0165450089 -0.040619885
765295410.0 0.0141757093 -0.0419462017 -0.0435437461 -0.7919102685 -0.0435184719 -0.7921811251 0.0157027657 -0.0404910077
770295380.0 0.0133519079 -0.0422780543 -0.0522563964 -0.7914347433 -0.0520237383 -0.7915066547 0.0148922949 -0.0410612375
775295350.0 0.0127368591 -0.0428276483 -0.0605329682 -0.7903009626 -0.0596769564 -0.7906058261 0.0136895722 -0.04057276
780295320.0 0.012308216 -0.0425437809 -0.0688858558 -0.7894958097 -0.0680117055 -0.7898213658 0.0133212333 -0.0410864871
785295290.0 0.0113490181 -0.0430764831 -0.0776759609 -0.7886868674 -0.0769522889 -0.7891063333 0.0136400779 -0.0407000474
790295260.0 0.0115601802 -0.0418822347 -0.0849422169 -0.7878568243 -0.0846989843 -0.7876600814 0.0127369413 -0.0410088614
795295230.0 0.0104365152 -0.0427001379 -0.0945633805 -0.7868930242 -0.0935248694 -0.787175021 0.0123677227 -0.0405368079
800295200.0 0.0092510389 -0.0423518371 -0.1035803269 -0.7856571248 -0.1027835425 -0.7855272036 0.0117504748 -0.0408945915
805295170.0 0.0091083427 -0.0424109117 -0.1116003206 -0.7844368013 -0.1118519875 -0.7847745841 0.0108412118 -0.0407929954
810295140.0 0.0081679871 -0.0429840992 -0.1197867147 -0.7830396352 -0.1201513539 -0.7836295125 0.0111311084 -0.0402930832
815295110.0 0.0078092733 -0.0429955122 -0.1284296824 -0.7815967261 -0.1287658933 -0.7817676323 0.0096412566 -0.0404657893
820295080.0 0.0069154447 -0.0419353113 -0.1367557904 -0.7802592347 -0.137145824 -0.7804726226 0.0093980336 -0.0407634485
825295050.0 0.0066531594 -0.0425090017 -0.1447619535 -0.7787157254 -0.1458048221 -0.7788640257 0.0090134594 -0.0405276526
830295020.0 0.0058890421 -0.0418238586 -0.1543495665 -0.7769184967 -0.1534956151 -0.7770768671 0.009387014 -0.0402124386
