!Created with skrf (http://scikit-rf.org).
# Hz S RI R 50.0 
!freq ReS11 ImS11 ReS21 ImS21 ReS12 ImS12 ReS22 ImS22
300000.0 -0.2391645922 -0.1004033759 0.4666085227 0.0656096354 0.4670845971 0.0698387339 -0.2348840416 -0.1096292431
5299970.0 -0.2436818282 0.0070403689 0.4736777735 0.0053845603 0.4739283481 0.005960765 -0.2440705647 0.0054593377
10299940.0 -0.2402657226 0.0196493831 0.4758380745 0.006466833 0.475637436 0.0065942299 -0.2411397958 0.0182593508
15299910.0 -0.2360799834 0.029280079 0.4793521566 0.0077247182 0.4793812626 0.0081162423 -0.2366312321 0.0274333779
20299880.0 -0.2304084073 0.0374444276 0.4840944269 0.0082328384 0.4842284268 0.0084384276 -0.2319108883 0.0356336476
25299850.0 -0.2250334072 0.0433344091 0.4893238722 0.0072376892 0.4897470299 0.0073052256 -0.2271062717 0.0416245028
30299820.0 -0.2187631913 0.0484217251 0.495260406 0.005425609 0.4947396606 0.0056226179 -0.2216782365 0.0467894632
35299790.0 -0.2130854042 0.052450557 0.5005432936 0.0022816566 0.5003924018 0.0021063738 -0.216282545 0.0512133702
40299760.0 -0.2075837156 0.0555579507 0.5055385496 -0.0015171333 0.5054661203 -0.0014650108 -0.2114641416 0.0545814258
45299730.0 -0.2025810443 0.0585676168 0.5102716216 -0.0066337858 0.5102011973 -0.0061103066 -0.2066686447 0.0572967474
50299700.0 -0.1976748243 0.0602156011 0.5141439212 -0.0121474809 0.5145980289 -0.0122640803 -0.2020672093 0.0595835741
55299670.0 -0.1935419233 0.0616907828 0.5177345535 -0.018264577 0.5180883084 -0.0178204976 -0.1984937293 0.0614124962
60299640.0 -0.1894039142 0.0624969517 0.5214029205 -0.0246626812 0.5214471209 -0.0242493539 -0.1945534012 0.0631414158
65299610.0 -0.1860879904 0.0638892888 0.5246020235 -0.0302165738 0.5246543496 -0.0301718776 -0.1911644963 0.064417355
70299580.0 -0.1826388363 0.0642158103 0.526575102 -0.0368365209 0.5267812458 -0.0370566368 -0.1880818607 0.0653940391
75299550.0 -0.1795296228 0.0651132168 0.5283769182 -0.0438900772 0.5289329334 -0.0440822468 -0.1851446114 0.0669913276
80299520.0 -0.1772611982 0.0655942058 0.5309160009 -0.0508911509 0.5311200097 -0.0507788666 -0.1824663628 0.0675282828
85299490.0 -0.17462525 0.0657772851 0.5321669431 -0.0577919967 0.5320182695 -0.0576960375 -0.1804026581 0.0684997152
90299460.0 -0.1727179265 0.0666727076 0.533069883 -0.0646561387 0.5333918201 -0.064796128 -0.1777490246 0.0692071713
95299430.0 -0.1705092107 0.0672635255 0.5338831533 -0.0719154629 0.5342743138 -0.0716148213 -0.1758548089 0.0698968019
100299400.0 -0.1688528936 0.0677427246 0.5344625589 -0.0783378037 0.534579857 -0.0785979838 -0.1741485298 0.0708097065
105299370.0 -0.166836306 0.068234227 0.5345158836 -0.0851962184 0.5349761956 -0.0856428068 -0.1721548976 0.0715941668
110299340.0 -0.165423057 0.0684340571 0.5346037703 -0.0917993493 0.5350636939 -0.0927561775 -0.170734955 0.0726244524
115299310.0 -0.1638040904 0.0686874429 0.5347567568 -0.0989113673 0.5350418752 -0.0988063907 -0.168961052 0.0730113174
120299280.0 -0.1629157853 0.0693444738 0.5348786122 -0.1059485963 0.5350674027 -0.1063519475 -0.1678422628 0.0741093767
125299250.0 -0.1620981444 0.0699240657 0.5342510919 -0.1122030988 0.5343060171 -0.1127718647 -0.1663789959 0.0746114624
130299220.0 -0.1606643676 0.0706420452 0.5337420857 -0.1188427403 0.5337123092 -0.1196491806 -0.1652674586 0.0759243844
135299190.0 -0.1593961658 0.0709134399 0.5329215946 -0.125726027 0.5327618498 -0.1259215866 -0.1643201855 0.0769517534
140299160.0 -0.1586371768 0.0720114338 0.5321530717 -0.1324012369 0.5327039451 -0.1327388994 -0.1629351137 0.0778403803
145299130.0 -0.157452711 0.0727259934 0.5315792705 -0.1393180596 0.5310235941 -0.1389833864 -0.1620120048 0.0787282601
150299100.0 -0.1566355577 0.0734781563 0.5300743625 -0.1457635597 0.5302895497 -0.1457782062 -0.1608061376 0.079968057
155299070.0 -0.1562127386 0.0749191162 0.5289805109 -0.1526364528 0.5290301059 -0.1523023144 -0.1601129078 0.0809087465
160299040.0 -0.1550638497 0.0752179213 0.5273510883 -0.1583711944 0.5278361132 -0.1586785405 -0.159014766 0.0826016819
165299010.0 -0.1543291143 0.0762125526 0.5265564948 -0.1655662153 0.5262331647 -0.1651269142 -0.1577723592 0.0830463794
170298980.0 -0.1536598689 0.0772692045 0.5240093798 -0.1716379468 0.5247725713 -0.1718978515 -0.1568643452 0.0844278439
175298950.0 -0.1526745774 0.0783368061 0.523614698 -0.1783471012 0.5234129871 -0.1777411285 -0.1558193954 0.0856579721
180298920.0 -0.1517123833 0.0791895886 0.5215317858 -0.1839939776 0.5216137493 -0.1839188932 -0.1549834033 0.087004278
185298890.0 -0.1508886381 0.0804970955 0.5190602141 -0.1907896265 0.5196430555 -0.1903478467 -0.1542848291 0.0880969355
190298860.0 -0.1501131551 0.0812299161 0.5176006737 -0.196492058 0.5177599255 -0.1967948749 -0.1525566905 0.0897752793
195298830.0 -0.1496178603 0.0821545709 0.5159037729 -0.2024754055 0.5159744808 -0.2030071946 -0.1519829739 0.090331406
200298800.0 -0.1486621473 0.0834677336 0.5136799391 -0.2081776019 0.5135873128 -0.2085451475 -0.150630317 0.0923028113
205298770.0 -0.1481731525 0.0847233495 0.5117442997 -0.2148168135 0.5117832804 -0.2148031045 -0.1500289525 0.0929298783
210298740.0 -0.1475612867 0.0854785954 0.5093390753 -0.2209002678 0.5094897262 -0.2211847576 -0.1491580234 0.0947164873
215298710.0 -0.1466988363 0.0870140098 0.5067705945 -0.2266183504 0.5069305139 -0.2267904401 -0.1481789415 0.0961617958
220298680.0 -0.145986811 0.0879422058 0.5043164212 -0.2329446648 0.5047055643 -0.2324763643 -0.1472066432 0.0976577086
225298650.0 -0.1450734689 0.0892811488 0.5018560033 -0.2381067368 0.5020191854 -0.2384330732 -0.1463124515 0.099186322
230298620.0 -0.1446364274 0.0907034996 0.4999096289 -0.2442752105 0.4999363594 -0.2441580285 -0.1453619838 0.1004138093
235298590.0 -0.1437145002 0.0914882221 0.4972259658 -0.2495152318 0.4970863373 -0.2501961336 -0.1441060723 0.1016989437
240298560.0 -0.1429295485 0.0929357176 0.494237819 -0.2557241878 0.4941422788 -0.2554821859 -0.1429735938 0.1031817199
245298530.0 -0.1418479012 0.0944196478 0.490980947 -0.2615788992 0.4912297855 -0.2616988814 -0.1421361525 0.1048634018
250298500.0 -0.1414693728 0.0952905108 0.4888117102 -0.2665046987 0.4889347779 -0.2666302266 -0.1406056257 0.1060973365
255298470.0 -0.1406458501 0.0969501738 0.4854883153 -0.2726617223 0.4858064803 -0.27249795 -0.1395266586 0.1073006496
260298440.0 -0.1398005703 0.0980828069 0.4828223816 -0.2782681563 0.4828144663 -0.2781099196 -0.1381274696 0.1088171885
265298410.0 -0.1386306323 0.0996735672 0.4793909904 -0.2843459343 0.4793700644 -0.2837316946 -0.1373430987 0.1102058556
270298380.0 -0.1377375592 0.1006892558 0.4762266681 -0.2892013767 0.4766753687 -0.289460737 -0.1359540993 0.112083258
275298350.0 -0.1370381853 0.1019575394 0.4733449761 -0.2948604938 0.4733840866 -0.2946944247 -0.1346545345 0.1134458169
280298320.0 -0.1363244622 0.1032353166 0.4702582648 -0.2998472181 0.470127931 -0.3000921182 -0.1333815724 0.1149621739
285298290.0 -0.135008676 0.1048733523 0.4667364017 -0.3054954207 0.4667860086 -0.3057676157 -0.132514792 0.116361086
290298260.0 -0.1342901362 0.1059405805 0.4639908671 -0.3108045186 0.4633893301 -0.3109277351 -0.1306417191 0.1180006331
295298230.0 -0.1333050138 0.1069553261 0.46042911 -0.3154893768 0.4604941209 -0.3160748686 -0.1294644562 0.1193031537
300298200.0 -0.1318671742 0.1084212337 0.4567339861 -0.3210927076 0.4566028587 -0.3212914795 -0.1282641832 0.1208459567
305298170.0 -0.1311176011 0.1095750214 0.45375215 -0.3268285881 0.4536477601 -0.3265607059 -0.1267733428 0.1224988696
310298140.0 -0.1297810198 0.1105347354 0.4497620073 -0.3320497 0.4502289907 -0.3321324125 -0.1256271141 0.1243244012
315298110.0 -0.1290484276 0.1121326741 0.4461686018 -0.3368691659 0.4464866073 -0.3369578634 -0.1236972785 0.1250239723
320298080.0 -0.128080206 0.1132090909 0.4424358798 -0.3422000451 0.4426529966 -0.3420816351 -0.1227478359 0.1263532456
325298050.0 -0.1272530239 0.1140368503 0.4385961626 -0.3471960846 0.4388960681 -0.347225208 -0.1214498664 0.1276167348
330298020.0 -0.1262364258 0.1152697 0.4342128647 -0.3519633655 0.4341835567 -0.3522342253 -0.1201355681 0.1289517062
335297990.0 -0.1254294375 0.11645835 0.4307115485 -0.3568903132 0.4305156424 -0.357077641 -0.1188262874 0.1306467087
340297960.0 -0.1247131535 0.1183273746 0.4264744865 -0.3620266273 0.4264040844 -0.3616250976 -0.1178429477 0.1321069677
345297930.0 -0.1237629988 0.1195393018 0.4221351413 -0.3663922708 0.4221100849 -0.3660586312 -0.1160483188 0.1333713636
350297900.0 -0.1224180217 0.1208152046 0.4181326327 -0.3706218288 0.4182240438 -0.3712401143 -0.1148187069 0.1351109624
355297870.0 -0.1213420441 0.1224251315 0.4141817499 -0.3758794566 0.4143154631 -0.3756921982 -0.1139167106 0.1367016439
360297840.0 -0.1203791812 0.1234289926 0.4096810013 -0.3802699569 0.4098395649 -0.380317013 -0.1122264281 0.1380370838
365297810.0 -0.1190736106 0.1246401037 0.4055681488 -0.3843465572 0.4056532602 -0.3847359933 -0.1107726678 0.1396345796
370297780.0 -0.117994884 0.125682514 0.401081887 -0.389023576 0.4012958231 -0.3893226064 -0.1090751285 0.1409926318
375297750.0 -0.1168764608 0.1273692282 0.397574947 -0.3935845417 0.3968101573 -0.3938755003 -0.1074383887 0.1424641544
380297720.0 -0.1154628478 0.1284308604 0.3928616435 -0.3978519849 0.3927010429 -0.3978278272 -0.1062324207 0.1439877847
385297690.0 -0.1143915483 0.1297670831 0.3881110379 -0.4018292704 0.3881801017 -0.4022479981 -0.1046318943 0.1455065451
390297660.0 -0.1134542525 0.1310137347 0.3837891414 -0.4064368744 0.3838345634 -0.4069254731 -0.1030139313 0.146562531
395297630.0 -0.1117766748 0.132110173 0.3797144026 -0.4105044525 0.3792503039 -0.4106499273 -0.101473468 0.1480611863
400297600.0 -0.1109795013 0.1336210769 0.3747904177 -0.414617331 0.3750490811 -0.4150847316 -0.1001768624 0.1490454793
405297570.0 -0.1094523826 0.1346803429 0.3706882972 -0.4188813904 0.3702915835 -0.4193280413 -0.098300218 0.150606451
410297540.0 -0.1078923526 0.1356002815 0.3652155913 -0.4227363054 0.365187518 -0.4230822739 -0.0965831648 0.1518950938
415297510.0 -0.106748008 0.1374050117 0.3610364091 -0.426833873 0.3610024809 -0.4268192479 -0.0956442474 0.1536218928
420297480.0 -0.105473903 0.1380419065 0.3560604779 -0.4312639685 0.3561516744 -0.4306632481 -0.0931973382 0.1541460494
425297450.0 -0.1036012698 0.1390195982 0.3514302149 -0.4348033368 0.3518505881 -0.4347005341 -0.0917887575 0.1559116215
430297420.0 -0.1026742932 0.1406596955 0.3469438284 -0.4389773079 0.3469938044 -0.4386525138 -0.0905129372 0.1568594914
435297390.0 -0.1012676786 0.1416444205 0.3419654904 -0.441707032 0.3420853855 -0.4419483771 -0.0884285633 0.1584536409
440297360.0 -0.099749847 0.1426262867 0.3366397995 -0.4458142597 0.3363266958 -0.4458700779 -0.0867531179 0.1589358761
445297330.0 -0.0983197737 0.1438966724 0.3316860002 -0.4496890941 0.3317757133 -0.4494804816 -0.0853081046 0.1604126411
450297300.0 -0.0971442741 0.1446771277 0.3271424649 -0.4529946183 0.3273823751 -0.4533502278 -0.0836847844 0.1616694588
455297270.0 -0.0955274697 0.145681664 0.3224359034 -0.45673985 0.3226189543 -0.4566179552 -0.0815557448 0.1626926368
460297240.0 -0.0944309831 0.1470878798 0.3170109164 -0.4602666428 0.3169056654 -0.460554961 -0.0796381642 0.1642676107
465297210.0 -0.0926113302 0.1478063729 0.3123867868 -0.4634758758 0.3125819983 -0.4639063423 -0.078625219 0.1647843783
470297180.0 -0.0915029596 0.1488052472 0.3072542732 -0.4664882142 0.3075506575 -0.4670048369 -0.0771253116 0.1658656689
475297150.0 -0.0902695048 0.1498069806 0.3019743906 -0.469992991 0.3020329016 -0.46993008 -0.0745407793 0.1668683023
480297120.0 -0.0883096744 0.150771943 0.2966153798 -0.4732292744 0.2973678133 -0.4730532585 -0.0730011854 0.1683219969
485297090.0 -0.0865705657 0.1519497884 0.2916590951 -0.4768889485 0.2918864826 -0.4765760313 -0.0713770662 0.1690938287
490297060.0 -0.085436257 0.1525225836 0.2863101768 -0.4796604604 0.2865382102 -0.4799122871 -0.069288562 0.1702696878
495297030.0 -0.0842534025 0.1536642275 0.2811507547 -0.4827018333 0.2811110261 -0.4829968886 -0.0677027673 0.1706739846
500297000.0 -0.0822711336 0.1543030218 0.2757966004 -0.4856681895 0.2758096782 -0.4855196006 -0.0661016077 0.171905535
505296970.0 -0.0811471345 0.155255595 0.2700020176 -0.488205894 0.2703464834 -0.4885574001 -0.064441591 0.1729533047
510296940.0 -0.07964018 0.1565748449 0.2649669031 -0.4917923584 0.2651846625 -0.491666229 -0.0620732113 0.1742208539
515296910.0 -0.0781668973 0.1575872174 0.2595976749 -0.4942037003 0.2596347795 -0.4944692434 -0.060060214 0.1747603731
520296880.0 -0.0764597454 0.1581208829 0.2541935134 -0.4971582431 0.2546566934 -0.4971659541 -0.0580569854 0.1755699468
525296850.0 -0.07499553 0.1588049848 0.2490040352 -0.4999723053 0.2489039065 -0.5002152829 -0.0558951863 0.1766391963
530296820.0 -0.0733103022 0.1597437977 0.2435148279 -0.5017844662 0.2432008964 -0.5024894354 -0.0548174363 0.1765540972
535296790.0 -0.0721001214 0.1605370342 0.2378865188 -0.5047333559 0.2384483931 -0.5049345561 -0.0527007311 0.1778442322
540296760.0 -0.0703936683 0.161217874 0.2322761287 -0.5080288599 0.2322433601 -0.5079886142 -0.0514574569 0.1786684486
545296730.0 -0.0687488914 0.1622168447 0.226878046 -0.5097620453 0.2271844848 -0.5102613797 -0.049095543 0.1790473912
550296700.0 -0.0674030704 0.1629594711 0.2214009625 -0.5126063173 0.2215573894 -0.5128710164 -0.0470603679 0.180193915
555296670.0 -0.0655289352 0.163412145 0.2161813133 -0.5145751337 0.2159638013 -0.5147506092 -0.0454895598 0.1807661682
560296640.0 -0.0641222573 0.1642495779 0.2100551355 -0.5167695082 0.2104340747 -0.5170124195 -0.0431556003 0.1815038711
565296610.0 -0.0629957149 0.1651496153 0.2047097155 -0.5190330224 0.2045521398 -0.5190211403 -0.0414336758 0.1818466021
570296580.0 -0.060927897 0.1658816123 0.1989250402 -0.5214201627 0.1993002112 -0.5219866915 -0.0393548837 0.1830080672
575296550.0 -0.059367229 0.1670946521 0.1932797051 -0.5235481683 0.1936583401 -0.5236552445 -0.036993062 0.1836168159
580296520.0 -0.0576007169 0.1674693748 0.1878555289 -0.5256145613 0.1875739884 -0.5256233619 -0.0353011795 0.1838716409
585296490.0 -0.0560026794 0.1679710925 0.1820398286 -0.5275564177 0.1823783246 -0.5274400581 -0.0335662093 0.1838726944
590296460.0 -0.0546773534 0.1684957094 0.1760105534 -0.5295759317 0.1761731519 -0.5297453507 -0.031454579 0.1850488898
595296430.0 -0.0529896549 0.1693849236 0.1708322543 -0.5312472848 0.1705073912 -0.5317342551 -0.0293297017 0.1853227836
600296400.0 -0.0510856185 0.1701279928 0.1648333848 -0.5334881537 0.1650486177 -0.533042777 -0.0272532772 0.1859594694
605296370.0 -0.0494174386 0.1711902125 0.1590017834 -0.534973064 0.1588447956 -0.5346055808 -0.0252593826 0.1861109621
610296340.0 -0.0481150575 0.171436808 0.1536394126 -0.5365100411 0.1534751411 -0.5367781582 -0.0230936254 0.1871349783
615296310.0 -0.0463836104 0.1721181227 0.1470304382 -0.5380028236 0.147181605 -0.5382752029 -0.0211718602 0.1870562935
620296280.0 -0.0444897328 0.1725272192 0.1414112074 -0.5396342411 0.1415512597 -0.5396823177 -0.019277815 0.1876771583
625296250.0 -0.0427208298 0.1729623009 0.1352007869 -0.5411548577 0.1353693319 -0.5415612516 -0.0170415227 0.1880689385
630296220.0 -0.0410345577 0.1737690494 0.1295561695 -0.5424815983 0.1302481369 -0.5424166931 -0.0154378826 0.1885782636
635296190.0 -0.0393908143 0.1743185557 0.1237913917 -0.543481305 0.1238783111 -0.5434283498 -0.0133532839 0.1886379374
640296160.0 -0.0379547582 0.174830592 0.1183965605 -0.5448025156 0.1180225345 -0.5452683587 -0.0109425928 0.1889137339
645296130.0 -0.0362313366 0.1754582962 0.112203527 -0.5464989579 0.1124219732 -0.5461747485 -0.0095374663 0.1887694903
650296100.0 -0.0345437635 0.1762283346 0.1068883144 -0.5472367305 0.1066102398 -0.5473464848 -0.007169591 0.189172493
655296070.0 -0.0325275886 0.1764284766 0.1003081792 -0.5488057375 0.1003644576 -0.5485565408 -0.0047928718 0.1896613548
660296040.0 -0.0313859726 0.1773151592 0.0944808895 -0.5493765546 0.094554048 -0.5493435585 -0.0030114531 0.1895019199
665296010.0 -0.0293814957 0.1771378389 0.0888339149 -0.5503521992 0.0889578577 -0.5506285007 -0.0012192872 0.1903600421
670295980.0 -0.0269507916 0.1776804545 0.0825293414 -0.5510885611 0.0830283199 -0.55122191 0.000669556 0.190044651
675295950.0 -0.0255884939 0.1780172127 0.0768045186 -0.552017141 0.076595815 -0.5529008561 0.0033881576 0.1904980478
680295920.0 -0.0242190349 0.1788147724 0.0704994447 -0.5531335537 0.0703787817 -0.5532087167 0.0052375587 0.1904312482
685295890.0 -0.0223894785 0.1789762358 0.0649134371 -0.5536109249 0.064915768 -0.5542128916 0.0073700455 0.1907777635
690295860.0 -0.0203235379 0.1793874934 0.0589747151 -0.5535868936 0.0585011868 -0.5540452485 0.0096364568 0.1911491045
695295830.0 -0.0182961366 0.179385548 0.0522600036 -0.5543929432 0.0525099335 -0.5553489663 0.0112880579 0.1911176034
700295800.0 -0.0167711894 0.1800174538 0.0465204044 -0.5551684858 0.0464674228 -0.5556196816 0.0134817427 0.1901231531
705295770.0 -0.0146911944 0.1803951288 0.0405377035 -0.5556586702 0.0408535981 -0.5559717348 0.0150353764 0.1907078031
710295740.0 -0.0134336929 0.1808410941 0.0345689901 -0.5560073176 0.0346781292 -0.5561173483 0.0171119784 0.1911012585
715295710.0 -0.0116311608 0.1808851687 0.0284713503 -0.5562125312 0.0291111757 -0.5568058757 0.0193416873 0.1902947355
720295680.0 -0.009887535 0.1807333489 0.0226955738 -0.5564198813 0.0226965164 -0.5570584622 0.0219036964 0.1908395175
725295650.0 -0.0077419908 0.1814932446 0.0166961504 -0.5567178747 0.0167606505 -0.5564887577 0.0240237405 0.1905634678
730295620.0 -0.0065352698 0.1814600365 0.010480938 -0.5569180519 0.0107411176 -0.5571351174 0.0256544725 0.1900616781
735295590.0 -0.0041280327 0.1814953459 0.0051395538 -0.5568094801 0.0049494423 -0.5573461334 0.0277729994 0.1902527919
740295560.0 -0.0025228956 0.1822137396 -0.0013792453 -0.556406489 -0.000996932 -0.5570082738 0.0302487009 0.189851748
745295530.0 -0.0008368112 0.1820055654 -0.0073539921 -0.5569090494 -0.0072409219 -0.5573952266 0.0320441732 0.1900007302
750295500.0 0.0011532369 0.1823919885 -0.0131940693 -0.5562210396 -0.0131636374 -0.5567981991 0.0343344887 0.189228243
755295470.0 0.0030656401 0.1824826859 -0.0191275301 -0.5564205209 -0.0187512525 -0.5568634819 0.03571826 0.1894909389
760295440.0 0.0044509119 0.1825323888 -0.0257122829 -0.5562875289 -0.0254362582 -0.5565758868 0.0376195654 0.1888144615
765295410.0 0.0062369554 0.1825031825 -0.030720779 -0.5559720344 -0.031031331 -0.5563095239 0.0406227769 0.1891730296
770295380.0 0.0083962591 0.1828786237 -0.0373267801 -0.5551834261 -0.0371660315 -0.5559882939 0.0428164386 0.1888608714
775295350.0 0.0097280377 0.1831125533 -0.0428973692 -0.5547103409 -0.043275759 -0.5549117238 0.0440355831 0.1879516106
780295320.0 0.0117882884 0.1827421153 -0.0490268799 -0.5544014104 -0.0489091611 -0.5545931987 0.0465532851 0.1882729258
785295290.0 0.0136881418 0.1833679329 -0.0550629948 -0.5537799876 -0.0549906369 -0.5541549568 0.0480766923 0.1877193064
790295260.0 0.0155231454 0.1830352219 -0.0607377261 -0.5531935876 -0.0612084717 -0.5535384952 0.0506329334 0.1872135544
795295230.0 0.0172049265 0.1831197892 -0.0667851613 -0.5522082172 -0.0662350243 -0.5523566917 0.0525504278 0.1873811715
800295200.0 0.0189985696 0.1831873164 -0.0732220984 -0.5518038338 -0.0731789984 -0.5522119957 0.0545418728 0.1864780386
805295170.0 0.020648763 0.1831469075 -0.0787695153 -0.5504938373 -0.0790455229 -0.5511002087 0.0565007213 0.1859538918
810295140.0 0.0225193899 0.1830830443 -0.0843508978 -0.5498059878 -0.084363554 -0.5506635614 0.0585694548 0.1858151643
815295110.0 0.0241975343 0.183027916 -0.0906786178 -0.5484125617 -0.0910699712 -0.5492694708 0.0605271675 0.1846701727
820295080.0 0.0262819558 0.1827544724 -0.0967965152 -0.5481516275 -0.0968079378 -0.548324179 0.0624861062 0.1845173689
825295050.0 0.0279656307 0.1827948833 -0.102457984 -0.5464176588 -0.1023872946 -0.5470482071 0.064720593 0.1842145004
830295020.0 0.0297591229 0.1831395071 -0.1086487985 -0.5457537231 -0.1088846546 -0.5459394468 0.0664460321 0.1833224619
