!Created with skrf (http://scikit-rf.org).
# Hz S RI R 50.0 
!freq ReS11 ImS11 ReS21 ImS21 ReS12 ImS12 ReS22 ImS22
300000.0 -0.2326592758 -0.1253069268 0.4642325794 0.0822447333 0.4634860661 0.0831883305 -0.2321927784 -0.1293945276
5299970.0 -0.2449149021 0.0048111268 0.4732550715 0.006215844 0.4739294266 0.0062126533 -0.2433537446 0.0052746759
10299940.0 -0.2417974947 0.018476415 0.4763345821 0.0067255802 0.4756609509 0.0075161403 -0.2396929879 0.0176334365
15299910.0 -0.2367647636 0.0282404696 0.4792160677 0.008450901 0.4795113896 0.0084291264 -0.2361153338 0.0275550614
20299880.0 -0.231664318 0.0362893291 0.4842418139 0.008510202 0.4843856191 0.0087149887 -0.2308750858 0.0349971419
25299850.0 -0.2254994457 0.0428769881 0.4896865677 0.0079070214 0.4896306509 0.0079819409 -0.2258480956 0.0416119426
30299820.0 -0.2202535138 0.0477291602 0.4951630877 0.0057104214 0.4952625184 0.0053879772 -0.2205396398 0.0469729238
35299790.0 -0.2144342666 0.0516784971 0.499896098 0.0025219951 0.5005070887 0.0025673202 -0.2156547107 0.0513362099
40299760.0 -0.2092071238 0.0547001615 0.5055054753 -0.0014258615 0.5054982464 -0.0013483438 -0.2105100049 0.0546862694
45299730.0 -0.203968718 0.0571750986 0.5105416144 -0.0061958767 0.5106180394 -0.0065385678 -0.2057557845 0.0578603373
50299700.0 -0.1989538677 0.0590848548 0.5145190871 -0.0117753308 0.5144170476 -0.0121127402 -0.2009016807 0.0601474564
55299670.0 -0.1948603735 0.060312643 0.517873203 -0.0173338129 0.5181135967 -0.0176732291 -0.1974055596 0.061995602
60299640.0 -0.1907812678 0.0618500079 0.5218127592 -0.0240469854 0.521787179 -0.0242460262 -0.1935321794 0.0633529514
65299610.0 -0.1871777188 0.0627905916 0.5249388102 -0.0301972628 0.5248925052 -0.030607731 -0.1895840345 0.0648073116
70299580.0 -0.183887288 0.0628180437 0.5269225939 -0.0365916332 0.526928277 -0.0368908865 -0.187021361 0.0658945948
75299550.0 -0.1810208178 0.0639183583 0.5287804391 -0.0439918209 0.5290546787 -0.0438644334 -0.1839493566 0.0671409362
80299520.0 -0.1784486814 0.0644598365 0.5309467094 -0.0509192165 0.5312549748 -0.0510446631 -0.1813701071 0.0681439545
85299490.0 -0.1758696068 0.0649812126 0.5322560232 -0.057966587 0.5324927049 -0.0573364344 -0.1789584326 0.0685469702
90299460.0 -0.1736854111 0.0654389547 0.5333304914 -0.0645851575 0.5332211775 -0.0646221083 -0.1765524316 0.0699643495
95299430.0 -0.1714544897 0.065632826 0.5344363337 -0.0714044798 0.5343684861 -0.0716380011 -0.1749611158 0.0706442291
100299400.0 -0.1693079399 0.0660511617 0.5343664282 -0.0783620352 0.5347686603 -0.0783568556 -0.1730378787 0.0718769844
105299370.0 -0.1673583682 0.0666618019 0.5347557246 -0.0852802363 0.5353400003 -0.085678523 -0.1707591533 0.0721124272
110299340.0 -0.1656826301 0.0669871975 0.5351411706 -0.0918020932 0.5355787319 -0.0917974165 -0.1696502229 0.0730631004
115299310.0 -0.1647978106 0.0677287205 0.5349006347 -0.0989392845 0.5349525229 -0.0986975472 -0.1679134574 0.0741053288
120299280.0 -0.1632913825 0.0681739756 0.5352787014 -0.1058674948 0.5348096689 -0.1061145022 -0.166683612 0.0747544292
125299250.0 -0.1616589992 0.0684975269 0.5345559853 -0.1123812381 0.534742136 -0.1125102953 -0.1651397459 0.0761211289
130299220.0 -0.1605658086 0.0689682214 0.5339607176 -0.119249887 0.5341729386 -0.1199370064 -0.1636375599 0.0770006643
135299190.0 -0.1596456461 0.0700872576 0.5333665899 -0.1258348592 0.5337139658 -0.1261480452 -0.1628944012 0.0779670443
140299160.0 -0.1583565388 0.0708546779 0.5325470364 -0.1329190547 0.5327377711 -0.1324615732 -0.1621111278 0.0787217132
145299130.0 -0.1579249724 0.0717537759 0.5318059685 -0.1390379462 0.5317578535 -0.1392643129 -0.1602161115 0.0801850522
150299100.0 -0.156392871 0.0727043859 0.5306000829 -0.1459603882 0.5304146752 -0.1460590008 -0.1598284437 0.0813178173
155299070.0 -0.1555398804 0.0732756952 0.5287143533 -0.1520721806 0.529535776 -0.1522758685 -0.1585716243 0.0825648396
160299040.0 -0.1546244039 0.0744487439 0.52828472 -0.1588088697 0.5274847113 -0.1590646107 -0.1577818319 0.0838581556
165299010.0 -0.1537766483 0.0751303 0.5265455509 -0.1650486593 0.5262691415 -0.1652583556 -0.1565580038 0.0845720411
170298980.0 -0.1529972737 0.0761340033 0.5243970596 -0.1711646865 0.5249994698 -0.1713148199 -0.1557365459 0.0858915244
175298950.0 -0.1522536523 0.0774322882 0.523416029 -0.1780447173 0.5237628287 -0.1781103109 -0.1546375163 0.0875249947
180298920.0 -0.1515440113 0.078440126 0.5214240965 -0.1848169358 0.5216684507 -0.1843418315 -0.1536441475 0.0885452444
185298890.0 -0.150728341 0.0793581018 0.5202264017 -0.1903066971 0.5197285673 -0.1903203875 -0.1526144833 0.0894605538
190298860.0 -0.1498336407 0.080624549 0.5176158813 -0.1964751054 0.5180916256 -0.1963923964 -0.151831325 0.0909924218
195298830.0 -0.1492869509 0.0818092699 0.5161961436 -0.2025784685 0.5163697676 -0.2024808469 -0.1512237267 0.0928061115
200298800.0 -0.14805664 0.0827196412 0.5137107144 -0.2095029533 0.5140140918 -0.2091032435 -0.1501300465 0.0937930286
205298770.0 -0.1479267007 0.0837867537 0.5112653912 -0.2149616481 0.5118593356 -0.2144505662 -0.1490418684 0.095286192
210298740.0 -0.1469296631 0.0851135959 0.5093989588 -0.2206566868 0.5093607706 -0.2205346902 -0.1483652091 0.0964931414
215298710.0 -0.1461957889 0.0865417122 0.5068109703 -0.2261853985 0.5066710959 -0.2270285306 -0.1468372306 0.0978567397
220298680.0 -0.1452673859 0.087753412 0.5041126395 -0.2326515651 0.5047233587 -0.2328975583 -0.1462848774 0.0994080179
225298650.0 -0.1448079865 0.0890798468 0.5020008595 -0.2382355085 0.5022075299 -0.2379399295 -0.1452593326 0.1003524307
230298620.0 -0.1434428577 0.0905314118 0.4998991155 -0.2441300904 0.4999131348 -0.2442859829 -0.1444953253 0.101898447
235298590.0 -0.1432313335 0.0916071929 0.497223331 -0.2503143745 0.4971852422 -0.2501842578 -0.1433234413 0.1033285391
240298560.0 -0.1422944522 0.0932215303 0.4944227091 -0.2555601473 0.4944749672 -0.2559451486 -0.1424800256 0.1045689455
245298530.0 -0.1416577724 0.0941659058 0.4914577454 -0.2615822367 0.4915648985 -0.2616303357 -0.1414115475 0.1063704383
250298500.0 -0.1407991314 0.09548902 0.489312667 -0.2670295104 0.4887724549 -0.2670311844 -0.1404013284 0.1079445835
255298470.0 -0.1396385125 0.0971715067 0.4861848473 -0.2725894832 0.4865032831 -0.2727525898 -0.1393477682 0.1095673427
260298440.0 -0.1390701029 0.0982340827 0.4831408866 -0.2775532897 0.4833110806 -0.2781189766 -0.1382401199 0.1106169544
265298410.0 -0.1384799896 0.099733381 0.4799414411 -0.2841281892 0.4794873561 -0.2836448944 -0.1366868795 0.1116641348
270298380.0 -0.1378479169 0.1009384157 0.4766319856 -0.2893167001 0.476914669 -0.2892159115 -0.1358700862 0.1134624536
275298350.0 -0.1367082263 0.1025798454 0.4731192816 -0.29430889 0.4735797868 -0.2948138406 -0.1346224018 0.1153236013
280298320.0 -0.1361633242 0.1037201622 0.4708839086 -0.2997809293 0.470727653 -0.2998775982 -0.1333899447 0.1163780638
285298290.0 -0.1349673335 0.104979554 0.4668892827 -0.3051180689 0.4673301751 -0.305249618 -0.1323767258 0.1180189282
290298260.0 -0.1342544206 0.1065165783 0.4641618844 -0.3105744588 0.4642961207 -0.3107380816 -0.1309077581 0.1193407288
295298230.0 -0.1332284052 0.1074344279 0.4604340143 -0.3159364793 0.4606276903 -0.3162968795 -0.1295897504 0.1206138056
300298200.0 -0.1322305442 0.1092195092 0.4573764017 -0.3210498787 0.4573359234 -0.3207737447 -0.1288623446 0.1218756862
305298170.0 -0.1313201318 0.1097447547 0.4540038234 -0.3261286665 0.4540945816 -0.3265807946 -0.1271266351 0.1232677129
310298140.0 -0.1300942406 0.1112984876 0.4502847546 -0.3311920214 0.4504784614 -0.3313512348 -0.1256822251 0.124592942
315298110.0 -0.1297295534 0.1121168039 0.4468145404 -0.3371518352 0.4468571547 -0.3368226537 -0.1245512227 0.125863271
320298080.0 -0.1285423759 0.1136231712 0.4425071536 -0.3418790636 0.4434397046 -0.3419517364 -0.1236398423 0.1272216068
325298050.0 -0.1282022464 0.1143279625 0.439292473 -0.3466905599 0.4394401278 -0.346867055 -0.1217676635 0.128229492
330298020.0 -0.1276519563 0.1160882189 0.4350774995 -0.3519700028 0.4354471217 -0.3519223509 -0.1211777901 0.1298159251
335297990.0 -0.1266149594 0.1171385313 0.4311608262 -0.3565140553 0.4313450223 -0.3566574145 -0.1198373495 0.1312200493
340297960.0 -0.1258020456 0.1184395009 0.4263518164 -0.361707809 0.4266611257 -0.3617612493 -0.1183511992 0.132784274
345297930.0 -0.124953789 0.1197994056 0.4234398231 -0.3664987504 0.4226390136 -0.3664887411 -0.1170953106 0.1337988229
350297900.0 -0.1241383943 0.1212433871 0.4191885908 -0.3706233443 0.4193310896 -0.3709109826 -0.1162380284 0.1351435423
355297870.0 -0.1232683806 0.1225137982 0.4149546525 -0.3752672743 0.4148282852 -0.3750569619 -0.1144831878 0.1368053587
360297840.0 -0.122125699 0.1237985585 0.4101204099 -0.379877571 0.4106051909 -0.3804822429 -0.1133133207 0.1384175371
365297810.0 -0.1210771169 0.1254382181 0.4066024382 -0.3843260444 0.4062204367 -0.3844780169 -0.1121730597 0.1396449963
370297780.0 -0.1199249616 0.1263680012 0.4017511258 -0.3888062056 0.4023795241 -0.3889102502 -0.1106784269 0.1408939158
375297750.0 -0.1189773347 0.1277923809 0.3979882909 -0.3931633185 0.3979314749 -0.3931130213 -0.1088116078 0.1421184813
380297720.0 -0.1183529937 0.1292939978 0.3940966207 -0.3977027396 0.3936015823 -0.3978922335 -0.1073235283 0.1439094077
385297690.0 -0.1170383948 0.1300547771 0.3887580965 -0.4018746765 0.3893834544 -0.4024941203 -0.1060639102 0.1452121785
390297660.0 -0.1156024628 0.1313582671 0.384725827 -0.4059206237 0.3848343011 -0.4062854246 -0.104313218 0.1460102258
395297630.0 -0.1143559874 0.1328191499 0.3804980552 -0.4099801061 0.3802659487 -0.410039879 -0.1029116619 0.1475952702
400297600.0 -0.1135481362 0.1337936775 0.3754989423 -0.4143993271 0.3762853316 -0.4146995667 -0.1012184982 0.1490002983
405297570.0 -0.1123466887 0.1348333036 0.3713233233 -0.4183054882 0.3714333804 -0.4186517732 -0.099480727 0.1502489172
410297540.0 -0.1109497216 0.136442119 0.3668362789 -0.4229286579 0.3667168844 -0.4226280455 -0.0978845385 0.1516186493
415297510.0 -0.1101621909 0.1373252787 0.3619422132 -0.426651307 0.3623003539 -0.4270602905 -0.0961428436 0.1529657303
420297480.0 -0.1086167585 0.1381550386 0.3572049329 -0.4304812844 0.3574808398 -0.4306399049 -0.0943499093 0.1542330485
425297450.0 -0.1069154736 0.139449695 0.3524261413 -0.4345471129 0.3525401862 -0.4346187547 -0.0928694155 0.1548254177
430297420.0 -0.1060513651 0.1408080805 0.3483417835 -0.4382533957 0.3482132817 -0.4383592086 -0.0909951056 0.1564995245
435297390.0 -0.1047672708 0.1417692718 0.3429110751 -0.442839559 0.3427879184 -0.4424212371 -0.0894591881 0.1578610901
440297360.0 -0.1033952365 0.1426776007 0.3378039753 -0.4457458156 0.3377597147 -0.4461632454 -0.0875959746 0.1588697902
445297330.0 -0.1020927569 0.1433994439 0.3332973158 -0.4490546865 0.333438461 -0.4498717279 -0.0859151755 0.1601160117
450297300.0 -0.1007000715 0.1448151445 0.3285281197 -0.4530727529 0.3285901491 -0.4530028646 -0.0839697837 0.1611977403
455297270.0 -0.0995637897 0.1455367188 0.3235771845 -0.4566435138 0.3234958284 -0.4565731598 -0.082325203 0.1618642327
460297240.0 -0.0977248616 0.1469451718 0.3184122675 -0.4610433987 0.3183107003 -0.4604324227 -0.0802646343 0.1629226226
465297210.0 -0.0962472881 0.1479660986 0.3129285986 -0.4636607085 0.3127579686 -0.4639612097 -0.0782964505 0.1646391176
470297180.0 -0.095149683 0.1488904741 0.3081533281 -0.4668668837 0.3083985294 -0.4671348409 -0.076502999 0.1650445874
475297150.0 -0.0937876569 0.1503121153 0.303026836 -0.4705657847 0.3031568651 -0.4703240653 -0.0748434168 0.1663758303
480297120.0 -0.0918091547 0.1512027127 0.2978914034 -0.473701726 0.2982751612 -0.4733610972 -0.0734406197 0.1669546896
485297090.0 -0.0905017062 0.1516211491 0.2927037601 -0.4767320824 0.2925225596 -0.4765719604 -0.0714157901 0.16805874
490297060.0 -0.0885466953 0.1531424688 0.287173668 -0.4801881008 0.287580545 -0.4801149068 -0.069537754 0.1687137387
495297030.0 -0.0876623811 0.1538791785 0.2824381646 -0.4835135883 0.2823330263 -0.4837278879 -0.0675301676 0.1700371121
500297000.0 -0.0861484756 0.1550488788 0.2773942485 -0.4858592051 0.2768749067 -0.486465368 -0.065421254 0.171116103
505296970.0 -0.0838523801 0.155850054 0.2716194063 -0.4889897328 0.2715055272 -0.4889210744 -0.0634263408 0.1715162543
510296940.0 -0.0826520824 0.15688455 0.2663277228 -0.4929342036 0.2663879457 -0.4926857642 -0.0611959139 0.1727838928
515296910.0 -0.0812070007 0.1579050448 0.2605335496 -0.495141622 0.2603154664 -0.4947518717 -0.0597514393 0.1728822612
520296880.0 -0.0795992183 0.1587090987 0.2554312279 -0.4979391787 0.2551409837 -0.4977600702 -0.0573978209 0.1743404391
525296850.0 -0.0779116207 0.1595862609 0.2501337269 -0.5004592754 0.249496847 -0.5002973532 -0.0556634605 0.1751877849
530296820.0 -0.076662203 0.1602853782 0.2444232834 -0.5028197498 0.2443931481 -0.5030611508 -0.0537680575 0.1755080838
535296790.0 -0.0743246495 0.1612559388 0.2388939953 -0.5052989928 0.2390072665 -0.5057907692 -0.0513183926 0.176359184
540296760.0 -0.072955324 0.16228927 0.2330283073 -0.5083233034 0.2332595007 -0.5083016765 -0.049602144 0.1766735484
545296730.0 -0.0718495153 0.163188493 0.2280090568 -0.5105490487 0.2278011587 -0.5106407858 -0.0476327556 0.1776615994
550296700.0 -0.0696557406 0.1641609033 0.2221851951 -0.5133522354 0.2221612435 -0.5131125719 -0.0454637445 0.1780327489
555296670.0 -0.0680215653 0.164797453 0.2165241365 -0.5158677878 0.2166716329 -0.5156676442 -0.0437419854 0.1784028512
560296640.0 -0.0658360869 0.1656025157 0.2108588498 -0.517961349 0.2112170616 -0.5183139269 -0.0417513888 0.1795045049
565296610.0 -0.0647344467 0.1664372618 0.2055205071 -0.5198025712 0.2054859667 -0.5198866358 -0.0394767949 0.1804775529
570296580.0 -0.0630545496 0.1674536906 0.1996840913 -0.5223331989 0.1998977067 -0.5223724024 -0.0376878522 0.1805760701
575296550.0 -0.0612178748 0.1679006151 0.1942352542 -0.5241750789 0.1939676599 -0.5245309649 -0.0355493937 0.1812689914
580296520.0 -0.0593318612 0.1689498666 0.1883742306 -0.526413806 0.1882681216 -0.5264605699 -0.0338897492 0.1813849969
585296490.0 -0.057701498 0.1698493267 0.1831074862 -0.5286777537 0.1825059603 -0.5282187455 -0.0314982098 0.1823035978
590296460.0 -0.0551626287 0.1703123922 0.1766045655 -0.530264401 0.1769201824 -0.5306295189 -0.0295891426 0.1827098998
595296430.0 -0.0536947843 0.1712079948 0.1705096943 -0.5320707174 0.1706299136 -0.5323977654 -0.0275832021 0.1831028131
600296400.0 -0.0521090418 0.1719178782 0.1646892161 -0.533774478 0.1653243956 -0.5337590672 -0.0254115876 0.1832409337
605296370.0 -0.0505710684 0.1727055542 0.1596544577 -0.5352753613 0.159120118 -0.5355905067 -0.023246945 0.1837745344
610296340.0 -0.048632243 0.1738082908 0.1535230871 -0.5367251598 0.1540758345 -0.5370355694 -0.0214920689 0.1844568814
615296310.0 -0.0466378758 0.1742351068 0.1472277725 -0.5389701668 0.147438551 -0.5393111222 -0.0189339108 0.1849082136
620296280.0 -0.0454350151 0.1752395735 0.1418056045 -0.540394875 0.1416507327 -0.5403742148 -0.0173040442 0.1852530388
625296250.0 -0.0438125127 0.1753293555 0.1361132783 -0.5417657854 0.1358443036 -0.5421587171 -0.0154391956 0.1855760326
630296220.0 -0.041689795 0.1763054333 0.1295142801 -0.5435654161 0.1296463461 -0.5434063115 -0.0130988682 0.1856218382
635296190.0 -0.0401370911 0.1771125905 0.1242976444 -0.5442932931 0.1240687565 -0.544494381 -0.0109840991 0.185979987
640296160.0 -0.0383859858 0.1775710255 0.1180282371 -0.5462439864 0.1181810089 -0.5461476518 -0.0091725058 0.1862310909
645296130.0 -0.0364560755 0.1789011427 0.1125284857 -0.5470731278 0.1123971326 -0.5466897906 -0.0072591041 0.186217494
650296100.0 -0.0345548517 0.1787036594 0.1065676931 -0.5481395897 0.1060988814 -0.5484082829 -0.0041713672 0.1863609795
655296070.0 -0.0330438865 0.1794034507 0.0997169191 -0.5492689815 0.1004607684 -0.5493361595 -0.0032511666 0.1869356486
660296040.0 -0.0312039899 0.1804631051 0.0944608183 -0.5508310897 0.0943032465 -0.5507348418 -0.0008488735 0.1866686284
665296010.0 -0.0293174476 0.1809152733 0.0883061356 -0.5511525328 0.0882397575 -0.5510813575 0.0014000917 0.1869965782
670295980.0 -0.0276128189 0.1815095176 0.0825290841 -0.5525681932 0.0823108294 -0.551638266 0.0029380679 0.1869524153
675295950.0 -0.0260500806 0.1821052043 0.0766747443 -0.552917348 0.0766588079 -0.5530980215 0.0054468743 0.1872374484
680295920.0 -0.0242093823 0.1824539353 0.070854832 -0.553514705 0.0707556142 -0.5534375447 0.0077109844 0.1871564019
685295890.0 -0.0218254317 0.1830129269 0.0641439359 -0.5544660565 0.0644608383 -0.5545754783 0.00963914 0.1875042392
690295860.0 -0.020972792 0.1835129112 0.0587280037 -0.5553786726 0.058511523 -0.5554279141 0.01154649 0.1875754584
695295830.0 -0.0184620053 0.1839399482 0.053108068 -0.5559669182 0.0525021784 -0.5556830545 0.0139993577 0.1877115979
700295800.0 -0.0167563309 0.1847419532 0.0469559734 -0.5565256058 0.0467293059 -0.5563086523 0.0159584877 0.1874195885
705295770.0 -0.0155800791 0.1847130186 0.0408015408 -0.5567645695 0.0403081684 -0.5565887903 0.0177733281 0.1880083235
710295740.0 -0.0137820642 0.1850972008 0.0351658782 -0.5573322126 0.0344667181 -0.5572912951 0.0200024398 0.1873859139
715295710.0 -0.0116769723 0.1857140033 0.0288578405 -0.557629005 0.0284121337 -0.5574271904 0.0220536784 0.1874192686
720295680.0 -0.0096979837 0.1861930777 0.0229285631 -0.557301924 0.0224147053 -0.5578567361 0.0239352921 0.1870418514
725295650.0 -0.0086454123 0.1867124975 0.0171427029 -0.5576721085 0.0166437796 -0.5576587515 0.0258534806 0.1878014929
730295620.0 -0.0073316721 0.1866568998 0.0110355517 -0.557462385 0.0107843234 -0.5575239142 0.0276994475 0.1876711837
735295590.0 -0.0047898046 0.1871353153 0.0046040385 -0.5579649866 0.0044535636 -0.5582235374 0.0300097658 0.1871145858
740295560.0 -0.0035064545 0.187078023 -0.0011419585 -0.5582222432 -0.000986498 -0.5579150149 0.0319274255 0.187137968
745295530.0 -0.0013856563 0.1879488462 -0.0073278496 -0.557216049 -0.0068351546 -0.5577831076 0.0336098792 0.1868596752
750295500.0 -0.0002863585 0.1881136478 -0.0127769831 -0.5578079415 -0.0133088188 -0.5577558717 0.0360220832 0.1865837776
755295470.0 0.0018291602 0.1882771004 -0.0186874199 -0.5578519395 -0.0192376187 -0.5578640633 0.0380351544 0.1869098412
760295440.0 0.0035191314 0.1888019246 -0.0250804636 -0.5572055326 -0.0252819572 -0.5569472038 0.0403992119 0.1855632958
765295410.0 0.0054794964 0.188573149 -0.0310117995 -0.5568965815 -0.0309996168 -0.5568762389 0.0422022724 0.1857169906
770295380.0 0.0069109625 0.1891452988 -0.0366312546 -0.5559680615 -0.0371608763 -0.5572731712 0.0440385206 0.1855220704
775295350.0 0.0086103259 0.1890296017 -0.0428583025 -0.5562990893 -0.0429309518 -0.5558788249 0.0462334489 0.1853967617
780295320.0 0.0104960244 0.1892563506 -0.0489409578 -0.5552953913 -0.048990852 -0.5553030158 0.0484141184 0.1844754021
785295290.0 0.0120560236 0.1892750037 -0.0549032644 -0.5548515959 -0.055021686 -0.5552498167 0.0498740198 0.1848859944
790295260.0 0.0139439329 0.1892417695 -0.0606818227 -0.5541576702 -0.0606092303 -0.554803747 0.0519792281 0.1844543447
795295230.0 0.0155435646 0.1894246404 -0.0664558075 -0.5539772633 -0.0670323046 -0.5538479363 0.0541847855 0.1833375196
800295200.0 0.017018174 0.1894868276 -0.0721287558 -0.5524630846 -0.072805028 -0.5530723762 0.0558884131 0.1832317253
805295170.0 0.0190067726 0.1896656228 -0.0787486011 -0.5520739774 -0.0783959325 -0.5520102267 0.0584820041 0.1825092302
810295140.0 0.0209209728 0.1896729558 -0.0845638141 -0.5509859229 -0.0845890601 -0.5510128821 0.0605284407 0.1821311199
815295110.0 0.0224632321 0.189662798 -0.09033495 -0.550036089 -0.0900885674 -0.5504641137 0.0620956009 0.1815424097
820295080.0 0.0242180212 0.1897377249 -0.0960541064 -0.5493082444 -0.0956530653 -0.5493622048 0.0637898303 0.1817518231
825295050.0 0.0255472961 0.1894965772 -0.1020359206 -0.5485210896 -0.1021730395 -0.5483876474 0.0664410321 0.1811914521
830295020.0 0.0276883832 0.1892242146 -0.1079619206 -0.546576811 -0.1080223162 -0.5468320668 0.0682773683 0.1800307096
