!Created with skrf (http://scikit-rf.org).
# Hz S RI R 50.0 
!freq ReS11 ImS11 ReS21 ImS21 ReS12 ImS12 ReS22 ImS22
300000.0 -0.7757810635 -0.1443657114 -0.0002576609 0.0012165827 0.0007562765 0.0010991419 -0.2105073358 -0.0945621309
5299970.0 -0.7851914571 -0.0071608692 0.0002773904 -0.0002863257 7.91335e-05 0.0002980813 -0.2164292524 0.0066843065
10299940.0 -0.7873906929 -0.0040663531 3.51533e-05 -0.0001303489 -4.45955e-05 -2.49758e-05 -0.2132081471 0.0186253943
15299910.0 -0.7933147729 -0.001700328 -9.06573e-05 0.0001151074 9.83091e-05 -0.0001799859 -0.2082300937 0.0278831293
20299880.0 -0.7995781577 0.0025947347 -9.21514e-05 -0.0001320404 -1.34589e-05 0.0001079911 -0.2031494137 0.035760886
25299850.0 -0.8066817787 0.0082471435 0.0002120808 -0.0001231834 9.10374e-05 -0.0001798826 -0.1975135933 0.0416699996
30299820.0 -0.8117973767 0.0160587257 0.0001124213 5.94484e-05 -2.50256e-05 -2.78897e-05 -0.1918847065 0.0465926823
35299790.0 -0.8170640053 0.0252565645 -6.9393e-06 -3.17149e-05 0.0001827803 9.63343e-05 -0.1859859611 0.050130603
40299760.0 -0.8211473454 0.0342525018 1.76106e-05 0.0001265434 3.31402e-05 -1.10598e-05 -0.1803573904 0.0530125645
45299730.0 -0.8248298953 0.0444004838 -9.80005e-05 8.63026e-05 -0.0002227416 0.0001078731 -0.1754679365 0.0550775584
50299700.0 -0.8268443366 0.0539779062 -7.33545e-05 5.832e-05 0.000125747 -4.79588e-05 -0.1702779038 0.0569389266
55299670.0 -0.8287063387 0.064616557 -0.0001184552 -0.0001349236 3.9342e-06 5.36232e-05 -0.16633999 0.0578655636
60299640.0 -0.8299262916 0.0744675541 4.19193e-05 5.967e-05 3.69074e-05 -4.66142e-05 -0.162237687 0.0586057974
65299610.0 -0.83125788 0.0851476196 -0.0001856392 0.0001353907 -3.33308e-05 -2.48115e-05 -0.1590626163 0.0591543896
70299580.0 -0.8315615787 0.0948097397 0.0001290585 5.02475e-05 6.89586e-05 -8.9476e-06 -0.1552221989 0.0592471413
75299550.0 -0.8316154671 0.1048206946 -7.58699e-05 2.59432e-05 -0.0001262243 -5.75133e-05 -0.1525624167 0.0600378007
80299520.0 -0.8307409386 0.1143532719 -6.82675e-05 6.86606e-05 0.0001428924 -0.0001688773 -0.1498059386 0.0594451732
85299490.0 -0.8302408537 0.124224488 2.0548e-06 1.76578e-05 -6.05535e-05 -1.72265e-05 -0.1474968194 0.0594019144
90299460.0 -0.8301432727 0.134202867 0.0001902625 0.0001170887 9.82882e-05 5.1029e-06 -0.1455175037 0.0594191449
95299430.0 -0.8288624632 0.1434949018 -0.000148391 8.60083e-05 3.0491e-05 -3.30846e-05 -0.1434370761 0.0595622804
100299400.0 -0.8278810964 0.1532551682 0.0002651599 -0.0001063311 -1.02617e-05 6.73465e-05 -0.1418262138 0.0592387314
105299370.0 -0.8264306073 0.1623931051 0.0001717768 -3.96897e-05 8.3351e-06 0.0001379571 -0.1395024643 0.0594310438
110299340.0 -0.8249693814 0.1710222968 -4.20993e-05 4.53902e-05 1.80554e-05 0.0002341927 -0.1389129133 0.0597921523
115299310.0 -0.8238400951 0.1804055687 3.45578e-05 9.38882e-05 -9.5429e-05 0.0001165959 -0.1373294622 0.0590937637
120299280.0 -0.8221807311 0.1894185984 -3.07062e-05 -5.75246e-05 4.78949e-05 -4.77658e-05 -0.1360076868 0.0594437892
125299250.0 -0.8204995162 0.19803571 -1.8879e-06 0.0001571268 0.0001584912 -0.0001455453 -0.135249635 0.0591277678
130299220.0 -0.8183226366 0.2078470219 0.0001264222 -9.9641e-06 7.8341e-05 9.06172e-05 -0.1341748794 0.0597919852
135299190.0 -0.8167762153 0.216601686 0.0001693621 0.0001258897 -0.0001020334 7.97044e-05 -0.1334188256 0.0594492145
140299160.0 -0.8145641262 0.2254363281 0.0001175624 7.96155e-05 5.32776e-05 3.59757e-05 -0.1321753727 0.059738105
145299130.0 -0.8119512481 0.2343606128 8.18369e-05 0.000189284 0.0001143059 0.0001291248 -0.131949588 0.0603902055
150299100.0 -0.8106491144 0.2429685238 2.67494e-05 0.0001500865 4.47959e-05 2.31162e-05 -0.1309208326 0.0605959799
155299070.0 -0.807422378 0.252549181 5.42051e-05 3.38143e-05 0.0001494649 5.03883e-05 -0.1302611406 0.0607286743
160299040.0 -0.8046918416 0.2611808075 -3.57508e-05 1.67784e-05 0.0001767843 6.05331e-05 -0.129760154 0.0614557705
165299010.0 -0.8021609619 0.2694106692 -9.99602e-05 5.89158e-05 -4.76615e-05 3.26711e-05 -0.1292456215 0.0619300348
170298980.0 -0.7999758212 0.2778902376 -0.0001310253 0.000167717 0.0001504414 5.81848e-05 -0.1284003606 0.0623555245
175298950.0 -0.7968907789 0.2870308221 0.0001788585 0.000242257 3.7236e-06 4.35352e-05 -0.1277777839 0.0625694111
180298920.0 -0.7938732837 0.295116054 0.0001362057 3.83328e-05 0.0002853374 -4.49886e-05 -0.1270702828 0.0633736791
185298890.0 -0.7909640443 0.3044119509 -4.69963e-05 0.0001019923 0.0001480876 0.0002201731 -0.1271525441 0.0634284446
190298860.0 -0.7871650614 0.3121278924 -0.00012487 2.87538e-05 0.0001627507 0.0001327467 -0.1261203582 0.0644610945
195298830.0 -0.7838045963 0.3210105187 4.33066e-05 3.27463e-05 0.0001816668 0.000155986 -0.1258892996 0.0649814322
200298800.0 -0.7809591416 0.3293991411 9.55712e-05 8.97472e-05 -0.0001610805 0.0001420532 -0.1250493252 0.0655945512
205298770.0 -0.7775179611 0.3375299229 -6.88571e-05 0.0001114721 -4.19783e-05 -0.0001466214 -0.1245428217 0.0664705302
210298740.0 -0.7735915854 0.3457754704 0.0001046485 0.0001574976 6.20074e-05 7.47712e-05 -0.1240687717 0.0671441496
215298710.0 -0.7706985567 0.3538508741 4.49429e-05 1.21537e-05 0.0001469331 0.0001051711 -0.1240272985 0.0679285367
220298680.0 -0.7674260394 0.3624616961 -7.01481e-05 1.93719e-05 1.70357e-05 4.02485e-05 -0.1230820354 0.0684937444
225298650.0 -0.763324523 0.3711429183 -8.95868e-05 -1.50113e-05 9.44008e-05 6.62296e-05 -0.123247457 0.0696220422
230298620.0 -0.7584216505 0.3789880581 0.0002035953 0.0002356105 0.0001328967 8.44065e-05 -0.1221929519 0.0705920968
235298590.0 -0.7547155515 0.3871285581 -1.89073e-05 -3.2896e-06 0.0001523938 -1.04666e-05 -0.121787884 0.0710990213
240298560.0 -0.7509367011 0.3954410042 0.000119069 9.35604e-05 9.791e-06 7.23183e-05 -0.121238193 0.0720859072
245298530.0 -0.7463313776 0.4030819748 0.0003363756 0.0001937997 9.74338e-05 0.0001880987 -0.1209048381 0.0729290106
250298500.0 -0.7425769753 0.4106481317 -6.86467e-05 0.0001169249 0.0001824775 -8.6034e-05 -0.1199764836 0.0742566651
255298470.0 -0.7376578265 0.4187980823 -3.56913e-05 0.0002132907 0.0001003637 3.84327e-05 -0.1196426536 0.0748932294
260298440.0 -0.7334499397 0.4259798882 0.0004290407 -0.0001975352 0.0002785121 0.0001168705 -0.1189571818 0.0759202337
265298410.0 -0.7289469822 0.434308526 0.0001568392 -0.0001222229 3.52369e-05 9.85092e-05 -0.1184993891 0.0766347186
270298380.0 -0.7244537344 0.4415357577 -2.06338e-05 0.0002473291 5.79257e-05 4.83608e-05 -0.1177714093 0.077602343
275298350.0 -0.7193198393 0.4491410119 -8.31396e-05 0.0001162553 4.88337e-05 8.73524e-05 -0.1169026801 0.0789344039
280298320.0 -0.7150151592 0.4567150474 8.00526e-05 0.0002493544 -1.25678e-05 3.22178e-05 -0.1166427079 0.0796711628
285298290.0 -0.7100882034 0.4647138099 0.0002445158 -6.5384e-06 -1.70369e-05 8.45727e-05 -0.116056592 0.080960449
290298260.0 -0.7053475544 0.4717838394 0.0003126877 7.96281e-05 -5.66436e-05 -8.54863e-05 -0.114985363 0.0820162917
295298230.0 -0.7001586028 0.4796920285 0.0001083078 5.338e-07 0.0004492716 9.25914e-05 -0.1146308014 0.0829801022
300298200.0 -0.6945345466 0.4868421216 0.0001916026 0.0001202484 0.0002883702 0.0001800088 -0.1139098414 0.0842849518
305298170.0 -0.6903050607 0.4940198343 -1.66964e-05 -7.96929e-05 8.92695e-05 0.0001767201 -0.1129553627 0.0852136256
310298140.0 -0.6844831739 0.5010306212 0.0002062359 -0.0001169172 -3.57425e-05 0.0002155653 -0.112332191 0.0862624881
315298110.0 -0.6793624145 0.50802977 0.0001370903 0.0002371994 0.0001815245 0.0002335212 -0.11155623 0.0873278787
320298080.0 -0.6738401244 0.5158635211 8.94477e-05 0.0001531354 -7.4095e-05 7.51098e-05 -0.1111268573 0.0882401327
325298050.0 -0.6683962476 0.522583771 0.0002120982 5.2727e-05 -5.54033e-05 0.000172291 -0.1101868576 0.0891836366
330298020.0 -0.6626685122 0.5293611679 0.0001923032 8.89182e-05 0.0002912928 0.0002378786 -0.1097628122 0.090013863
335297990.0 -0.6576048443 0.5364035354 6.44883e-05 0.0002043561 0.0001441697 0.000156935 -0.1091646263 0.0915248227
340297960.0 -0.6519663573 0.54253659 -0.0002025084 0.0001526877 0.0001797156 0.0001367695 -0.1084142564 0.0921187214
345297930.0 -0.6458768094 0.5488131603 0.0001897895 0.0001030406 0.0001955853 8.07895e-05 -0.1077516616 0.0935240453
350297900.0 -0.6401762615 0.5562931059 0.0002120408 0.0001206581 0.0001789084 -5.81402e-05 -0.1071638691 0.0947873014
355297870.0 -0.6340469633 0.5626802919 6.86627e-05 5.90565e-05 0.0001901068 7.31167e-05 -0.1067958654 0.0957230144
360297840.0 -0.6283691873 0.5695715763 0.0002208044 7.8607e-05 8.78111e-05 8.08048e-05 -0.1056922864 0.0970873291
365297810.0 -0.6222026627 0.5755733251 0.000131573 0.0002417623 0.0002423119 0.000148849 -0.1051179228 0.0984363569
370297780.0 -0.6161382329 0.5817822088 0.0001312055 0.0002087432 -0.0001732189 -0.0001145554 -0.1042143333 0.0993060864
375297750.0 -0.6099603762 0.5882758675 -1.79287e-05 0.0002612288 0.0003374255 6.22803e-05 -0.1033712383 0.1009408056
380297720.0 -0.6041710089 0.5951382114 0.000229504 6.89715e-05 0.0001062896 -4.25663e-05 -0.1024642732 0.101923064
385297690.0 -0.5977204153 0.600687723 3.87886e-05 0.0001555461 0.0001525966 2.34921e-05 -0.1018423662 0.1032497198
390297660.0 -0.5914553024 0.6073972486 0.0001333156 1.25063e-05 8.4141e-06 0.0001596846 -0.1012874962 0.1043945626
395297630.0 -0.5850621595 0.613305666 0.0001401554 0.0002675741 9.52848e-05 0.0001070221 -0.1003413148 0.1055552279
400297600.0 -0.5790776096 0.6193696685 0.0003838579 0.0001747739 0.0001435799 1.37166e-05 -0.0998223895 0.1065320427
405297570.0 -0.5724019644 0.6250835172 0.0001606415 0.0001718545 9.34636e-05 0.0001836698 -0.0986600322 0.1075904357
410297540.0 -0.5659420371 0.6311792852 7.35608e-05 0.0001344381 0.0001138697 -2.76633e-05 -0.0977840118 0.1091025531
415297510.0 -0.5594251078 0.6367077054 0.0002432767 0.0002541517 0.0002359415 0.0001897488 -0.0970687051 0.1103869568
420297480.0 -0.5521260641 0.6424529411 0.0002623094 4.31319e-05 0.0001945671 0.0001922695 -0.0958844646 0.1110066672
425297450.0 -0.5456061941 0.647495101 0.0005482074 -2.70328e-05 0.0001012582 0.0001440324 -0.0947227911 0.1123292084
430297420.0 -0.5390607228 0.6535221109 0.0002616276 4.54557e-05 2.82644e-05 -0.0001901606 -0.0938867803 0.1133706683
435297390.0 -0.5322218555 0.6592847781 0.0002044275 -7.14853e-05 0.0003679827 9.88528e-05 -0.0931298903 0.1146348111
440297360.0 -0.5248534533 0.6641649755 0.0001504933 0.0002278455 0.0001968674 0.0001238619 -0.092415431 0.1154846836
445297330.0 -0.5181235729 0.67000682 6.74016e-05 0.000270427 0.0001797786 -5.52755e-05 -0.0913985134 0.1165465865
450297300.0 -0.5111024039 0.6748796298 0.0001311989 0.0001168493 0.0003413074 2.5759e-06 -0.0903434457 0.1176848517
455297270.0 -0.5042609795 0.6802118476 0.000241577 0.0003722835 0.000130567 -0.0001077123 -0.0894356118 0.1188723232
460297240.0 -0.4977001316 0.6853260082 0.0001267655 -7.7048e-05 0.0001354104 -0.0001712123 -0.0880920847 0.1199902453
465297210.0 -0.4902944196 0.6904935867 0.0002609226 5.80003e-05 0.0001977433 5.58964e-05 -0.0879209246 0.1206064424
470297180.0 -0.482878427 0.6949480289 -4.03396e-05 0.0001320824 5.19839e-05 0.0001281152 -0.0867712523 0.1218347315
475297150.0 -0.4755638483 0.7008019494 0.0002076682 -3.40777e-05 8.16397e-05 0.0002624748 -0.0856747805 0.1229029773
480297120.0 -0.4686563919 0.7049920649 0.0005037589 0.0001984564 0.0003020669 2.03666e-05 -0.0846660064 0.124430864
485297090.0 -0.4613197415 0.7094760301 0.0001550725 -0.000444564 0.0002595928 0.0003545788 -0.0837378828 0.1250612742
490297060.0 -0.4539609251 0.7143562516 0.0002053681 0.0002313913 0.0001588106 -6.12106e-05 -0.0827365823 0.1258637836
495297030.0 -0.4469512774 0.7185677642 0.0002102625 0.0002336219 0.000115997 0.0001459211 -0.0815769389 0.1267393803
500297000.0 -0.4386971186 0.7237228666 0.0001792857 7.38783e-05 0.0002866549 -4.221e-07 -0.0804756301 0.1278945589
505296970.0 -0.4313244792 0.7271280126 0.0001536588 0.0001395388 7.53719e-05 2.36461e-05 -0.0798505171 0.1289432647
510296940.0 -0.4241507125 0.7315406905 -1.98278e-05 7.31013e-05 0.0002205378 -6.63378e-05 -0.0784392834 0.1301824984
515296910.0 -0.416767453 0.7362956232 0.000423677 4.90888e-05 9.5074e-05 0.000156895 -0.0772518044 0.1308554298
520296880.0 -0.4087837284 0.7407636354 0.000221626 7.37749e-05 0.0002303738 1.37441e-05 -0.0760742568 0.1318734538
525296850.0 -0.4018170737 0.7446027739 -0.0001135823 -0.0002085145 0.0001751489 0.0001329047 -0.0747198208 0.1325791198
530296820.0 -0.3945609324 0.7479099595 0.0001031406 0.0001631545 2.58435e-05 -1.1479e-05 -0.0741104466 0.1337071986
535296790.0 -0.3863405987 0.7524495383 0.0001922514 -0.0001547574 0.0002779139 -2.31254e-05 -0.0730391041 0.1344670839
540296760.0 -0.3780246238 0.7559127216 0.0002172727 0.0002355096 0.0001895232 -8.41455e-05 -0.0719347398 0.1354627903
545296730.0 -0.3707707758 0.7597501127 0.0001299918 4.1351e-06 0.0002455205 0.00017748 -0.0704817438 0.1361089595
550296700.0 -0.3629502066 0.7636394497 0.0002749181 0.0003417179 5.63103e-05 -0.0001079549 -0.069667648 0.1371133385
555296670.0 -0.354635563 0.7672416601 0.0003022273 0.0001210792 0.0001988837 7.89956e-05 -0.0683654687 0.1381983504
560296640.0 -0.3472735128 0.7708409235 0.0001446033 1.0299e-06 0.0003029111 9.1768e-05 -0.0669674235 0.1387642201
565296610.0 -0.3395206471 0.7737880655 0.0002927126 -0.0001236012 0.0001870212 0.000215254 -0.0658247335 0.1398909036
570296580.0 -0.3313267611 0.7774796393 -3.22779e-05 -4.3881e-05 0.0003286648 7.10412e-05 -0.0645830929 0.1406987389
575296550.0 -0.3241204631 0.7804407217 0.0002291413 -1.26136e-05 0.0002469145 7.03449e-05 -0.0631851041 0.1413770468
580296520.0 -0.3155208953 0.7838405892 3.66847e-05 0.0001028665 0.000240012 -5.82211e-05 -0.0619847708 0.1420942636
585296490.0 -0.3073106414 0.786754797 0.0001425344 -4.90825e-05 0.0001080227 -0.0001307977 -0.061100476 0.1424931293
590296460.0 -0.2996082528 0.7901448324 0.0001996309 -0.0002367854 0.0001318291 0.000102477 -0.0595083281 0.1435249514
595296430.0 -0.2915836724 0.7937955322 0.0002153023 2.64715e-05 0.0002032389 0.0002590515 -0.0585974675 0.1445059852
600296400.0 -0.2833802102 0.7955198811 0.0002194273 3.75914e-05 0.000175039 -8.82981e-05 -0.0569989431 0.1452634442
605296370.0 -0.2752886528 0.7992554674 0.0003518866 -5.48667e-05 0.0001011041 6.75425e-05 -0.0557100297 0.146262206
610296340.0 -0.2678918365 0.8009758726 -7.69172e-05 1.10012e-05 2.77012e-05 6.38545e-05 -0.0546869965 0.1467266454
615296310.0 -0.2594326605 0.804533014 0.0001350496 -5.68973e-05 0.0001251117 -8.88869e-05 -0.05334634 0.1471434869
620296280.0 -0.2507495465 0.806226474 0.0002802387 7.9897e-06 0.0001729727 0.0001445299 -0.0523106683 0.1478061258
625296250.0 -0.2429720047 0.8092482278 0.0001521244 0.0003368187 0.0002130368 2.1738e-05 -0.0507047716 0.1486503804
630296220.0 -0.2335598688 0.8119794153 0.0002086483 0.0002703485 0.0001621598 -2.92678e-05 -0.0492525989 0.149829954
635296190.0 -0.2261249027 0.8144676254 0.0002234264 6.32062e-05 0.000207112 0.0001543621 -0.0481256861 0.1502412187
640296160.0 -0.2177408788 0.8157275665 3.13873e-05 5.27344e-05 0.0003630844 -0.0002567822 -0.0468668595 0.1507379687
645296130.0 -0.2100071165 0.8177472154 0.0004245903 -6.0315e-05 0.0002447704 0.0002551695 -0.0456311347 0.1512617698
650296100.0 -0.2014636196 0.8198261528 0.0003177155 -5.73889e-05 0.0001152177 0.0001074475 -0.044645007 0.1522717446
655296070.0 -0.1927521104 0.822151265 0.0002777049 8.48391e-05 6.47152e-05 -0.0001065356 -0.0424774766 0.1528121527
660296040.0 -0.1855818979 0.8240797294 7.92848e-05 0.0001099313 0.0002673221 -6.51028e-05 -0.0414498623 0.1532097126
665296010.0 -0.1772504596 0.8259591028 0.0002161594 0.0001251304 0.0002955574 -4.11574e-05 -0.0401620547 0.154052744
670295980.0 -0.1674622306 0.8275633866 0.0004134231 6.03187e-05 0.0002688516 5.75082e-05 -0.0389197504 0.1547154358
675295950.0 -0.1600901848 0.8287024075 0.0001825085 -8.96143e-05 0.0003240399 -0.000116288 -0.0375969184 0.1551719333
680295920.0 -0.1516404269 0.8309159147 0.0004499669 -0.0001345167 0.0002824905 7.41373e-05 -0.0359924094 0.1554714956
685295890.0 -0.1425893531 0.8319694663 0.0003570649 -1.12543e-05 0.0004086963 -7.59891e-05 -0.0347171078 0.1560731562
690295860.0 -0.1342700868 0.8334274484 0.0003826352 -0.0001486376 0.0003277845 -9.21363e-05 -0.0332498802 0.157052448
695295830.0 -0.1257341153 0.8347321679 0.0002600893 2.9038e-06 0.000148808 6.13907e-05 -0.0320295496 0.1574190043
700295800.0 -0.1178951873 0.8355177775 0.0001477724 -5.10506e-05 0.0001700208 0.0001834455 -0.0302791926 0.1577061252
705295770.0 -0.109137256 0.837390157 0.0003337408 0.0001654898 0.0003838684 -0.0002208893 -0.0287334162 0.1586022358
710295740.0 -0.1008993503 0.8382211151 0.0003049787 -4.85058e-05 0.000137083 4.10652e-05 -0.0279608263 0.1591797981
715295710.0 -0.0930918548 0.8391724323 0.0003387182 -9.20345e-05 0.0002669842 -4.32792e-05 -0.0260993612 0.1594522019
720295680.0 -0.0843199513 0.8394165149 0.000369028 9.6137e-06 0.0004599047 -8.68299e-05 -0.0243806999 0.1594702149
725295650.0 -0.0747822202 0.8405825966 0.0004697648 -1.43582e-05 0.0002298192 -6.3403e-06 -0.0234572873 0.160185616
730295620.0 -0.067195575 0.8414788147 0.0003176348 -2.39368e-05 0.0003597852 7.16562e-05 -0.0217906307 0.160775118
735295590.0 -0.0581979378 0.8420654442 0.0005376378 -0.0001095271 0.0004537241 -9.34159e-05 -0.020141674 0.1606549148
740295560.0 -0.0495953073 0.8422412675 0.0003171323 0.0002070418 0.0001278627 0.0002721846 -0.0189258457 0.1612989827
745295530.0 -0.0417224322 0.8423107573 5.16365e-05 -0.0002177907 0.0002059445 2.38292e-05 -0.0175003194 0.1615457869
750295500.0 -0.0335308623 0.8431852824 0.0002307625 -0.000119425 0.0002225651 6.89766e-05 -0.0158415509 0.162040209
755295470.0 -0.0241042973 0.8430594968 0.0004485925 9.98935e-05 0.0001093112 0.0001439393 -0.0147613803 0.1622707184
760295440.0 -0.0159816281 0.8437743 0.0004785452 -0.0001152374 0.000186299 -0.0001557737 -0.0129522482 0.1626765603
765295410.0 -0.0077637052 0.8437137907 0.0002623806 -8.66795e-05 7.21705e-05 0.0001534607 -0.0112328973 0.1633614605
770295380.0 0.000957556 0.8443871112 0.00034017 -8.23481e-05 0.0006987902 -0.0003901431 -0.0095456709 0.1632634493
775295350.0 0.009139503 0.8437447396 0.0002287595 1.9752e-06 0.0003154103 -4.89288e-05 -0.0089087454 0.1633500071
780295320.0 0.0179735395 0.8438233634 0.0002633404 4.59002e-05 0.0003415375 4.20079e-05 -0.0070239389 0.1640200503
785295290.0 0.0262707454 0.8441303658 0.0001500093 0.000165857 0.0002036747 0.0001285488 -0.0055008144 0.1645393503
790295260.0 0.0343218094 0.8428103879 0.0003840914 -0.0001266835 0.0003308833 0.0002115998 -0.0039544547 0.1643291404
795295230.0 0.0429288637 0.8435736327 0.0004116981 -4.11019e-05 0.0002159724 8.80711e-05 -0.0026478027 0.1647599125
800295200.0 0.0515135217 0.8425935924 0.0002347385 -0.0001956355 0.0002884383 0.0001093629 -0.0008009287 0.1649959707
805295170.0 0.0598081653 0.8416857443 0.0001921959 1.07111e-05 0.0004186339 -6.0706e-05 0.0005440484 0.1650904365
810295140.0 0.0686925794 0.8411773552 0.0004633287 -0.0003300172 0.000297008 -5.0139e-05 0.0024139375 0.1657629157
815295110.0 0.0766714623 0.8400146586 0.0003519243 -0.0001991275 0.0004236207 -0.0001534019 0.0036433457 0.1658177898
820295080.0 0.0853216646 0.8388253722 0.0001665802 -0.000131447 0.0002010384 -6.0309e-05 0.0049238091 0.1656669939
825295050.0 0.0942240404 0.8387946423 0.000264508 -0.0001196614 0.000175894 2.26688e-05 0.0068086876 0.165940695
830295020.0 0.1026397261 0.8376940996 0.0002660449 -3.88453e-05 0.0003004773 -1.4591e-05 0.0084162919 0.1662211164
835294990.0 0.1101533719 0.8371148299 0.0003454239 -0.0001471604 0.0003396946 -0.000260357 0.0097116876 0.1663183711
840294960.0 0.119131089 0.8356460963 0.0002725949 -9.45744e-05 0.0003401198 -0.0002282901 0.0114463753 0.1663775071
845294930.0 0.1269597192 0.8342639866 0.000187617 -0.0001088223 0.0004077024 0.0001347282 0.0130288298 0.1666084324
850294900.0 0.1352120207 0.8327140258 0.0003763268 -0.0001767431 0.0002070503 -0.0003219188 0.0144254323 0.1668621752
