!Created with skrf (http://scikit-rf.org).
# Hz S RI R 50.0 
!freq ReS11 ImS11 ReS21 ImS21 ReS12 ImS12 ReS22 ImS22
300000.0 -0.0457719733 -0.0706304266 -0.0006645741 0.00141347 0.0005356259 0.001596842 -0.7662651584 -0.1861454603
5299970.0 -0.0503221579 0.014637153 0.0001845104 0.0001353339 6.24556e-05 -0.0001746671 -0.7848813821 -0.0093339275
10299940.0 -0.044556578 0.032895782 0.0001105165 -0.0001516604 0.0001396495 -6.18515e-05 -0.7880244921 -0.0050725601
15299910.0 -0.0358796192 0.0472117705 2.4041e-05 4.76105e-05 -0.0002726492 7.56948e-05 -0.7931596685 -0.0026857833
20299880.0 -0.0256136275 0.0592528811 6.49423e-05 -0.0001002265 -8.8617e-05 0.0001876368 -0.8000021995 0.0017643732
25299850.0 -0.0140455874 0.0684984092 1.17152e-05 -0.0001383822 -0.0001297364 7.5787e-06 -0.8060897525 0.0079870969
30299820.0 -0.0026652418 0.0752655966 -0.0001149076 0.0002345117 4.64697e-05 4.2495e-06 -0.8124038098 0.0157500947
35299790.0 0.0089351476 0.0796274172 -0.0001964083 -0.0002037251 2.72935e-05 0.0001251122 -0.8170716686 0.0247043002
40299760.0 0.020676609 0.0825955666 -0.0001980004 -0.0001927615 -2.47569e-05 -4.46885e-05 -0.8214294758 0.0343043279
45299730.0 0.0313562891 0.0836712863 -0.0001292619 0.0002184582 -4.01747e-05 8.23333e-05 -0.8244481157 0.0436467248
50299700.0 0.0418114186 0.0834436278 -0.0001983215 4.41089e-05 -0.0001746152 0.0001669466 -0.8264933501 0.053670885
55299670.0 0.0508254677 0.0826846831 -0.000125371 0.0001049433 4.1101e-06 -0.0001731369 -0.8288403794 0.063779979
60299640.0 0.0597013459 0.0804682543 0.0001272745 -3.28837e-05 3.0684e-05 -1.93091e-05 -0.8296213859 0.0741696928
65299610.0 0.0680373363 0.0782754578 8.44221e-05 0.0001840331 -4.75798e-05 5.62941e-05 -0.8307180885 0.0838403648
70299580.0 0.0742842228 0.0750210578 -2.14745e-05 8.46522e-05 -3.05248e-05 6.71806e-05 -0.8309235577 0.0935903859
75299550.0 0.0809266397 0.0717141033 -1.05722e-05 4.49323e-05 -0.0001904154 -0.0001831524 -0.8311624082 0.1043188465
80299520.0 0.0867836946 0.0679314904 0.0001975653 0.0001565627 0.0002696892 -7.26317e-05 -0.8308402479 0.1136087379
85299490.0 0.0920248218 0.0640991144 1.02079e-05 0.000207479 2.88846e-05 0.0001163643 -0.8297342405 0.1231009527
90299460.0 0.0969200599 0.0598502791 0.0001706789 -0.0001507118 -0.0001901613 -2.95455e-05 -0.828955043 0.1326972819
95299430.0 0.1009374499 0.0561668271 2.22702e-05 4.02943e-05 0.0001294949 -0.0001193996 -0.8282427453 0.1426447399
100299400.0 0.1047660578 0.051900963 5.18587e-05 -0.0001369613 3.53466e-05 -0.0001629409 -0.8276944734 0.151620389
105299370.0 0.1078725888 0.0476262626 5.37537e-05 2.0013e-06 0.0002480841 -0.0001479314 -0.825776214 0.1608290878
110299340.0 0.1107813652 0.0437338349 9.43634e-05 -0.0002623491 5.2335e-06 1.01795e-05 -0.8246182984 0.1693528623
115299310.0 0.1133745121 0.0399029946 -8.04066e-05 8.69807e-05 -5.08424e-05 -8.71714e-05 -0.8234792082 0.1788203199
120299280.0 0.115796016 0.0360873506 0.0002200557 0.0002915506 0.0001397825 -3.14935e-05 -0.8214069903 0.1879697043
125299250.0 0.1175783658 0.0321224707 0.0002912244 9.82246e-05 -2.28339e-05 0.000156103 -0.8194021391 0.1974845722
130299220.0 0.1193556191 0.0281552061 -0.0001603938 -0.0001323651 3.8125e-06 5.02192e-05 -0.8177311225 0.2058742112
135299190.0 0.1210857157 0.0245151852 0.0001034707 0.0001407923 3.79688e-05 6.1517e-05 -0.816013367 0.2149716117
140299160.0 0.1222402845 0.0208411851 -0.0001541632 -0.0001452938 0.0001143755 -0.0001121845 -0.8140131775 0.2231227395
145299130.0 0.1232313902 0.017420665 3.48189e-05 7.713e-06 -9.75492e-05 1.62196e-05 -0.8120988607 0.2326484551
150299100.0 0.124347423 0.0136281941 -1.13592e-05 4.00629e-05 0.0001740601 -0.0002176831 -0.8097760498 0.2411551191
155299070.0 0.1249687508 0.0104179407 0.0002324521 1.04371e-05 -8.07073e-05 0.0001058332 -0.8069794292 0.2503980491
160299040.0 0.1256227291 0.0071233958 -7.246e-07 -3.93489e-05 1.05496e-05 -1.5751e-06 -0.8047115934 0.2589433111
165299010.0 0.1263232279 0.0041362024 -3.69593e-05 -4.59406e-05 0.0001238664 -7.38191e-05 -0.8016267065 0.2676848903
170298980.0 0.1265662915 0.0005621982 -0.0002246776 0.0001804335 -2.77167e-05 6.98241e-05 -0.7997475551 0.2755282919
175298950.0 0.1267836084 -0.0023420602 0.0001235186 1.67352e-05 -8.08588e-05 -0.0001322559 -0.7966478363 0.2844027871
180298920.0 0.1268617765 -0.0054066932 0.0001425483 0.0003312811 -6.18932e-05 6.42743e-05 -0.7932228348 0.2935950141
185298890.0 0.1268924859 -0.008276778 -4.7359e-05 3.56813e-05 -3.18973e-05 -3.13177e-05 -0.7907290583 0.3015723844
190298860.0 0.127011209 -0.0108655397 8.41066e-05 -2.27129e-05 0.0001203446 -8.27637e-05 -0.787338624 0.3100178266
195298830.0 0.1271454582 -0.0135852911 7.03955e-05 0.0004010883 2.0621e-05 6.43315e-05 -0.784238001 0.3179748801
200298800.0 0.1270554384 -0.0167844111 0.000157647 -6.20965e-05 -5.76116e-05 -7.22372e-05 -0.7811674673 0.3263482554
205298770.0 0.1260924487 -0.0192455282 -5.65872e-05 0.0001333077 1.86691e-05 0.00027656 -0.777574268 0.3350970405
210298740.0 0.1261809316 -0.0216704029 0.0001260808 -6.63972e-05 0.0001747492 2.71765e-05 -0.7748336005 0.3432498103
215298710.0 0.1253689189 -0.02439875 0.0002680841 4.60794e-05 0.0002301563 2.27139e-05 -0.7706343407 0.351402018
220298680.0 0.1254945214 -0.0268097332 0.000288534 0.0001032589 0.0001365867 0.0002084159 -0.7668281372 0.3592875678
225298650.0 0.1250704249 -0.0292014747 9.66583e-05 -0.0002491983 9.59883e-05 3.77439e-05 -0.7630563746 0.3677017502
230298620.0 0.1239601979 -0.0315412872 0.0002678494 0.0001381549 7.69837e-05 8.10076e-05 -0.7593920625 0.3754527417
235298590.0 0.1237336941 -0.0340391282 -8.71773e-05 2.92417e-05 0.0002395007 0.0003106761 -0.7549329545 0.3832179714
240298560.0 0.1227817576 -0.0362618829 -3.99043e-05 5.87266e-05 -2.43944e-05 0.0002008583 -0.7508380342 0.3912165673
245298530.0 0.1219028213 -0.0385649379 -1.99755e-05 -0.0001214683 4.3994e-05 -0.000103598 -0.7473235132 0.3994881138
250298500.0 0.121526778 -0.0405047721 -2.1309e-05 0.0001740104 0.0002180836 0.0001147756 -0.7428854976 0.4074382285
255298470.0 0.1207824697 -0.0424676846 -4.89583e-05 -4.8288e-06 -5.9941e-06 3.05006e-05 -0.7390440424 0.4143202493
260298440.0 0.1197679345 -0.0448167775 0.0003344207 5.55938e-05 7.8563e-06 7.23567e-05 -0.7339034181 0.4216065296
265298410.0 0.1189064324 -0.0469727526 -5.75857e-05 -7.82371e-05 -0.0001601608 2.524e-07 -0.7299410594 0.4303500154
270298380.0 0.1179155666 -0.0488376818 8.62996e-05 -1.54377e-05 8.49763e-05 5.96395e-05 -0.7249152406 0.4378786861
275298350.0 0.1170866765 -0.0505396398 -5.34917e-05 8.98509e-05 6.96958e-05 0.0001034897 -0.7206257374 0.4454362128
280298320.0 0.116093669 -0.0527234516 1.48092e-05 -3.23064e-05 0.0002452396 -3.8478e-06 -0.7166434758 0.4527835019
285298290.0 0.114977883 -0.0546631648 0.0001229933 -7.00667e-05 5.77458e-05 0.0001527733 -0.7119726127 0.4604420757
290298260.0 0.1139586176 -0.0562806205 9.35696e-05 0.0002274643 -5.16481e-05 4.98215e-05 -0.7066101678 0.467274023
295298230.0 0.1129073484 -0.0587227729 9.25176e-05 9.0927e-05 -0.0001908008 6.34676e-05 -0.7013244942 0.4752553876
300298200.0 0.1120908676 -0.0601642523 0.0001578949 -0.0001123408 -2.7842e-06 -0.0001033948 -0.6969558262 0.4825691304
305298170.0 0.1108696179 -0.0622592795 -9.5559e-05 7.17667e-05 7.87373e-05 8.53004e-05 -0.6911875773 0.489372394
310298140.0 0.1099146099 -0.064249345 6.21775e-05 -4.98543e-05 1.6251e-05 2.5652e-06 -0.6865212086 0.4967332212
315298110.0 0.1085281339 -0.0665262949 1.4253e-06 -9.48258e-05 5.187e-05 6.46122e-05 -0.6814845465 0.5037610513
320298080.0 0.1070260816 -0.0681387148 3.01699e-05 6.15405e-05 0.0003491193 0.0001732607 -0.6762234743 0.5108466256
325298050.0 0.1053042564 -0.0701876276 -6.55993e-05 2.73141e-05 7.81647e-05 4.8561e-06 -0.6705071372 0.5180252387
330298020.0 0.1037637829 -0.0713904343 -9.1088e-05 6.43797e-05 -1.7519e-06 0.0002513976 -0.6648931696 0.5242795395
335297990.0 0.1023922747 -0.0729940694 0.0002021632 0.0001236819 2.77166e-05 0.0001442696 -0.6596886776 0.5313096222
340297960.0 0.1009429948 -0.0742394975 -4.16946e-05 -8.35153e-05 0.0001180085 5.9306e-06 -0.6542367798 0.5387763441
345297930.0 0.0997747472 -0.0760954293 6.60212e-05 6.17891e-05 2.63126e-05 0.0001170808 -0.6485024462 0.5450939545
350297900.0 0.0981459224 -0.0774498133 0.0001415188 0.0001975949 0.0001808769 -0.0001284944 -0.6433881603 0.551206799
355297870.0 0.096827739 -0.0787742181 7.29732e-05 0.0001281117 0.0002621202 -6.23653e-05 -0.6367485417 0.5588920554
360297840.0 0.0953042511 -0.080065898 4.40138e-05 0.0001528001 -0.0001106802 0.0003674873 -0.6310648244 0.5647752083
365297810.0 0.0938748229 -0.0816434634 7.28392e-05 2.6711e-06 -3.98212e-05 -3.60087e-05 -0.6256543194 0.570457883
370297780.0 0.0926855695 -0.0830547717 4.94013e-05 -0.0001366743 0.0002046831 -1.73181e-05 -0.6192538341 0.5777093723
375297750.0 0.0910056031 -0.0841845927 -3.78182e-05 1.0885e-05 0.0001780027 6.28945e-05 -0.6133647735 0.5834982628
380297720.0 0.0895761342 -0.0852433197 3.21706e-05 0.0001529872 0.0001116351 -4.46497e-05 -0.6071250247 0.5901761495
385297690.0 0.0882775547 -0.0867032764 7.70677e-05 -4.81433e-05 8.3054e-05 -6.12643e-05 -0.6011710366 0.5964715338
390297660.0 0.0869964734 -0.0882551461 0.0001911693 9.77859e-05 0.0002435609 5.1638e-06 -0.5950766008 0.6021342498
395297630.0 0.085280513 -0.0891604428 -4.97019e-05 -0.0001943118 -5.66391e-05 1.89872e-05 -0.5879206096 0.6078361638
400297600.0 0.0834714446 -0.0904906521 0.0001545733 3.57891e-05 0.0001546079 9.45675e-05 -0.5823736122 0.6140237578
405297570.0 0.0821753535 -0.0917614939 0.0001372044 4.66814e-05 0.0002323924 -0.000130507 -0.5757221682 0.6201058972
410297540.0 0.0810321408 -0.0929213529 0.0002268709 2.16106e-05 0.0001132289 -4.8524e-05 -0.5695322284 0.6260877556
415297510.0 0.0791965784 -0.0941142536 0.0001540595 0.0002288197 0.000179921 -1.05849e-05 -0.5633481938 0.6316136775
420297480.0 0.0779354617 -0.0952922337 0.0001166929 6.7785e-06 -7.78326e-05 8.08204e-05 -0.5559543908 0.6382772571
425297450.0 0.0766929492 -0.0964606629 -0.0001362623 9.55383e-05 6.09685e-05 8.0867e-06 -0.5500754547 0.6425596713
430297420.0 0.0748424632 -0.0977819485 -4.2931e-06 6.531e-06 6.62757e-05 7.0247e-05 -0.5428151694 0.6484447099
435297390.0 0.0734942396 -0.0983065855 -4.99415e-05 5.31907e-05 0.0001579332 0.0001262457 -0.5369426808 0.654155697
440297360.0 0.072002574 -0.0997047899 2.85786e-05 -5.088e-06 0.0002040382 1.53715e-05 -0.5306381593 0.65950088
445297330.0 0.0705800912 -0.1006695807 0.0001897222 0.0001501356 -8.41822e-05 9.99858e-05 -0.5226215098 0.6646680042
450297300.0 0.0689775539 -0.1017763052 -0.0001746297 0.0001394169 -2.44943e-05 8.63967e-05 -0.5157117411 0.6692474423
455297270.0 0.067306188 -0.1028030634 -1.83793e-05 9.59359e-05 0.0001691694 6.14857e-05 -0.5090897199 0.6748357288
460297240.0 0.0657874609 -0.103443687 0.0001980145 -3.95687e-05 0.000177378 1.05359e-05 -0.5019458226 0.680033511
465297210.0 0.0641725001 -0.1040965892 5.00942e-05 0.0002012505 0.0003095725 4.70631e-05 -0.4952417264 0.6859379452
470297180.0 0.0625669875 -0.1052743059 5.02453e-05 -5.05978e-05 0.0001717643 -8.13646e-05 -0.4879005111 0.6902742365
475297150.0 0.0609666598 -0.1060061159 4.43977e-05 0.0001283412 0.0001464935 -4.97661e-05 -0.4811233188 0.6953655113
480297120.0 0.0598746619 -0.1070072128 0.0001282957 -1.44241e-05 5.4936e-05 0.0001035768 -0.4746341656 0.6998730034
485297090.0 0.0581315034 -0.1076521983 6.39023e-05 -3.68721e-05 0.0001360073 9.16746e-05 -0.4666989895 0.7049253834
490297060.0 0.057134193 -0.1084656061 0.0001793525 -1.59453e-05 0.000185447 0.0001785721 -0.4599546985 0.7092406785
495297030.0 0.0550041352 -0.1093467293 -0.0001504016 9.80551e-05 0.0001484096 -8.76195e-05 -0.4521396561 0.7131055897
500297000.0 0.0533616159 -0.1098852289 0.0001212033 0.0001190949 0.0001126979 9.9599e-06 -0.4450628039 0.7185001738
505296970.0 0.0520407286 -0.1107460935 0.000136842 -9.07163e-05 2.2507e-06 0.0001008381 -0.4375821061 0.7227044946
510296940.0 0.0505129882 -0.1110407888 -2.01492e-05 0.0002167566 2.7441e-05 -1.93912e-05 -0.4303490043 0.7271967459
515296910.0 0.0486558706 -0.1118854012 0.0001048553 5.8678e-05 0.0001960327 3.36848e-05 -0.4230891034 0.7309360997
520296880.0 0.0473682275 -0.1127100612 0.000305661 5.00392e-05 0.0001081749 0.0001485337 -0.4153328993 0.7358646738
525296850.0 0.0456390744 -0.113098541 0.0002658894 -1.08589e-05 5.43434e-05 -0.0001807763 -0.4081717119 0.7398266862
530296820.0 0.043906346 -0.1133751723 0.0002837657 0.000158133 4.34286e-05 5.71052e-05 -0.4005612737 0.7435053795
535296790.0 0.0426041525 -0.1139851699 0.0003333408 -2.03146e-05 0.0001839156 0.0001034269 -0.3932583295 0.7480848389
540296760.0 0.0413044514 -0.1146845978 6.68364e-05 -3.188e-06 0.0002521679 -9.0796e-06 -0.3850656558 0.7512198551
545296730.0 0.0391811569 -0.1146940241 0.0001026562 6.82311e-05 0.0001810787 -2.42228e-05 -0.3774915171 0.755519449
550296700.0 0.0378104792 -0.1151692032 0.0001119464 -0.0001256671 6.5031e-06 1.7833e-05 -0.3698345519 0.7588836272
555296670.0 0.0364438512 -0.1157145674 5.58679e-05 5.86877e-05 5.1563e-06 8.93288e-05 -0.3625502175 0.7626377218
560296640.0 0.0349408429 -0.1161748821 0.0001587518 -1.36645e-05 0.0001413507 4.46913e-05 -0.3540860337 0.7664318085
565296610.0 0.032976304 -0.1163309552 0.0002686194 -7.29733e-05 6.74454e-05 2.1966e-06 -0.346693535 0.7700290664
570296580.0 0.0313097126 -0.1165247858 0.0002102119 -0.0001652895 -4.43911e-05 0.0001238458 -0.3391152993 0.7729078471
575296550.0 0.0300767404 -0.1169045055 0.0003311349 6.30774e-05 0.0001079409 -4.69875e-05 -0.3307774733 0.7762465185
580296520.0 0.0281158356 -0.1168508578 -4.50265e-05 4.68098e-05 0.0002969366 0.0001225285 -0.323302201 0.7798075686
585296490.0 0.0268691354 -0.1169624124 0.0001524862 1.08975e-05 0.0001630317 -4.71014e-05 -0.315142792 0.7833980437
590296460.0 0.0255424611 -0.1173191747 8.45495e-05 9.8132e-06 -0.0001625994 -3.08145e-05 -0.3081807106 0.7859566623
595296430.0 0.0234483363 -0.1173246608 0.0001432786 -0.0002126986 0.0001628591 -2.37398e-05 -0.2997374773 0.7891972085
600296400.0 0.0218282983 -0.1175769686 4.76937e-05 8.08408e-05 0.0001200374 0.0001039954 -0.2920380351 0.7916212781
605296370.0 0.0200871256 -0.1174029201 3.49632e-05 0.0001504562 8.20894e-05 9.14122e-05 -0.2836019748 0.7950500739
610296340.0 0.0188456613 -0.1175550478 0.0002850467 7.53334e-05 5.43557e-05 3.6629e-05 -0.2757781775 0.7975636991
615296310.0 0.0170064768 -0.117600195 4.94399e-05 -0.0001137146 0.0001012396 -4.43803e-05 -0.2676612518 0.800423806
620296280.0 0.015594142 -0.1173766025 9.49493e-05 -6.9899e-05 0.0001199131 3.88176e-05 -0.2601752452 0.803071002
625296250.0 0.0135514289 -0.117663191 7.91091e-05 0.0001069786 0.0001379672 -0.000218662 -0.2515605997 0.8052319506
630296220.0 0.0120399892 -0.1172940227 0.0002458881 -4.41498e-05 0.0001879755 7.03559e-05 -0.2434178818 0.8084637408
635296190.0 0.0103169713 -0.1171623647 8.9745e-05 -3.39669e-05 0.0001801839 -0.0001038403 -0.2353120171 0.8101199751
640296160.0 0.0086807729 -0.1171426399 0.0002220536 0.0001229623 0.0002385784 -8.69717e-05 -0.2273209639 0.8130023932
645296130.0 0.0075899716 -0.1168446819 0.0002480072 -7.20901e-05 7.84328e-05 -0.0001453505 -0.2192287178 0.8140477158
650296100.0 0.005528268 -0.1169304423 0.0001822959 -6.37095e-05 0.0001366851 -0.0001276505 -0.2107518955 0.8164458592
655296070.0 0.0035862608 -0.1168481346 9.81174e-05 2.80278e-05 7.92492e-05 8.99532e-05 -0.202948901 0.8193189608
660296040.0 0.0021658669 -0.1163285933 0.0001459038 -2.83354e-05 0.0001264288 -2.00481e-05 -0.1942355518 0.82088491
665296010.0 0.0004244539 -0.1159813182 0.0001491067 -7.09029e-05 0.0002212851 -2.5674e-05 -0.1861698559 0.8222109136
670295980.0 -0.0010550384 -0.1158027291 8.64836e-05 -6.06174e-05 0.0001173898 -0.0001008045 -0.1787442941 0.824432134
675295950.0 -0.0030186012 -0.1156340127 2.43147e-05 -0.0003684575 0.0002107095 -0.000136993 -0.1697084839 0.8262718411
680295920.0 -0.0046564981 -0.1152966035 0.0001109642 1.10205e-05 0.0001084605 -9.52749e-05 -0.1610272126 0.8277405733
685295890.0 -0.0061822965 -0.1149261823 0.0001899942 -0.0001195661 0.000247417 -4.11046e-05 -0.1532841228 0.8293930541
690295860.0 -0.0079325668 -0.1146469811 0.0001462143 0.0001366307 0.0001519759 -5.35e-08 -0.1450224409 0.8313024206
695295830.0 -0.0098864699 -0.1142713385 0.0001317381 -0.0001910898 7.87321e-05 -4.77234e-05 -0.1367652411 0.8328012225
700295800.0 -0.0113454577 -0.1135175429 0.000135795 -0.0001266508 0.0001686781 4.5823e-06 -0.1281848259 0.8336496571
705295770.0 -0.0130787339 -0.1132838535 7.28312e-05 -7.0605e-06 0.0001986128 8.01734e-05 -0.1203735085 0.8356299233
710295740.0 -0.0146791004 -0.1128813823 0.0003731418 0.0002779898 0.0002262632 7.81244e-05 -0.1114724526 0.8361950017
715295710.0 -0.01620524 -0.1124055707 0.0002806981 -4.04202e-05 0.0002847654 0.0001677037 -0.102946291 0.8364973019
720295680.0 -0.0178074347 -0.1119704471 0.0001992035 8.98144e-05 0.0001604492 -5.91864e-05 -0.0944002068 0.8379261878
725295650.0 -0.0197152727 -0.1114172537 0.0001925242 -8.30159e-05 0.0001829598 -1.22277e-05 -0.0870106169 0.8391985711
730295620.0 -0.0216994276 -0.1110428362 0.0001343593 0.0001097841 0.0001568869 0.0001535421 -0.0786362602 0.8400384594
735295590.0 -0.023135314 -0.1102774225 0.000287869 9.5124e-06 0.0002322677 -9.09022e-05 -0.0694078846 0.8405290605
740295560.0 -0.0250055275 -0.109852725 0.0001054422 2.41115e-05 0.0001654662 7.45886e-05 -0.0615570098 0.8418394282
745295530.0 -0.0264188764 -0.1095583559 3.8898e-05 0.0001048009 0.0001942699 -5.5537e-05 -0.0531419588 0.8417195113
750295500.0 -0.0282011678 -0.1086628371 0.0002414986 8.49091e-05 0.0001851961 -0.00011947 -0.0446427558 0.8421163404
755295470.0 -0.0300343368 -0.1081198092 0.0001592052 -0.0002038839 0.0001939055 6.39971e-05 -0.0370095684 0.8426101961
760295440.0 -0.0314858464 -0.1073067382 0.0002141356 -0.0001438199 0.0001094268 -2.03563e-05 -0.027759252 0.8425488599
765295410.0 -0.0330233548 -0.1067588797 0.0002282501 -9.20871e-05 2.70692e-05 9.57877e-05 -0.0191087248 0.8430925748
770295380.0 -0.0349211786 -0.1061055708 0.0002773993 0.0001033727 3.5604e-05 -2.89911e-05 -0.0115515571 0.8433812915
775295350.0 -0.0364159693 -0.1055355055 5.7708e-05 -0.0001115394 0.0004285218 -1.87591e-05 -0.0031712753 0.8432717135
780295320.0 -0.0379790002 -0.104545831 0.0002198279 -0.0002130766 5.66205e-05 5.2296e-06 0.0053361603 0.8436788263
785295290.0 -0.0395680319 -0.1041103297 6.12312e-05 -0.0002247233 -1.11238e-05 9.45752e-05 0.0132473433 0.8433924226
790295260.0 -0.0412373043 -0.103538465 5.03656e-05 1.34471e-05 0.0002571968 -0.0001321847 0.0223284363 0.8432342601
795295230.0 -0.0430059276 -0.1028421123 0.0001616268 -3.84121e-05 0.00030781 -0.0001458862 0.0303132685 0.8424466219
800295200.0 -0.0447517665 -0.1020001558 0.0003176782 -7.04754e-05 0.0002252561 2.51417e-05 0.038496287 0.8423348246
805295170.0 -0.046363629 -0.1011381226 0.000240082 -7.14488e-05 2.07777e-05 -9.58766e-05 0.0475800976 0.8421955682
810295140.0 -0.0475711041 -0.0999562488 0.0002380171 -4.1222e-05 5.74109e-05 2.25276e-05 0.0559450291 0.8411900309
815295110.0 -0.0495126421 -0.0995928407 -0.0001970099 -9.69618e-05 0.000162389 -7.97727e-05 0.0632898085 0.8408496972
820295080.0 -0.0508371698 -0.0986587369 0.0001577764 1.506e-07 0.000218091 0.0001233092 0.0718081915 0.8404333226
825295050.0 -0.0526171041 -0.097985527 7.65871e-05 1.60389e-05 4.956e-05 0.0001365114 0.0802079459 0.8396340989
830295020.0 -0.0538791968 -0.097037945 -4.8991e-06 -3.08108e-05 0.0002219912 -0.0001175892 0.0882121387 0.8383782815
835294990.0 -0.0554375047 -0.0967014879 -8.95625e-05 5.296e-07 3.72846e-05 -3.12874e-05 0.096808492 0.8377822639
840294960.0 -0.056847812 -0.0957811238 0.0003898427 -0.0001845181 -3.43981e-05 -0.000176746 0.1054082127 0.8372172804
845294930.0 -0.0584635164 -0.0943987882 0.0001856907 4.28286e-05 7.15329e-05 0.0002140357 0.1138273394 0.8359000935
850294900.0 -0.0597446326 -0.0940158751 0.000234431 4.1627e-06 0.0002414075 -0.0001236917 0.1215826838 0.834407449
