!Created with skrf (http://scikit-rf.org).
# Hz S RI R 50.0 
!freq ReS11 ImS11 ReS21 ImS21 ReS12 ImS12 ReS22 ImS22
300000.0 -0.7708463584 -0.1843869325 -0.0005949335 0.0016672795 0.0009542155 -0.0010501898 -0.2081602533 -0.108012651
5299970.0 -0.7864236113 -0.0097645413 0.0001203117 0.0001637763 -8.1862e-05 0.0001197284 -0.2156451939 0.0058487224
10299940.0 -0.7893659653 -0.0060012393 2.49385e-05 -4.67754e-05 -0.0001989394 1.5243e-05 -0.2121211872 0.0188273547
15299910.0 -0.7941949328 -0.0034383505 5.22878e-05 0.0001298497 -0.000363126 -1.0137e-05 -0.2073803322 0.0282513884
20299880.0 -0.8010513211 0.0007957273 -0.0001150274 -8.72642e-05 3.60795e-05 0.0001354526 -0.2021926638 0.0358560717
25299850.0 -0.8074608755 0.0067168235 0.0002533069 2.98322e-05 -8.3719e-05 0.0003232749 -0.1964923848 0.0418645097
30299820.0 -0.8139952494 0.0139414501 0.0001149626 5.64174e-05 -0.000142434 -3.40443e-05 -0.1904902636 0.0466547739
35299790.0 -0.8191100311 0.0230299604 -9.5711e-06 0.0001583864 0.0001422017 -4.94901e-05 -0.1850324353 0.0505977626
40299760.0 -0.8234408615 0.0320367966 -8.41286e-05 0.0001164719 -2.72517e-05 -0.0001299445 -0.1794665869 0.0532449668
45299730.0 -0.826640462 0.0418966339 0.0001738706 0.0001075486 5.9325e-05 0.0001408819 -0.1743360215 0.0554603434
50299700.0 -0.8292882327 0.0519839623 0.0001221072 7.48639e-05 -8.21112e-05 9.99226e-05 -0.169500055 0.0571565625
55299670.0 -0.8311685964 0.0612289129 -2.08083e-05 -5.62529e-05 8.1512e-06 0.0001425927 -0.1653823419 0.0579953239
60299640.0 -0.8322758834 0.0720294378 -0.0001661215 -0.0002048265 -0.0001042473 -8.35353e-05 -0.1613296064 0.0587083043
65299610.0 -0.8335715225 0.0819102221 -1.9057e-05 0.0001297032 0.0001344277 0.0003162829 -0.1574484558 0.0593900864
70299580.0 -0.8337355247 0.0912928095 0.0001682724 0.0001228182 -6.7799e-06 9.1491e-05 -0.1541172734 0.0595365305
75299550.0 -0.8343780351 0.1017065267 4.10353e-05 -4.66472e-05 7.08562e-05 -1.3257e-06 -0.1510233405 0.0599661137
80299520.0 -0.8340042755 0.1118025347 -0.0001988579 6.21811e-05 -3.61107e-05 -6.68172e-05 -0.1484684522 0.0600246795
85299490.0 -0.8328008631 0.121433122 -0.0001058835 0.0001324129 4.63558e-05 0.0001344614 -0.1463070212 0.060008827
90299460.0 -0.8321879454 0.1314078183 0.0001268097 0.0001013378 -0.000113185 7.96625e-05 -0.1440420203 0.0597912345
95299430.0 -0.8313395307 0.1404267451 -9.52783e-05 -5.62222e-05 5.33977e-05 7.58304e-05 -0.1418242174 0.0600988318
100299400.0 -0.8302562364 0.1499323167 -3.35744e-05 4.7918e-06 -9.1797e-06 -9.73177e-05 -0.1403322858 0.0603513613
105299370.0 -0.8288166554 0.1594521095 9.20102e-05 0.0001102412 -7.06833e-05 1.75617e-05 -0.1382080702 0.0597504661
110299340.0 -0.8275219049 0.1684833203 0.000139702 -3.87449e-05 -4.72012e-05 7.77383e-05 -0.1373650576 0.0599617302
115299310.0 -0.8256757148 0.1772110121 -0.0001307129 0.0002237103 0.0002806041 0.0001460221 -0.1360442321 0.0599304837
120299280.0 -0.8248350672 0.1873584296 8.38872e-05 0.0001306614 -2.60861e-05 5.4341e-06 -0.1345597138 0.0598137217
125299250.0 -0.8225648518 0.1956685181 -0.0001591684 0.0001795924 2.97943e-05 9.04586e-05 -0.1336292121 0.0599705165
130299220.0 -0.8209223056 0.2053590067 0.0002098713 -5.18903e-05 -4.6334e-05 4.81886e-05 -0.1323253415 0.0603378787
135299190.0 -0.8187122265 0.214128222 -8.5118e-05 0.0001730542 7.906e-06 -3.3591e-06 -0.1315229234 0.0602872424
140299160.0 -0.8167538314 0.2230570309 -0.0001238081 0.0001240681 2.57719e-05 -8.31212e-05 -0.1310230149 0.0608269491
145299130.0 -0.8149744776 0.2323140813 -0.0001149903 -4.10874e-05 0.0001190584 0.0001518192 -0.1301389928 0.0612393003
150299100.0 -0.8118549562 0.2411578353 0.0001010203 0.000115353 0.000139713 0.0001093632 -0.1293814414 0.0615275477
155299070.0 -0.8103976116 0.2496549017 -0.0003127544 0.0001856632 1.0608e-05 -8.07177e-05 -0.1289151291 0.0620887713
160299040.0 -0.8075030399 0.2591745964 8.56985e-05 0.0001768058 5.1271e-05 0.000108494 -0.1282246219 0.062530044
165299010.0 -0.8045653052 0.2678460303 6.70172e-05 0.0001027563 3.35869e-05 0.0001916994 -0.127645655 0.0628460452
170298980.0 -0.8016410972 0.2764152881 9.76073e-05 0.0001795159 -7.2013e-06 4.53775e-05 -0.1269533389 0.0632654452
175298950.0 -0.7990354983 0.2847630005 -0.000154091 0.0001901053 0.0001912163 7.11242e-05 -0.1264116437 0.0641455177
180298920.0 -0.7960237903 0.2935024491 -0.0001465778 9.41178e-05 0.0001885244 7.70691e-05 -0.1256563385 0.0645823552
185298890.0 -0.7925790515 0.3020714831 0.000209265 7.24135e-05 0.0001217314 -2.50734e-05 -0.1254872188 0.0650157714
190298860.0 -0.7894760484 0.3115234227 -5.15263e-05 0.0001222722 0.0001305724 -5.6687e-05 -0.1248528244 0.0656640331
195298830.0 -0.7863780949 0.3191122962 -0.0002043997 -0.0001478885 5.59304e-05 0.0001364618 -0.1245647572 0.0664062068
200298800.0 -0.7833811479 0.3274722985 -0.000134513 -6.70981e-05 0.0001006818 4.61948e-05 -0.1240782082 0.0674565285
205298770.0 -0.7792382497 0.3365825524 -9.0725e-06 0.000231016 0.0001454499 0.0001161052 -0.1237032147 0.0679227028
210298740.0 -0.7762714696 0.344933351 0.0001562564 0.0001184443 -5.03763e-05 -0.0002505515 -0.1230631468 0.0683741649
215298710.0 -0.7721144313 0.3530619624 0.0002466574 -3.72957e-05 0.0001373544 0.000179647 -0.1227176586 0.0692058775
220298680.0 -0.7684881678 0.3612364055 9.33735e-05 3.3891e-06 8.21314e-05 -9.64187e-05 -0.1222099149 0.0703768167
225298650.0 -0.7646930568 0.3692301193 0.0002646791 0.0001164386 0.0001351244 -2.3953e-06 -0.1217862021 0.0709994231
230298620.0 -0.7613890692 0.3779049832 7.80581e-05 0.0002021623 7.15755e-05 0.0001305777 -0.1213997989 0.072011984
235298590.0 -0.7575783552 0.3858001441 -5.71379e-05 -0.0001124183 0.0001040922 -0.0001117932 -0.1209396005 0.0729013054
240298560.0 -0.7529462676 0.3936402951 -0.0001831419 9.33362e-05 0.0002310912 0.0002610918 -0.1203942971 0.0735343408
245298530.0 -0.7490750396 0.4015760437 -0.0001018347 7.40964e-05 4.58999e-05 9.92856e-05 -0.1198692193 0.0747957622
250298500.0 -0.7446806824 0.409538798 8.67763e-05 -0.0001719456 2.10257e-05 9.24405e-05 -0.1196082445 0.0756945937
255298470.0 -0.7403786244 0.4174539337 8.21936e-05 0.0002674807 0.0001052073 2.63465e-05 -0.1190104427 0.0762810592
260298440.0 -0.7367498799 0.4250741529 2.00912e-05 2.61568e-05 0.0001579482 -1.34821e-05 -0.1187635496 0.0773758543
265298410.0 -0.7320198333 0.4329851472 0.0002505843 0.0001137209 2.62642e-05 -0.0002653161 -0.1177045767 0.0782738246
270298380.0 -0.7271808952 0.4402337821 1.64345e-05 -7.06346e-05 4.75684e-05 0.0001167773 -0.1171108353 0.079220769
275298350.0 -0.7229414769 0.4483607858 0.0001380795 0.0002756638 0.0001447982 0.0001810894 -0.1168637108 0.0805188775
280298320.0 -0.7186166894 0.4556032076 0.0001719072 8.06427e-05 7.39343e-05 0.0001752376 -0.1161383847 0.0811699253
285298290.0 -0.7135832699 0.4631471858 -6.42823e-05 -0.0001194415 1.56486e-05 -1.70414e-05 -0.115936891 0.0825339679
290298260.0 -0.7084935207 0.4713850906 6.20767e-05 0.0001594289 0.0001781735 -0.0001295374 -0.1154801728 0.0836726399
295298230.0 -0.7037575611 0.478158961 -1.87456e-05 0.0002116871 5.51449e-05 0.0001047516 -0.1142731721 0.0840511077
300298200.0 -0.6994059265 0.4856391682 0.0001568204 0.0002086645 6.98542e-05 9.72198e-05 -0.1138768524 0.0856454762
305298170.0 -0.6945720063 0.4923029162 4.33279e-05 -0.0001166155 7.30627e-05 -0.0001209831 -0.1132406255 0.0864197279
310298140.0 -0.688679611 0.4994678899 0.0003323241 0.0001620737 7.14957e-05 0.0001779375 -0.1125994683 0.0876332822
315298110.0 -0.6848202754 0.5073105974 8.62195e-05 0.0001185819 0.0001048752 0.0001398406 -0.1119419325 0.0884900228
320298080.0 -0.6784345274 0.5142308298 0.0001688333 8.34643e-05 0.0002427062 -0.0001350977 -0.1112358581 0.0894792924
325298050.0 -0.6734842014 0.520676783 6.9477e-05 7.0241e-05 -0.0001098244 -9.84729e-05 -0.1104433565 0.090389905
330298020.0 -0.6679305561 0.527855398 4.46434e-05 2.70072e-05 0.0001490231 0.0001071573 -0.110313034 0.0913685945
335297990.0 -0.6624883376 0.5348005337 4.30162e-05 6.80992e-05 0.0001301361 -8.969e-07 -0.1095776068 0.0924201569
340297960.0 -0.6575263599 0.5416838341 0.0001977546 2.5127e-06 7.57337e-05 0.000224459 -0.1087242509 0.0934476404
345297930.0 -0.6517497566 0.548101363 -3.17682e-05 0.0001560058 2.40199e-05 0.0001917215 -0.1083326094 0.094328457
350297900.0 -0.6464274034 0.5548156045 -6.66242e-05 0.0001601563 8.36679e-05 0.0001861365 -0.1078882204 0.0953581303
355297870.0 -0.6408449524 0.561538297 0.0001123934 -8.17134e-05 2.35888e-05 0.000138631 -0.1067738807 0.0965357488
360297840.0 -0.6347886948 0.5684215859 0.0003045543 8.94956e-05 0.0002160968 0.0001088966 -0.1062083635 0.0978629017
365297810.0 -0.6294815096 0.5747534458 5.271e-07 1.22743e-05 5.40477e-05 0.0002080453 -0.1058370754 0.0984821337
370297780.0 -0.6235181871 0.5807927622 0.0002634757 0.0001380164 0.0003815109 6.2679e-05 -0.1051982337 0.0998576834
375297750.0 -0.6179832035 0.5871106064 0.0004684317 0.0001529974 0.0003321794 8.77099e-05 -0.1042174046 0.1012382767
380297720.0 -0.6122258429 0.5934421297 0.000143543 5.67625e-05 9.98357e-05 -9.2057e-05 -0.1034525874 0.1023603259
385297690.0 -0.6057619125 0.5999996736 0.0002021406 -8.94493e-05 2.16988e-05 0.0001363452 -0.102533759 0.1033197914
390297660.0 -0.5983033592 0.6058852366 0.0003679026 0.0001250038 0.0001467898 0.0001425188 -0.1019283656 0.1043472831
395297630.0 -0.593329302 0.6121345106 0.0002866609 5.22476e-05 0.0002324937 -3.96955e-05 -0.1011028725 0.1050765807
400297600.0 -0.5867746897 0.6183258963 0.0001107062 2.63786e-05 0.0001874241 -8.09677e-05 -0.100324215 0.1065607015
405297570.0 -0.5803594552 0.6233829253 0.0001200329 0.0001940377 0.0002071699 3.56576e-05 -0.0989984447 0.1074682093
410297540.0 -0.5736909473 0.630112616 0.0004354385 0.0002127813 9.40007e-05 0.0001155518 -0.0986589406 0.1090417394
415297510.0 -0.567512916 0.6357120634 1.17372e-05 0.0003333594 6.13672e-05 -0.0001101951 -0.0975300446 0.1096904949
420297480.0 -0.5606118997 0.641169282 3.13735e-05 0.0002197625 -7.65888e-05 7.12752e-05 -0.0963907409 0.1111708588
425297450.0 -0.5542083451 0.6462083204 0.0001248507 -0.0001297503 1.0975e-06 9.28796e-05 -0.0958127511 0.1117629313
430297420.0 -0.5479376443 0.6519734535 0.0001808432 0.0001657639 -6.4587e-06 0.0002369709 -0.094760528 0.1129393545
435297390.0 -0.5410476081 0.6576239004 2.51669e-05 0.0001646219 0.0002360047 -7.9167e-05 -0.0942757475 0.1140048709
440297360.0 -0.533757738 0.6630745974 0.0001755037 0.0001207713 0.0001820072 0.0001255142 -0.0929512616 0.1151313287
445297330.0 -0.5269726418 0.6682019171 -7.2171e-06 4.67753e-05 1.91209e-05 0.0001785857 -0.0916952742 0.1159719973
450297300.0 -0.5200329679 0.6733588059 0.0002437585 3.02893e-05 7.87839e-05 0.0002410552 -0.0905479473 0.1171081242
455297270.0 -0.5136602357 0.679003978 0.0003429813 9.02473e-05 5.11588e-05 5.587e-05 -0.0897456096 0.1179175626
460297240.0 -0.5061272324 0.6836591251 0.0001803327 0.000196051 0.0001970905 0.000289177 -0.088877262 0.1189458955
465297210.0 -0.4995105861 0.6886597178 -2.62184e-05 0.0001093082 -2.14735e-05 -3.22305e-05 -0.0879749531 0.120224046
470297180.0 -0.4918278801 0.6939309412 7.37583e-05 8.59338e-05 0.0003683424 0.0001052748 -0.086872107 0.1209046871
475297150.0 -0.4847514045 0.6989276152 5.58103e-05 0.000106725 0.0001271745 0.0001986774 -0.0858315981 0.1219785217
480297120.0 -0.4766893873 0.7038879629 0.0003367298 3.19154e-05 0.0003271174 0.0001004856 -0.0850182916 0.1230160416
485297090.0 -0.4697354246 0.7084981505 0.0002240528 -5.57854e-05 5.36498e-05 -0.0001612151 -0.0838715887 0.1240070425
490297060.0 -0.4623431089 0.7134807742 0.000245742 0.000154497 0.0001990459 -8.29434e-05 -0.082929851 0.1248543607
495297030.0 -0.4545887928 0.7184670946 8.3732e-06 7.10168e-05 5.49725e-05 7.16286e-05 -0.081648787 0.1258991923
500297000.0 -0.4471095995 0.7223218659 0.000199755 0.0001015754 7.67521e-05 0.0001253458 -0.0808530615 0.126659664
505296970.0 -0.4396662698 0.7273403025 0.0003021931 0.0001980224 4.08319e-05 -2.81694e-05 -0.0794334073 0.1274247791
510296940.0 -0.4321194315 0.7314507701 3.24333e-05 9.36284e-05 0.0003383161 -6.31571e-05 -0.0780844047 0.128942966
515296910.0 -0.4242660467 0.7357659389 0.0001938011 0.0001189201 0.0001846881 -6.08231e-05 -0.0772849052 0.1294700409
520296880.0 -0.4160274185 0.7398389105 0.0002156412 -5.64312e-05 0.0002230155 -3.91148e-05 -0.0757561949 0.1303621488
525296850.0 -0.4087517376 0.7443019978 0.0002943535 0.0001051177 0.0003149492 1.89003e-05 -0.0749010016 0.1311828882
530296820.0 -0.4014547416 0.7482000534 0.0001111221 0.0001636619 0.0001156504 6.33762e-05 -0.0736363372 0.1321290781
535296790.0 -0.3933347059 0.7521370914 0.0004199586 0.0001478964 6.03449e-05 0.000120564 -0.0723674019 0.1332194785
540296760.0 -0.3850230706 0.7559346374 0.0002336477 0.0001530931 5.04828e-05 -6.59528e-05 -0.0712906251 0.133785548
545296730.0 -0.377310522 0.760453947 0.0003065683 0.000133993 0.0001171119 5.0231e-06 -0.0699712217 0.1347679283
550296700.0 -0.3693993746 0.7638222798 0.0001835927 8.40017e-05 0.0004125284 -7.845e-06 -0.0690467456 0.1354524632
555296670.0 -0.3614291766 0.7673330241 0.0003117843 0.00015155 0.0002275985 1.9914e-06 -0.067839068 0.1359989
560296640.0 -0.3534645067 0.7706041492 0.0003418833 -4.85158e-05 0.0002150427 0.0002507771 -0.0665671682 0.1368731679
565296610.0 -0.3460680468 0.7741602733 0.0003275471 -2.58019e-05 0.0001746796 0.0002922751 -0.0653433836 0.1382574052
570296580.0 -0.3375259229 0.7780598758 0.0002805934 -6.65739e-05 0.0002329312 -1.20326e-05 -0.0640906399 0.1389307476
575296550.0 -0.3282654811 0.7815423209 0.0001064063 0.0002538083 0.0001425216 -6.0285e-06 -0.0629072676 0.1396939156
580296520.0 -0.3209533163 0.7846890761 0.0002559856 -3.52493e-05 -1.85379e-05 0.0001584534 -0.0617985544 0.1402511521
585296490.0 -0.312577711 0.787843982 0.0001545079 0.0001671279 0.0003302994 -4.21887e-05 -0.0602642208 0.1412350218
590296460.0 -0.3041568385 0.7906975058 0.0002891166 0.0002446153 0.0003676539 4.20647e-05 -0.0592361992 0.1419566133
595296430.0 -0.2961952923 0.7936991242 0.0002920926 -9.9139e-06 6.16107e-05 9.0733e-06 -0.0578454798 0.1425047935
600296400.0 -0.2884767236 0.7967771274 8.152e-07 -2.67737e-05 0.0003470554 0.0001726677 -0.0564405435 0.1432930478
605296370.0 -0.27952843 0.7998333416 0.0004507447 -6.94712e-05 0.0002607717 0.0001941424 -0.0551298008 0.1443044704
610296340.0 -0.2713788283 0.8026709407 0.0001596551 -7.7151e-05 0.0003644094 -5.92402e-05 -0.0537478993 0.144692282
615296310.0 -0.2624573912 0.805493384 0.000210351 0.0002287067 0.000286721 -2.4993e-06 -0.0525883596 0.1453030252
620296280.0 -0.2549235231 0.8082935239 0.0001602837 -9.95923e-05 -5.10479e-05 5.49586e-05 -0.0511479039 0.146426554
625296250.0 -0.2472398605 0.8105797825 0.0002575039 -7.79625e-05 0.0002556492 -5.4672e-06 -0.0499467163 0.1468081126
630296220.0 -0.2387453249 0.8133028682 5.73758e-05 -0.000125865 2.67882e-05 2.37462e-05 -0.048484272 0.1473174446
635296190.0 -0.2303012255 0.815746385 0.0002900484 0.0001205723 0.0002297795 -1.88701e-05 -0.0474472086 0.1483454759
640296160.0 -0.2216202264 0.8174176314 0.0003325285 -8.97855e-05 0.0001868935 0.0002837193 -0.0459765841 0.148875381
645296130.0 -0.2136467421 0.8204210136 0.0001283431 2.96601e-05 0.0002642313 -2.39178e-05 -0.0444866942 0.1494645593
650296100.0 -0.2055569873 0.8223553387 0.0001682537 -0.0001781229 0.0005182619 -6.71216e-05 -0.0428713717 0.1501959041
655296070.0 -0.1978573461 0.8244971335 0.0001594116 -4.54914e-05 8.06319e-05 0.0001302863 -0.0420344503 0.1509576758
660296040.0 -0.1891373126 0.8264373595 0.0004141298 2.46131e-05 0.0002672378 0.0001250853 -0.0403972826 0.1509083305
665296010.0 -0.1809599143 0.8283882507 0.0003413656 0.0001257203 0.0004155888 5.4789e-06 -0.0387732386 0.1516915681
670295980.0 -0.1724720996 0.8306726296 -2.60286e-05 -2.5018e-05 0.0002079855 -3.8968e-05 -0.0375087417 0.1523493947
675295950.0 -0.1640404002 0.8319922078 0.0001333042 9.54516e-05 0.0001009326 -5.94775e-05 -0.0361863374 0.1529627588
680295920.0 -0.1564435513 0.8340284261 0.0004888347 0.000168725 0.0002750214 -0.0002109686 -0.0344907605 0.1532836772
685295890.0 -0.1474437501 0.8355950061 0.000495114 -5.04182e-05 0.0004240079 0.0001774781 -0.0333345892 0.153874785
690295860.0 -0.1389958862 0.8369805584 0.0003653527 -7.71907e-05 0.0001772546 -0.000182157 -0.031602175 0.1547035551
695295830.0 -0.1309956672 0.8386039396 0.0001379293 -1.52494e-05 0.0002673334 0.0001178938 -0.0306173833 0.1550681422
700295800.0 -0.1221661477 0.8404341496 1.33871e-05 1.86957e-05 0.000320832 -4.90771e-05 -0.0290046761 0.1554007357
705295770.0 -0.1147512001 0.8416206932 0.0003516297 3.26539e-05 0.0003124414 -0.0001468366 -0.0275501085 0.156022124
710295740.0 -0.1068594582 0.8420108292 0.0002232385 0.0001139125 0.0002842406 -0.0001373461 -0.0259519656 0.1563705451
715295710.0 -0.097271194 0.8436968157 0.0003032341 -8.3063e-06 0.0004696605 0.0001409805 -0.0246054357 0.1565889169
720295680.0 -0.0882244766 0.8444737395 -4.3924e-06 -0.0001187184 5.86562e-05 -5.76826e-05 -0.0231001555 0.1571340826
725295650.0 -0.0815490444 0.8460150779 0.000377331 -1.69934e-05 0.0005007663 7.55642e-05 -0.0216612505 0.1579808075
730295620.0 -0.0737020878 0.8470177093 0.0004478573 9.7793e-06 0.0002520532 -0.0003057987 -0.0204643445 0.1583555298
735295590.0 -0.0656588222 0.8477791308 0.000157211 -0.0001313514 0.0003500855 3.08654e-05 -0.0185607577 0.1585165453
740295560.0 -0.0576095788 0.8476302191 0.0002384437 -4.4316e-06 0.0002893425 -0.0001548872 -0.0173175004 0.1589166102
745295530.0 -0.0488642299 0.8488951673 0.0002836056 9.55067e-05 0.0003385333 -3.73239e-05 -0.0157266297 0.1595151752
750295500.0 -0.0411232997 0.8492374472 0.0004419478 0.0001760678 0.0002168179 -3.22513e-05 -0.0143966833 0.1595706557
755295470.0 -0.0321699077 0.8502420873 0.0002913324 -0.0001466939 0.0001978914 9.5273e-06 -0.0125942786 0.1602761523
760295440.0 -0.0237666756 0.85060499 0.000257902 -3.24585e-05 0.0004287472 -2.10436e-05 -0.0110872809 0.1597900786
765295410.0 -0.0157871991 0.8507151724 0.0001892466 -0.0001519164 0.0003492774 0.0001118973 -0.0096915484 0.1605636302
770295380.0 -0.0079956362 0.8512842365 0.0003426222 0.0001294081 0.0002123889 7.06389e-05 -0.0085133274 0.1612017538
775295350.0 0.0003954613 0.8512925787 0.0002045055 0.0001375452 0.0003031324 -3.13091e-05 -0.0066662136 0.1611019091
780295320.0 0.0087099245 0.8512847365 0.00041215 -0.0002189697 0.0001401415 1.73855e-05 -0.0052437141 0.1616244394
785295290.0 0.0172042719 0.8505522932 0.0002528023 -0.000197425 0.0002573989 -0.000117156 -0.0038017434 0.1617991516
790295260.0 0.0250637929 0.85062663 0.0001522658 -3.26837e-05 0.0003198058 -0.0001342887 -0.0023769693 0.1621937427
795295230.0 0.0326196862 0.8505748133 0.0002229512 -7.93033e-05 0.0001842602 -8.75432e-05 -0.0008157293 0.1619195048
800295200.0 0.0412504455 0.8507501764 0.0002540278 2.71844e-05 0.0001680187 -0.0001841782 0.0007457589 0.1622469157
805295170.0 0.0494361844 0.8504903549 0.0003195462 -8.76786e-05 0.0001096285 -9.23328e-05 0.0026414853 0.1623612313
810295140.0 0.0578085473 0.8505426539 0.0003271281 -6.02519e-05 0.0001713527 -0.000132799 0.0040187035 0.1625988697
815295110.0 0.06541474 0.8495476983 0.0001645476 9.52771e-05 0.0003287447 -0.0001777226 0.0051159014 0.1629397214
820295080.0 0.0738686176 0.8489979492 0.000395838 6.93645e-05 0.0002750076 2.4757e-06 0.0065870185 0.1634568652
825295050.0 0.0818293329 0.8482917167 0.0003726717 -0.000155796 0.0002748513 -0.0001796438 0.0086036511 0.1631005519
830295020.0 0.0907207922 0.8476011453 0.0003155015 -0.0002808392 0.000214039 -8.52242e-05 0.0099329207 0.1630541963
835294990.0 0.0979008498 0.8461250487 0.0004662368 -0.000167537 0.0001906001 -3.11916e-05 0.0118424388 0.163682988
840294960.0 0.1068296914 0.8452075505 0.0001408737 5.34159e-05 0.0002329489 -0.0001022847 0.0130948248 0.163237254
845294930.0 0.114736951 0.8446698294 0.000479537 -7.9618e-05 0.000258031 -0.0001396531 0.0146403026 0.1635791429
850294900.0 0.1241358308 0.8433540771 0.000333146 -0.000130823 0.0001789754 -2.87894e-05 0.0160720919 0.1636674267
