!Created with skrf (http://scikit-rf.org).
# Hz S RI R 50.0 
!freq ReS11 ImS11 ReS21 ImS21 ReS12 ImS12 ReS22 ImS22
300000.0 -0.3222068817 -0.0806765829 0.376534759 0.0422797955 0.3728838184 0.0414116125 -0.3177630244 -0.0996625844
5299970.0 -0.3268061814 0.0044931089 0.3783653731 0.0021513611 0.3783861709 0.0024609037 -0.3239914554 0.0046718135
10299940.0 -0.3239020684 0.0132768567 0.3794237913 0.0021240583 0.3796088673 0.0022200878 -0.3213897169 0.0157712924
15299910.0 -0.3215321113 0.0206324688 0.3820612851 0.0017697336 0.3820228281 0.0019273065 -0.3179971784 0.0236807132
20299880.0 -0.3188806236 0.0262002602 0.3847911419 0.001744703 0.3848057937 0.0015329473 -0.3145688138 0.0304491936
25299850.0 -0.3159765217 0.0314723724 0.3883970146 -0.0002173433 0.3881308115 0.0001361733 -0.3103558963 0.0361535114
30299820.0 -0.3128027901 0.0356764553 0.3911698675 -0.0020030695 0.391465737 -0.0026075578 -0.3069434218 0.0410303286
35299790.0 -0.3099243373 0.0398537406 0.3947237142 -0.005464512 0.3949217287 -0.0055754396 -0.3036023003 0.0453435502
40299760.0 -0.3072621804 0.0436848028 0.3979578475 -0.0090564387 0.3979336963 -0.0087591674 -0.300215671 0.0483587932
45299730.0 -0.3045338845 0.0467220531 0.4008793195 -0.0128373222 0.401056432 -0.0129447388 -0.2971629299 0.0522436782
50299700.0 -0.3024438228 0.0496733016 0.4034325106 -0.0178038005 0.4035350662 -0.0172285275 -0.294217159 0.0548440541
55299670.0 -0.3002188481 0.0521128345 0.4056012388 -0.022601356 0.40558239 -0.0219816214 -0.2916355342 0.0575529212
60299640.0 -0.2977711226 0.0551105888 0.4075260889 -0.0271955174 0.4075889784 -0.0270467859 -0.2892068108 0.0595816489
65299610.0 -0.2964431447 0.0573703447 0.4089193616 -0.0319429715 0.409172023 -0.0321838758 -0.2873123448 0.0619210194
70299580.0 -0.2946282354 0.0601858076 0.4105470285 -0.0371078855 0.4105446248 -0.037182174 -0.2852828705 0.06405714
75299550.0 -0.2930639107 0.0627893351 0.4112954404 -0.0425136489 0.4112336207 -0.0421920167 -0.2830844671 0.0660125404
80299520.0 -0.2915796888 0.0647974109 0.4122396357 -0.0477817105 0.4124545758 -0.047525274 -0.2817049884 0.0684190246
85299490.0 -0.2903131517 0.067273983 0.4128274318 -0.052652606 0.4130515164 -0.052474096 -0.2805214293 0.0699801411
90299460.0 -0.2889653295 0.069415506 0.4130958921 -0.0580648522 0.4133275705 -0.0580307062 -0.278577568 0.0722377554
95299430.0 -0.2872901825 0.0715385294 0.413765973 -0.0631033885 0.4133826508 -0.0637001843 -0.2768511266 0.0743828696
100299400.0 -0.2865144036 0.0740766956 0.4130270939 -0.0684382531 0.4131034354 -0.0686376002 -0.2750906225 0.0760744191
105299370.0 -0.285060632 0.0764618593 0.4132101148 -0.0736728757 0.4132197907 -0.0737363405 -0.2736970128 0.078237675
110299340.0 -0.2841171637 0.078625653 0.4131625739 -0.0786249114 0.4132781889 -0.0785631201 -0.2730017009 0.0800334651
115299310.0 -0.2830217969 0.0812434062 0.4128598634 -0.0842681311 0.4128559086 -0.0839732965 -0.2716119346 0.0824668776
120299280.0 -0.2821228073 0.08328305 0.41225159 -0.0891070146 0.4125469752 -0.0893672353 -0.2707691245 0.0845317283
125299250.0 -0.2809805577 0.0856985047 0.4119042922 -0.0940291402 0.4118958221 -0.0937787139 -0.2697936541 0.0860599309
130299220.0 -0.2801180563 0.0882910821 0.411146534 -0.0991717501 0.4111551885 -0.0993471399 -0.2684546105 0.0888303565
135299190.0 -0.2794420608 0.0906043298 0.4108155149 -0.1040521942 0.4105059006 -0.1044923135 -0.267049781 0.0908630424
140299160.0 -0.2785186029 0.0933917971 0.4096547976 -0.1091363786 0.4097210721 -0.1092015848 -0.266024016 0.0932902598
145299130.0 -0.2774175516 0.0959772819 0.4087711714 -0.1143021834 0.4081971576 -0.1143383745 -0.265170551 0.0955989729
150299100.0 -0.2763160978 0.0984786717 0.4074337228 -0.1190594576 0.4075735947 -0.1187156533 -0.2641713849 0.0984385193
155299070.0 -0.2756213607 0.1007592857 0.406725588 -0.1244378258 0.4064391336 -0.1241983501 -0.263000386 0.1009535288
160299040.0 -0.2746309126 0.1034880469 0.405425978 -0.1288296525 0.4047915585 -0.128762707 -0.2625039984 0.1028573839
165299010.0 -0.2736931808 0.1058893397 0.4043300828 -0.1338555767 0.4042736925 -0.1338792108 -0.260933624 0.1057276076
170298980.0 -0.2727663961 0.1087181858 0.4026361815 -0.1385863695 0.4030009554 -0.1388043082 -0.2599331143 0.1084113499
175298950.0 -0.2717524487 0.1111903165 0.4019343219 -0.1433458764 0.4011038364 -0.1432561156 -0.2592010267 0.1105263667
180298920.0 -0.2706751784 0.1138657472 0.3999527533 -0.1479952663 0.3996869617 -0.1479322979 -0.2580761129 0.1132990173
185298890.0 -0.2695486743 0.1164039246 0.3983220329 -0.1527866117 0.3979929746 -0.1525262432 -0.2570391304 0.1162055305
190298860.0 -0.2689925393 0.1192221044 0.3972527577 -0.1575236834 0.3970803769 -0.1573958152 -0.2562255868 0.1182332755
195298830.0 -0.2677998577 0.121647951 0.3951142887 -0.161848539 0.3950996811 -0.161937381 -0.2550052857 0.1211283402
200298800.0 -0.2664793587 0.1246720189 0.3933535782 -0.1667444135 0.3935498555 -0.1669605709 -0.254247485 0.1235200649
205298770.0 -0.2655025636 0.1274810741 0.3914342958 -0.171628014 0.3914094349 -0.1714634215 -0.252911155 0.1258038453
210298740.0 -0.2645072815 0.1301169712 0.3898653083 -0.1757081644 0.389567379 -0.1756810659 -0.2517740606 0.1289726684
215298710.0 -0.2634040956 0.1328452999 0.3881310553 -0.1803329198 0.387878789 -0.1806436089 -0.2510071695 0.1313813159
220298680.0 -0.2621205766 0.1351220261 0.3857920384 -0.1849203613 0.3858939046 -0.1847397779 -0.2503185849 0.1335972169
225298650.0 -0.2609466187 0.1378750164 0.3838425384 -0.1890927969 0.383987081 -0.1892680183 -0.2490191817 0.1360249024
230298620.0 -0.2596879402 0.1412436656 0.3817911025 -0.1934824265 0.3820849888 -0.1936743696 -0.2476986266 0.1385571255
235298590.0 -0.2585043524 0.1437643663 0.3796717375 -0.1982364172 0.3795941385 -0.1976292281 -0.2463416115 0.1413080296
240298560.0 -0.256908817 0.1462679182 0.3778519916 -0.2026315425 0.3777463065 -0.2024869026 -0.2453140428 0.1438592211
245298530.0 -0.255787642 0.1489987014 0.3754603305 -0.2068660743 0.3751205646 -0.2067951236 -0.2440891859 0.1459973595
250298500.0 -0.2541072631 0.1517884894 0.3726827752 -0.211237403 0.3725754486 -0.2107713884 -0.2426500839 0.1485808015
255298470.0 -0.2528933523 0.1542069794 0.3700328211 -0.2146419406 0.370631091 -0.215052812 -0.2413174978 0.150872447
260298440.0 -0.2516728227 0.1569323529 0.368447719 -0.2195798717 0.3684129864 -0.2194793518 -0.2396685271 0.153759447
265298410.0 -0.2498853795 0.1599894306 0.365449288 -0.2238366086 0.3658808477 -0.2235659014 -0.2382328628 0.1562115789
270298380.0 -0.2486102373 0.1625096569 0.3637550125 -0.227332922 0.3637617026 -0.2276198087 -0.2368869797 0.1584530681
275298350.0 -0.2469280139 0.1650881549 0.3608281164 -0.232041722 0.361085277 -0.2316011992 -0.2353636091 0.1607986655
280298320.0 -0.2450818663 0.1675460744 0.358644539 -0.2358551295 0.3584136026 -0.2359666748 -0.2335441392 0.1636257319
285298290.0 -0.2434198357 0.1707021454 0.3560903078 -0.2397721035 0.355685202 -0.2401935059 -0.231879488 0.1660791576
290298260.0 -0.2418129726 0.1733854215 0.3529142365 -0.2436013396 0.3531820952 -0.2442094979 -0.2300898447 0.1687838001
295298230.0 -0.2400192148 0.1755219152 0.3504403762 -0.2480818155 0.3503500174 -0.2481372687 -0.2281797909 0.1707072371
300298200.0 -0.2385942204 0.1783818787 0.3481085176 -0.2516413185 0.3480356431 -0.2517910343 -0.2266207611 0.1731707974
305298170.0 -0.2364729815 0.1806798446 0.344706847 -0.2560908579 0.3448216098 -0.2558376004 -0.2243985167 0.1755590385
310298140.0 -0.2348587321 0.1833577666 0.3420447505 -0.2595014985 0.3421062085 -0.2598296342 -0.2230147947 0.178064988
315298110.0 -0.2328930823 0.185763602 0.3393005544 -0.2637964882 0.3395816874 -0.2636022264 -0.2212138346 0.180324735
320298080.0 -0.2310415912 0.1882144638 0.3362930821 -0.2673971791 0.336246381 -0.2675808 -0.2192867496 0.1827722375
325298050.0 -0.2291415237 0.1907649735 0.3330948645 -0.2713258756 0.3330532153 -0.2712608789 -0.2177909442 0.1852245054
330298020.0 -0.2274912457 0.1930463291 0.3300493439 -0.2750942121 0.330321472 -0.275140105 -0.2158434647 0.187631527
335297990.0 -0.2255074442 0.1955507203 0.3269923599 -0.2788983885 0.3269530984 -0.2789530936 -0.2145728971 0.1904539131
340297960.0 -0.2238461943 0.1981105409 0.3235702154 -0.2823902941 0.3234765662 -0.282697522 -0.2120023391 0.1931199121
345297930.0 -0.2220868458 0.2008416607 0.3203671728 -0.2860716737 0.3201343358 -0.2861030812 -0.210365424 0.1951886525
350297900.0 -0.2202291106 0.2030031155 0.3171443044 -0.289669393 0.3170604003 -0.2895479821 -0.2086507446 0.1976275977
355297870.0 -0.2175938243 0.2058813352 0.3137234543 -0.2931191401 0.3142246155 -0.2926435589 -0.2069540474 0.1998592983
360297840.0 -0.2156093196 0.2082530584 0.3108456443 -0.2964752668 0.31097682 -0.2963922628 -0.2046689571 0.2025909983
365297810.0 -0.2142065088 0.210825948 0.3075582668 -0.2995569465 0.3076711591 -0.3000194869 -0.2024648082 0.2048815645
370297780.0 -0.2118797511 0.2130292401 0.3037789928 -0.3032332162 0.3042377132 -0.3030121069 -0.2005867152 0.207298261
375297750.0 -0.2091697291 0.2156723794 0.3008437479 -0.3066966319 0.3010234155 -0.3064028068 -0.1984473079 0.2094318375
380297720.0 -0.2074330808 0.2179738003 0.2973754013 -0.3100425553 0.297416552 -0.3093049321 -0.1969865747 0.2116663184
385297690.0 -0.2056366141 0.2203181733 0.2939963984 -0.3129347941 0.2935303096 -0.3130944171 -0.1945551388 0.2142779626
390297660.0 -0.2029125706 0.2228931671 0.2901701086 -0.3165737622 0.2903417258 -0.3158732415 -0.192562738 0.2163812301
395297630.0 -0.2006495818 0.2250914346 0.2869856139 -0.3199073646 0.286624312 -0.3195701743 -0.1898654774 0.2189131062
400297600.0 -0.1982503804 0.2276790988 0.2832280097 -0.3225446123 0.2832149633 -0.3228064778 -0.188147402 0.2209108778
405297570.0 -0.1963212746 0.2294777771 0.2796150679 -0.3254465031 0.2796805044 -0.3255140376 -0.1859093735 0.2229182145
410297540.0 -0.1938766296 0.2319974128 0.2763312747 -0.3288489943 0.2763442028 -0.3288186861 -0.1836016012 0.2253787574
415297510.0 -0.1910270041 0.2339141357 0.272429361 -0.3318235331 0.2725459337 -0.3317488962 -0.1814917828 0.2272963149
420297480.0 -0.1893681643 0.2364200263 0.2690235209 -0.3349526462 0.2686552229 -0.3349043197 -0.1793307014 0.2291557819
425297450.0 -0.1864308898 0.2383688732 0.2650555222 -0.3377023131 0.2653308436 -0.3377816323 -0.1771126183 0.2315473389
430297420.0 -0.1836958046 0.2405335431 0.260678772 -0.3403156835 0.2611783154 -0.3400660162 -0.1746433405 0.2329938451
435297390.0 -0.1816922332 0.2425144715 0.2574204856 -0.3431123169 0.2570227229 -0.3433652076 -0.1716532394 0.2352504473
440297360.0 -0.1789931413 0.2445759393 0.2534654945 -0.3456850526 0.2539218173 -0.3459551548 -0.169920679 0.2367889005
445297330.0 -0.1767305062 0.2465600105 0.250327077 -0.3486579061 0.2499333465 -0.3483675917 -0.1671832635 0.2384822123
450297300.0 -0.1738937455 0.2482130553 0.2464153657 -0.3514894288 0.2459411065 -0.3516722785 -0.1645651332 0.2403942591
455297270.0 -0.171439447 0.250392228 0.2421166179 -0.3539800389 0.2420677138 -0.3542331092 -0.1620705102 0.2421726927
460297240.0 -0.1690356629 0.2523765641 0.2382090951 -0.3563251514 0.2381001106 -0.3565559455 -0.1595998482 0.2442646233
465297210.0 -0.1659954487 0.2546162681 0.2345835877 -0.3591213444 0.2343538144 -0.3595049439 -0.1567553623 0.2456846605
470297180.0 -0.163501137 0.2561453259 0.2303956483 -0.3618053737 0.2303957499 -0.3618487558 -0.1543027977 0.2476153376
475297150.0 -0.1608246894 0.2577691246 0.2262099909 -0.3637143105 0.2259981254 -0.3639674813 -0.151166232 0.2490800455
480297120.0 -0.1583309292 0.2598624503 0.2222650283 -0.3667815625 0.2220176805 -0.3665842644 -0.1486970442 0.250949518
485297090.0 -0.1555511917 0.261751358 0.2182453452 -0.3690988552 0.2185247228 -0.3687974852 -0.1460456737 0.252927486
490297060.0 -0.1532360228 0.2635152177 0.2146296812 -0.3714837794 0.2143254989 -0.3713964838 -0.1432164449 0.254843793
495297030.0 -0.1501763321 0.2649834727 0.2101195402 -0.3736379173 0.2104376215 -0.3735806309 -0.1408732901 0.256464788
500297000.0 -0.1473358951 0.2671076104 0.2059569095 -0.3756610948 0.2059608778 -0.3757506249 -0.1380002932 0.2586003504
505296970.0 -0.1442657938 0.268613347 0.2021268378 -0.3778189502 0.2018351643 -0.3781757235 -0.1354140755 0.2599443805
510296940.0 -0.1416589692 0.2703383702 0.197618686 -0.3803052426 0.1974823844 -0.3807131825 -0.1322114116 0.2618018714
515296910.0 -0.1387726794 0.2719947438 0.1934402778 -0.3823816246 0.1936245766 -0.3824721853 -0.1295513837 0.2632916097
520296880.0 -0.1361332403 0.2738860563 0.1893591045 -0.3847971237 0.189643701 -0.3843024675 -0.1270455132 0.2645872357
525296850.0 -0.1327038905 0.2748333823 0.1849208138 -0.3864670838 0.1855443988 -0.3865145149 -0.1245068338 0.2664599371
530296820.0 -0.1299555949 0.2766469551 0.1805487703 -0.3883672535 0.1808948058 -0.3883704995 -0.1216141188 0.2678966091
535296790.0 -0.1276351728 0.2782136046 0.1770476094 -0.3901967452 0.1765578877 -0.3901388771 -0.1189057226 0.2691882954
540296760.0 -0.1246606302 0.2795906841 0.1726443848 -0.3923874232 0.1725188575 -0.3924761627 -0.1161217568 0.2711285538
545296730.0 -0.121662568 0.2814540341 0.1676945085 -0.3938750203 0.1678823803 -0.3940247171 -0.1131825016 0.2718761924
550296700.0 -0.118471597 0.2826628532 0.163721755 -0.395939776 0.1638939249 -0.3962500215 -0.1108145044 0.2737622982
555296670.0 -0.1155915551 0.2835651194 0.1597347033 -0.3977083591 0.159488 -0.3977071036 -0.1080551631 0.2755610781
560296640.0 -0.1123712102 0.2855307177 0.1549773869 -0.3992463496 0.1552212517 -0.3993189394 -0.1048092523 0.2766922846
565296610.0 -0.1098722985 0.2871212144 0.1504927596 -0.4009388688 0.1506303818 -0.4006901654 -0.1021883018 0.2774012518
570296580.0 -0.1070483465 0.287698282 0.1462363939 -0.4028665024 0.1458806012 -0.4025238052 -0.0994616732 0.2793977152
575296550.0 -0.1037226373 0.2896515349 0.142060943 -0.4044133722 0.1415040267 -0.4041477578 -0.0959980404 0.2800806507
580296520.0 -0.1004044902 0.2904475302 0.1372839531 -0.4056048761 0.1373340911 -0.4057209253 -0.093522239 0.2810934399
585296490.0 -0.0977528225 0.2912506329 0.1332212425 -0.40666162 0.1331584941 -0.4070768445 -0.0905047883 0.2826155812
590296460.0 -0.094139769 0.2930130506 0.1286600705 -0.4081360539 0.1288122046 -0.4082923567 -0.0879967957 0.2835768728
595296430.0 -0.0914129597 0.2940012236 0.1239723791 -0.4097202438 0.1237915059 -0.4095660021 -0.0845908868 0.2841299899
600296400.0 -0.0884394176 0.295181856 0.1195424316 -0.4108700875 0.1195663559 -0.4108964849 -0.0821237269 0.2851390598
605296370.0 -0.0853964866 0.2961838764 0.1152969411 -0.4119980279 0.1149512954 -0.4121229061 -0.0786103706 0.2863533235
610296340.0 -0.0822890939 0.2969200614 0.1101328222 -0.4131827763 0.1106799443 -0.4133353576 -0.0756903622 0.2873982628
615296310.0 -0.078844556 0.2978757615 0.1061910812 -0.4142259804 0.1059518246 -0.4148545586 -0.0723893424 0.2878272701
620296280.0 -0.0759891086 0.2987220618 0.1014221069 -0.4154257645 0.1014647227 -0.4153729417 -0.0698767791 0.2887362119
625296250.0 -0.0729968334 0.2994921992 0.0974751793 -0.4164160437 0.0968519916 -0.4166852106 -0.066166358 0.2895012219
630296220.0 -0.0690762929 0.3010734068 0.0918326003 -0.4177918431 0.0924342665 -0.4173195826 -0.0633356192 0.2905452641
635296190.0 -0.0670377229 0.3015569474 0.0881581875 -0.4185383125 0.0875846068 -0.4184714138 -0.0602789654 0.2911486037
640296160.0 -0.0636532001 0.3025757887 0.0834570281 -0.4193112094 0.0835926735 -0.4194121802 -0.0571029523 0.2918866048
645296130.0 -0.0602893439 0.3034206093 0.0787224601 -0.4201431575 0.0785460252 -0.4201810079 -0.0539239282 0.2927848799
650296100.0 -0.0569634248 0.3039227452 0.0743382175 -0.4210168158 0.074141663 -0.4208832741 -0.0508011607 0.2929968943
655296070.0 -0.0538323947 0.3047378789 0.0696580079 -0.4215260794 0.0696574094 -0.4218661314 -0.0475677497 0.2938273006
660296040.0 -0.0513213401 0.3052249014 0.065480321 -0.422155555 0.0652100761 -0.4223877626 -0.0443646052 0.2944557769
665296010.0 -0.0472485537 0.3054750328 0.060560778 -0.4230219226 0.0603574511 -0.4231074635 -0.0411491368 0.295931005
670295980.0 -0.0449455295 0.306527671 0.0560717522 -0.4232468061 0.0558942071 -0.4237756293 -0.0381914236 0.2963461326
675295950.0 -0.0415591309 0.3071196322 0.0518482025 -0.4239855249 0.0515596512 -0.4235737255 -0.0354276206 0.2968990911
680295920.0 -0.0380303391 0.307753886 0.0468585367 -0.42444631 0.0465522952 -0.4251085167 -0.0319363328 0.2976051663
685295890.0 -0.0345895119 0.3086727431 0.0422180842 -0.4248970262 0.0421296811 -0.4252325724 -0.028628901 0.2983456679
690295860.0 -0.0313334295 0.3089712311 0.0375330195 -0.4250619335 0.0376254187 -0.4255088226 -0.0255565203 0.2990034561
695295830.0 -0.0282415529 0.3091585403 0.0332627283 -0.4255200236 0.032740868 -0.4257449564 -0.0223485975 0.2990364135
700295800.0 -0.024971999 0.309209025 0.0283315051 -0.4258786959 0.0280138782 -0.4261788567 -0.0195210709 0.3000043225
705295770.0 -0.0219868021 0.3101851149 0.0235124059 -0.4264164069 0.0235792844 -0.4265372992 -0.0165729564 0.3000214898
710295740.0 -0.018587275 0.3103777099 0.0192397415 -0.426894363 0.0190387028 -0.4268245129 -0.013156633 0.299982773
715295710.0 -0.0157857192 0.3107324825 0.0150220112 -0.4266797694 0.01414302 -0.4264236312 -0.0098321294 0.3006093019
720295680.0 -0.0122905053 0.3113277703 0.0099006941 -0.4270335581 0.0101011402 -0.4268745507 -0.0070458041 0.3013674409
725295650.0 -0.0088385527 0.3114133705 0.0052649108 -0.4267152853 0.0052058612 -0.4272809843 -0.0041128762 0.3015491642
730295620.0 -0.0052189041 0.3118958565 0.0007816513 -0.4266807897 0.0007842653 -0.4266589779 -0.0009997165 0.3017855607
735295590.0 -0.0021318222 0.3122172221 -0.0038055626 -0.427073153 -0.0042581218 -0.4270487011 0.0019036864 0.3013447736
740295560.0 0.0006577124 0.3121742014 -0.0086373802 -0.4267681004 -0.0088295796 -0.4271724555 0.0057591742 0.3020994113
745295530.0 0.0041264918 0.3123792992 -0.0132767839 -0.4264148086 -0.0134588347 -0.4265440777 0.0085505537 0.3015887399
750295500.0 0.0079622935 0.3123942138 -0.0179254098 -0.4261904349 -0.0178339257 -0.4264968807 0.0119923736 0.3016830573
755295470.0 0.0105707998 0.3120636491 -0.0223679342 -0.4260150978 -0.0227891605 -0.4261870915 0.015122137 0.3014902447
760295440.0 0.0138600351 0.3121601257 -0.0270666667 -0.4256740532 -0.0271995134 -0.4263843276 0.0179270842 0.3015966063
765295410.0 0.0171926929 0.3125439514 -0.0317876588 -0.4255704956 -0.0323326382 -0.4254772058 0.0211576455 0.3019126781
770295380.0 0.0205205185 0.3121892666 -0.0368444435 -0.4251078642 -0.0366398186 -0.4245493604 0.0241393171 0.3015114431
775295350.0 0.0234233862 0.3120829783 -0.041162164 -0.4242436101 -0.0406871485 -0.4243582222 0.0267716251 0.3012149046
780295320.0 0.0271879928 0.311807228 -0.0455957659 -0.4235842776 -0.0451218459 -0.4237816142 0.0302875264 0.3004294807
785295290.0 0.0299245322 0.3113417961 -0.0499552554 -0.423197951 -0.0502245692 -0.4230223277 0.0337729839 0.3005179384
790295260.0 0.0337558908 0.3115889259 -0.0544546192 -0.422549871 -0.0538682819 -0.422851631 0.0369471818 0.3005904006
795295230.0 0.0367556854 0.3113530961 -0.0591175656 -0.4219296642 -0.0589132249 -0.4221440177 0.0401646654 0.3003033006
800295200.0 0.0399003101 0.3108856234 -0.0640294685 -0.4213927158 -0.0637958557 -0.4210262769 0.0434365557 0.2994792178
805295170.0 0.0432013892 0.3107651222 -0.0685032583 -0.4205430846 -0.0682826878 -0.4209700703 0.0466769807 0.2994846866
810295140.0 0.0462561107 0.3099812368 -0.0725114835 -0.4192389296 -0.072877512 -0.4197212726 0.0501007426 0.2992947705
815295110.0 0.0494807687 0.3098221046 -0.0772033227 -0.4186354098 -0.076975523 -0.4189533967 0.0530587298 0.2987678193
820295080.0 0.0525335271 0.3095821764 -0.0818215232 -0.417917013 -0.0815192217 -0.4179003997 0.0564278019 0.2983922956
825295050.0 0.0567116691 0.3087812284 -0.0859796604 -0.4166452989 -0.0864477401 -0.4171280031 0.0597450908 0.2980073178
830295020.0 0.0593918633 0.3085774532 -0.0911557517 -0.4160514115 -0.0908347935 -0.4163568541 0.0633817899 0.2975220291
